Index       TIME              V(1)              V(2)              V(3)       
0        0.00000000e+00    0.00000000e+00    0.00000000e+00    0.00000000e+00
1        5.00000000e-06    3.14107591e+00    9.96268229e-01    3.14107591e+00
2        1.00000000e-05    6.27905195e+00    9.99992967e-01    6.27905195e+00
3        1.50000000e-05    9.41083133e+00    9.99999987e-01    9.41083134e+00
4        2.00000000e-05    1.25333234e+01    1.00000000e+00    1.25333267e+01
5        2.50000000e-05    1.56434465e+01    1.00000000e+00    1.41620952e+01
6        3.00000000e-05    1.87381315e+01    1.00000000e+00    1.41620952e+01
7        3.50000000e-05    2.18143241e+01    1.00000000e+00    1.41620952e+01
8        4.00000000e-05    2.48689887e+01    1.00000000e+00    1.41620952e+01
9        4.50000000e-05    2.78991106e+01    1.00000000e+00    1.41620952e+01
10       5.00000000e-05    3.09016994e+01    1.00000000e+00    1.41620952e+01
11       5.50000000e-05    3.38737920e+01    1.00000000e+00    1.41620952e+01
12       6.00000000e-05    3.68124553e+01    1.00000000e+00    1.41620952e+01
13       6.50000000e-05    3.97147891e+01    1.00000000e+00    1.41620952e+01
14       7.00000000e-05    4.25779292e+01    1.00000000e+00    1.41620952e+01
15       7.50000000e-05    4.53990500e+01    1.00000000e+00    1.41620952e+01
16       8.00000000e-05    4.81753674e+01    1.00000000e+00    1.41620952e+01
17       8.50000000e-05    5.09041416e+01    1.00000000e+00    1.41620952e+01
18       9.00000000e-05    5.35826795e+01    1.00000000e+00    1.41620952e+01
19       9.50000000e-05    5.62083378e+01    1.00000000e+00    1.41620952e+01
20       1.00000000e-04    5.87785252e+01    1.00000000e+00    1.41620952e+01
21       1.05000000e-04    6.12907054e+01    1.00000000e+00    1.41620952e+01
22       1.10000000e-04    6.37423990e+01    1.00000000e+00    1.41620952e+01
23       1.15000000e-04    6.61311865e+01    1.00000000e+00    1.41620952e+01
24       1.20000000e-04    6.84547106e+01    1.00000000e+00    1.41620952e+01
25       1.25000000e-04    7.07106781e+01    1.00000000e+00    1.41620952e+01
26       1.30000000e-04    7.28968627e+01    1.00000000e+00    1.41620952e+01
27       1.35000000e-04    7.50111070e+01    1.00000000e+00    1.41620952e+01
28       1.40000000e-04    7.70513243e+01    1.00000000e+00    1.41620952e+01
29       1.45000000e-04    7.90155012e+01    1.00000000e+00    1.41620952e+01
30       1.50000000e-04    8.09016994e+01    1.00000000e+00    1.41620952e+01
31       1.55000000e-04    8.27080574e+01    1.00000000e+00    1.41620952e+01
32       1.60000000e-04    8.44327926e+01    1.00000000e+00    1.41620952e+01
33       1.65000000e-04    8.60742027e+01    1.00000000e+00    1.41620952e+01
34       1.70000000e-04    8.76306680e+01    1.00000000e+00    1.41620952e+01
35       1.75000000e-04    8.91006524e+01    1.00000000e+00    1.41620952e+01
36       1.80000000e-04    9.04827052e+01    1.00000000e+00    1.41620952e+01
37       1.85000000e-04    9.17754626e+01    1.00000000e+00    1.41620952e+01
38       1.90000000e-04    9.29776486e+01    1.00000000e+00    1.41620952e+01
39       1.95000000e-04    9.40880769e+01    1.00000000e+00    1.41620952e+01
40       2.00000000e-04    9.51056516e+01    1.00000000e+00    1.41620952e+01
41       2.05000000e-04    9.60293686e+01    1.00000000e+00    1.41620952e+01
42       2.10000000e-04    9.68583161e+01    1.00000000e+00    1.41620952e+01
43       2.15000000e-04    9.75916762e+01    1.00000000e+00    1.41620952e+01
44       2.20000000e-04    9.82287251e+01    1.00000000e+00    1.41620952e+01
45       2.25000000e-04    9.87688341e+01    1.00000000e+00    1.41620952e+01
46       2.30000000e-04    9.92114701e+01    1.00000000e+00    1.41620952e+01
47       2.35000000e-04    9.95561965e+01    1.00000000e+00    1.41620952e+01
48       2.40000000e-04    9.98026728e+01    1.00000000e+00    1.41620952e+01
49       2.45000000e-04    9.99506560e+01    1.00000000e+00    1.41620952e+01
50       2.50000000e-04    1.00000000e+02    1.00000000e+00    1.41620952e+01
51       2.55000000e-04    9.99506560e+01    1.00000000e+00    1.41620952e+01
52       2.60000000e-04    9.98026728e+01    1.00000000e+00    1.41620952e+01
53       2.65000000e-04    9.95561965e+01    1.00000000e+00    1.41620952e+01
54       2.70000000e-04    9.92114701e+01    1.00000000e+00    1.41620952e+01
55       2.75000000e-04    9.87688341e+01    1.00000000e+00    1.41620952e+01
56       2.80000000e-04    9.82287251e+01    1.00000000e+00    1.41620952e+01
57       2.85000000e-04    9.75916762e+01    1.00000000e+00    1.41620952e+01
58       2.90000000e-04    9.68583161e+01    1.00000000e+00    1.41620952e+01
59       2.95000000e-04    9.60293686e+01    1.00000000e+00    1.41620952e+01
60       3.00000000e-04    9.51056516e+01    1.00000000e+00    1.41620952e+01
61       3.05000000e-04    9.40880769e+01    1.00000000e+00    1.41620952e+01
62       3.10000000e-04    9.29776486e+01    1.00000000e+00    1.41620952e+01
63       3.15000000e-04    9.17754626e+01    1.00000000e+00    1.41620952e+01
64       3.20000000e-04    9.04827052e+01    1.00000000e+00    1.41620952e+01
65       3.25000000e-04    8.91006524e+01    1.00000000e+00    1.41620952e+01
66       3.30000000e-04    8.76306680e+01    1.00000000e+00    1.41620952e+01
67       3.35000000e-04    8.60742027e+01    1.00000000e+00    1.41620952e+01
68       3.40000000e-04    8.44327926e+01    1.00000000e+00    1.41620952e+01
69       3.45000000e-04    8.27080574e+01    1.00000000e+00    1.41620952e+01
70       3.50000000e-04    8.09016994e+01    1.00000000e+00    1.41620952e+01
71       3.55000000e-04    7.90155012e+01    1.00000000e+00    1.41620952e+01
72       3.60000000e-04    7.70513243e+01    1.00000000e+00    1.41620952e+01
73       3.65000000e-04    7.50111070e+01    1.00000000e+00    1.41620952e+01
74       3.70000000e-04    7.28968627e+01    1.00000000e+00    1.41620952e+01
75       3.75000000e-04    7.07106781e+01    1.00000000e+00    1.41620952e+01
76       3.80000000e-04    6.84547106e+01    1.00000000e+00    1.41620952e+01
77       3.85000000e-04    6.61311865e+01    1.00000000e+00    1.41620952e+01
78       3.90000000e-04    6.37423990e+01    1.00000000e+00    1.41620952e+01
79       3.95000000e-04    6.12907054e+01    1.00000000e+00    1.41620952e+01
80       4.00000000e-04    5.87785252e+01    1.00000000e+00    1.41620952e+01
81       4.05000000e-04    5.62083378e+01    1.00000000e+00    1.41620952e+01
82       4.10000000e-04    5.35826795e+01    1.00000000e+00    1.41620952e+01
83       4.15000000e-04    5.09041416e+01    1.00000000e+00    1.41620952e+01
84       4.20000000e-04    4.81753674e+01    1.00000000e+00    1.41620952e+01
85       4.25000000e-04    4.53990500e+01    1.00000000e+00    1.41620952e+01
86       4.30000000e-04    4.25779292e+01    1.00000000e+00    1.41620952e+01
87       4.35000000e-04    3.97147891e+01    1.00000000e+00    1.41620952e+01
88       4.40000000e-04    3.68124553e+01    1.00000000e+00    1.41620952e+01
89       4.45000000e-04    3.38737920e+01    1.00000000e+00    1.41620952e+01
90       4.50000000e-04    3.09016994e+01    1.00000000e+00    1.41620952e+01
91       4.55000000e-04    2.78991106e+01    1.00000000e+00    1.41620952e+01
92       4.60000000e-04    2.48689887e+01    1.00000000e+00    1.41620952e+01
93       4.65000000e-04    2.18143241e+01    1.00000000e+00    1.41620952e+01
94       4.70000000e-04    1.87381315e+01    1.00000000e+00    1.41620952e+01
95       4.75000000e-04    1.56434465e+01    1.00000000e+00    1.41620952e+01
96       4.80000000e-04    1.25333234e+01    1.00000000e+00    1.25333224e+01
97       4.85000000e-04    9.41083133e+00    9.99999987e-01    9.41083133e+00
98       4.90000000e-04    6.27905195e+00    9.99992967e-01    6.27905195e+00
99       4.95000000e-04    3.14107591e+00    9.96268229e-01    3.14107591e+00
100      5.00000000e-04   -6.09478426e-13   -6.09478426e-13   -6.09290396e-13
101      5.05000000e-04   -3.14107591e+00   -9.96268229e-01   -3.14107591e+00
102      5.10000000e-04   -6.27905195e+00   -9.99992967e-01   -6.27905195e+00
103      5.15000000e-04   -9.41083133e+00   -9.99999987e-01   -9.41083133e+00
104      5.20000000e-04   -1.25333234e+01   -1.00000000e+00   -1.25333224e+01
105      5.25000000e-04   -1.56434465e+01   -1.00000000e+00   -1.41620952e+01
106      5.30000000e-04   -1.87381315e+01   -1.00000000e+00   -1.41620952e+01
107      5.35000000e-04   -2.18143241e+01   -1.00000000e+00   -1.41620952e+01
108      5.40000000e-04   -2.48689887e+01   -1.00000000e+00   -1.41620952e+01
109      5.45000000e-04   -2.78991106e+01   -1.00000000e+00   -1.41620952e+01
110      5.50000000e-04   -3.09016994e+01   -1.00000000e+00   -1.41620952e+01
111      5.55000000e-04   -3.38737920e+01   -1.00000000e+00   -1.41620952e+01
112      5.60000000e-04   -3.68124553e+01   -1.00000000e+00   -1.41620952e+01
113      5.65000000e-04   -3.97147891e+01   -1.00000000e+00   -1.41620952e+01
114      5.70000000e-04   -4.25779292e+01   -1.00000000e+00   -1.41620952e+01
115      5.75000000e-04   -4.53990500e+01   -1.00000000e+00   -1.41620952e+01
116      5.80000000e-04   -4.81753674e+01   -1.00000000e+00   -1.41620952e+01
117      5.85000000e-04   -5.09041416e+01   -1.00000000e+00   -1.41620952e+01
118      5.90000000e-04   -5.35826795e+01   -1.00000000e+00   -1.41620952e+01
119      5.95000000e-04   -5.62083378e+01   -1.00000000e+00   -1.41620952e+01
120      6.00000000e-04   -5.87785252e+01   -1.00000000e+00   -1.41620952e+01
121      6.05000000e-04   -6.12907054e+01   -1.00000000e+00   -1.41620952e+01
122      6.10000000e-04   -6.37423990e+01   -1.00000000e+00   -1.41620952e+01
123      6.15000000e-04   -6.61311865e+01   -1.00000000e+00   -1.41620952e+01
124      6.20000000e-04   -6.84547106e+01   -1.00000000e+00   -1.41620952e+01
125      6.25000000e-04   -7.07106781e+01   -1.00000000e+00   -1.41620952e+01
126      6.30000000e-04   -7.28968627e+01   -1.00000000e+00   -1.41620952e+01
127      6.35000000e-04   -7.50111070e+01   -1.00000000e+00   -1.41620952e+01
128      6.40000000e-04   -7.70513243e+01   -1.00000000e+00   -1.41620952e+01
129      6.45000000e-04   -7.90155012e+01   -1.00000000e+00   -1.41620952e+01
130      6.50000000e-04   -8.09016994e+01   -1.00000000e+00   -1.41620952e+01
131      6.55000000e-04   -8.27080574e+01   -1.00000000e+00   -1.41620952e+01
132      6.60000000e-04   -8.44327926e+01   -1.00000000e+00   -1.41620952e+01
133      6.65000000e-04   -8.60742027e+01   -1.00000000e+00   -1.41620952e+01
134      6.70000000e-04   -8.76306680e+01   -1.00000000e+00   -1.41620952e+01
135      6.75000000e-04   -8.91006524e+01   -1.00000000e+00   -1.41620952e+01
136      6.80000000e-04   -9.04827052e+01   -1.00000000e+00   -1.41620952e+01
137      6.85000000e-04   -9.17754626e+01   -1.00000000e+00   -1.41620952e+01
138      6.90000000e-04   -9.29776486e+01   -1.00000000e+00   -1.41620952e+01
139      6.95000000e-04   -9.40880769e+01   -1.00000000e+00   -1.41620952e+01
140      7.00000000e-04   -9.51056516e+01   -1.00000000e+00   -1.41620952e+01
141      7.05000000e-04   -9.60293686e+01   -1.00000000e+00   -1.41620952e+01
142      7.10000000e-04   -9.68583161e+01   -1.00000000e+00   -1.41620952e+01
143      7.15000000e-04   -9.75916762e+01   -1.00000000e+00   -1.41620952e+01
144      7.20000000e-04   -9.82287251e+01   -1.00000000e+00   -1.41620952e+01
145      7.25000000e-04   -9.87688341e+01   -1.00000000e+00   -1.41620952e+01
146      7.30000000e-04   -9.92114701e+01   -1.00000000e+00   -1.41620952e+01
147      7.35000000e-04   -9.95561965e+01   -1.00000000e+00   -1.41620952e+01
148      7.40000000e-04   -9.98026728e+01   -1.00000000e+00   -1.41620952e+01
149      7.45000000e-04   -9.99506560e+01   -1.00000000e+00   -1.41620952e+01
150      7.50000000e-04   -1.00000000e+02   -1.00000000e+00   -1.41620952e+01
151      7.55000000e-04   -9.99506560e+01   -1.00000000e+00   -1.41620952e+01
152      7.60000000e-04   -9.98026728e+01   -1.00000000e+00   -1.41620952e+01
153      7.65000000e-04   -9.95561965e+01   -1.00000000e+00   -1.41620952e+01
154      7.70000000e-04   -9.92114701e+01   -1.00000000e+00   -1.41620952e+01
155      7.75000000e-04   -9.87688341e+01   -1.00000000e+00   -1.41620952e+01
156      7.80000000e-04   -9.82287251e+01   -1.00000000e+00   -1.41620952e+01
157      7.85000000e-04   -9.75916762e+01   -1.00000000e+00   -1.41620952e+01
158      7.90000000e-04   -9.68583161e+01   -1.00000000e+00   -1.41620952e+01
159      7.95000000e-04   -9.60293686e+01   -1.00000000e+00   -1.41620952e+01
160      8.00000000e-04   -9.51056516e+01   -1.00000000e+00   -1.41620952e+01
161      8.05000000e-04   -9.40880769e+01   -1.00000000e+00   -1.41620952e+01
162      8.10000000e-04   -9.29776486e+01   -1.00000000e+00   -1.41620952e+01
163      8.15000000e-04   -9.17754626e+01   -1.00000000e+00   -1.41620952e+01
164      8.20000000e-04   -9.04827052e+01   -1.00000000e+00   -1.41620952e+01
165      8.25000000e-04   -8.91006524e+01   -1.00000000e+00   -1.41620952e+01
166      8.30000000e-04   -8.76306680e+01   -1.00000000e+00   -1.41620952e+01
167      8.35000000e-04   -8.60742027e+01   -1.00000000e+00   -1.41620952e+01
168      8.40000000e-04   -8.44327926e+01   -1.00000000e+00   -1.41620952e+01
169      8.45000000e-04   -8.27080574e+01   -1.00000000e+00   -1.41620952e+01
170      8.50000000e-04   -8.09016994e+01   -1.00000000e+00   -1.41620952e+01
171      8.55000000e-04   -7.90155012e+01   -1.00000000e+00   -1.41620952e+01
172      8.60000000e-04   -7.70513243e+01   -1.00000000e+00   -1.41620952e+01
173      8.65000000e-04   -7.50111070e+01   -1.00000000e+00   -1.41620952e+01
174      8.70000000e-04   -7.28968627e+01   -1.00000000e+00   -1.41620952e+01
175      8.75000000e-04   -7.07106781e+01   -1.00000000e+00   -1.41620952e+01
176      8.80000000e-04   -6.84547106e+01   -1.00000000e+00   -1.41620952e+01
177      8.85000000e-04   -6.61311865e+01   -1.00000000e+00   -1.41620952e+01
178      8.90000000e-04   -6.37423990e+01   -1.00000000e+00   -1.41620952e+01
179      8.95000000e-04   -6.12907054e+01   -1.00000000e+00   -1.41620952e+01
180      9.00000000e-04   -5.87785252e+01   -1.00000000e+00   -1.41620952e+01
181      9.05000000e-04   -5.62083378e+01   -1.00000000e+00   -1.41620952e+01
182      9.10000000e-04   -5.35826795e+01   -1.00000000e+00   -1.41620952e+01
183      9.15000000e-04   -5.09041416e+01   -1.00000000e+00   -1.41620952e+01
184      9.20000000e-04   -4.81753674e+01   -1.00000000e+00   -1.41620952e+01
185      9.25000000e-04   -4.53990500e+01   -1.00000000e+00   -1.41620952e+01
186      9.30000000e-04   -4.25779292e+01   -1.00000000e+00   -1.41620952e+01
187      9.35000000e-04   -3.97147891e+01   -1.00000000e+00   -1.41620952e+01
188      9.40000000e-04   -3.68124553e+01   -1.00000000e+00   -1.41620952e+01
189      9.45000000e-04   -3.38737920e+01   -1.00000000e+00   -1.41620952e+01
190      9.50000000e-04   -3.09016994e+01   -1.00000000e+00   -1.41620952e+01
191      9.55000000e-04   -2.78991106e+01   -1.00000000e+00   -1.41620952e+01
192      9.60000000e-04   -2.48689887e+01   -1.00000000e+00   -1.41620952e+01
193      9.65000000e-04   -2.18143241e+01   -1.00000000e+00   -1.41620952e+01
194      9.70000000e-04   -1.87381315e+01   -1.00000000e+00   -1.41620952e+01
195      9.75000000e-04   -1.56434465e+01   -1.00000000e+00   -1.41620952e+01
196      9.80000000e-04   -1.25333234e+01   -1.00000000e+00   -1.25333267e+01
197      9.85000000e-04   -9.41083133e+00   -9.99999987e-01   -9.41083133e+00
198      9.90000000e-04   -6.27905195e+00   -9.99992967e-01   -6.27905195e+00
199      9.95000000e-04   -3.14107591e+00   -9.96268229e-01   -3.14107591e+00
200      1.00000000e-03    1.39659254e-12    1.39637049e-12    1.39621648e-12
201      1.00500000e-03    3.14107591e+00    9.96268229e-01    3.14107591e+00
202      1.01000000e-03    6.27905195e+00    9.99992967e-01    6.27905195e+00
203      1.01500000e-03    9.41083133e+00    9.99999987e-01    9.41083134e+00
204      1.02000000e-03    1.25333234e+01    1.00000000e+00    1.25333224e+01
205      1.02500000e-03    1.56434465e+01    1.00000000e+00    1.41620952e+01
206      1.03000000e-03    1.87381315e+01    1.00000000e+00    1.41620952e+01
207      1.03500000e-03    2.18143241e+01    1.00000000e+00    1.41620952e+01
208      1.04000000e-03    2.48689887e+01    1.00000000e+00    1.41620952e+01
209      1.04500000e-03    2.78991106e+01    1.00000000e+00    1.41620952e+01
210      1.05000000e-03    3.09016994e+01    1.00000000e+00    1.41620952e+01
211      1.05500000e-03    3.38737920e+01    1.00000000e+00    1.41620952e+01
212      1.06000000e-03    3.68124553e+01    1.00000000e+00    1.41620952e+01
213      1.06500000e-03    3.97147891e+01    1.00000000e+00    1.41620952e+01
214      1.07000000e-03    4.25779292e+01    1.00000000e+00    1.41620952e+01
215      1.07500000e-03    4.53990500e+01    1.00000000e+00    1.41620952e+01
216      1.08000000e-03    4.81753674e+01    1.00000000e+00    1.41620952e+01
217      1.08500000e-03    5.09041416e+01    1.00000000e+00    1.41620952e+01
218      1.09000000e-03    5.35826795e+01    1.00000000e+00    1.41620952e+01
219      1.09500000e-03    5.62083378e+01    1.00000000e+00    1.41620952e+01
220      1.10000000e-03    5.87785252e+01    1.00000000e+00    1.41620952e+01
221      1.10500000e-03    6.12907054e+01    1.00000000e+00    1.41620952e+01
222      1.11000000e-03    6.37423990e+01    1.00000000e+00    1.41620952e+01
223      1.11500000e-03    6.61311865e+01    1.00000000e+00    1.41620952e+01
224      1.12000000e-03    6.84547106e+01    1.00000000e+00    1.41620952e+01
225      1.12500000e-03    7.07106781e+01    1.00000000e+00    1.41620952e+01
226      1.13000000e-03    7.28968627e+01    1.00000000e+00    1.41620952e+01
227      1.13500000e-03    7.50111070e+01    1.00000000e+00    1.41620952e+01
228      1.14000000e-03    7.70513243e+01    1.00000000e+00    1.41620952e+01
229      1.14500000e-03    7.90155012e+01    1.00000000e+00    1.41620952e+01
230      1.15000000e-03    8.09016994e+01    1.00000000e+00    1.41620952e+01
231      1.15500000e-03    8.27080574e+01    1.00000000e+00    1.41620952e+01
232      1.16000000e-03    8.44327926e+01    1.00000000e+00    1.41620952e+01
233      1.16500000e-03    8.60742027e+01    1.00000000e+00    1.41620952e+01
234      1.17000000e-03    8.76306680e+01    1.00000000e+00    1.41620952e+01
235      1.17500000e-03    8.91006524e+01    1.00000000e+00    1.41620952e+01
236      1.18000000e-03    9.04827052e+01    1.00000000e+00    1.41620952e+01
237      1.18500000e-03    9.17754626e+01    1.00000000e+00    1.41620952e+01
238      1.19000000e-03    9.29776486e+01    1.00000000e+00    1.41620952e+01
239      1.19500000e-03    9.40880769e+01    1.00000000e+00    1.41620952e+01
240      1.20000000e-03    9.51056516e+01    1.00000000e+00    1.41620952e+01
241      1.20500000e-03    9.60293686e+01    1.00000000e+00    1.41620952e+01
242      1.21000000e-03    9.68583161e+01    1.00000000e+00    1.41620952e+01
243      1.21500000e-03    9.75916762e+01    1.00000000e+00    1.41620952e+01
244      1.22000000e-03    9.82287251e+01    1.00000000e+00    1.41620952e+01
245      1.22500000e-03    9.87688341e+01    1.00000000e+00    1.41620952e+01
246      1.23000000e-03    9.92114701e+01    1.00000000e+00    1.41620952e+01
247      1.23500000e-03    9.95561965e+01    1.00000000e+00    1.41620952e+01
248      1.24000000e-03    9.98026728e+01    1.00000000e+00    1.41620952e+01
249      1.24500000e-03    9.99506560e+01    1.00000000e+00    1.41620952e+01
250      1.25000000e-03    1.00000000e+02    1.00000000e+00    1.41620952e+01
251      1.25500000e-03    9.99506560e+01    1.00000000e+00    1.41620952e+01
252      1.26000000e-03    9.98026728e+01    1.00000000e+00    1.41620952e+01
253      1.26500000e-03    9.95561965e+01    1.00000000e+00    1.41620952e+01
254      1.27000000e-03    9.92114701e+01    1.00000000e+00    1.41620952e+01
