Index       TIME             V(GATE)           V(OUT)      
0        0.00000000e+00    0.00000000e+00    1.49999995e+00
1        5.00000000e-13    0.00000000e+00    1.49999995e+00
2        1.50000000e-12    0.00000000e+00    1.49999995e+00
3        3.50000000e-12    0.00000000e+00    1.49999995e+00
4        7.50000000e-12    0.00000000e+00    1.49999995e+00
5        1.55000000e-11    0.00000000e+00    1.49999995e+00
6        2.55000000e-11    0.00000000e+00    1.49999995e+00
7        3.55000000e-11    0.00000000e+00    1.49999995e+00
8        4.55000000e-11    0.00000000e+00    1.49999995e+00
9        5.55000000e-11    0.00000000e+00    1.49999995e+00
10       6.55000000e-11    0.00000000e+00    1.49999995e+00
11       7.55000000e-11    0.00000000e+00    1.49999995e+00
12       8.55000000e-11    0.00000000e+00    1.49999995e+00
13       9.55000000e-11    0.00000000e+00    1.49999995e+00
14       1.00000000e-10    0.00000000e+00    1.49999995e+00
15       1.00348400e-10    1.04519856e-02    1.50435401e+00
16       1.00630415e-10    1.89124609e-02    1.50777434e+00
17       1.00912431e-10    2.73729362e-02    1.51114720e+00
18       1.01476463e-10    4.42938869e-02    1.51759735e+00
19       1.02604526e-10    7.81357881e-02    1.52942086e+00
20       1.04860653e-10    1.45819591e-01    1.54950508e+00
21       1.07116780e-10    2.13503393e-01    1.56586230e+00
22       1.09372907e-10    2.81187196e-01    1.57964300e+00
23       1.11629033e-10    3.48870998e-01    1.59169831e+00
24       1.13885160e-10    4.16554801e-01    1.60255699e+00
25       1.16141287e-10    4.84238603e-01    1.61239693e+00
26       1.18397414e-10    5.51922406e-01    1.62102265e+00
27       1.22909667e-10    6.87290011e-01    1.63327356e+00
28       1.27421921e-10    8.22657616e-01    1.64034654e+00
29       1.31934174e-10    9.58025221e-01    1.64283126e+00
30       1.33621394e-10    1.00864181e+00    1.63762927e+00
31       1.34457231e-10    1.03371694e+00    1.63197736e+00
32       1.35293069e-10    1.05879206e+00    1.62106908e+00
33       1.36128906e-10    1.08386719e+00    1.59238253e+00
34       1.36216015e-10    1.08648044e+00    1.58678699e+00
35       1.36303123e-10    1.08909370e+00    1.58032684e+00
36       1.36477340e-10    1.09432020e+00    1.56424401e+00
37       1.36651557e-10    1.09954671e+00    1.54348909e+00
38       1.36825774e-10    1.10477321e+00    1.51867760e+00
39       1.36999991e-10    1.10999972e+00    1.49146242e+00
40       1.37348424e-10    1.12045273e+00    1.43314931e+00
41       1.37696858e-10    1.13090574e+00    1.37334811e+00
42       1.38393725e-10    1.15181176e+00    1.25078494e+00
43       1.39787460e-10    1.19362380e+00    9.93012089e-01
44       1.41181195e-10    1.23543584e+00    7.19113273e-01
45       1.41850441e-10    1.25551322e+00    5.94601294e-01
46       1.42102889e-10    1.26308667e+00    5.51837662e-01
47       1.42355337e-10    1.27066012e+00    5.12742924e-01
48       1.42607785e-10    1.27823356e+00    4.78645805e-01
49       1.42860234e-10    1.28580701e+00    4.49648284e-01
50       1.43112682e-10    1.29338046e+00    4.25256852e-01
51       1.43365130e-10    1.30095391e+00    4.04683231e-01
52       1.43617579e-10    1.30852736e+00    3.87132119e-01
53       1.44122475e-10    1.32367425e+00    3.58566983e-01
54       1.45132268e-10    1.35396805e+00    3.17144122e-01
55       1.46142061e-10    1.38426184e+00    2.87106489e-01
56       1.47151855e-10    1.41455564e+00    2.63429589e-01
57       1.49171441e-10    1.47514322e+00    2.27234780e-01
58       1.50000000e-10    1.50000000e+00    2.15368076e-01
59       1.50201959e-10    1.50000000e+00    2.09666593e-01
60       1.50347497e-10    1.50000000e+00    2.05660884e-01
61       1.50638572e-10    1.50000000e+00    1.97856669e-01
62       1.51220724e-10    1.50000000e+00    1.83287887e-01
63       1.52385028e-10    1.50000000e+00    1.57748271e-01
64       1.53549331e-10    1.50000000e+00    1.36228287e-01
65       1.54713635e-10    1.50000000e+00    1.17957404e-01
66       1.55877938e-10    1.50000000e+00    1.02354466e-01
67       1.58206545e-10    1.50000000e+00    7.73339352e-02
68       1.60535152e-10    1.50000000e+00    5.87147445e-02
69       1.62863759e-10    1.50000000e+00    4.47313616e-02
70       1.65192366e-10    1.50000000e+00    3.41625736e-02
71       1.67520973e-10    1.50000000e+00    2.61382789e-02
72       1.72178187e-10    1.50000000e+00    1.52079795e-02
73       1.81492615e-10    1.50000000e+00    4.73951923e-03
74       1.90807043e-10    1.50000000e+00    1.48706248e-03
75       2.00121471e-10    1.50000000e+00    4.67731786e-04
76       2.09435899e-10    1.50000000e+00    1.47416056e-04
77       2.28064755e-10    1.50000000e+00   -2.68736208e-06
78       2.46693611e-10    1.50000000e+00    5.44368233e-07
79       2.83951323e-10    1.50000000e+00    3.93901720e-07
80       3.33951323e-10    1.50000000e+00    4.52269924e-07
81       3.50000000e-10    1.50000000e+00    4.33711488e-07
82       3.50312500e-10    1.49062500e+00   -4.24932508e-03
83       3.50625000e-10    1.48125000e+00   -8.35994073e-03
84       3.50937500e-10    1.47187500e+00   -1.24071108e-02
85       3.51562500e-10    1.45312500e+00   -2.01099808e-02
86       3.52812500e-10    1.41562500e+00   -3.40999195e-02
87       3.55312500e-10    1.34062500e+00   -5.74647966e-02
88       3.57812500e-10    1.26562500e+00   -7.61051632e-02
89       3.60312500e-10    1.19062500e+00   -9.16118084e-02
90       3.65312500e-10    1.04062500e+00   -1.17948089e-01
91       3.66149797e-10    1.01550610e+00   -1.21854081e-01
92       3.66987093e-10    9.90387196e-01   -1.25712734e-01
93       3.68661687e-10    9.40149392e-01   -1.32701165e-01
94       3.70336280e-10    8.89911588e-01   -1.37976462e-01
95       3.72010874e-10    8.39673784e-01   -1.40109509e-01
96       3.73685467e-10    7.89435981e-01   -1.37376760e-01
97       3.75360061e-10    7.39198177e-01   -1.28126488e-01
98       3.77034654e-10    6.88960373e-01   -1.10870187e-01
99       3.78709248e-10    6.38722569e-01   -8.40083845e-02
100      3.80383841e-10    5.88484765e-01   -4.48211519e-02
101      3.80663553e-10    5.80093408e-01   -3.64910387e-02
102      3.80943265e-10    5.71702051e-01   -2.76979681e-02
103      3.81502689e-10    5.54919338e-01   -7.56307885e-03
104      3.82062113e-10    5.38136624e-01    2.16756187e-02
105      3.82125169e-10    5.36244941e-01    2.72408898e-02
106      3.82188225e-10    5.34353258e-01    3.36756696e-02
107      3.82314337e-10    5.30569891e-01    4.95426819e-02
108      3.82440449e-10    5.26786525e-01    6.91511091e-02
109      3.82566561e-10    5.23003159e-01    9.13835601e-02
110      3.82818786e-10    5.15436426e-01    1.39822267e-01
111      3.83071010e-10    5.07869693e-01    1.90640351e-01
112      3.83575459e-10    4.92736227e-01    2.95291165e-01
113      3.84079908e-10    4.77602762e-01    4.02187824e-01
114      3.85088806e-10    4.47335831e-01    6.21568771e-01
115      3.86097703e-10    4.17068900e-01    8.46814477e-01
116      3.86710676e-10    3.98679707e-01    9.77062774e-01
117      3.86930251e-10    3.92092455e-01    1.01919363e+00
118      3.87149827e-10    3.85505203e-01    1.05748482e+00
119      3.87369402e-10    3.78917951e-01    1.09068866e+00
120      3.87588977e-10    3.72330699e-01    1.11854815e+00
121      3.87808552e-10    3.65743447e-01    1.14148070e+00
122      3.88028127e-10    3.59156195e-01    1.16029494e+00
123      3.88247702e-10    3.52568943e-01    1.17586023e+00
124      3.88467277e-10    3.45981691e-01    1.18892493e+00
125      3.88906427e-10    3.32807186e-01    1.20974282e+00
126      3.89784727e-10    3.06458178e-01    1.23884320e+00
127      3.90663028e-10    2.80109170e-01    1.25914393e+00
128      3.91541328e-10    2.53760162e-01    1.27478321e+00
129      3.93297928e-10    2.01062145e-01    1.29843865e+00
130      3.95054529e-10    1.48364129e-01    1.31624215e+00
131      3.96811130e-10    9.56661121e-02    1.33054781e+00
132      4.00000000e-10    6.66133815e-16    1.35085719e+00
133      4.00227267e-10    0.00000000e+00    1.35512883e+00
134      4.00429330e-10    0.00000000e+00    1.35881175e+00
135      4.00631393e-10    0.00000000e+00    1.36243091e+00
136      4.01035519e-10    0.00000000e+00    1.36935286e+00
137      4.01843770e-10    0.00000000e+00    1.38204240e+00
138      4.03460274e-10    0.00000000e+00    1.40352894e+00
139      4.05076777e-10    0.00000000e+00    1.42078817e+00
140      4.06693280e-10    0.00000000e+00    1.43476567e+00
141      4.08309784e-10    0.00000000e+00    1.44615359e+00
142      4.11542790e-10    0.00000000e+00    1.46325878e+00
143      4.18008803e-10    0.00000000e+00    1.48316940e+00
144      4.24474816e-10    0.00000000e+00    1.49221173e+00
145      4.30940829e-10    0.00000000e+00    1.49637989e+00
146      4.43872856e-10    0.00000000e+00    1.49943163e+00
147      4.56804882e-10    0.00000000e+00    1.49991033e+00
148      4.82668934e-10    0.00000000e+00    1.50001679e+00
149      5.08532987e-10    0.00000000e+00    1.49999654e+00
150      5.58532987e-10    0.00000000e+00    1.50000156e+00
151      6.00000000e-10    0.00000000e+00    1.49999924e+00
End of Xyce(TM) Simulation
