Index       TIME            V(OUT25)          V(OUT50)     
0        0.00000000e+00  -1.74924456e-119   -4.02627416e-07
1        5.00000000e-13    3.59386973e-04    3.17294840e-04
2        1.50000000e-12    1.07821968e-03    9.49176911e-04
3        3.50000000e-12    2.51610633e-03    2.20677275e-03
4        7.50000000e-12    5.39276297e-03    4.69142913e-03
5        1.55000000e-11    1.11495967e-02    9.58744893e-03
6        2.55000000e-11    1.83522034e-02    1.56433782e-02
7        3.55000000e-11    2.55620552e-02    2.16803681e-02
8        4.55000000e-11    3.27791043e-02    2.77190958e-02
9        5.55000000e-11    4.00033077e-02    3.37654359e-02
10       6.55000000e-11    4.72346279e-02    3.98210559e-02
11       7.55000000e-11    5.44729552e-02    4.58861427e-02
12       8.55000000e-11    6.17180103e-02    5.19609039e-02
13       9.55000000e-11    6.89698075e-02    5.80454983e-02
14       1.00000000e-10    7.22353122e-02    6.07868267e-02
15       1.01000000e-10    7.29611649e-02    6.14584712e-02
16       1.02000000e-10    7.36870848e-02    6.21307220e-02
17       1.04000000e-10    7.51391264e-02    6.34764282e-02
18       1.08000000e-10    7.80440163e-02    6.61734430e-02
19       1.16000000e-10    8.38570234e-02    7.15827886e-02
20       1.32000000e-10    9.54959586e-02    8.24365061e-02
21       1.64000000e-10    1.18825809e-01    1.04230471e-01
22       2.28000000e-10    1.65700172e-01    1.48219723e-01
23       2.88357915e-10    2.10209787e-01    1.90810280e-01
24       3.13076098e-10    2.28536749e-01    2.08961288e-01
25       3.37794281e-10    2.46934621e-01    2.27658269e-01
26       3.45994889e-10    2.53060385e-01    2.33940626e-01
27       3.54195497e-10    2.59196743e-01    2.40284776e-01
28       3.70596713e-10    2.71513293e-01    2.53138014e-01
29       3.86997929e-10    2.83901901e-01    2.66212628e-01
30       4.03399145e-10    2.96385476e-01    2.79482335e-01
31       4.08560305e-10    3.00340655e-01    2.83691752e-01
32       4.18882625e-10    3.08287352e-01    2.92167410e-01
33       4.39527264e-10    3.24391566e-01    3.09440916e-01
34       4.60171904e-10    3.40860180e-01    3.27249364e-01
35       4.80816544e-10    3.57807386e-01    3.45766367e-01
36       5.01461184e-10    3.75326514e-01    3.65078812e-01
37       5.20041359e-10    3.91599455e-01    3.83142562e-01
38       5.38621535e-10    4.08277599e-01    4.01806180e-01
39       5.55343693e-10    4.23502626e-01    4.19005993e-01
40       5.70393636e-10    4.37253778e-01    4.34678454e-01
41       5.85443578e-10    4.50954151e-01    4.50394552e-01
42       5.98988526e-10    4.63196904e-01    4.64462212e-01
43       6.12533474e-10    4.75344260e-01    4.78363846e-01
44       6.24603037e-10    4.86094565e-01    4.90560343e-01
45       6.36672599e-10    4.96782882e-01    5.02549942e-01
46       6.47535205e-10    5.06354602e-01    5.13156931e-01
47       6.58397811e-10    5.15880781e-01    5.23591018e-01
48       6.68174156e-10    5.24413584e-01    5.32839342e-01
49       6.77950502e-10    5.32904241e-01    5.41959008e-01
50       6.87726847e-10    5.41350269e-01    5.50957706e-01
51       6.96491918e-10    5.48884062e-01    5.58930161e-01
52       7.05256989e-10    5.56382615e-01    5.66820355e-01
53       7.13145553e-10    5.63103936e-01    5.73858589e-01
54       7.21034117e-10    5.69803557e-01    5.80845124e-01
55       7.28133824e-10    5.75818960e-01    5.87095657e-01
56       7.35233532e-10    5.81825785e-01    5.93317831e-01
57       7.42333239e-10    5.87829167e-01    5.99518637e-01
58       7.49432947e-10    5.93834488e-01    6.05705219e-01
59       7.55822683e-10    5.99245295e-01    6.11266802e-01
60       7.62212420e-10    6.04665892e-01    6.16827759e-01
61       7.68602157e-10    6.10099843e-01    6.22392757e-01
62       7.74991893e-10    6.15550386e-01    6.27966096e-01
63       7.81381630e-10    6.21020354e-01    6.33551631e-01
64       7.87771367e-10    6.26511938e-01    6.39152711e-01
65       7.94161104e-10    6.32025410e-01    6.44772154e-01
66       7.99911867e-10    6.37000865e-01    6.49847215e-01
67       8.05662630e-10    6.41963724e-01    6.54940313e-01
68       8.11413393e-10    6.46824397e-01    6.60052413e-01
69       8.17164156e-10    6.51306234e-01    6.65184185e-01
70       8.22339843e-10    6.54452320e-01    6.69819930e-01
71       8.27515529e-10    6.55578581e-01    6.74472070e-01
72       8.32691216e-10    6.52577421e-01    6.79140595e-01
73       8.37866903e-10    6.42324955e-01    6.83825376e-01
74       8.43042589e-10    6.21049876e-01    6.88526182e-01
75       8.48218276e-10    5.81939504e-01    6.93242695e-01
76       8.53393963e-10    5.24441962e-01    6.97974524e-01
77       8.58052081e-10    4.66997377e-01    7.02245900e-01
78       8.62710199e-10    4.12715163e-01    7.06528952e-01
79       8.67368317e-10    3.63769058e-01    7.10823291e-01
80       8.72026435e-10    3.20047858e-01    7.15128501e-01
81       8.76684553e-10    2.80494481e-01    7.19444152e-01
82       8.81342671e-10    2.44914355e-01    7.23769797e-01
83       8.86000789e-10    2.13211658e-01    7.28104978e-01
84       8.90658907e-10    1.85234544e-01    7.32449206e-01
85       8.95317026e-10    1.60825395e-01    7.36802018e-01
86       8.99975144e-10    1.39749867e-01    7.41162934e-01
87       9.04633262e-10    1.21700038e-01    7.45531430e-01
88       9.09291380e-10    1.06335247e-01    7.49906973e-01
89       9.13949498e-10    9.33125732e-02    7.54289080e-01
90       9.18607616e-10    8.23091136e-02    7.58677297e-01
91       9.23265734e-10    7.30310545e-02    7.63071197e-01
92       9.27923852e-10    6.52187679e-02    7.67470377e-01
93       9.32581970e-10    5.86472267e-02    7.71874481e-01
94       9.37240088e-10    5.31232207e-02    7.76283274e-01
95       9.41432394e-10    4.89123351e-02    7.80255272e-01
96       9.45624701e-10    4.53128041e-02    7.84231948e-01
97       9.49817007e-10    4.22361356e-02    7.88216067e-01
98       9.54009313e-10    3.96061763e-02    7.92215632e-01
99       9.58201619e-10    3.73574700e-02    7.96252160e-01
100      9.62393926e-10    3.54338314e-02    8.00380522e-01
101      9.66586232e-10    3.37870876e-02    8.04734073e-01
102      9.70778538e-10    3.23759945e-02    8.09620580e-01
103      9.74970844e-10    3.11652800e-02    8.15708824e-01
104      9.79163151e-10    3.01248225e-02    8.24346178e-01
105      9.83355457e-10    2.92289254e-02    8.37985293e-01
106      9.87547763e-10    2.84556973e-02    8.60498568e-01
107      9.91740069e-10    2.77865054e-02    8.96890051e-01
108      9.95513145e-10    2.72602188e-02    9.46097479e-01
109      9.99286221e-10    2.67954086e-02    1.01848491e+00
110      1.00000000e-09    2.67137888e-02    1.03658844e+00
111      1.00037731e-09    2.63166173e-02    1.04678839e+00
112      1.00075462e-09    2.59238031e-02    1.05761302e+00
113      1.00150923e-09    2.51470456e-02    1.08089646e+00
114      1.00301846e-09    2.36474914e-02    1.13192865e+00
115      1.00603692e-09    2.08677892e-02    1.22430495e+00
116      1.00905538e-09    1.83774732e-02    1.28572196e+00
117      1.01207384e-09    1.61629001e-02    1.32672382e+00
118      1.01811076e-09    1.24624602e-02    1.38099093e+00
119      1.02414768e-09    9.59369827e-03    1.41526151e+00
120      1.03018461e-09    7.38258082e-03    1.43852185e+00
121      1.03622153e-09    5.68235014e-03    1.45481637e+00
122      1.04225845e-09    4.37612756e-03    1.46621042e+00
123      1.05433229e-09    2.57850332e-03    1.48033945e+00
124      1.06640613e-09    1.52817407e-03    1.48782536e+00
125      1.07847997e-09    9.13710246e-04    1.49221827e+00
126      1.10262766e-09    3.16468618e-04    1.49682215e+00
127      1.12677534e-09    1.26531531e-04    1.49862083e+00
128      1.15092303e-09    6.40567891e-05    1.49936463e+00
129      1.19921839e-09    2.97819313e-05    1.49987328e+00
130      1.24751376e-09    2.52975100e-05    1.49995030e+00
131      1.34410450e-09    1.90102188e-05    1.49998970e+00
132      1.44069523e-09    1.53835624e-05    1.50002837e+00
133      1.53728597e-09    1.29713518e-05    1.49995740e+00
134      1.63387671e-09    1.12628349e-05    1.49997504e+00
135      1.73046744e-09    9.98066797e-06    1.49997093e+00
136      1.82705818e-09    8.98406505e-06    1.49998602e+00
137      2.02023965e-09    7.52690404e-06    1.49998965e+00
138      2.21342112e-09    6.51603145e-06    1.50000057e+00
139      2.59978407e-09    5.19934593e-06    1.50000641e+00
140      2.69944403e-09    4.95872158e-06    1.50000877e+00
141      2.75055067e-09    4.84592933e-06    1.50001159e+00
142      2.80165730e-09    4.73890034e-06    1.50001424e+00
143      2.85276394e-09    4.63625859e-06    1.50003340e+00
144      2.90387057e-09    4.53893436e-06    1.50005771e+00
145      2.95497721e-09    4.44655881e-06    1.50005428e+00
146      3.00608384e-09    4.35871112e-06    1.50001990e+00
147      3.00973735e-09    4.35259432e-06    1.50002430e+00
148      3.01704436e-09    4.34043262e-06    1.50003502e+00
149      3.02435137e-09    4.32835501e-06    1.50003905e+00
150      3.03165838e-09    4.31636123e-06    1.50003881e+00
151      3.03896539e-09    4.30445053e-06    1.50005358e+00
152      3.04627240e-09    4.29262209e-06    1.50011960e+00
153      3.05357940e-09    4.28087505e-06    1.50020937e+00
154      3.06088641e-09    4.26920857e-06    1.50023134e+00
155      3.06819342e-09    4.25762182e-06    1.50021587e+00
156      3.07550043e-09    4.24611399e-06    1.50018082e+00
157      3.08133665e-09    4.23697864e-06    1.50015013e+00
158      3.08717287e-09    4.22789271e-06    1.50012285e+00
159      3.09300909e-09    4.21885580e-06    1.50009218e+00
160      3.09884530e-09    4.20986752e-06    1.50005680e+00
161      3.09957827e-09    4.20874196e-06    1.50005461e+00
162      3.10031123e-09    4.20761732e-06    1.50005272e+00
163      3.10104419e-09    4.20649344e-06    1.50004948e+00
164      3.10251011e-09    4.20424795e-06    1.50003940e+00
165      3.10544195e-09    4.19976606e-06    1.50000952e+00
166      3.10837379e-09    4.19529622e-06    1.49997350e+00
167      3.11130563e-09    4.19083840e-06    1.49993851e+00
168      3.11231514e-09    4.18930593e-06    1.49992774e+00
169      3.11433417e-09    4.18624585e-06    1.49990923e+00
170      3.11635320e-09    4.18319142e-06    1.49989418e+00
171      3.11837223e-09    4.18014262e-06    1.49988045e+00
172      3.12241029e-09    4.17406187e-06    1.49985722e+00
173      3.12644835e-09    4.16800345e-06    1.49984061e+00
174      3.13048641e-09    4.16196725e-06    1.49982990e+00
175      3.13452446e-09    4.15595314e-06    1.49982346e+00
176      3.13856252e-09    4.14996101e-06    1.49982177e+00
177      3.14260058e-09    4.14399073e-06    1.49982236e+00
178      3.14663864e-09    4.13804218e-06    1.49982364e+00
179      3.15067670e-09    4.13211525e-06    1.49982565e+00
180      3.15471476e-09    4.12620982e-06    1.49982726e+00
181      3.15834901e-09    4.12091322e-06    1.49982925e+00
182      3.16137131e-09    4.11652163e-06    1.49982953e+00
183      3.16439362e-09    4.11214187e-06    1.49982993e+00
184      3.17043822e-09    4.10341782e-06    1.49983279e+00
185      3.17148444e-09    4.10191233e-06    1.49983366e+00
186      3.17253065e-09    4.10040856e-06    1.49983456e+00
187      3.17462307e-09    4.09740521e-06    1.49983638e+00
188      3.17880792e-09    4.09141527e-06    1.49984013e+00
189      3.18299276e-09    4.08544756e-06    1.49984416e+00
190      3.18717761e-09    4.07950196e-06    1.49984849e+00
191      3.19136245e-09    4.07357832e-06    1.49985307e+00
192      3.19554730e-09    4.06767656e-06    1.49985797e+00
193      3.19973214e-09    4.06179657e-06    1.49986307e+00
194      3.20391699e-09    4.05593817e-06    1.49986833e+00
195      3.20810183e-09    4.05010127e-06    1.49987378e+00
196      3.21228668e-09    4.04428565e-06    1.49987933e+00
197      3.21594188e-09    4.03922376e-06    1.49988429e+00
198      3.21916138e-09    4.03477873e-06    1.49988862e+00
199      3.22238088e-09    4.03034548e-06    1.49989302e+00
200      3.22881988e-09    4.02151687e-06    1.49990185e+00
201      3.23461498e-09    4.01361387e-06    1.49990963e+00
202      3.23960123e-09    4.00684522e-06    1.49991603e+00
203      3.24458749e-09    4.00010593e-06    1.49992217e+00
204      3.24957374e-09    3.99339504e-06    1.49992801e+00
205      3.25455999e-09    3.98671320e-06    1.49993353e+00
206      3.25954624e-09    3.98006046e-06    1.49993872e+00
207      3.26453249e-09    3.97343614e-06    1.49994357e+00
208      3.26951874e-09    3.96683648e-06    1.49994808e+00
209      3.27357843e-09    3.96149012e-06    1.49995152e+00
210      3.27702980e-09    3.95696199e-06    1.49995427e+00
211      3.28048117e-09    3.95243378e-06    1.49995687e+00
212      3.28738391e-09    3.94342768e-06    1.49996165e+00
213      3.29287374e-09    3.93631165e-06    1.49996507e+00
214      3.29836357e-09    3.92922569e-06    1.49996816e+00
215      3.30385339e-09    3.92217345e-06    1.49997097e+00
216      3.30879424e-09    3.91583893e-06    1.49997326e+00
217      3.31373508e-09    3.90955029e-06    1.49997536e+00
218      3.31867593e-09    3.90328860e-06    1.49997727e+00
219      3.32361677e-09    3.89703069e-06    1.49997902e+00
220      3.32434324e-09    3.89609417e-06    1.49997926e+00
221      3.32506970e-09    3.89515156e-06    1.49997950e+00
222      3.32652264e-09    3.89328710e-06    1.49997997e+00
223      3.32797557e-09    3.89150278e-06    1.49998043e+00
224      3.32942850e-09    3.88976390e-06    1.49998088e+00
225      3.33233437e-09    3.88621556e-06    1.49998173e+00
226      3.33524024e-09    3.88253736e-06    1.49998254e+00
227      3.34105197e-09    3.87512495e-06    1.49998404e+00
228      3.34686370e-09    3.86793974e-06    1.49998538e+00
229      3.35154497e-09    3.86213018e-06    1.49998637e+00
230      3.35622623e-09    3.85649567e-06    1.49998727e+00
231      3.36090750e-09    3.85085582e-06    1.49998811e+00
232      3.36512064e-09    3.84544505e-06    1.49998880e+00
233      3.36933378e-09    3.84041470e-06    1.49998944e+00
234      3.37354692e-09    3.83541133e-06    1.49999003e+00
235      3.37776006e-09    3.83066087e-06    1.49999059e+00
236      3.38197320e-09    3.82428105e-06    1.49999110e+00
237      3.38576503e-09    3.81903533e-06    1.49999154e+00
238      3.38888326e-09    3.81901343e-06    1.49999187e+00
239      3.39200149e-09    3.81615726e-06    1.49999219e+00
240      3.39823794e-09    3.80582915e-06    1.49999278e+00
241      3.39932690e-09    3.80443129e-06    1.49999288e+00
242      3.40041587e-09    3.80305465e-06    1.49999298e+00
243      3.40259379e-09    3.79963243e-06    1.49999316e+00
244      3.40694964e-09    3.79340434e-06    1.49999352e+00
245      3.41130548e-09    3.78876708e-06    1.49999385e+00
246      3.41566133e-09    3.78610072e-06    1.49999415e+00
247      3.42001718e-09    3.77910866e-06    1.49999444e+00
248      3.42437303e-09    3.77224258e-06    1.49999471e+00
249      3.42872887e-09    3.76718907e-06    1.49999496e+00
250      3.43308472e-09    3.77147827e-06    1.49999520e+00
251      3.43744057e-09    3.75524283e-06    1.49999542e+00
252      3.43815087e-09    3.74617322e-06    1.49999546e+00
253      3.43886117e-09    3.73295886e-06    1.49999549e+00
254      3.44028178e-09    3.70858710e-06    1.49999556e+00
255      3.44170238e-09    3.70962030e-06    1.49999563e+00
256      3.44312298e-09    3.73111451e-06    1.49999569e+00
257      3.44596419e-09    3.78130469e-06    1.49999582e+00
258      3.45164660e-09    3.80818308e-06    1.49999605e+00
259      3.45732901e-09    3.77487171e-06    1.49999627e+00
260      3.46244319e-09    3.73479631e-06    1.49999646e+00
261      3.46755736e-09    3.69781361e-06    1.49999663e+00
262      3.47267153e-09    3.72743815e-06    1.49999679e+00
263      3.47778570e-09    3.67685159e-06    1.49999693e+00
264      3.48289987e-09    3.60177650e-06    1.49999707e+00
265      3.48801404e-09    3.59593351e-06    1.49999720e+00
266      3.49312822e-09    3.74260337e-06    1.49999732e+00
267      3.49389235e-09    3.59556684e-06    1.49999734e+00
268      3.49542062e-09    3.16610784e-06    1.49999737e+00
269      3.49694888e-09    2.53251929e-06    1.49999741e+00
270      3.49847715e-09    2.29204934e-06    1.49999744e+00
271      3.50000542e-09    2.53977316e-06    1.49999747e+00
272      3.50306195e-09    3.55963027e-06    1.49999753e+00
273      3.50611848e-09    4.51354061e-06    1.49999759e+00
274      3.51223155e-09    5.22430030e-06    1.49999771e+00
275      3.51834462e-09    5.75088152e-06    1.49999781e+00
276      3.52330217e-09    4.98033083e-06    1.49999789e+00
277      3.52825972e-09    5.29222873e-06    1.49999796e+00
278      3.53321727e-09    5.44669635e-06    1.49999803e+00
279      3.53817482e-09    3.12017296e-06    1.49999809e+00
280      3.54313237e-09    1.15017244e-07    1.49999815e+00
281      3.54808992e-09    3.45706654e-06    1.49999821e+00
282      3.55304747e-09   -1.40644465e-05    1.49999826e+00
283      3.55729780e-09   -4.27623085e-05    1.49999831e+00
284      3.56070701e-09   -2.89422544e-05    1.49999834e+00
285      3.56411622e-09   -7.90052523e-06    1.49999837e+00
286      3.57093463e-09    3.49985156e-05    1.49999843e+00
287      3.57656844e-09    7.52651699e-05    1.49999847e+00
288      3.58163887e-09    1.01788506e-04    1.49999851e+00
289      3.58670930e-09    1.59595859e-04    1.49999854e+00
290      3.59127269e-09    1.81265304e-04    1.49999857e+00
291      3.59583607e-09    1.65071437e-04    1.49999860e+00
292      3.60039946e-09    1.02404680e-04    1.49999863e+00
293      3.60496284e-09    1.48937612e-04    1.49999865e+00
294      3.60952623e-09   -2.59108353e-04    1.49999867e+00
295      3.61357703e-09   -1.24883251e-03    1.49999869e+00
296      3.61686157e-09   -1.57747096e-03    1.49999871e+00
297      3.62014611e-09   -1.61002407e-03    1.49999872e+00
298      3.62671519e-09   -1.07064391e-03    1.49999875e+00
299      3.63262737e-09    5.16831995e-04    1.49999877e+00
300      3.63779599e-09    2.43603633e-03    1.49999879e+00
301      3.64296462e-09    5.82196196e-03    1.49999881e+00
302      3.64813324e-09    9.92353024e-03    1.49999882e+00
303      3.65330186e-09    1.36073273e-02    1.49999884e+00
304      3.65847049e-09    1.64709739e-02    1.49999885e+00
305      3.66363911e-09    1.99754367e-02    1.49999887e+00
306      3.66439488e-09    1.91615313e-02    1.49999887e+00
307      3.66590641e-09    1.53442538e-02    1.49999887e+00
308      3.66741795e-09    6.69411873e-03    1.49999888e+00
309      3.66892948e-09   -3.65412850e-03    1.49999888e+00
310      3.67044102e-09   -1.40669064e-02    1.49999888e+00
311      3.67346409e-09   -3.41689302e-02    1.49999889e+00
312      3.67648716e-09   -5.32163309e-02    1.49999890e+00
313      3.68253330e-09   -8.51285690e-02    1.49999891e+00
314      3.68857944e-09   -8.05759767e-02    1.49999892e+00
315      3.69349557e-09   -4.15436888e-02    1.49999893e+00
316      3.69841170e-09    5.72396242e-02    1.49999894e+00
317      3.70332784e-09    2.36002832e-01    1.49999894e+00
318      3.70775236e-09    4.37044402e-01    1.49999895e+00
319      3.71217688e-09    6.41484839e-01    1.49999896e+00
320      3.71660140e-09    8.57923455e-01    1.49999896e+00
321      3.72102592e-09    1.06808021e+00    1.49999897e+00
322      3.72174425e-09    1.09557309e+00    1.49999897e+00
323      3.72246258e-09    1.12278529e+00    1.49999897e+00
324      3.72389925e-09    1.17587880e+00    1.49999897e+00
325      3.72533591e-09    1.22053358e+00    1.49999897e+00
326      3.72677258e-09    1.25562205e+00    1.49999897e+00
327      3.72964591e-09    1.30735773e+00    1.49999898e+00
328      3.73251924e-09    1.34324522e+00    1.49999898e+00
329      3.73826590e-09    1.39051521e+00    1.49999899e+00
330      3.74401257e-09    1.42472102e+00    1.49999899e+00
331      3.74865049e-09    1.44253974e+00    1.49999899e+00
