Index        TIME          {V(2)+2.0}       {V(3)+2.0}       {V(4)+2.0}       {V(6)+2.0}       {V(7)+2.0}       {V(8)+2.0}       {V(13)+2.0}      {V(14)+2.0}      {V(17)+2.0}      {V(21)+2.0}      {V(22)+2.0}
0       0.00000000e+00   2.00000000e+00   2.00000000e+00   2.00000000e+00   2.00000000e+00   2.00000011e+00   2.00000009e+00   2.00000000e+00   2.00000000e+00   2.00000000e+00   2.00000000e+00   2.00000000e+00   
1       5.00000000e-12   2.00000000e+00   2.00000000e+00   2.00000000e+00   2.00112996e+00   2.01244738e+00   2.01244737e+00   2.01337004e+00   2.01620294e+00   2.01309438e+00   2.00114585e+00   2.00114585e+00   
2       5.62500000e-12   2.00000000e+00   2.00000000e+00   2.00000000e+00   2.00127400e+00   2.01399869e+00   2.01399868e+00   2.01505141e+00   2.01822913e+00   2.01474244e+00   2.00129212e+00   2.00129212e+00   
3       6.87500000e-12   2.00000000e+00   2.00000000e+00   2.00000000e+00   2.00156220e+00   2.01705174e+00   2.01705173e+00   2.01841925e+00   2.02228361e+00   2.01804514e+00   2.00158580e+00   2.00158580e+00   
4       8.12500000e-12   2.00000000e+00   2.00000000e+00   2.00000000e+00   2.00184906e+00   2.02005340e+00   2.02005339e+00   2.02178939e+00   2.02633941e+00   2.02134930e+00   2.00187915e+00   2.00187915e+00   
5       1.06250000e-11   2.00000000e+00   2.00000000e+00   2.00000000e+00   2.00241755e+00   2.02586038e+00   2.02586036e+00   2.02853707e+00   2.03445461e+00   2.02795878e+00   2.00246459e+00   2.00246459e+00   
6       1.31250000e-11   2.00000000e+00   2.00000000e+00   2.00000000e+00   2.00298006e+00   2.03147898e+00   2.03147897e+00   2.03529260e+00   2.04257426e+00   2.03456935e+00   2.00304801e+00   2.00304801e+00   
7       1.81250000e-11   2.00000000e+00   2.00000000e+00   2.00000000e+00   2.00408474e+00   2.04203660e+00   2.04203658e+00   2.04883331e+00   2.05882740e+00   2.04779309e+00   2.00421016e+00   2.00421016e+00   
8       2.31250000e-11   2.00000000e+00   2.00000000e+00   2.00000000e+00   2.00516649e+00   2.05196812e+00   2.05196810e+00   2.06240566e+00   2.07509782e+00   2.06102067e+00   2.00536479e+00   2.00536479e+00   
9       2.81250000e-11   2.00000000e+00   2.00000000e+00   2.00000000e+00   2.00622582e+00   2.06132821e+00   2.06132820e+00   2.07600974e+00   2.09138518e+00   2.07425183e+00   2.00651224e+00   2.00651224e+00   
10      3.81250000e-11   2.00000000e+00   2.00000000e+00   2.00000000e+00   2.00828621e+00   2.07884095e+00   2.07884093e+00   2.10329726e+00   2.12400768e+00   2.10072497e+00   2.00878373e+00   2.00878373e+00   
11      4.81250000e-11   2.00000000e+00   2.00000000e+00   2.00000000e+00   2.01024806e+00   2.09399909e+00   2.09399908e+00   2.13075523e+00   2.15673006e+00   2.12721050e+00   2.01103939e+00   2.01103939e+00   
12      5.81250000e-11   2.00000000e+00   2.00000000e+00   2.00000000e+00   2.01213219e+00   2.10786500e+00   2.10786498e+00   2.15834461e+00   2.18968385e+00   2.15370976e+00   2.01327366e+00   2.01327366e+00   
13      6.81250000e-11   2.00000000e+00   2.00000000e+00   2.00000000e+00   2.01394206e+00   2.12066607e+00   2.12066606e+00   2.18606618e+00   2.22297991e+00   2.18022159e+00   2.01548848e+00   2.01548848e+00   
14      8.81250000e-11   2.00000000e+00   2.00000000e+00   2.00000000e+00   2.01737474e+00   2.14420092e+00   2.14420090e+00   2.24184792e+00   2.29063242e+00   2.23328189e+00   2.01985432e+00   2.01985432e+00   
15      1.08125000e-10   2.00000000e+00   2.00000000e+00   2.00000000e+00   2.02049884e+00   2.16483428e+00   2.16483427e+00   2.29836858e+00   2.35979431e+00   2.28638549e+00   2.02419748e+00   2.02419748e+00   
16      1.28125000e-10   2.00000000e+00   2.00000000e+00   2.00000000e+00   2.02339043e+00   2.18422199e+00   2.18422198e+00   2.35550642e+00   2.43055241e+00   2.33953285e+00   2.02849596e+00   2.02849596e+00   
17      1.48125000e-10   2.00000000e+00   2.00000000e+00   2.00000000e+00   2.02606805e+00   2.20280658e+00   2.20280656e+00   2.41330726e+00   2.50301517e+00   2.39272012e+00   2.03275850e+00   2.03275850e+00   
18      1.57628018e-10   2.00000000e+00   2.00000000e+00   2.00000000e+00   2.02728169e+00   2.21136010e+00   2.21136008e+00   2.44095334e+00   2.53790334e+00   2.41800594e+00   2.03476453e+00   2.03476453e+00   
19      1.63974982e-10   2.00000000e+00   2.00000000e+00   2.00000000e+00   2.02807017e+00   2.21698381e+00   2.21698380e+00   2.45949545e+00   2.56121668e+00   2.43489848e+00   2.03609936e+00   2.03609936e+00   
20      1.69687250e-10   2.00000000e+00   2.00000000e+00   2.00000000e+00   2.02876394e+00   2.22198941e+00   2.22198940e+00   2.47624467e+00   2.58217792e+00   2.45010473e+00   2.03729845e+00   2.03729845e+00   
21      1.75399517e-10   2.00000000e+00   2.00000000e+00   2.00000000e+00   2.02944268e+00   2.22694317e+00   2.22694315e+00   2.49305524e+00   2.60311933e+00   2.46531382e+00   2.03849588e+00   2.03849588e+00   
22      1.80540558e-10   2.00000000e+00   2.00000000e+00   2.00000000e+00   2.03004129e+00   2.23135506e+00   2.23135504e+00   2.50823533e+00   2.62194914e+00   2.47900446e+00   2.03957199e+00   2.03957199e+00   
23      1.84614130e-10   2.00000000e+00   2.00000000e+00   2.00000000e+00   2.03050776e+00   2.23481818e+00   2.23481816e+00   2.52029578e+00   2.63685713e+00   2.48985405e+00   2.04042347e+00   2.04042347e+00   
24      1.87785706e-10   2.00000000e+00   2.00000000e+00   2.00000000e+00   2.03086623e+00   2.23749423e+00   2.23749421e+00   2.52970533e+00   2.64845658e+00   2.49830224e+00   2.04108568e+00   2.04108568e+00   
25      1.90640125e-10   2.00000000e+00   2.00000000e+00   2.00000000e+00   2.03118523e+00   2.23988792e+00   2.23988790e+00   2.53818940e+00   2.65889041e+00   2.50590631e+00   2.04168125e+00   2.04168125e+00   
26      1.96348962e-10   2.00000000e+00   2.00000000e+00   2.00000000e+00   2.03181117e+00   2.24464008e+00   2.24464006e+00   2.55521393e+00   2.67974237e+00   2.52111631e+00   2.04287289e+00   2.04287289e+00   
27      2.00240641e-10   2.00000000e+00   2.00000000e+00   2.00000000e+00   2.03223083e+00   2.24784474e+00   2.24784472e+00   2.56684958e+00   2.69394460e+00   2.53148658e+00   2.04368400e+00   2.04368400e+00   
28      2.04132321e-10   2.00000000e+00   2.00000000e+00   2.00000000e+00   2.03264424e+00   2.25102284e+00   2.25102282e+00   2.57851324e+00   2.70813637e+00   2.54185800e+00   2.04449460e+00   2.04449460e+00   
29      2.08024001e-10   2.00000000e+00   2.00000000e+00   2.00000000e+00   2.03305153e+00   2.25417407e+00   2.25417405e+00   2.59020485e+00   2.72231772e+00   2.55223064e+00   2.04530474e+00   2.04530474e+00   
30      2.15807360e-10   2.00000000e+00   2.00000000e+00   2.00000000e+00   2.03384521e+00   2.26040323e+00   2.26040321e+00   2.61369075e+00   2.75064954e+00   2.57297934e+00   2.04692626e+00   2.04692626e+00   
31      2.22201397e-10   2.00000000e+00   2.00000000e+00   2.00000000e+00   2.03448056e+00   2.26544057e+00   2.26544056e+00   2.63306158e+00   2.77389244e+00   2.59002815e+00   2.04825647e+00   2.04825647e+00   
32      2.28595434e-10   2.00000000e+00   2.00000000e+00   2.00000000e+00   2.03510046e+00   2.27042279e+00   2.27042277e+00   2.65250642e+00   2.79710564e+00   2.60708005e+00   2.04958571e+00   2.04958571e+00   
33      2.34989471e-10   2.00000000e+00   2.00000000e+00   2.00000000e+00   2.03570530e+00   2.27536572e+00   2.27536570e+00   2.67202482e+00   2.82028893e+00   2.62413502e+00   2.05091411e+00   2.05091411e+00   
34      2.47777545e-10   2.00000000e+00   2.00000000e+00   2.00000000e+00   2.03686438e+00   2.28524889e+00   2.28524887e+00   2.71131741e+00   2.86656609e+00   2.65825377e+00   2.05357516e+00   2.05357516e+00   
35      2.57069679e-10   2.00000000e+00   2.00000000e+00   2.00000000e+00   2.03767407e+00   2.29238613e+00   2.29238612e+00   2.73999510e+00   2.90014862e+00   2.68304938e+00   2.05550462e+00   2.05550462e+00   
36      2.66361813e-10   2.00000000e+00   2.00000000e+00   2.00000000e+00   2.03845508e+00   2.29953900e+00   2.29953899e+00   2.76876007e+00   2.93374894e+00   2.70783136e+00   2.05743298e+00   2.05743298e+00   
37      2.75653947e-10   2.00000000e+00   2.00000000e+00   2.00000000e+00   2.03920838e+00   2.30672597e+00   2.30672595e+00   2.79758363e+00   2.96738592e+00   2.73258244e+00   2.05936046e+00   2.05936046e+00   
38      2.84946081e-10   2.00000000e+00   2.00000000e+00   2.00000000e+00   2.03993905e+00   2.31389580e+00   2.31389578e+00   2.82644426e+00   3.00105685e+00   2.75730309e+00   2.06128290e+00   2.06128290e+00   
39      2.94238215e-10   2.00000000e+00   2.00000000e+00   2.00000000e+00   2.04063938e+00   2.32119904e+00   2.32119903e+00   2.85529915e+00   3.03476298e+00   2.78193867e+00   2.06320746e+00   2.06320746e+00   
40      3.02495574e-10   2.00000000e+00   2.00000000e+00   2.00000000e+00   2.04124123e+00   2.32772623e+00   2.32772621e+00   2.88092324e+00   3.06474198e+00   2.80376498e+00   2.06491454e+00   2.06491454e+00   
41      3.10752934e-10   2.00000000e+00   2.00000000e+00   2.00000000e+00   2.04182373e+00   2.33429409e+00   2.33429407e+00   2.90650700e+00   3.09474445e+00   2.82551189e+00   2.06665688e+00   2.06665688e+00   
42      3.19010294e-10   2.00000000e+00   2.00000000e+00   2.00000000e+00   2.04238742e+00   2.34089786e+00   2.34089784e+00   2.93203041e+00   3.12476897e+00   2.84716623e+00   2.06849657e+00   2.06849657e+00   
43      3.27267654e-10   2.00000000e+00   2.00000000e+00   2.00000000e+00   2.04293282e+00   2.34753308e+00   2.34753307e+00   2.95747341e+00   3.15481414e+00   2.86871463e+00   2.07042202e+00   2.07042202e+00   
44      3.43782373e-10   2.00000000e+00   2.00000000e+00   2.00000000e+00   2.04397630e+00   2.36080175e+00   2.36080173e+00   3.00811484e+00   3.21496162e+00   2.91151068e+00   2.07436457e+00   2.07436457e+00   
45      3.60297093e-10   2.00000000e+00   2.00000000e+00   2.00000000e+00   2.04493952e+00   2.37434012e+00   2.37434011e+00   3.05793492e+00   3.27516994e+00   2.95349397e+00   2.07837212e+00   2.07837212e+00   
46      3.76811812e-10   2.00000000e+00   2.00000000e+00   2.00000000e+00   2.04583980e+00   2.38789353e+00   2.38789352e+00   3.10700465e+00   3.33523202e+00   2.99475458e+00   2.08239267e+00   2.08239267e+00   
47      3.93326532e-10   2.00000000e+00   2.00000000e+00   2.00000000e+00   2.04668036e+00   2.40145887e+00   2.40145885e+00   3.15516905e+00   3.39486920e+00   3.03518519e+00   2.08640897e+00   2.08640897e+00   
48      4.26355971e-10   2.00000000e+00   2.00000000e+00   2.00000000e+00   2.04817336e+00   2.42918512e+00   2.42918510e+00   3.24698979e+00   3.51247983e+00   3.11218781e+00   2.09439719e+00   2.09439719e+00   
49      4.56082466e-10   2.00000000e+00   2.00000000e+00   2.00000000e+00   2.04934925e+00   2.45477501e+00   2.45477499e+00   3.32511634e+00   3.61615233e+00   3.17767848e+00   2.10149765e+00   2.10149765e+00   
50      4.85808961e-10   2.00000000e+00   2.00000000e+00   2.00000000e+00   2.05037755e+00   2.48115447e+00   2.48115446e+00   3.39791704e+00   3.71731256e+00   3.23883550e+00   2.10849353e+00   2.10849353e+00   
51      5.45261951e-10   2.00000000e+00   2.00000000e+00   2.00000000e+00   2.05200450e+00   2.53605192e+00   2.53605191e+00   3.51871211e+00   3.91070769e+00   3.34169067e+00   2.12218534e+00   2.12218534e+00   
52      5.93245559e-10   2.00000000e+00   2.00000000e+00   2.00000000e+00   2.05300778e+00   2.58082646e+00   2.58082645e+00   3.59647103e+00   4.06285081e+00   3.40898858e+00   2.13300178e+00   2.13300178e+00   
53      6.41229168e-10   2.00000000e+00   2.00000000e+00   2.00000000e+00   2.05376562e+00   2.62589763e+00   2.62589762e+00   3.65295699e+00   4.21732187e+00   3.45830211e+00   2.14360632e+00   2.14360632e+00   
54      6.89212776e-10   2.00000000e+00   2.00000000e+00   2.00000000e+00   2.05431206e+00   2.67091994e+00   2.67091993e+00   3.68729717e+00   4.37361178e+00   3.48712498e+00   2.15396751e+00   2.15396751e+00   
55      7.85179993e-10   2.00000000e+00   2.00000000e+00   2.00000000e+00   2.05491312e+00   2.75970995e+00   2.75970994e+00   3.69970823e+00   4.68559466e+00   3.48884702e+00   2.17407561e+00   2.17407561e+00   
56      8.49979784e-10   2.00000000e+00   2.00000000e+00   2.00000000e+00   2.05498091e+00   2.81925311e+00   2.81925309e+00   3.64178598e+00   4.89153178e+00   3.42427830e+00   2.18693674e+00   2.18693674e+00   
57      9.08299596e-10   2.00000000e+00   2.00000000e+00   2.00000000e+00   2.05487240e+00   2.87187229e+00   2.87187227e+00   3.55175880e+00   5.07045717e+00   3.33979087e+00   2.19801905e+00   2.19801904e+00   
58      9.66619407e-10   2.00000000e+00   2.00000000e+00   2.00000000e+00   2.05463227e+00   2.92389569e+00   2.92389568e+00   3.44703811e+00   5.23941766e+00   3.24613150e+00   2.20863876e+00   2.20863876e+00   
59      1.00000000e-09   2.00000000e+00   2.00000000e+00   2.00000000e+00   2.05444045e+00   2.95339879e+00   2.95339878e+00   3.39078592e+00   5.33260224e+00   3.19212876e+00   2.21454517e+00   2.21454517e+00   
60      1.03338059e-09   2.00000000e+00   2.00000000e+00   2.00000000e+00   2.05123207e+00   2.93992929e+00   2.93992927e+00   3.27259002e+00   5.31462961e+00   3.07399824e+00   2.21533739e+00   2.21533739e+00   
61      1.03546688e-09   2.00000000e+00   2.00000000e+00   2.00000000e+00   2.05103196e+00   2.93918258e+00   2.93918256e+00   3.26536791e+00   5.31346106e+00   3.06673681e+00   2.21538455e+00   2.21538455e+00   
62      1.03963945e-09   2.00000000e+00   2.00000000e+00   2.00000000e+00   2.05063482e+00   2.93801430e+00   2.93801428e+00   3.25121481e+00   5.31112532e+00   3.05239834e+00   2.21547405e+00   2.21547405e+00   
63      1.04381203e-09   2.00000000e+00   2.00000000e+00   2.00000000e+00   2.05024079e+00   2.93712522e+00   2.93712520e+00   3.23735861e+00   5.30879209e+00   3.03825015e+00   2.21555889e+00   2.21555889e+00   
64      1.05215718e-09   2.00000000e+00   2.00000000e+00   2.00000000e+00   2.04946489e+00   2.93618587e+00   2.93618586e+00   3.21075893e+00   5.30415399e+00   3.01067030e+00   2.21571036e+00   2.21571036e+00   
65      1.06884747e-09   2.00000000e+00   2.00000000e+00   2.00000000e+00   2.04796034e+00   2.93631408e+00   2.93631406e+00   3.16173523e+00   5.29501421e+00   2.95830264e+00   2.21594238e+00   2.21594238e+00   
66      1.10222807e-09   2.00000000e+00   2.00000000e+00   2.00000000e+00   2.04512899e+00   2.93989601e+00   2.93989600e+00   3.07841197e+00   5.27738958e+00   2.86413066e+00   2.21613826e+00   2.21613826e+00   
67      1.13560866e-09   2.00000000e+00   2.00000000e+00   2.00000000e+00   2.04246492e+00   2.94472526e+00   2.94472525e+00   3.00821553e+00   5.26044298e+00   2.78023342e+00   2.21608169e+00   2.21608169e+00   
68      1.16898925e-09   2.00000000e+00   2.00000000e+00   2.00000000e+00   2.03995824e+00   2.94987309e+00   2.94987308e+00   2.94927479e+00   5.24427361e+00   2.70577985e+00   2.21579066e+00   2.21579066e+00   
69      1.23575044e-09   2.00000000e+00   2.00000000e+00   2.00000000e+00   2.03528379e+00   2.95987611e+00   2.95987609e+00   2.85327330e+00   5.21377226e+00   2.57721425e+00   2.21471964e+00   2.21471964e+00   
70      1.29065657e-09   2.00000000e+00   2.00000000e+00   2.00000000e+00   2.03198400e+00   2.96716174e+00   2.96716173e+00   2.80363806e+00   5.19211007e+00   2.49999507e+00   2.21307907e+00   2.21307907e+00   
71      1.33877880e-09   2.00000000e+00   2.00000000e+00   2.00000000e+00   2.02933189e+00   2.97288893e+00   2.97288892e+00   2.77012256e+00   5.17463745e+00   2.44389450e+00   2.21132850e+00   2.21132850e+00   
72      1.38690103e-09   2.00000000e+00   2.00000000e+00   2.00000000e+00   2.02689980e+00   2.97800920e+00   2.97800918e+00   2.74440753e+00   5.15856206e+00   2.39751806e+00   2.20931217e+00   2.20931217e+00   
73      1.43502326e-09   2.00000000e+00   2.00000000e+00   2.00000000e+00   2.02466947e+00   2.98256372e+00   2.98256371e+00   2.72479003e+00   5.14375456e+00   2.35931474e+00   2.20707509e+00   2.20707509e+00   
74      1.53126772e-09   2.00000000e+00   2.00000000e+00   2.00000000e+00   2.02062892e+00   2.99044203e+00   2.99044201e+00   2.69597052e+00   5.11672076e+00   2.29829638e+00   2.20219309e+00   2.20219309e+00   
75      1.58352293e-09   2.00000000e+00   2.00000000e+00   2.00000000e+00   2.01878497e+00   2.99371435e+00   2.99371433e+00   2.68793040e+00   5.10417070e+00   2.27670748e+00   2.19920947e+00   2.19920947e+00   
76      1.63055261e-09   2.00000000e+00   2.00000000e+00   2.00000000e+00   2.01726017e+00   2.99627138e+00   2.99627137e+00   2.68272532e+00   5.09365714e+00   2.26093972e+00   2.19640367e+00   2.19640367e+00   
77      1.67758230e-09   2.00000000e+00   2.00000000e+00   2.00000000e+00   2.01585918e+00   2.99847365e+00   2.99847363e+00   2.67912632e+00   5.08385342e+00   2.24822684e+00   2.19349076e+00   2.19349076e+00   
78      1.72461198e-09   2.00000000e+00   2.00000000e+00   2.00000000e+00   2.01457194e+00   3.00034496e+00   3.00034495e+00   2.67680098e+00   5.07469736e+00   2.23806299e+00   2.19048373e+00   2.19048373e+00   
79      1.81867135e-09   2.00000000e+00   2.00000000e+00   2.00000000e+00   2.01223491e+00   3.00337185e+00   3.00337184e+00   2.67438287e+00   5.05773974e+00   2.22244462e+00   2.18428066e+00   2.18428066e+00   
80      1.86883575e-09   2.00000000e+00   2.00000000e+00   2.00000000e+00   2.01118142e+00   3.00438825e+00   3.00438824e+00   2.67471180e+00   5.04980114e+00   2.21763942e+00   2.18082002e+00   2.18082001e+00   
81      1.91398372e-09   2.00000000e+00   2.00000000e+00   2.00000000e+00   2.01030741e+00   3.00505601e+00   3.00505599e+00   2.67545938e+00   5.04308939e+00   2.21440340e+00   2.17765257e+00   2.17765257e+00   
82      1.95913169e-09   2.00000000e+00   2.00000000e+00   2.00000000e+00   2.00950173e+00   3.00548667e+00   3.00548665e+00   2.67657327e+00   5.03678543e+00   2.21207430e+00   2.17444660e+00   2.17444660e+00   
83      2.00427965e-09   2.00000000e+00   2.00000000e+00   2.00000000e+00   2.00875904e+00   3.00568959e+00   3.00568958e+00   2.67798504e+00   5.03086747e+00   2.21049856e+00   2.17121385e+00   2.17121385e+00   
84      2.09457559e-09   2.00000000e+00   2.00000000e+00   2.00000000e+00   2.00740569e+00   3.00559004e+00   3.00559002e+00   2.68136231e+00   5.01987772e+00   2.20872094e+00   2.16471322e+00   2.16471322e+00   
85      2.13829700e-09   2.00000000e+00   2.00000000e+00   2.00000000e+00   2.00684376e+00   3.00517410e+00   3.00517408e+00   2.68334294e+00   5.01516922e+00   2.20875940e+00   2.16155574e+00   2.16155574e+00   
86      2.17764627e-09   2.00000000e+00   2.00000000e+00   2.00000000e+00   2.00637283e+00   3.00465136e+00   3.00465135e+00   2.68522255e+00   5.01117776e+00   2.20905314e+00   2.15871900e+00   2.15871900e+00   
87      2.21699554e-09   2.00000000e+00   2.00000000e+00   2.00000000e+00   2.00593430e+00   3.00398549e+00   3.00398548e+00   2.68718166e+00   5.00742504e+00   2.20956052e+00   2.15589161e+00   2.15589160e+00   
88      2.25634481e-09   2.00000000e+00   2.00000000e+00   2.00000000e+00   2.00552596e+00   3.00318154e+00   3.00318153e+00   2.68920545e+00   5.00390434e+00   2.21024211e+00   2.15307724e+00   2.15307724e+00   
89      2.29786225e-09   2.00000000e+00   2.00000000e+00   2.00000000e+00   2.00512628e+00   3.00218550e+00   3.00218548e+00   2.69139716e+00   5.00044082e+00   2.21111524e+00   2.15012628e+00   2.15012628e+00   
90      2.33522794e-09   2.00000000e+00   2.00000000e+00   2.00000000e+00   2.00479015e+00   3.00117384e+00   3.00117383e+00   2.69340680e+00   4.99752247e+00   2.21200044e+00   2.14748786e+00   2.14748786e+00   
91      2.37259363e-09   2.00000000e+00   2.00000000e+00   2.00000000e+00   2.00447607e+00   3.00005162e+00   3.00005161e+00   2.69544442e+00   4.99479865e+00   2.21296273e+00   2.14486931e+00   2.14486931e+00   
