Index       TIME           {V(2)+0.5}           V(4)              V(5)           {V(16)+0.5}          V(17)      
0        0.00000000e+00    5.00000004e-01    5.00000000e+00    0.00000000e+00    5.00000000e-01    5.00000000e+00
1        2.50000000e-11    5.00000003e-01    5.00000000e+00    4.94083733e-10    4.99999999e-01    5.00000000e+00
2        7.50000000e-11    5.00000001e-01    4.99999999e+00    1.23736140e-09    4.99999998e-01    5.00000000e+00
3        1.75000000e-10    4.99999997e-01    4.99999999e+00    2.36395850e-09    4.99999996e-01    5.00000000e+00
4        3.75000000e-10    4.99999994e-01    4.99999998e+00    3.29808330e-09    4.99999995e-01    5.00000000e+00
5        7.75000000e-10    4.99999993e-01    4.99999998e+00    3.60272251e-09    4.99999995e-01    5.00000000e+00
6        1.27500000e-09    4.99999996e-01    4.99999998e+00    3.60528843e-09    4.99999996e-01    5.00000000e+00
7        1.77500000e-09    4.99999999e-01    4.99999998e+00    3.66733796e-09    4.99999997e-01    4.99999999e+00
8        2.27500000e-09    5.00000001e-01    4.99999998e+00    3.71043872e-09    4.99999998e-01    4.99999999e+00
9        2.77500000e-09    5.00000003e-01    4.99999998e+00    3.75030289e-09    4.99999999e-01    4.99999999e+00
10       3.27500000e-09    5.00000003e-01    4.99999998e+00    3.78479044e-09    4.99999999e-01    4.99999999e+00
11       3.77500000e-09    5.00000004e-01    4.99999998e+00    3.81505776e-09    5.00000000e-01    4.99999999e+00
12       4.27500000e-09    5.00000004e-01    4.99999998e+00    3.84153632e-09    5.00000000e-01    4.99999999e+00
13       4.77500000e-09    5.00000004e-01    4.99999998e+00    3.86471491e-09    5.00000001e-01    4.99999999e+00
14       5.00000000e-09    5.00000004e-01    4.99999998e+00    3.87416841e-09    5.00000001e-01    4.99999999e+00
15       5.02456535e-09    5.00000010e-01    4.99999998e+00    3.87516323e-09    5.00000001e-01    4.99999999e+00
16       5.04576892e-09    5.00000015e-01    4.99999998e+00    3.87601720e-09    5.00000001e-01    4.99999998e+00
17       5.08817604e-09    5.00000022e-01    4.99999998e+00    3.87771505e-09    5.00000001e-01    4.99999998e+00
18       5.17299030e-09    5.00000026e-01    4.99999998e+00    3.88105419e-09    5.00000001e-01    4.99999998e+00
19       5.34261881e-09    5.00000013e-01    4.99999998e+00    3.88751126e-09    5.00000001e-01    4.99999998e+00
20       5.51224733e-09    4.99999986e-01    4.99999998e+00    3.89368318e-09    5.00000001e-01    4.99999998e+00
21       5.68187584e-09    4.99999961e-01    4.99999998e+00    3.89958246e-09    5.00000002e-01    4.99999998e+00
22       5.85150435e-09    4.99999924e-01    4.99999998e+00    3.90522144e-09    5.00000002e-01    4.99999998e+00
23       6.00000000e-09    4.99999891e-01    4.99999998e+00    3.90995326e-09    5.00000002e-01    4.99999998e+00
24       6.01696285e-09    4.99999890e-01    4.99999998e+00    3.91048036e-09    5.00000002e-01    4.99999998e+00
25       6.03222942e-09    4.99999891e-01    4.99999998e+00    3.91095353e-09    5.00000002e-01    4.99999998e+00
26       6.06276255e-09    4.99999895e-01    4.99999998e+00    3.91189498e-09    5.00000002e-01    4.99999998e+00
27       6.12382881e-09    4.99999912e-01    4.99999998e+00    3.91375565e-09    5.00000002e-01    4.99999998e+00
28       6.24596134e-09    4.99999976e-01    4.99999998e+00    3.91738723e-09    5.00000002e-01    4.99999998e+00
29       6.49022640e-09    5.00000188e-01    4.99999998e+00    3.92430784e-09    5.00000002e-01    4.99999998e+00
30       6.73449146e-09    5.00000438e-01    4.99999998e+00    3.93079221e-09    5.00000002e-01    4.99999998e+00
31       6.97875652e-09    5.00000657e-01    4.99999998e+00    3.93686779e-09    5.00000002e-01    4.99999998e+00
32       7.22302158e-09    5.00000874e-01    4.99999998e+00    3.94256076e-09    5.00000002e-01    4.99999998e+00
33       7.46728664e-09    5.00001322e-01    4.99999998e+00    3.94789490e-09    5.00000002e-01    4.99999998e+00
34       7.71155170e-09    5.00001729e-01    4.99999998e+00    3.95289282e-09    5.00000003e-01    4.99999998e+00
35       7.95581675e-09    5.00001585e-01    4.99999998e+00    3.95757570e-09    5.00000003e-01    4.99999998e+00
36       8.20008181e-09    5.00001052e-01    4.99999998e+00    3.96196299e-09    5.00000003e-01    4.99999998e+00
37       8.41992037e-09    4.99999425e-01    4.99999998e+00    3.96567483e-09    5.00000003e-01    4.99999998e+00
38       8.63975892e-09    4.99995568e-01    4.99999998e+00    3.96917526e-09    5.00000003e-01    4.99999998e+00
39       8.85959747e-09    4.99989653e-01    4.99999998e+00    3.97247609e-09    5.00000003e-01    4.99999998e+00
40       9.07943602e-09    4.99978423e-01    4.99999998e+00    3.97558912e-09    5.00000003e-01    4.99999998e+00
41       9.26863028e-09    4.99964799e-01    4.99999998e+00    3.97812576e-09    5.00000003e-01    4.99999998e+00
42       9.43890511e-09    4.99966133e-01    4.99999998e+00    3.98030143e-09    5.00000003e-01    4.99999998e+00
43       9.60917994e-09    4.99992456e-01    4.99999998e+00    3.98238080e-09    5.00000003e-01    4.99999998e+00
44       9.77945477e-09    5.00053769e-01    4.99999998e+00    3.98436748e-09    5.00000003e-01    4.99999998e+00
45       9.94972960e-09    5.00154451e-01    4.99999998e+00    3.98626638e-09    5.00000003e-01    4.99999998e+00
46       1.01200044e-08    5.00293897e-01    4.99999998e+00    3.98808094e-09    5.00000003e-01    4.99999998e+00
47       1.02902793e-08    5.00469290e-01    4.99999998e+00    3.98981473e-09    5.00000003e-01    4.99999998e+00
48       1.04605541e-08    5.00677921e-01    4.99999998e+00    3.99147150e-09    5.00000003e-01    4.99999998e+00
49       1.06308289e-08    5.00886583e-01    4.99999998e+00    3.99305470e-09    5.00000003e-01    4.99999998e+00
50       1.08011037e-08    5.01055132e-01    4.99999998e+00    3.99456730e-09    5.00000003e-01    4.99999998e+00
51       1.09713786e-08    5.01176832e-01    4.99999998e+00    3.99601340e-09    5.00000003e-01    4.99999998e+00
52       1.11416534e-08    5.01257936e-01    4.99999998e+00    3.99739455e-09    5.00000003e-01    4.99999998e+00
53       1.13119282e-08    5.01308382e-01    4.99999998e+00    3.99871432e-09    5.00000003e-01    4.99999998e+00
54       1.14822031e-08    5.01324004e-01    4.99999998e+00    3.99997621e-09    5.00000003e-01    4.99999998e+00
55       1.16524779e-08    5.01263333e-01    4.99999998e+00    4.00118129e-09    5.00000004e-01    4.99999998e+00
56       1.18227527e-08    5.01038014e-01    4.99999998e+00    4.00233320e-09    5.00000004e-01    4.99999998e+00
57       1.19930275e-08    5.00538281e-01    4.99999998e+00    4.00343378e-09    5.00000004e-01    4.99999998e+00
58       1.23335772e-08    4.98455649e-01    4.99999998e+00    4.00549121e-09    5.00000004e-01    4.99999998e+00
59       1.26741269e-08    4.94509822e-01    4.99999998e+00    4.00736979e-09    5.00000004e-01    4.99999998e+00
60       1.29806216e-08    4.87508836e-01    4.99999998e+00    4.00892014e-09    5.00000004e-01    4.99999998e+00
61       1.32405258e-08    4.81947553e-01    4.99999998e+00    4.01013875e-09    5.00000004e-01    4.99999998e+00
62       1.34744397e-08    4.88523335e-01    4.99999998e+00    4.01116509e-09    5.00000004e-01    4.99999998e+00
63       1.37083535e-08    5.20174949e-01    4.99999998e+00    4.01212971e-09    5.00000004e-01    4.99999998e+00
64       1.39422674e-08    5.92179153e-01    4.99999998e+00    4.01303587e-09    5.00000004e-01    4.99999998e+00
65       1.41761812e-08    7.21506554e-01    4.99999998e+00    4.01388658e-09    5.00000004e-01    4.99999998e+00
66       1.44100951e-08    9.22951199e-01    5.00000833e+00    7.40137678e-04    5.00027452e-01    5.00010679e+00
67       1.46440089e-08    1.18603597e+00    5.00010770e+00    8.66262276e-03    5.00372001e-01    5.00124176e+00
68       1.48779227e-08    1.48673285e+00    4.99820855e+00    2.27260324e-02    5.00738535e-01    5.00311332e+00
69       1.51118366e-08    1.81294078e+00    4.98467505e+00    3.79652724e-02    4.98065267e-01    5.00448990e+00
70       1.53457504e-08    2.15300084e+00    4.94983385e+00    6.02462960e-02    4.89529526e-01    5.00512387e+00
71       1.55796643e-08    2.49309585e+00    4.89290047e+00    9.23977030e-02    4.75886502e-01    5.00400030e+00
72       1.58135781e-08    2.82193721e+00    4.81863545e+00    1.32513926e-01    4.59803831e-01    4.99964173e+00
73       1.60000000e-08    3.07182525e+00    4.75154404e+00    1.68486925e-01    4.47253949e-01    4.99310772e+00
End of Xyce(TM) Simulation
