Index        TIME             V(51)            V(10)            V(20)            V(30)            V(40)
0       0.00000000e+00   0.00000000e+00   3.74285653e-64   4.52072410e-79   1.65781133e-39   1.60910906e-69   
1       1.00000000e-11   4.47757481e-02   1.59745796e-02   7.58000131e-03   1.33869375e-02   7.47004717e-03   
2       1.12500000e-11   5.03412992e-02   1.79404871e-02   8.47003337e-03   1.49188451e-02   8.39012732e-03   
3       1.26224266e-11   5.64439404e-02   2.00900455e-02   9.40492776e-03   1.65400137e-02   9.40219764e-03   
4       1.39948531e-11   6.25382118e-02   2.22303870e-02   1.03020848e-02   1.81299393e-02   1.04157940e-02   
5       1.53672797e-11   6.86241250e-02   2.43615424e-02   1.11662545e-02   1.97024961e-02   1.14307831e-02   
6       1.81121328e-11   8.07709227e-02   2.85972060e-02   1.28266243e-02   2.28192570e-02   1.34601317e-02   
7       2.05825006e-11   9.16745704e-02   3.23767029e-02   1.42261659e-02   2.56020432e-02   1.52978119e-02   
8       2.30528684e-11   1.02551315e-01   3.61269661e-02   1.55774623e-02   2.83676269e-02   1.71369647e-02   
9       2.55232362e-11   1.13401224e-01   3.98481649e-02   1.68903789e-02   3.11178583e-02   1.89765649e-02   
10      3.04639719e-11   1.35020796e-01   4.72060975e-02   1.94335627e-02   3.65703274e-02   2.26426423e-02   
11      3.49106339e-11   1.54387294e-01   5.37267374e-02   2.16409022e-02   4.14377604e-02   2.59523449e-02   
12      3.93572960e-11   1.73667866e-01   6.01559899e-02   2.37927957e-02   4.62496546e-02   2.92455694e-02   
13      4.38039580e-11   1.92862895e-01   6.64947224e-02   2.58965690e-02   5.10118605e-02   3.25176094e-02   
14      5.26972822e-11   2.30997836e-01   7.89082104e-02   2.99644832e-02   6.03817508e-02   3.89644224e-02   
15      6.07012739e-11   2.65030514e-01   8.97721725e-02   3.35204567e-02   6.86790941e-02   4.46849662e-02   
16      6.87052656e-11   2.98791881e-01   1.00356278e-01   3.69450886e-02   7.68093072e-02   5.02773859e-02   
17      7.67092573e-11   3.32284102e-01   1.10664517e-01   4.02475748e-02   8.47870050e-02   5.57318229e-02   
18      9.27172407e-11   3.98469667e-01   1.30471047e-01   4.64728066e-02   1.00276202e-01   6.61881059e-02   
19      1.07124426e-10   4.57137539e-01   1.47389918e-01   5.17702105e-02   1.13767055e-01   7.50908602e-02   
20      1.21531611e-10   5.14966232e-01   1.63469922e-01   5.66812730e-02   1.26760497e-01   8.34804641e-02   
21      1.35938796e-10   5.71967750e-01   1.78725735e-01   6.12399610e-02   1.39292931e-01   9.13608418e-02   
22      1.50345981e-10   6.28153923e-01   1.93170174e-01   6.56133631e-02   1.51374066e-01   9.89225622e-02   
23      1.79160351e-10   7.38126722e-01   2.19633971e-01   7.42556496e-02   1.74847667e-01   1.13725071e-01   
24      1.85290610e-10   7.61117437e-01   2.24860158e-01   7.61079552e-02   1.79808590e-01   1.16812920e-01   
25      1.86823175e-10   7.66843128e-01   2.26143932e-01   7.65689932e-02   1.81041151e-01   1.17581479e-01   
26      1.87567049e-10   7.69619095e-01   2.26763854e-01   7.67925410e-02   1.81638709e-01   1.17953997e-01   
27      1.88041528e-10   7.71388663e-01   2.27158196e-01   7.69350730e-02   1.82019692e-01   1.18191423e-01   
28      1.88516007e-10   7.73157391e-01   2.27551722e-01   7.70775860e-02   1.82400610e-01   1.18428703e-01   
29      1.89464965e-10   7.76692332e-01   2.28336424e-01   7.73626721e-02   1.83162400e-01   1.18902811e-01   
30      1.90184953e-10   7.79372103e-01   2.28929576e-01   7.75789083e-02   1.83740045e-01   1.19262144e-01   
31      1.91624929e-10   7.84725862e-01   2.30114756e-01   7.80115205e-02   1.84895054e-01   1.19979800e-01   
32      1.93064905e-10   7.90071917e-01   2.31300970e-01   7.84439988e-02   1.86049050e-01   1.20696164e-01   
33      1.93424899e-10   7.91407228e-01   2.31597599e-01   7.85520110e-02   1.86337200e-01   1.20875059e-01   
34      1.94144887e-10   7.94076409e-01   2.32191098e-01   7.87680689e-02   1.86913579e-01   1.21232605e-01   
35      1.94639207e-10   7.95907870e-01   2.32598694e-01   7.89163655e-02   1.87309139e-01   1.21477900e-01   
36      1.95084096e-10   7.97555411e-01   2.32965621e-01   7.90498170e-02   1.87665068e-01   1.21698536e-01   
37      1.95476922e-10   7.99009545e-01   2.33289677e-01   7.91676394e-02   1.87979280e-01   1.21893252e-01   
38      1.95830467e-10   8.00317777e-01   2.33581379e-01   7.92736706e-02   1.88262019e-01   1.22068416e-01   
39      1.96148656e-10   8.01494791e-01   2.33843951e-01   7.93690913e-02   1.88516441e-01   1.22225998e-01   
40      1.96466846e-10   8.02671430e-01   2.34106562e-01   7.94645080e-02   1.88770828e-01   1.22383518e-01   
41      1.96625941e-10   8.03259610e-01   2.34237877e-01   7.95122085e-02   1.88897991e-01   1.22462254e-01   
42      1.96944131e-10   8.04435687e-01   2.34500543e-01   7.96076191e-02   1.89152326e-01   1.22619682e-01   
43      1.97103226e-10   8.05023586e-01   2.34631883e-01   7.96553165e-02   1.89279462e-01   1.22698372e-01   
44      1.97182773e-10   8.05317500e-01   2.34697556e-01   7.96791633e-02   1.89343022e-01   1.22737712e-01   
45      1.97341868e-10   8.05905258e-01   2.34828910e-01   7.97268591e-02   1.89470146e-01   1.22816379e-01   
46      1.97500963e-10   8.06492923e-01   2.34960272e-01   7.97745540e-02   1.89597262e-01   1.22895031e-01   
47      1.97580510e-10   8.06786721e-01   2.35025955e-01   7.97983995e-02   1.89660811e-01   1.22934352e-01   
48      1.97620284e-10   8.06933611e-01   2.35058797e-01   7.98103217e-02   1.89692584e-01   1.22954010e-01   
49      1.97640171e-10   8.07007053e-01   2.35075218e-01   7.98162827e-02   1.89708470e-01   1.22963839e-01   
50      1.97650114e-10   8.07043774e-01   2.35083428e-01   7.98192632e-02   1.89716413e-01   1.22968754e-01   
51      1.97670001e-10   8.07117215e-01   2.35099850e-01   7.98252242e-02   1.89732299e-01   1.22978582e-01   
52      1.97709775e-10   8.07264091e-01   2.35132693e-01   7.98371462e-02   1.89764071e-01   1.22998239e-01   
53      1.97729662e-10   8.07337528e-01   2.35149114e-01   7.98431072e-02   1.89779957e-01   1.23008067e-01   
54      1.97739605e-10   8.07374245e-01   2.35157325e-01   7.98460876e-02   1.89787899e-01   1.23012981e-01   
55      1.97759492e-10   8.07447679e-01   2.35173747e-01   7.98520485e-02   1.89803785e-01   1.23022808e-01   
56      1.97769435e-10   8.07484396e-01   2.35181958e-01   7.98550289e-02   1.89811727e-01   1.23027722e-01   
57      1.97789322e-10   8.07557827e-01   2.35198380e-01   7.98609898e-02   1.89827612e-01   1.23037549e-01   
58      1.97829096e-10   8.07704687e-01   2.35231224e-01   7.98729117e-02   1.89859383e-01   1.23057203e-01   
59      1.97848983e-10   8.07778114e-01   2.35247646e-01   7.98788725e-02   1.89875268e-01   1.23067029e-01   
60      1.97858926e-10   8.07814827e-01   2.35255857e-01   7.98818529e-02   1.89883210e-01   1.23071942e-01   
61      1.97878813e-10   8.07888253e-01   2.35272280e-01   7.98878137e-02   1.89899095e-01   1.23081768e-01   
62      1.97888757e-10   8.07924965e-01   2.35280491e-01   7.98907941e-02   1.89907037e-01   1.23086681e-01   
63      1.97908643e-10   8.07998388e-01   2.35296914e-01   7.98967548e-02   1.89922921e-01   1.23096507e-01   
64      1.97918587e-10   8.08035099e-01   2.35305125e-01   7.98997352e-02   1.89930863e-01   1.23101420e-01   
65      1.97938474e-10   8.08108520e-01   2.35321548e-01   7.99056959e-02   1.89946748e-01   1.23111245e-01   
66      1.97978247e-10   8.08255357e-01   2.35354394e-01   7.99176176e-02   1.89978516e-01   1.23130895e-01   
67      1.97998134e-10   8.08328773e-01   2.35370818e-01   7.99235783e-02   1.89994400e-01   1.23140720e-01   
68      1.98037908e-10   8.08475602e-01   2.35403665e-01   7.99354999e-02   1.90026168e-01   1.23160369e-01   
69      1.98057795e-10   8.08549014e-01   2.35420088e-01   7.99414606e-02   1.90042052e-01   1.23170193e-01   
70      1.98067738e-10   8.08585720e-01   2.35428300e-01   7.99444409e-02   1.90049993e-01   1.23175104e-01   
71      1.98087625e-10   8.08659129e-01   2.35444724e-01   7.99504015e-02   1.90065877e-01   1.23184928e-01   
72      1.98097569e-10   8.08695834e-01   2.35452935e-01   7.99533818e-02   1.90073818e-01   1.23189840e-01   
73      1.98117455e-10   8.08769242e-01   2.35469359e-01   7.99593424e-02   1.90089701e-01   1.23199663e-01   
74      1.98157229e-10   8.08916053e-01   2.35502208e-01   7.99712638e-02   1.90121468e-01   1.23219309e-01   
75      1.98177116e-10   8.08989456e-01   2.35518632e-01   7.99772244e-02   1.90137351e-01   1.23229131e-01   
76      1.98187059e-10   8.09026157e-01   2.35526844e-01   7.99802046e-02   1.90145292e-01   1.23234043e-01   
77      1.98206946e-10   8.09099558e-01   2.35543269e-01   7.99861652e-02   1.90161174e-01   1.23243865e-01   
78      1.98216890e-10   8.09136258e-01   2.35551481e-01   7.99891454e-02   1.90169115e-01   1.23248776e-01   
79      1.98236777e-10   8.09209657e-01   2.35567905e-01   7.99951060e-02   1.90184998e-01   1.23258597e-01   
80      1.98246720e-10   8.09246356e-01   2.35576118e-01   7.99980862e-02   1.90192939e-01   1.23263508e-01   
81      1.98266607e-10   8.09319753e-01   2.35592542e-01   8.00040467e-02   1.90208821e-01   1.23273330e-01   
82      1.98306381e-10   8.09466542e-01   2.35625392e-01   8.00159679e-02   1.90240585e-01   1.23292972e-01   
83      1.98326267e-10   8.09539934e-01   2.35641818e-01   8.00219284e-02   1.90256467e-01   1.23302793e-01   
84      1.98366041e-10   8.09686715e-01   2.35674668e-01   8.00338495e-02   1.90288231e-01   1.23322433e-01   
85      1.98385928e-10   8.09760103e-01   2.35691094e-01   8.00398099e-02   1.90304112e-01   1.23332253e-01   
86      1.98395871e-10   8.09796796e-01   2.35699307e-01   8.00427901e-02   1.90312052e-01   1.23337163e-01   
87      1.98415758e-10   8.09870182e-01   2.35715732e-01   8.00487505e-02   1.90327933e-01   1.23346983e-01   
88      1.98425702e-10   8.09906875e-01   2.35723945e-01   8.00517307e-02   1.90335874e-01   1.23351893e-01   
89      1.98445589e-10   8.09980258e-01   2.35740371e-01   8.00576911e-02   1.90351755e-01   1.23361712e-01   
90      1.98485362e-10   8.10127021e-01   2.35773223e-01   8.00696120e-02   1.90383517e-01   1.23381350e-01   
91      1.98505249e-10   8.10200400e-01   2.35789649e-01   8.00755724e-02   1.90399397e-01   1.23391169e-01   
92      1.98515193e-10   8.10237089e-01   2.35797862e-01   8.00785525e-02   1.90407337e-01   1.23396078e-01   
93      1.98535080e-10   8.10310466e-01   2.35814288e-01   8.00845128e-02   1.90423217e-01   1.23405896e-01   
94      1.98545023e-10   8.10347154e-01   2.35822501e-01   8.00874930e-02   1.90431157e-01   1.23410805e-01   
95      1.98564910e-10   8.10420529e-01   2.35838928e-01   8.00934533e-02   1.90447037e-01   1.23420623e-01   
96      1.98574853e-10   8.10457216e-01   2.35847141e-01   8.00964334e-02   1.90454977e-01   1.23425532e-01   
97      1.98594740e-10   8.10530589e-01   2.35863568e-01   8.01023937e-02   1.90470857e-01   1.23435349e-01   
98      1.98634514e-10   8.10677330e-01   2.35896421e-01   8.01143144e-02   1.90502617e-01   1.23454984e-01   
99      1.98654401e-10   8.10750698e-01   2.35912848e-01   8.01202746e-02   1.90518496e-01   1.23464800e-01   
100     1.98694174e-10   8.10897430e-01   2.35945703e-01   8.01321953e-02   1.90550255e-01   1.23484433e-01   
101     1.98714061e-10   8.10970794e-01   2.35962130e-01   8.01381555e-02   1.90566134e-01   1.23494249e-01   
102     1.98724005e-10   8.11007476e-01   2.35970343e-01   8.01411355e-02   1.90574073e-01   1.23499157e-01   
103     1.98743892e-10   8.11080838e-01   2.35986771e-01   8.01470957e-02   1.90589952e-01   1.23508973e-01   
104     1.98753835e-10   8.11117518e-01   2.35994985e-01   8.01500758e-02   1.90597891e-01   1.23513881e-01   
105     1.98773722e-10   8.11190877e-01   2.36011412e-01   8.01560359e-02   1.90613769e-01   1.23523696e-01   
106     1.98813496e-10   8.11337592e-01   2.36044268e-01   8.01679564e-02   1.90645526e-01   1.23543326e-01   
107     1.98833382e-10   8.11410947e-01   2.36060696e-01   8.01739165e-02   1.90661404e-01   1.23553141e-01   
108     1.98873156e-10   8.11557653e-01   2.36093552e-01   8.01858369e-02   1.90693161e-01   1.23572770e-01   
109     1.98893043e-10   8.11631004e-01   2.36109980e-01   8.01917970e-02   1.90709038e-01   1.23582584e-01   
110     1.98902986e-10   8.11667679e-01   2.36118194e-01   8.01947770e-02   1.90716977e-01   1.23587490e-01   
111     1.98922873e-10   8.11741028e-01   2.36134622e-01   8.02007371e-02   1.90732854e-01   1.23597304e-01   
112     1.98932817e-10   8.11777701e-01   2.36142837e-01   8.02037171e-02   1.90740793e-01   1.23602211e-01   
113     1.98952704e-10   8.11851048e-01   2.36159265e-01   8.02096771e-02   1.90756670e-01   1.23612024e-01   
114     1.98992477e-10   8.11997736e-01   2.36192122e-01   8.02215973e-02   1.90788424e-01   1.23631650e-01   
115     1.99012364e-10   8.12071078e-01   2.36208551e-01   8.02275573e-02   1.90804301e-01   1.23641462e-01   
116     1.99052138e-10   8.12217758e-01   2.36241409e-01   8.02394774e-02   1.90836054e-01   1.23661087e-01   
117     1.99072025e-10   8.12291096e-01   2.36257838e-01   8.02454374e-02   1.90851930e-01   1.23670898e-01   
118     1.99081968e-10   8.12327764e-01   2.36266053e-01   8.02484173e-02   1.90859868e-01   1.23675804e-01   
119     1.99101855e-10   8.12401100e-01   2.36282482e-01   8.02543773e-02   1.90875744e-01   1.23685616e-01   
120     1.99111798e-10   8.12437767e-01   2.36290697e-01   8.02573572e-02   1.90883682e-01   1.23690521e-01   
121     1.99131685e-10   8.12511100e-01   2.36307126e-01   8.02633171e-02   1.90899558e-01   1.23700332e-01   
122     1.99171459e-10   8.12657762e-01   2.36339985e-01   8.02752371e-02   1.90931309e-01   1.23719954e-01   
123     1.99191346e-10   8.12731091e-01   2.36356415e-01   8.02811969e-02   1.90947184e-01   1.23729764e-01   
124     1.99231120e-10   8.12877745e-01   2.36389275e-01   8.02931168e-02   1.90978935e-01   1.23749384e-01   
125     1.99251006e-10   8.12951069e-01   2.36405705e-01   8.02990766e-02   1.90994810e-01   1.23759194e-01   
126     1.99260950e-10   8.12987731e-01   2.36413920e-01   8.03020565e-02   1.91002747e-01   1.23764099e-01   
127     1.99280837e-10   8.13061053e-01   2.36430350e-01   8.03080163e-02   1.91018622e-01   1.23773908e-01   
128     1.99290780e-10   8.13097714e-01   2.36438565e-01   8.03109962e-02   1.91026559e-01   1.23778813e-01   
129     1.99310667e-10   8.13171034e-01   2.36454995e-01   8.03169560e-02   1.91042433e-01   1.23788622e-01   
130     1.99350441e-10   8.13317670e-01   2.36487856e-01   8.03288757e-02   1.91074182e-01   1.23808239e-01   
131     1.99370328e-10   8.13390986e-01   2.36504287e-01   8.03348354e-02   1.91090056e-01   1.23818047e-01   
132     1.99410101e-10   8.13537613e-01   2.36537148e-01   8.03467550e-02   1.91121803e-01   1.23837663e-01   
133     1.99429988e-10   8.13610925e-01   2.36553579e-01   8.03527147e-02   1.91137677e-01   1.23847471e-01   
134     1.99439932e-10   8.13647580e-01   2.36561795e-01   8.03556945e-02   1.91145613e-01   1.23852374e-01   
135     1.99459819e-10   8.13720889e-01   2.36578226e-01   8.03616542e-02   1.91161486e-01   1.23862181e-01   
136     1.99469762e-10   8.13757543e-01   2.36586441e-01   8.03646340e-02   1.91169423e-01   1.23867085e-01   
137     1.99489649e-10   8.13830850e-01   2.36602872e-01   8.03705937e-02   1.91185296e-01   1.23876892e-01   
138     1.99529423e-10   8.13977460e-01   2.36635735e-01   8.03825131e-02   1.91217042e-01   1.23896505e-01   
139     1.99549309e-10   8.14050763e-01   2.36652166e-01   8.03884727e-02   1.91232914e-01   1.23906311e-01   
140     1.99589083e-10   8.14197364e-01   2.36685029e-01   8.04003921e-02   1.91264659e-01   1.23925923e-01   
141     1.99608970e-10   8.14270662e-01   2.36701461e-01   8.04063516e-02   1.91280531e-01   1.23935728e-01   
142     1.99618913e-10   8.14307311e-01   2.36709677e-01   8.04093314e-02   1.91288467e-01   1.23940631e-01   
143     1.99638800e-10   8.14380607e-01   2.36726109e-01   8.04152909e-02   1.91304338e-01   1.23950436e-01   
144     1.99648744e-10   8.14417254e-01   2.36734325e-01   8.04182706e-02   1.91312274e-01   1.23955338e-01   
145     1.99668631e-10   8.14490548e-01   2.36750757e-01   8.04242301e-02   1.91328145e-01   1.23965143e-01   
146     1.99708404e-10   8.14637132e-01   2.36783621e-01   8.04361493e-02   1.91359888e-01   1.23984752e-01   
147     1.99728291e-10   8.14710421e-01   2.36800053e-01   8.04421088e-02   1.91375759e-01   1.23994556e-01   
148     1.99768065e-10   8.14856996e-01   2.36832918e-01   8.04540279e-02   1.91407501e-01   1.24014163e-01   
149     1.99787952e-10   8.14930281e-01   2.36849350e-01   8.04599873e-02   1.91423372e-01   1.24023966e-01   
150     1.99797895e-10   8.14966923e-01   2.36857567e-01   8.04629670e-02   1.91431307e-01   1.24028868e-01   
151     1.99817782e-10   8.15040206e-01   2.36873999e-01   8.04689264e-02   1.91447177e-01   1.24038671e-01   
152     1.99827725e-10   8.15076847e-01   2.36882215e-01   8.04719060e-02   1.91455112e-01   1.24043572e-01   
153     1.99847612e-10   8.15150128e-01   2.36898648e-01   8.04778654e-02   1.91470982e-01   1.24053375e-01   
154     1.99857556e-10   8.15186768e-01   2.36906865e-01   8.04808451e-02   1.91478917e-01   1.24058276e-01   
155     1.99877443e-10   8.15260047e-01   2.36923298e-01   8.04868044e-02   1.91494787e-01   1.24068078e-01   
156     1.99917216e-10   8.15406599e-01   2.36956164e-01   8.04987233e-02   1.91526526e-01   1.24087682e-01   
157     1.99937103e-10   8.15479874e-01   2.36972597e-01   8.05046826e-02   1.91542396e-01   1.24097483e-01   
158     1.99976877e-10   8.15626418e-01   2.37005463e-01   8.05166013e-02   1.91574134e-01   1.24117086e-01   
159     1.99996764e-10   8.15699688e-01   2.37021897e-01   8.05225606e-02   1.91590003e-01   1.24126887e-01   
160     2.00006707e-10   8.15736322e-01   2.37030113e-01   8.05255402e-02   1.91597937e-01   1.24131787e-01   
161     2.00026594e-10   8.15809590e-01   2.37046547e-01   8.05314994e-02   1.91613806e-01   1.24141587e-01   
162     2.00036537e-10   8.15846223e-01   2.37054764e-01   8.05344790e-02   1.91621740e-01   1.24146488e-01   
163     2.00056424e-10   8.15919489e-01   2.37071197e-01   8.05404382e-02   1.91637608e-01   1.24156288e-01   
164     2.00096198e-10   8.16066015e-01   2.37104065e-01   8.05523568e-02   1.91669345e-01   1.24175887e-01   
165     2.00116085e-10   8.16139276e-01   2.37120499e-01   8.05583159e-02   1.91685213e-01   1.24185687e-01   
166     2.00155859e-10   8.16285794e-01   2.37153367e-01   8.05702344e-02   1.91716948e-01   1.24205285e-01   
167     2.00175745e-10   8.16359051e-01   2.37169801e-01   8.05761935e-02   1.91732816e-01   1.24215084e-01   
168     2.00185689e-10   8.16395679e-01   2.37178018e-01   8.05791731e-02   1.91740749e-01   1.24219983e-01   
169     2.00205576e-10   8.16468934e-01   2.37194452e-01   8.05851322e-02   1.91756616e-01   1.24229781e-01   
170     2.00215519e-10   8.16505560e-01   2.37202669e-01   8.05881117e-02   1.91764550e-01   1.24234680e-01   
171     2.00235406e-10   8.16578813e-01   2.37219104e-01   8.05940707e-02   1.91780417e-01   1.24244478e-01   
172     2.00245349e-10   8.16615438e-01   2.37227321e-01   8.05970502e-02   1.91788350e-01   1.24249377e-01   
173     2.00265236e-10   8.16688689e-01   2.37243755e-01   8.06030093e-02   1.91804216e-01   1.24259175e-01   
174     2.00305010e-10   8.16835185e-01   2.37276625e-01   8.06149275e-02   1.91835950e-01   1.24278769e-01   
175     2.00324897e-10   8.16908431e-01   2.37293059e-01   8.06208865e-02   1.91851816e-01   1.24288566e-01   
176     2.00364671e-10   8.17054918e-01   2.37325929e-01   8.06328047e-02   1.91883548e-01   1.24308160e-01   
177     2.00384557e-10   8.17128159e-01   2.37342364e-01   8.06387636e-02   1.91899414e-01   1.24317956e-01   
178     2.00394501e-10   8.17164780e-01   2.37350582e-01   8.06417430e-02   1.91907346e-01   1.24322854e-01   
