Index       V(2)              I(V1)            {I(V1)}      d_{I(V1)}/d_DA:RS_adj d_{I(V1)}/d_DA:IS_adj
0        1.00000000e-01    4.06125474e-08    4.06125474e-08   -6.30096028e-14    4.06124474e+01
1        2.00000000e-01    1.73059596e-06    1.73059596e-06   -1.11728672e-10    1.73059574e+03
2        3.00000000e-01    7.20549067e-05    7.20549067e-05   -1.93577724e-07    7.20548745e+04
3        4.00000000e-01    2.99836764e-03    2.99836764e-03   -3.35184804e-04    2.99831233e+06
4        5.00000000e-01    1.24676096e-01    1.24676096e-01   -5.79103037e-01    1.24580544e+08
5        6.00000000e-01    5.03374046e+00    5.03374046e+00   -9.16346581e+02    4.88254327e+09
6        7.00000000e-01    1.09891436e+02    1.09891436e+02   -2.68645720e+05    6.55648919e+10
7        8.00000000e-01    4.77239542e+02    4.77239542e+02   -2.15749638e+06    1.21252640e+11
8        9.00000000e-01    9.68291827e+02    9.68291827e+02   -5.02488085e+06    1.39186486e+11
9        1.00000000e+00    1.50289222e+03    1.50289222e+03   -8.21943239e+06    1.46685874e+11
10       1.10000000e+00    2.05786612e+03    2.05786612e+03   -1.15588719e+07    1.50652261e+11
11       1.20000000e+00    2.62439696e+03    2.62439696e+03   -1.49777307e+07    1.53071393e+11
12       1.30000000e+00    3.19830936e+03    3.19830936e+03   -1.84461754e+07    1.54690426e+11
13       1.40000000e+00    3.77732236e+03    3.77732236e+03   -2.19483425e+07    1.55845854e+11
14       1.50000000e+00    4.36006144e+03    4.36006144e+03   -2.54748572e+07    1.56710005e+11
15       1.60000000e+00    4.94563724e+03    4.94563724e+03   -2.90197423e+07    1.57379757e+11
16       1.70000000e+00    5.53344250e+03    5.53344250e+03   -3.25789632e+07    1.57913564e+11
17       1.80000000e+00    6.12304477e+03    6.12304477e+03   -3.61496852e+07    1.58346715e+11
18       1.90000000e+00    6.71412549e+03    6.71412549e+03   -3.97297990e+07    1.58708664e+11
19       2.00000000e+00    7.30644342e+03    7.30644342e+03   -4.33177554e+07    1.59013780e+11
End of Xyce(TM) Sensitivity Simulation
