Index    TIME    v(drain)mean    v(drain)meanPlus    v(drain)meanMinus    v(drain)stddev    v(drain)variance    
0   0.00000000e+00   1.00000000e+00   1.00000000e+00   1.00000000e+00   3.41589900e-09   1.16683600e-17   
1   1.00000000e-09   1.00000000e+00   1.00000000e+00   1.00000000e+00   3.57678600e-09   1.27934000e-17   
2   3.00000000e-09   1.00000000e+00   1.00000000e+00   1.00000000e+00   3.57902300e-09   1.28094000e-17   
3   7.00000000e-09   1.00000000e+00   1.00000000e+00   1.00000000e+00   3.57905200e-09   1.28096100e-17   
4   1.50000000e-08   1.00000000e+00   1.00000000e+00   1.00000000e+00   3.57902300e-09   1.28094000e-17   
5   3.10000000e-08   1.00000000e+00   1.00000000e+00   1.00000000e+00   3.57905200e-09   1.28096100e-17   
6   6.30000000e-08   1.00000000e+00   1.00000000e+00   1.00000000e+00   3.57902300e-09   1.28094100e-17   
7   1.03000000e-07   1.00000000e+00   1.00000000e+00   1.00000000e+00   3.57905200e-09   1.28096100e-17   
8   1.43000000e-07   1.00000000e+00   1.00000000e+00   1.00000000e+00   3.57902300e-09   1.28094100e-17   
9   1.83000000e-07   1.00000000e+00   1.00000000e+00   1.00000000e+00   3.57905200e-09   1.28096100e-17   
10   2.23000000e-07   1.00000000e+00   1.00000000e+00   1.00000000e+00   3.57902300e-09   1.28094100e-17   
11   2.63000000e-07   1.00000000e+00   1.00000000e+00   1.00000000e+00   3.57905200e-09   1.28096100e-17   
12   3.03000000e-07   1.00000000e+00   1.00000000e+00   1.00000000e+00   3.57902300e-09   1.28094100e-17   
13   3.43000000e-07   1.00000000e+00   1.00000000e+00   1.00000000e+00   3.57905200e-09   1.28096100e-17   
14   3.83000000e-07   1.00000000e+00   1.00000000e+00   1.00000000e+00   3.57902300e-09   1.28094100e-17   
15   4.00000000e-07   1.00000000e+00   1.00000000e+00   1.00000000e+00   3.57905200e-09   1.28096100e-17   
16   4.01096000e-07   1.00008600e+00   1.00010900e+00   1.00006200e+00   2.38553000e-05   5.69075500e-10   
17   4.01970600e-07   1.00008900e+00   1.00011500e+00   1.00006300e+00   2.58541200e-05   6.68435700e-10   
18   4.03719900e-07   1.00009400e+00   1.00012400e+00   1.00006500e+00   2.96832200e-05   8.81093700e-10   
19   4.07218400e-07   1.00011000e+00   1.00015100e+00   1.00006900e+00   4.11467400e-05   1.69305400e-09   
20   4.14215500e-07   1.00016500e+00   1.00025500e+00   1.00007500e+00   9.03821500e-05   8.16893400e-09   
21   4.28209700e-07   1.00074200e+00   1.00151300e+00   9.99970400e-01   7.71283100e-04   5.94877700e-07   
22   4.32642600e-07   1.00138200e+00   1.00304100e+00   9.99721900e-01   1.65967700e-03   2.75452800e-06   
23   4.37075500e-07   1.00197800e+00   1.00569700e+00   9.98258500e-01   3.71926800e-03   1.38329500e-05   
24   4.37750300e-07   1.00210300e+00   1.00664500e+00   9.97559700e-01   4.54291600e-03   2.06380800e-05   
25   4.39099700e-07   1.00206200e+00   1.00903800e+00   9.95085900e-01   6.97629500e-03   4.86686900e-05   
26   4.40449100e-07   1.00140900e+00   1.01296200e+00   9.89855100e-01   1.15536100e-02   1.33485800e-04   
27   4.41798600e-07   9.99675300e-01   1.01930500e+00   9.80045100e-01   1.96301300e-02   3.85342100e-04   
28   4.43148000e-07   9.96026600e-01   1.02891200e+00   9.63141300e-01   3.28852700e-02   1.08144100e-03   
29   4.44497500e-07   9.89214200e-01   1.04254100e+00   9.35887600e-01   5.33265500e-02   2.84372100e-03   
30   4.45712000e-07   9.79027500e-01   1.05866100e+00   8.99393900e-01   7.96336500e-02   6.34151800e-03   
31   4.46805000e-07   9.65327700e-01   1.07629200e+00   8.54363200e-01   1.10964500e-01   1.23131100e-02   
32   4.47788800e-07   9.48350800e-01   1.09433700e+00   8.02365100e-01   1.45985700e-01   2.13118200e-02   
33   4.48674100e-07   9.28571900e-01   1.11158400e+00   7.45560000e-01   1.83011800e-01   3.34933300e-02   
34   4.49559500e-07   9.04308100e-01   1.12720300e+00   6.81413000e-01   2.22895100e-01   4.96822300e-02   
35   4.50340900e-07   8.79622000e-01   1.13713800e+00   6.22105900e-01   2.57516200e-01   6.63145800e-02   
36   4.50995800e-07   8.56903900e-01   1.14229100e+00   5.71516500e-01   2.85387400e-01   8.14459700e-02   
37   4.51585300e-07   8.35543100e-01   1.14382700e+00   5.27259700e-01   3.08283400e-01   9.50386500e-02   
38   4.52097700e-07   8.16615100e-01   1.14274100e+00   4.90488800e-01   3.26126200e-01   1.06358300e-01   
39   4.52559000e-07   7.99167000e-01   1.14040000e+00   4.57933600e-01   3.41233400e-01   1.16440200e-01   
40   4.53020200e-07   7.81329000e-01   1.13696600e+00   4.25692300e-01   3.55636800e-01   1.26477500e-01   
41   4.53481500e-07   7.63238800e-01   1.13243000e+00   3.94048100e-01   3.69190700e-01   1.36301800e-01   
42   4.53896600e-07   7.46971700e-01   1.12726400e+00   3.66679600e-01   3.80292000e-01   1.44622000e-01   
43   4.54311700e-07   7.30827200e-01   1.12105800e+00   3.40596600e-01   3.90230600e-01   1.52279900e-01   
44   4.54726900e-07   7.14920600e-01   1.11377900e+00   3.16062600e-01   3.98858000e-01   1.59087700e-01   
45   4.55100500e-07   7.00750800e-01   1.10639900e+00   2.95102200e-01   4.05648600e-01   1.64550800e-01   
46   4.55474100e-07   6.86583600e-01   1.09839600e+00   2.74771000e-01   4.11812500e-01   1.69589600e-01   
47   4.55847700e-07   6.72416900e-01   1.08980300e+00   2.55031200e-01   4.17385600e-01   1.74210800e-01   
48   4.56221300e-07   6.58152500e-01   1.08071700e+00   2.35588200e-01   4.22564300e-01   1.78560600e-01   
49   4.56594900e-07   6.43681600e-01   1.07125000e+00   2.16113600e-01   4.27568000e-01   1.82814400e-01   
50   4.56968500e-07   6.29120500e-01   1.06139300e+00   1.96847700e-01   4.32272800e-01   1.86859800e-01   
51   4.57342100e-07   6.14676000e-01   1.05108200e+00   1.78270200e-01   4.36405800e-01   1.90450000e-01   
52   4.57715800e-07   6.00386200e-01   1.04032200e+00   1.60450000e-01   4.39936200e-01   1.93543800e-01   
53   4.58089400e-07   5.86166700e-01   1.02917400e+00   1.43159400e-01   4.43007400e-01   1.96255500e-01   
54   4.58463000e-07   5.71976200e-01   1.01768000e+00   1.26272200e-01   4.45704000e-01   1.98652100e-01   
55   4.58836600e-07   5.57803700e-01   1.00586400e+00   1.09743100e-01   4.48060600e-01   2.00758300e-01   
56   4.59210200e-07   5.43589500e-01   9.93770400e-01   9.34086500e-02   4.50180900e-01   2.02662800e-01   
57   4.59583800e-07   5.29405400e-01   9.81414700e-01   7.73961200e-02   4.52009300e-01   2.04312400e-01   
58   4.59957400e-07   5.15409500e-01   9.68773100e-01   6.20458600e-02   4.53363600e-01   2.05538600e-01   
59   4.60331000e-07   5.01672800e-01   9.55840300e-01   4.75053500e-02   4.54167500e-01   2.06268100e-01   
60   4.60704700e-07   4.88287000e-01   9.42595900e-01   3.39781200e-02   4.54308900e-01   2.06396600e-01   
61   4.61078300e-07   4.75201800e-01   9.29022700e-01   2.13808400e-02   4.53820900e-01   2.05953500e-01   
62   4.61451900e-07   4.62192700e-01   9.15131700e-01   9.25373400e-03   4.52939000e-01   2.05153700e-01   
63   4.61825500e-07   4.49222500e-01   9.00928200e-01   -2.48318500e-03   4.51705700e-01   2.04038000e-01   
64   4.62199100e-07   4.36378000e-01   8.86401000e-01   -1.36449300e-02   4.50023000e-01   2.02520700e-01   
65   4.62572700e-07   4.23691800e-01   8.71538700e-01   -2.41551000e-02   4.47846900e-01   2.00566800e-01   
66   4.62946300e-07   4.11233700e-01   8.56320400e-01   -3.38530400e-02   4.45086700e-01   1.98102200e-01   
67   4.63319900e-07   3.98903700e-01   8.40707100e-01   -4.28996700e-02   4.41803400e-01   1.95190200e-01   
68   4.63693500e-07   3.86550500e-01   8.24691000e-01   -5.15899300e-02   4.38140400e-01   1.91967000e-01   
69   4.64067200e-07   3.74239900e-01   8.08271300e-01   -5.97915300e-02   4.34031400e-01   1.88383300e-01   
70   4.64440800e-07   3.61952000e-01   7.91431500e-01   -6.75274000e-02   4.29479400e-01   1.84452600e-01   
71   4.64814400e-07   3.49602200e-01   7.74163700e-01   -7.49593100e-02   4.24561500e-01   1.80252500e-01   
72   4.65188000e-07   3.37225700e-01   7.56473900e-01   -8.20224400e-02   4.19248200e-01   1.75769000e-01   
73   4.65561600e-07   3.24839400e-01   7.38365700e-01   -8.86870000e-02   4.13526400e-01   1.71004000e-01   
74   4.65935200e-07   3.12419100e-01   7.19837400e-01   -9.49991600e-02   4.07418300e-01   1.65989600e-01   
75   4.66308800e-07   2.99976500e-01   7.00899700e-01   -1.00946600e-01   4.00923200e-01   1.60739400e-01   
76   4.66682400e-07   2.87565600e-01   6.81566600e-01   -1.06435400e-01   3.94001000e-01   1.55236800e-01   
77   4.67056000e-07   2.75156200e-01   6.61829500e-01   -1.11517100e-01   3.86673300e-01   1.49516200e-01   
78   4.67429700e-07   2.62700100e-01   6.41697100e-01   -1.16297000e-01   3.78997000e-01   1.43638800e-01   
79   4.67803300e-07   2.50257400e-01   6.21196400e-01   -1.20681700e-01   3.70939100e-01   1.37595800e-01   
80   4.68176900e-07   2.37838100e-01   6.00347000e-01   -1.24670800e-01   3.62508900e-01   1.31412700e-01   
81   4.68550500e-07   2.25496400e-01   5.79185400e-01   -1.28192600e-01   3.53689000e-01   1.25095900e-01   
82   4.68924100e-07   2.13360600e-01   5.57761100e-01   -1.31039900e-01   3.44400500e-01   1.18611700e-01   
83   4.69297700e-07   2.01518200e-01   5.36096400e-01   -1.33060100e-01   3.34578300e-01   1.11942600e-01   
84   4.69671300e-07   1.89959000e-01   5.14167800e-01   -1.34249700e-01   3.24208700e-01   1.05111300e-01   
85   4.70044900e-07   1.78593200e-01   4.91934100e-01   -1.34747600e-01   3.13340900e-01   9.81825000e-02   
86   4.70418600e-07   1.67348100e-01   4.69378900e-01   -1.34682600e-01   3.02030700e-01   9.12225600e-02   
87   4.70792200e-07   1.56227800e-01   4.46529900e-01   -1.34074400e-01   2.90302100e-01   8.42753400e-02   
88   4.71165800e-07   1.45350700e-01   4.23458600e-01   -1.32757200e-01   2.78107900e-01   7.73440000e-02   
89   4.71539400e-07   1.34758500e-01   4.00175300e-01   -1.30658300e-01   2.65416800e-01   7.04461000e-02   
90   4.71913000e-07   1.24421000e-01   3.76677500e-01   -1.27835400e-01   2.52256500e-01   6.36333200e-02   
91   4.72286600e-07   1.14281000e-01   3.52942900e-01   -1.24380800e-01   2.38661900e-01   5.69594900e-02   
92   4.72660200e-07   1.04237400e-01   3.28978900e-01   -1.20504200e-01   2.24741500e-01   5.05087500e-02   
93   4.73033800e-07   9.42983000e-02   3.04870700e-01   -1.16274100e-01   2.10572400e-01   4.43407200e-02   
94   4.73407400e-07   8.45270600e-02   2.80743800e-01   -1.11689700e-01   1.96216700e-01   3.85010100e-02   
95   4.73781100e-07   7.49352900e-02   2.56724500e-01   -1.06853900e-01   1.81789200e-01   3.30473100e-02   
96   4.74154700e-07   6.56512900e-02   2.33046700e-01   -1.01744100e-01   1.67395400e-01   2.80212200e-02   
97   4.74528300e-07   5.69519000e-02   2.09972800e-01   -9.60690200e-02   1.53020900e-01   2.34154000e-02   
98   4.74901900e-07   4.89428900e-02   1.87588800e-01   -8.97029900e-02   1.38645900e-01   1.92226800e-02   
99   4.75275500e-07   4.15201700e-02   1.65894900e-01   -8.28545700e-02   1.24374700e-01   1.54690800e-02   
100   4.75649100e-07   3.47226400e-02   1.45027700e-01   -7.55824000e-02   1.10305000e-01   1.21672000e-02   
101   4.76022700e-07   2.86962000e-02   1.25073500e-01   -6.76811100e-02   9.63773100e-02   9.28858500e-03   
102   4.76396300e-07   2.33241300e-02   1.05890800e-01   -5.92424900e-02   8.25666200e-02   6.81724700e-03   
103   4.76770000e-07   1.84236600e-02   8.74285800e-02   -5.05812600e-02   6.90049200e-02   4.76167900e-03   
104   4.77143600e-07   1.39790800e-02   6.98254900e-02   -4.18673300e-02   5.58464100e-02   3.11882200e-03   
105   4.77517200e-07   1.00191400e-02   5.33263000e-02   -3.32880200e-02   4.33071600e-02   1.87551000e-03   
106   4.77890800e-07   6.65575300e-03   3.84252300e-02   -2.51137300e-02   3.17694800e-02   1.00930000e-03   
107   4.78264400e-07   4.06259500e-03   2.54032700e-02   -1.72780800e-02   2.13406700e-02   4.55424300e-04   
108   4.78638000e-07   2.15866500e-03   1.42706200e-02   -9.95328800e-03   1.21119500e-02   1.46699400e-04   
109   4.79011600e-07   9.17665000e-04   6.09691600e-03   -4.26158600e-03   5.17925100e-03   2.68246400e-05   
110   4.79385200e-07   3.90326900e-04   1.74180200e-03   -9.61148700e-04   1.35147600e-03   1.82648600e-06   
111   4.79758800e-07   2.78356100e-04   6.12148300e-04   -5.54361300e-05   3.33792200e-04   1.11417200e-07   
112   4.80132500e-07   2.61229800e-04   5.63746800e-04   -4.12872800e-05   3.02517000e-04   9.15165500e-08   
113   4.80506100e-07   2.45823500e-04   5.25404800e-04   -3.37577500e-05   2.79581300e-04   7.81657000e-08   
114   4.81253300e-07   2.18596300e-04   4.58320300e-04   -2.11277500e-05   2.39724000e-04   5.74676100e-08   
115   4.82747700e-07   1.75690700e-04   3.54429700e-04   -3.04822100e-06   1.78738900e-04   3.19476100e-08   
116   4.85736600e-07   1.20418300e-04   2.24908200e-04   1.59283700e-05   1.04489900e-04   1.09181400e-08   
117   4.91714400e-07   6.87906400e-05   1.11228600e-04   2.63526500e-05   4.24379800e-05   1.80098200e-09   
118   5.00000000e-07   4.24898500e-05   5.93450300e-05   2.56346800e-05   1.68551700e-05   2.84096900e-10   
119   5.01195600e-07   1.80819900e-07   3.23721800e-07   3.79180800e-08   1.42901800e-07   2.04209400e-14   
120   5.03586700e-07   9.14921100e-09   1.39030000e-08   4.39542100e-09   4.75379000e-09   2.25985200e-17   
121   5.08368900e-07   8.35659900e-09   1.24296200e-08   4.28357900e-09   4.07302000e-09   1.65894900e-17   
122   5.17933400e-07   9.14424300e-09   1.38932900e-08   4.39519500e-09   4.74904800e-09   2.25534600e-17   
123   5.37062300e-07   8.35810900e-09   1.24325800e-08   4.28364000e-09   4.07446900e-09   1.66012900e-17   
124   5.75320100e-07   9.14359600e-09   1.38919200e-08   4.39527200e-09   4.74832400e-09   2.25465800e-17   
125   6.50320100e-07   8.35838100e-09   1.24331000e-08   4.28365700e-09   4.07472400e-09   1.66033700e-17   
126   7.25320100e-07   9.14334000e-09   1.38913700e-08   4.39530800e-09   4.74803200e-09   2.25438100e-17   
127   7.50000000e-07   8.35889800e-09   1.24341200e-08   4.28367800e-09   4.07522000e-09   1.66074200e-17   
End of Xyce(TM) Simulation
