Index       TIME              V(3)              V(2)              V(4)          I(YVSRC!VCC)      I(YVSRC!VIN)          I(D1)             I(D2)             I(R1)             I(R2)             I(R3)             I(R4)             I(C1)      
0        0.00000000e+00    0.00000000e+00    9.43396226e-01   -5.33121067e-28   -1.22927427e-03    9.43396226e-04   -4.00000000e-10   -4.00000000e-10    9.43396226e-04    1.22927387e-03    2.85877644e-04   -9.52001906e-32    0.00000000e+00
1        2.00000000e-09    1.25663706e-04    9.43406846e-01    1.06200082e-05   -1.22922964e-03    9.43281183e-04    4.10107802e-08   -6.57001073e-08    9.43281183e-04    1.22927065e-03    2.85880863e-04    1.89643003e-09    1.89645383e-09
2        6.00000000e-09    3.76991118e-04    9.43459417e-01    6.31905825e-05   -1.22915260e-03    9.43082426e-04    1.02124522e-07   -1.62094486e-07    9.43082426e-04    1.22925472e-03    2.85896793e-04    1.12840326e-08    1.12840406e-08
3        1.40000000e-08    8.79645942e-04    9.43610805e-01    2.14577859e-04   -1.22901651e-03    9.42731159e-04    1.92335361e-07   -3.04367218e-07    9.42731159e-04    1.22920885e-03    2.85942668e-04    3.83174749e-08    3.83174677e-08
4        3.00000000e-08    1.88495558e-03    9.44075856e-01    6.79626316e-04   -1.22880752e-03    9.42190900e-04    2.60405604e-07   -4.11661869e-07    9.42190900e-04    1.22906792e-03    2.86083593e-04    1.21361842e-07    1.21361848e-07
5        6.20000000e-08    3.89557479e-03    9.45178987e-01    1.78274285e-03   -1.22845689e-03    9.41283413e-04    2.76752069e-07   -4.37253474e-07    9.41283413e-04    1.22873364e-03    2.86417875e-04    3.18346938e-07    3.18346931e-07
6        1.26000000e-07    7.91681266e-03    9.47437533e-01    4.04121732e-03   -1.22777600e-03    9.39520720e-04    2.73233618e-07   -4.31350170e-07    9.39520720e-04    1.22804923e-03    2.87102283e-04    7.21645951e-07    7.21645959e-07
7        2.54000000e-07    1.59592839e-02    9.51941484e-01    8.54486298e-03   -1.22640909e-03    9.35982201e-04    2.75308412e-07   -4.33904794e-07    9.35982201e-04    1.22668440e-03    2.88467117e-04    1.52586839e-06    1.52586838e-06
8        5.10000000e-07    3.20441902e-02    9.60957264e-01    1.75593729e-02   -1.22367831e-03    9.28913074e-04    2.74031700e-07   -4.30465700e-07    9.28913074e-04    1.22395234e-03    2.91199171e-04    3.13560231e-06    3.13560231e-06
9        1.02200000e-06    6.42137125e-02    9.78982725e-01    3.55796655e-02   -1.21821432e-03    9.14769012e-04    2.75759726e-07   -4.30367613e-07    9.14769012e-04    1.21849008e-03    2.96661432e-04    6.35351169e-06    6.35351169e-06
10       2.04600000e-06    1.28550431e-01    1.01503886e+00    7.16149517e-02   -1.20728859e-03    8.86488433e-04    2.75394677e-07   -4.24234229e-07    8.86488433e-04    1.20756398e-03    3.07587534e-04    1.27883842e-05    1.27883842e-05
11       4.09400000e-06    2.57205239e-01    1.08713949e+00    1.43631836e-01   -1.18543703e-03    8.29934252e-04    2.78270801e-07   -4.18031009e-07    8.29934252e-04    1.18571531e-03    3.29436210e-04    2.56485421e-05    2.56485421e-05
12       8.19000000e-06    5.14365795e-01    1.23127841e+00    2.87435339e-01   -1.14175635e-03    7.16912620e-04    2.80493343e-07   -4.01320952e-07    7.16912620e-04    1.14203684e-03    3.73114671e-04    5.13277391e-05    5.13277391e-05
13       1.63820000e-05    1.02749482e+00    1.51894808e+00    5.73764777e-01   -1.05457588e-03    4.91453260e-04    2.88337673e-07   -3.77328288e-07    4.91453260e-04    1.05486422e-03    4.60287296e-04    1.02457996e-04    1.02457996e-04
14       3.27660000e-05    2.04423613e+00    2.08921919e+00    1.13870589e+00   -8.81754351e-04    4.49830600e-05    3.00439138e-07   -3.34228916e-07    4.49830600e-05    8.82054790e-04    6.33096725e-04    2.03340338e-04    2.03340338e-04
15       4.91500000e-05    3.03933297e+00    2.64770033e+00    1.68838780e+00   -7.12503115e-04   -3.91632641e-04    3.14968301e-07   -3.04501103e-07   -3.91632641e-04    7.12818083e-04    8.02333432e-04    3.01497822e-04    3.01497822e-04
16       6.55340000e-05    4.00224919e+00    3.18848705e+00    2.21701910e+00   -5.48615084e-04   -8.13762139e-04    3.28234104e-07   -2.72757960e-07   -8.13762139e-04    5.48943318e-04    9.66208197e-04    3.95896267e-04    3.95896267e-04
17       8.19180000e-05    4.92278939e+00    3.70584254e+00    2.71901138e+00   -3.91822760e-04   -1.21694685e-03    3.46168076e-07   -2.49278651e-07   -1.21694685e-03    3.92168928e-04    1.12298259e-03    4.85537746e-04    4.85537746e-04
18       9.83020000e-05    5.79120684e+00    4.19429499e+00    3.18907513e+00   -2.43785463e-04   -1.59691186e-03    3.67570674e-07   -2.21135324e-07   -1.59691186e-03    2.44153034e-04    1.27099848e-03    5.69477702e-04    5.69477702e-04
19       1.13047600e-04    6.52060507e+00    4.60489509e+00    3.58071160e+00   -1.19327717e-04   -1.91570998e-03    4.01043908e-07   -2.02154019e-07   -1.91570998e-03    1.19728761e-04    1.39542275e-03    6.39412786e-04    6.39412786e-04
20       1.27793200e-04    7.19407110e+00    4.98435132e+00    3.93910321e+00   -4.27851732e-06   -2.20971977e-03    4.63505886e-07   -1.77512973e-07   -2.20971977e-03    4.74202323e-06    1.51040949e-03    7.03411287e-04    7.03411287e-04
21       1.42538800e-04    7.80582811e+00    5.32819286e+00    4.25997736e+00    1.02163188e-04   -2.47763524e-03    3.04094479e-06   -1.57914752e-07   -2.47763524e-03   -9.94523827e-05    1.61460390e-03    7.60710242e-04    7.60710242e-04
22       1.44393852e-04    7.87815007e+00    5.36660540e+00    4.29536249e+00    1.18124515e-04   -2.51154466e-03    7.03197187e-06   -1.47068098e-07   -2.51154466e-03   -1.11092547e-04    1.62624406e-03    7.67029017e-04    7.67029017e-04
23       1.48103956e-04    8.01957351e+00    5.42821058e+00    4.35087375e+00    1.69420708e-04   -2.59136293e-03    3.96599528e-05   -8.81821923e-08   -2.59136293e-03   -1.29760783e-04    1.64491230e-03    7.76941740e-04    7.76941740e-04
24       1.51814060e-04    8.15663920e+00    5.47030140e+00    4.38680618e+00    2.45240204e-04   -2.68633780e-03    1.02724612e-04   -7.22611730e-08   -2.68633780e-03   -1.42515575e-04    1.65766709e-03    7.83358247e-04    7.83358247e-04
25       1.55524165e-04    8.28927264e+00    5.49601090e+00    4.40631823e+00    3.40935510e-04   -2.79326174e-03    1.90644926e-04   -2.58367010e-08   -2.79326174e-03   -1.50306334e-04    1.66545785e-03    7.86842541e-04    7.86842541e-04
26       1.59234269e-04    8.41740177e+00    5.51338651e+00    4.41747477e+00    4.44416664e-04   -2.90401526e-03    2.88829246e-04   -4.06301474e-08   -2.90401526e-03   -1.55571669e-04    1.67072318e-03    7.88834780e-04    7.88834780e-04
27       1.66654477e-04    8.65987107e+00    5.53520880e+00    4.42683000e+00    6.56819551e-04   -3.12466226e-03    4.94656237e-04   -1.35398526e-09   -3.12466226e-03   -1.62184486e-04    1.67733600e-03    7.90505358e-04    7.90505358e-04
28       1.74074685e-04    8.88352015e+00    5.54892848e+00    4.42806770e+00    8.62346501e-04   -3.33459166e-03    6.95983649e-04   -2.53090169e-08   -3.33459166e-03   -1.66341965e-04    1.68149348e-03    7.90726374e-04    7.90726374e-04
29       1.81494894e-04    9.08786296e+00    5.55847854e+00    4.42513815e+00    1.05480026e-03   -3.52938442e-03    8.85585226e-04    6.51954904e-09   -3.52938442e-03   -1.69235921e-04    1.68438744e-03    7.90203241e-04    7.90203241e-04
30       1.88915102e-04    9.27245541e+00    5.56558892e+00    4.41978060e+00    1.23105716e-03   -3.70686649e-03    1.05964569e-03   -2.07062558e-08   -3.70686649e-03   -1.71390580e-04    1.68654210e-03    7.89246536e-04    7.89246536e-04
31       1.96335311e-04    9.43689633e+00    5.57103518e+00    4.41277637e+00    1.38968255e-03   -3.86586115e-03    1.21666248e-03    9.65666445e-09   -3.86586115e-03   -1.73040963e-04    1.68819248e-03    7.87995780e-04    7.87995780e-04
32       2.03755519e-04    9.58082834e+00    5.57529259e+00    4.40460468e+00    1.52949813e-03   -4.00553575e-03    1.35514616e-03   -1.84664206e-08   -4.00553575e-03   -1.74331089e-04    1.68948260e-03    7.86536550e-04    7.86536550e-04
33       2.11175727e-04    9.70393865e+00    5.57862326e+00    4.39553056e+00    1.64991872e-03   -4.12531539e-03    1.47459923e-03    1.14017102e-08   -4.12531539e-03   -1.75340383e-04    1.69049190e-03    7.84916171e-04    7.84916171e-04
34       2.18595936e-04    9.80595971e+00    5.58121025e+00    4.38573934e+00    1.75028881e-03   -4.22474945e-03    1.57414360e-03   -1.70666939e-08   -4.22474945e-03   -1.76124319e-04    1.69127583e-03    7.83167740e-04    7.83167740e-04
35       2.26016144e-04    9.88666978e+00    5.58316516e+00    4.37534451e+00    1.83033746e-03   -4.30350462e-03    1.65364163e-03    1.25908959e-08   -4.30350462e-03   -1.76716716e-04    1.69186823e-03    7.81311519e-04    7.81311519e-04
36       2.33436352e-04    9.94589347e+00    5.58456825e+00    4.36442789e+00    1.88965366e-03   -4.36132522e-03    1.71249087e-03   -1.60288225e-08   -4.36132522e-03   -1.77141895e-04    1.69229341e-03    7.79362123e-04    7.79362123e-04
37       2.40856561e-04    9.98350207e+00    5.58546845e+00    4.35303982e+00    1.92815242e-03   -4.39803362e-03    1.75075863e-03    1.35364880e-08   -4.39803362e-03   -1.77414682e-04    1.69256620e-03    7.77328540e-04    7.77328540e-04
38       2.48276769e-04    9.99941384e+00    5.58589735e+00    4.34121318e+00    1.94558854e-03   -4.41351649e-03    1.76802300e-03   -1.51427623e-08   -4.41351649e-03   -1.77544652e-04    1.69269617e-03    7.75216640e-04    7.75216640e-04
39       2.55696977e-04    9.99359422e+00    5.58586828e+00    4.32896251e+00    1.94202396e-03   -4.40772594e-03    1.76450900e-03    1.43974084e-08   -4.40772594e-03   -1.77535842e-04    1.69268736e-03    7.73029020e-04    7.73029020e-04
40       2.63117186e-04    9.96605583e+00    5.58538079e+00    4.31628856e+00    1.91735530e-03   -4.38067503e-03    1.73994630e-03   -1.42809883e-08   -4.38067503e-03   -1.77388119e-04    1.69253963e-03    7.70765814e-04    7.70765814e-04
41       2.70537394e-04    9.91685853e+00    5.58441871e+00    4.30317635e+00    1.87178267e-03   -4.33243982e-03    1.69470698e-03    1.52896662e-08   -4.33243982e-03   -1.77096579e-04    1.69224809e-03    7.68424349e-04    7.68424349e-04
42       2.77957602e-04    9.84610924e+00    5.58294949e+00    4.28959464e+00    1.80534451e-03   -4.26315975e-03    1.62867226e-03   -1.33273682e-08   -4.26315975e-03   -1.76651361e-04    1.69180288e-03    7.65999044e-04    7.65999044e-04
43       2.85377811e-04    9.75396172e+00    5.58091947e+00    4.27549116e+00    1.71839031e-03   -4.17304225e-03    1.54237500e-03    1.63444477e-08   -4.17304225e-03   -1.76036203e-04    1.69118772e-03    7.63480564e-04    7.63480564e-04
44       2.92798019e-04    9.64061623e+00    5.57824713e+00    4.26078597e+00    1.61112442e-03   -4.06236910e-03    1.43587713e-03   -1.21188482e-08   -4.06236910e-03   -1.75226404e-04    1.69037792e-03    7.60854637e-04    7.60854637e-04
45       3.00218227e-04    9.50631910e+00    5.57481009e+00    4.24535854e+00    1.48409066e-03   -3.93150901e-03    1.30992668e-03    1.77838096e-08   -3.93150901e-03   -1.74184875e-04    1.68933639e-03    7.58099739e-04    7.58099739e-04
46       3.07638436e-04    9.35136218e+00    5.57042240e+00    4.22902524e+00    1.33773959e-03   -3.78093978e-03    1.16486343e-03   -1.03286669e-08   -3.78093978e-03   -1.72855273e-04    1.68800679e-03    7.55183079e-04    7.55183079e-04
47       3.15058644e-04    9.17608225e+00    5.56479095e+00    4.21149592e+00    1.17295830e-03   -3.61129130e-03    1.00183043e-03    2.01272342e-08   -3.61129130e-03   -1.71148773e-04    1.68630029e-03    7.52052842e-04    7.52052842e-04
48       3.22478853e-04    8.98086024e+00    5.55742520e+00    4.19228408e+00    9.90737582e-04   -3.42343504e-03    8.21800027e-04   -7.05890213e-09   -3.42343504e-03   -1.68916727e-04    1.68406824e-03    7.48622157e-04    7.48622157e-04
49       3.29899061e-04    8.76612041e+00    5.54742577e+00    4.17049635e+00    7.92950136e-04   -3.21869464e-03    6.27084734e-04    2.50963814e-08   -3.21869464e-03   -1.65886597e-04    1.68103811e-03    7.44731492e-04    7.44731492e-04
50       3.37319269e-04    8.53232946e+00    5.53289497e+00    4.14424498e+00    5.82757392e-04   -2.99943448e-03    4.21255408e-04    1.49900930e-09   -2.99943448e-03   -1.61483326e-04    1.67663484e-03    7.40043747e-04    7.40043747e-04
51       3.44739478e-04    8.27999546e+00    5.50933221e+00    4.10904826e+00    3.67452201e-04   -2.77066325e-03    2.18266020e-04    4.21788983e-08   -2.77066325e-03   -1.54343094e-04    1.66949461e-03    7.33758618e-04    7.33758618e-04
52       3.52159686e-04    8.00966682e+00    5.45429154e+00    4.04251703e+00    1.80742795e-04   -2.55537527e-03    3.79224950e-05    6.11812415e-08   -2.55537527e-03   -1.37664104e-04    1.65281562e-03    7.21878042e-04    7.21878042e-04
53       3.59579894e-04    7.72193102e+00    5.31766843e+00    3.89470550e+00    9.75629804e-05   -2.40426259e-03    7.19082887e-06    1.98188931e-07   -2.40426259e-03   -9.62631600e-05    1.61141468e-03    6.95483125e-04    6.95483125e-04
54       3.65820996e-04    7.46689747e+00    5.17712343e+00    3.74510259e+00    5.23025985e-05   -2.28977404e-03   -7.23719102e-06    1.22158983e-07   -2.28977404e-03   -5.36737660e-05    1.56882528e-03    6.68768320e-04    6.68768320e-04
55       3.78303200e-04    6.92279815e+00    4.87300232e+00    3.42398186e+00   -3.80670016e-05   -2.04979584e-03    6.28316877e-06    2.29865493e-07   -2.04979584e-03    3.84841469e-05    1.47666737e-03    6.11425333e-04    6.11425333e-04
56       3.89537183e-04    6.39661916e+00    4.58045492e+00    3.11747425e+00   -1.28389601e-04   -1.81616423e-03   -7.12075329e-06    1.54636673e-07   -1.81616423e-03    1.27134871e-04    1.38801664e-03    5.56691830e-04    5.56691830e-04
57       4.00771167e-04    5.83858371e+00    4.26811797e+00    2.79252468e+00   -2.21302922e-04   -1.57046573e-03    6.34553392e-06    2.65553727e-07   -1.57046573e-03    2.21782432e-04    1.29336908e-03    4.98665122e-04    4.98665122e-04
58       4.12005150e-04    5.25147093e+00    3.94115664e+00    2.45436588e+00   -3.22069228e-04   -1.31031429e-03   -7.07362644e-06    1.85990777e-07   -1.31031429e-03    3.20861625e-04    1.19428989e-03    4.38279621e-04    4.38279621e-04
59       4.23239133e-04    4.63820476e+00    3.59759680e+00    2.10108418e+00   -4.24463778e-04   -1.04060797e-03    6.37291225e-06    3.02710063e-07   -1.04060797e-03    4.24970667e-04    1.09018085e-03    3.75193603e-04    3.75193603e-04
60       4.34473117e-04    4.00183940e+00    3.24273381e+00    1.73802808e+00   -5.33683964e-04   -7.59105595e-04   -7.04508060e-06    2.19205067e-07   -7.59105595e-04    5.32504906e-04    9.82646609e-04    3.10362157e-04    3.10362157e-04
61       4.45707100e-04    3.34554407e+00    2.87476221e+00    1.36343759e+00   -6.43486285e-04   -4.70781865e-04    6.39119100e-06    3.42914361e-07   -4.70781865e-04    6.44011452e-04    8.71140063e-04    2.43470999e-04    2.43470999e-04
62       4.56941083e-04    2.67258726e+00    2.49907263e+00    9.82741004e-01   -7.59013135e-04   -1.73514623e-04   -7.02238039e-06    2.56441450e-07   -1.73514623e-04    7.57856778e-04    7.57294737e-04    1.75489465e-04    1.75489465e-04
63       4.68175067e-04    1.98632042e+00    2.11399044e+00    5.94293239e-01   -8.74007468e-04    1.27670026e-04    6.40690595e-06    3.89517598e-07    1.27670026e-04    8.74548351e-04    6.40603164e-04    1.06123793e-04    1.06123793e-04
64       4.79409050e-04    1.29016130e+00    1.72496591e+00    2.03565986e-01   -9.93569978e-04    4.34804614e-04   -7.00142946e-06    3.02645206e-07    4.34804614e-04    9.92434572e-04    5.22716943e-04    3.63510689e-05    3.63510689e-05
65       5.01877017e-04   -1.17933718e-01    9.34941096e-01   -5.84831501e-01   -1.23126980e-03    1.05287481e-03    6.43225383e-06    4.86302450e-07    1.05287481e-03    1.23183603e-03    2.83315484e-04   -1.04434197e-04   -1.04434197e-04
66       5.24344984e-04   -1.52368232e+00    1.47361001e-01   -1.36409314e+00   -1.47159329e-03    1.67104332e-03   -6.96265079e-06    5.16815869e-07    1.67104332e-03    1.47049667e-03    4.46548487e-05   -2.43588060e-04   -2.43588060e-04
67       5.33815005e-04   -2.10871034e+00   -1.81415443e-01   -1.68680042e+00   -1.57037781e-03    1.92729490e-03   -2.51920291e-07    7.49483383e-07    1.92729490e-03    1.57012589e-03   -5.49743767e-05   -3.01214360e-04   -3.01214360e-04
68       5.43285027e-04   -2.68627472e+00   -4.60909393e-01   -1.95973419e+00   -1.65498875e-03    2.22536533e-03   -1.67719063e-07    8.07334225e-05    2.22536533e-03    1.65482103e-03   -1.39669513e-04   -3.49952534e-04   -3.49952534e-04
69       5.44116733e-04   -2.73657466e+00   -4.71649353e-01   -1.96985168e+00   -1.65816672e-03    2.26492531e-03   -9.11554769e-08    1.12075358e-04    2.26492531e-03    1.65807556e-03   -1.42924046e-04   -3.51759229e-04   -3.51759229e-04
70       5.44948439e-04   -2.78679987e+00   -4.81328202e-01   -1.97890663e+00   -1.66108166e-03    2.30547167e-03   -7.31139838e-08    1.45172729e-04    2.30547167e-03    1.66100855e-03   -1.45857031e-04   -3.53376185e-04   -3.53376185e-04
71       5.45780145e-04   -2.83694897e+00   -4.90453516e-01   -1.98740527e+00   -1.66385551e-03    2.34649546e-03   -8.17129869e-08    1.79108012e-04    2.34649546e-03    1.66377379e-03   -1.48622277e-04   -3.54893799e-04   -3.54893799e-04
72       5.47443556e-04   -2.93701340e+00   -5.05347129e-01   -2.00103855e+00   -1.66833169e-03    2.43166627e-03   -4.46850515e-08    2.52887081e-04    2.43166627e-03    1.66828701e-03   -1.53135494e-04   -3.57328312e-04   -3.57328312e-04
73       5.50770380e-04   -3.13616889e+00   -5.26332920e-01   -2.01948339e+00   -1.67469084e-03    2.60983597e-03   -4.44996009e-08    4.15012427e-04    2.60983597e-03    1.67464634e-03   -1.59494824e-04   -3.60622034e-04   -3.60622034e-04
74       5.57424027e-04   -3.53028268e+00   -5.51513633e-01   -2.03953354e+00   -1.68228611e-03    2.97876904e-03   -9.24808400e-09    7.65369834e-04    2.97876904e-03    1.68227686e-03   -1.67125343e-04   -3.64202418e-04   -3.64202418e-04
75       5.70731321e-04   -4.29932486e+00   -5.78174063e-01   -2.05584094e+00   -1.69037531e-03    3.72115080e-03   -1.95351128e-08    1.48918693e-03    3.72115080e-03    1.69035578e-03   -1.75204262e-04   -3.67114454e-04   -3.67114454e-04
76       5.84038615e-04   -5.03832798e+00   -5.93607666e-01   -2.06086758e+00   -1.69503007e-03    4.44472031e-03    2.55743581e-09    2.20106693e-03    4.44472031e-03    1.69503263e-03   -1.79881111e-04   -3.68012068e-04   -3.68012068e-04
77       5.97345909e-04   -5.74212867e+00   -6.04288381e-01   -2.06112797e+00   -1.69828375e-03    5.13784029e-03   -1.45438108e-08    2.88911051e-03    5.13784029e-03    1.69826921e-03   -1.83117691e-04   -3.68058566e-04   -3.68058566e-04
78       6.10653204e-04   -6.40580952e+00   -6.12257604e-01   -2.05868239e+00   -1.70067872e-03    5.79355192e-03    5.40222022e-09    3.53898850e-03    5.79355192e-03    1.70068412e-03   -1.85532607e-04   -3.67621855e-04   -3.67621855e-04
79       6.23960498e-04   -7.02473345e+00   -6.18496384e-01   -2.05452306e+00   -1.70258739e-03    6.40623706e-03   -1.27295773e-08    4.15007764e-03    6.40623706e-03    1.70257466e-03   -1.87423147e-04   -3.66879118e-04   -3.66879118e-04
80       6.37267792e-04   -7.59457607e+00   -6.23484049e-01   -2.04913675e+00   -1.70407936e-03    6.97109202e-03    6.71305253e-09    4.71143059e-03    6.97109202e-03    1.70408608e-03   -1.88934560e-04   -3.65917277e-04   -3.65917277e-04
81       6.50575086e-04   -8.11135595e+00   -6.27534215e-01   -2.04284247e+00   -1.70532515e-03    7.48382173e-03   -1.17478498e-08    5.22427164e-03    7.48382173e-03    1.70531340e-03   -1.90161883e-04   -3.64793298e-04   -3.64793298e-04
