Index       TIME              V(1)              I(V1)       N(YRLC2!RLC1:TOTALCURRENT) N(YRLC2!RLC1:CAPACITORCHARGE) {N(YRLC2!RLC1:TOTALCURRENT)} {N(YRLC2!RLC1:CAPACITORCHARGE)}
0        0.00000000e+00    5.00000000e+00    0.00000000e+00    0.00000000e+00    5.00000000e-12    0.00000000e+00    5.00000000e-12
1        1.00000000e-09    5.62666617e+00   -6.25415337e-07    6.25415337e-07    5.00062542e-12    6.25415337e-07    5.00062542e-12
2        1.91820294e-09    6.19360467e+00   -1.71778687e-06    1.71778687e-06    5.00220269e-12    1.71778687e-06    5.00220269e-12
3        2.83640589e-09    6.74466957e+00   -3.06152883e-06    3.06152883e-06    5.00439688e-12    3.06152883e-06    5.00439688e-12
4        3.75460883e-09    7.27253231e+00   -4.89646402e-06    4.89646402e-06    5.00805041e-12    4.89646402e-06    5.00805041e-12
5        4.67281177e-09    7.77017290e+00   -7.19608499e-06    7.19608499e-06    5.01360212e-12    7.19608499e-06    5.01360212e-12
6        5.59101472e-09    8.23097329e+00   -9.92726002e-06    9.92726002e-06    5.02146347e-12    9.92726002e-06    5.02146347e-12
7        6.50921766e-09    8.64880533e+00   -1.30506763e-05    1.30506763e-05    5.03201267e-12    1.30506763e-05    5.03201267e-12
8        7.42742060e-09    9.01811234e+00   -1.65213658e-05    1.65213658e-05    5.04558924e-12    1.65213658e-05    5.04558924e-12
9        8.34562355e-09    9.33398294e+00   -2.02893063e-05    2.02893063e-05    5.06248908e-12    2.02893063e-05    5.06248908e-12
10       9.26382649e-09    9.59221640e+00   -2.43000905e-05    2.43000905e-05    5.08296013e-12    2.43000905e-05    5.08296013e-12
11       1.01820294e-08    9.78937851e+00   -2.84956537e-05    2.84956537e-05    5.10719874e-12    2.84956537e-05    5.10719874e-12
12       1.11002324e-08    9.92284722e+00   -3.28150501e-05    3.28150501e-05    5.13534657e-12    3.28150501e-05    5.13534657e-12
13       1.20184353e-08    9.99084757e+00   -3.71952682e-05    3.71952682e-05    5.16748841e-12    3.71952682e-05    5.16748841e-12
14       1.29366383e-08    9.99247521e+00   -4.15720737e-05    4.15720737e-05    5.20365061e-12    4.15720737e-05    5.20365061e-12
15       1.38548412e-08    9.92770850e+00   -4.58808694e-05    4.58808694e-05    5.24380039e-12    4.58808694e-05    5.24380039e-12
16       1.47730441e-08    9.79740877e+00   -5.00575600e-05    5.00575600e-05    5.28784586e-12    5.00575600e-05    5.28784586e-12
17       1.56912471e-08    9.60330886e+00   -5.40394104e-05    5.40394104e-05    5.33563694e-12    5.40394104e-05    5.33563694e-12
18       1.66094500e-08    9.34799007e+00   -5.77658864e-05    5.77658864e-05    5.38696691e-12    5.77658864e-05    5.38696691e-12
19       1.75276530e-08    9.03484787e+00   -6.11794669e-05    6.11794669e-05    5.44157490e-12    6.11794669e-05    5.44157490e-12
20       1.84458559e-08    8.66804670e+00   -6.42264154e-05    6.42264154e-05    5.49914892e-12    6.42264154e-05    5.49914892e-12
21       1.93640589e-08    8.25246460e+00   -6.68575024e-05    6.68575024e-05    5.55932974e-12    6.68575024e-05    5.55932974e-12
22       2.02822618e-08    7.79362834e+00   -6.90286675e-05    6.90286675e-05    5.62171528e-12    6.90286675e-05    5.62171528e-12
23       2.12004648e-08    7.29763995e+00   -7.07016136e-05    7.07016136e-05    5.68586566e-12    7.07016136e-05    5.68586566e-12
24       2.21186677e-08    6.77109552e+00   -7.18443241e-05    7.18443241e-05    5.75130871e-12    7.18443241e-05    5.75130871e-12
25       2.30368706e-08    6.22099748e+00   -7.24314977e-05    7.24314977e-05    5.81754595e-12    7.24314977e-05    5.81754595e-12
26       2.39550736e-08    5.65466155e+00   -7.24448932e-05    7.24448932e-05    5.88405892e-12    7.24448932e-05    5.88405892e-12
27       2.57914795e-08    4.50351829e+00   -7.07144968e-05    7.07144968e-05    6.01550829e-12    7.07144968e-05    6.01550829e-12
28       2.76278854e-08    3.37869784e+00   -6.66630930e-05    6.66630930e-05    6.14164880e-12    6.66630930e-05    6.14164880e-12
29       2.94642912e-08    2.33983668e+00   -6.04114918e-05    6.04114918e-05    6.25832906e-12    6.04114918e-05    6.25832906e-12
30       3.09257511e-08    1.61142076e+00   -5.40077913e-05    5.40077913e-05    6.34193865e-12    5.40077913e-05    6.34193865e-12
31       3.21539098e-08    1.08651648e+00   -4.77747479e-05    4.77747479e-05    6.40444121e-12    4.77747479e-05    6.40444121e-12
32       3.32592526e-08    6.93333424e-01   -4.16026208e-05    4.16026208e-05    6.45383752e-12    4.16026208e-05    6.45383752e-12
33       3.42540611e-08    4.10214078e-01   -3.56736410e-05    3.56736410e-05    6.49227506e-12    3.56736410e-05    6.49227506e-12
34       3.52488696e-08    1.98729769e-01   -2.94694421e-05    2.94694421e-05    6.52467751e-12    2.94694421e-05    6.52467751e-12
35       3.62436781e-08    6.21812347e-02   -2.30692840e-05    2.30692840e-05    6.55081050e-12    2.30692840e-05    6.55081050e-12
36       3.71390058e-08    5.14381904e-03   -1.72081986e-05    1.72081986e-05    6.56884127e-12    1.72081986e-05    6.56884127e-12
37       3.80343335e-08    1.12673380e-02   -1.13157945e-05    1.13157945e-05    6.58161043e-12    1.13157945e-05    6.58161043e-12
38       3.89296611e-08    8.04743586e-02   -5.45329857e-06    5.45329857e-06    6.58911735e-12    5.45329857e-06    6.58911735e-12
39       3.98249888e-08    2.11889744e-01    3.18567297e-07   -3.18567297e-07    6.59141598e-12   -3.18567297e-07    6.59141598e-12
40       4.07203165e-08    4.03851722e-01    5.94034300e-06   -5.94034300e-06    6.58861409e-12   -5.94034300e-06    6.58861409e-12
41       4.16156441e-08    6.53932895e-01    1.13545713e-05   -1.13545713e-05    6.58087178e-12   -1.13545713e-05    6.58087178e-12
42       4.25109718e-08    9.58970938e-01    1.65065133e-05   -1.65065133e-05    6.56839938e-12   -1.65065133e-05    6.56839938e-12
43       4.34062995e-08    1.31510858e+00    2.13448296e-05   -2.13448296e-05    6.55145471e-12   -2.13448296e-05    6.55145471e-12
44       4.43016271e-08    1.71784240e+00    2.58222184e-05   -2.58222184e-05    6.53033972e-12   -2.58222184e-05    6.53033972e-12
45       4.51969548e-08    2.16207975e+00    2.98960023e-05   -2.98960023e-05    6.50539669e-12   -2.98960023e-05    6.50539669e-12
46       4.60922825e-08    2.64220315e+00    3.35286568e-05   -3.35286568e-05    6.47700377e-12   -3.35286568e-05    6.47700377e-12
47       4.69876101e-08    3.15214136e+00    3.66882738e-05   -3.66882738e-05    6.44557019e-12   -3.66882738e-05    6.44557019e-12
48       4.78829378e-08    3.68544610e+00    3.93489533e-05   -3.93489533e-05    6.41153107e-12   -3.93489533e-05    6.41153107e-12
49       4.87782655e-08    4.23537363e+00    4.14911201e-05   -4.14911201e-05    6.37534189e-12   -4.14911201e-05    6.37534189e-12
50       4.96735931e-08    4.79497001e+00    4.31017600e-05   -4.31017600e-05    6.33747272e-12   -4.31017600e-05    6.33747272e-12
51       5.14642485e-08    5.91483172e+00    4.47121926e-05   -4.47121926e-05    6.25885046e-12   -4.47121926e-05    6.25885046e-12
52       5.32549038e-08    6.98856681e+00    4.42159612e-05   -4.42159612e-05    6.17923062e-12   -4.42159612e-05    6.17923062e-12
53       5.48664936e-08    7.87065182e+00    4.20753012e-05   -4.20753012e-05    6.10969756e-12   -4.20753012e-05    6.10969756e-12
54       5.62796736e-08    8.54869294e+00    3.90098813e-05   -3.90098813e-05    6.05240358e-12   -3.90098813e-05    6.05240358e-12
55       5.75515357e-08    9.06403298e+00    3.54297824e-05   -3.54297824e-05    6.00506509e-12   -3.54297824e-05    6.00506509e-12
56       5.86962115e-08    9.43958777e+00    3.16529432e-05   -3.16529432e-05    5.96667110e-12   -3.16529432e-05    5.96667110e-12
57       5.98408874e-08    9.72344064e+00    2.74619216e-05   -2.74619216e-05    5.93283742e-12   -2.74619216e-05    5.93283742e-12
58       6.09855632e-08    9.90972845e+00    2.29709052e-05   -2.29709052e-05    5.90397280e-12   -2.29709052e-05    5.90397280e-12
59       6.21302390e-08    9.99460336e+00    1.82998964e-05   -1.82998964e-05    5.88035196e-12   -1.82998964e-05    5.88035196e-12
60       6.32749149e-08    9.97631221e+00    1.35721990e-05   -1.35721990e-05    5.86211035e-12   -1.35721990e-05    5.86211035e-12
61       6.44195907e-08    9.85523283e+00    8.91183625e-06   -8.91183625e-06    5.84924189e-12   -8.91183625e-06    5.84924189e-12
62       6.55642666e-08    9.63386616e+00    4.44095544e-06   -4.44095544e-06    5.84159958e-12   -4.44095544e-06    5.84159958e-12
63       6.67089424e-08    9.31678466e+00    2.77271289e-07   -2.77271289e-07    5.83889916e-12   -2.77271289e-07    5.83889916e-12
64       6.78536183e-08    8.91053779e+00   -3.46839802e-06    3.46839802e-06    5.84072556e-12    3.46839802e-06    5.84072556e-12
65       6.89982941e-08    8.42351680e+00   -6.69445170e-06    6.69445170e-06    5.84654214e-12    6.69445170e-06    5.84654214e-12
66       7.01429699e-08    7.86578134e+00   -9.31063606e-06    9.31063606e-06    5.85570246e-12    9.31063606e-06    5.85570246e-12
67       7.12876458e-08    7.24885172e+00   -1.12399389e-05    1.12399389e-05    5.86746434e-12    1.12399389e-05    5.86746434e-12
68       7.24323216e-08    6.58547094e+00   -1.24202098e-05    1.24202098e-05    5.88100594e-12    1.24202098e-05    5.88100594e-12
69       7.35769975e-08    5.88934145e+00   -1.28054717e-05    1.28054717e-05    5.89544355e-12    1.28054717e-05    5.89544355e-12
70       7.47216733e-08    5.17484217e+00   -1.23668989e-05    1.23668989e-05    5.90985065e-12    1.23668989e-05    5.90985065e-12
71       7.70110250e-08    3.74984219e+00   -9.00058668e-06    9.00058668e-06    5.93430950e-12    9.00058668e-06    5.93430950e-12
72       7.73590955e-08    3.53935265e+00   -8.16314252e-06    8.16314252e-06    5.93715085e-12    8.16314252e-06    5.93715085e-12
73       7.77071660e-08    3.33165712e+00   -7.28923609e-06    7.28923609e-06    5.93984010e-12    7.28923609e-06    5.93984010e-12
74       7.84033070e-08    2.92623123e+00   -5.32653659e-06    5.32653659e-06    5.94423128e-12    5.32653659e-06    5.94423128e-12
75       7.90994480e-08    2.53666513e+00   -3.08603919e-06    3.08603919e-06    5.94715945e-12    3.08603919e-06    5.94715945e-12
76       7.97955890e-08    2.16593815e+00   -5.81094461e-07    5.81094461e-07    5.94843587e-12    5.81094461e-07    5.94843587e-12
77       8.04917299e-08    1.81688554e+00    2.17280531e-06   -2.17280531e-06    5.94788184e-12   -2.17280531e-06    5.94788184e-12
78       8.11878709e-08    1.49217678e+00    5.15814286e-06   -5.15814286e-06    5.94533016e-12   -5.15814286e-06    5.94533016e-12
79       8.18840119e-08    1.19429520e+00    8.35550833e-06   -8.35550833e-06    5.94062645e-12   -8.35550833e-06    5.94062645e-12
80       8.25801529e-08    9.25518932e-01    1.17437461e-05   -1.17437461e-05    5.93363050e-12   -1.17437461e-05    5.93363050e-12
81       8.32762939e-08    6.87903525e-01    1.53001152e-05   -1.53001152e-05    5.92421733e-12   -1.53001152e-05    5.92421733e-12
82       8.39724349e-08    4.83266218e-01    1.90004614e-05   -1.90004614e-05    5.91227831e-12   -1.90004614e-05    5.91227831e-12
83       8.46685759e-08    3.13172039e-01    2.28194012e-05   -2.28194012e-05    5.89772205e-12   -2.28194012e-05    5.89772205e-12
84       8.53647169e-08    1.78921836e-01    2.67305139e-05   -2.67305139e-05    5.88047518e-12   -2.67305139e-05    5.88047518e-12
85       8.60608579e-08    8.15423292e-02    3.07065431e-05   -3.07065431e-05    5.86048304e-12   -3.07065431e-05    5.86048304e-12
86       8.67569989e-08    2.17782589e-02    3.47196032e-05   -3.47196032e-05    5.83771013e-12   -3.47196032e-05    5.83771013e-12
87       8.74531399e-08    8.66893072e-05    3.87413923e-05   -3.87413923e-05    5.81214052e-12   -3.87413923e-05    5.81214052e-12
88       8.81492809e-08    1.66335135e-02    4.27434072e-05   -4.27434072e-05    5.78377807e-12   -4.27434072e-05    5.78377807e-12
89       8.88454219e-08    7.12921844e-02    4.66971603e-05   -4.66971603e-05    5.75264645e-12   -4.66971603e-05    5.75264645e-12
90       8.95415628e-08    1.63644683e-01    5.05743966e-05   -5.05743966e-05    5.71878909e-12   -5.05743966e-05    5.71878909e-12
91       9.02377038e-08    2.92984714e-01    5.43473091e-05   -5.43473091e-05    5.68226894e-12   -5.43473091e-05    5.68226894e-12
92       9.09338448e-08    4.58323111e-01    5.79887506e-05   -5.79887506e-05    5.64316807e-12   -5.79887506e-05    5.64316807e-12
93       9.16299858e-08    6.58395395e-01    6.14724405e-05   -6.14724405e-05    5.60158715e-12   -6.14724405e-05    5.60158715e-12
94       9.23261268e-08    8.91671453e-01    6.47731650e-05   -6.47731650e-05    5.55764478e-12   -6.47731650e-05    5.55764478e-12
95       9.30222678e-08    1.15636723e+00    6.78669696e-05   -6.78669696e-05    5.51147666e-12   -6.78669696e-05    5.51147666e-12
96       9.37184088e-08    1.45045839e+00    7.07313418e-05   -7.07313418e-05    5.46323468e-12   -7.07313418e-05    5.46323468e-12
97       9.44145498e-08    1.77169577e+00    7.33453824e-05   -7.33453824e-05    5.41308582e-12   -7.33453824e-05    5.41308582e-12
98       9.51106908e-08    2.11762261e+00    7.56899654e-05   -7.56899654e-05    5.36121102e-12   -7.56899654e-05    5.36121102e-12
99       9.58068318e-08    2.48559334e+00    7.77478839e-05   -7.77478839e-05    5.30780383e-12   -7.77478839e-05    5.30780383e-12
100      9.65029728e-08    2.87279377e+00    7.95039810e-05   -7.95039810e-05    5.25306909e-12   -7.95039810e-05    5.25306909e-12
101      9.71991138e-08    3.27626267e+00    8.09452660e-05   -8.09452660e-05    5.19722145e-12   -8.09452660e-05    5.19722145e-12
102      9.78952548e-08    3.69291439e+00    8.20610136e-05   -8.20610136e-05    5.14048377e-12   -8.20610136e-05    5.14048377e-12
103      9.85913957e-08    4.11956245e+00    8.28428456e-05   -8.28428456e-05    5.08308560e-12   -8.28428456e-05    5.08308560e-12
104      9.99836777e-08    4.98974442e+00    8.33823013e-05   -8.33823013e-05    4.96736946e-12   -8.33823013e-05    4.96736946e-12
105      1.01375960e-07    5.86023952e+00    8.25492375e-05   -8.25492375e-05    4.85185772e-12   -8.25492375e-05    4.85185772e-12
106      1.02768242e-07    6.70446914e+00    8.03652211e-05   -8.03652211e-05    4.73844628e-12   -8.03652211e-05    4.73844628e-12
107      1.04160524e-07    7.49665661e+00    7.68908081e-05   -7.68908081e-05    4.62897391e-12   -7.68908081e-05    4.62897391e-12
108      1.05552806e-07    8.21261428e+00    7.22237102e-05   -7.22237102e-05    4.52516919e-12   -7.22237102e-05    4.52516919e-12
109      1.06805859e-07    8.77367317e+00    6.71096353e-05   -6.71096353e-05    4.43787310e-12   -6.71096353e-05    4.43787310e-12
110      1.07933608e-07    9.19914072e+00    6.18662988e-05   -6.18662988e-05    4.36514690e-12   -6.18662988e-05    4.36514690e-12
111      1.09061356e-07    9.54041496e+00    5.61182921e-05   -5.61182921e-05    4.29861843e-12   -5.61182921e-05    4.29861843e-12
112      1.10189105e-07    9.79065329e+00    4.99722079e-05   -4.99722079e-05    4.23879673e-12   -4.99722079e-05    4.23879673e-12
113      1.11316853e-07    9.94483839e+00    4.35417063e-05   -4.35417063e-05    4.18606665e-12   -4.35417063e-05    4.18606665e-12
114      1.12444601e-07    9.99987884e+00    3.69452490e-05   -3.69452490e-05    4.14068213e-12   -3.69452490e-05    4.14068213e-12
115      1.13572350e-07    9.95467107e+00    3.03037387e-05   -3.03037387e-05    4.10276216e-12   -3.03037387e-05    4.10276216e-12
116      1.14700098e-07    9.81012150e+00    2.37381099e-05   -2.37381099e-05    4.07228936e-12   -2.37381099e-05    4.07228936e-12
117      1.15827847e-07    9.56912836e+00    1.73669211e-05   -1.73669211e-05    4.04911129e-12   -1.73669211e-05    4.04911129e-12
118      1.16955595e-07    9.23652361e+00    1.13039950e-05   -1.13039950e-05    4.03294450e-12   -1.13039950e-05    4.03294450e-12
119      1.18083344e-07    8.81897601e+00    5.65615533e-06   -5.65615533e-06    4.02338111e-12   -5.65615533e-06    4.02338111e-12
120      1.19211092e-07    8.32485744e+00    5.21104256e-07   -5.21104256e-07    4.01989791e-12   -5.21104256e-07    4.01989791e-12
121      1.20338840e-07    7.76407505e+00   -4.01451568e-06    4.01451568e-06    4.02186776e-12    4.01451568e-06    4.02186776e-12
122      1.21466589e-07    7.14787259e+00   -7.87683719e-06    7.87683719e-06    4.02857298e-12    7.87683719e-06    4.02857298e-12
123      1.22594337e-07    6.48860500e+00   -1.10062267e-05    1.10062267e-05    4.03922066e-12    1.10062267e-05    4.03922066e-12
124      1.23722086e-07    5.79949070e+00   -1.33584568e-05    1.33584568e-05    4.05295927e-12    1.33584568e-05    4.05295927e-12
125      1.24849834e-07    5.09434650e+00   -1.49055682e-05    1.49055682e-05    4.06889663e-12    1.49055682e-05    4.06889663e-12
126      1.27105331e-07    3.69255928e+00   -1.55644889e-05    1.55644889e-05    4.10325919e-12    1.55644889e-05    4.10325919e-12
127      1.27393457e-07    3.51871800e+00   -1.53903551e-05    1.53903551e-05    4.10769355e-12    1.53903551e-05    4.10769355e-12
128      1.27681584e-07    3.34681840e+00   -1.51908510e-05    1.51908510e-05    4.11209918e-12    1.51908510e-05    4.11209918e-12
129      1.28257836e-07    3.00974269e+00   -1.46416632e-05    1.46416632e-05    4.12069472e-12    1.46416632e-05    4.12069472e-12
130      1.28834089e-07    2.68309892e+00   -1.38967675e-05    1.38967675e-05    4.12891739e-12    1.38967675e-05    4.12891739e-12
131      1.29410342e-07    2.36859920e+00   -1.29630260e-05    1.29630260e-05    4.13665641e-12    1.29630260e-05    4.13665641e-12
132      1.29986595e-07    2.06789199e+00   -1.18483278e-05    1.18483278e-05    4.14380521e-12    1.18483278e-05    4.14380521e-12
133      1.30562848e-07    1.78255343e+00   -1.05615461e-05    1.05615461e-05    4.15026209e-12    1.05615461e-05    4.15026209e-12
134      1.31139101e-07    1.51407914e+00   -9.11249085e-06    9.11249085e-06    4.15593070e-12    9.11249085e-06    4.15593070e-12
135      1.31715353e-07    1.26387633e+00   -7.51185639e-06    7.51185639e-06    4.16072061e-12    7.51185639e-06    4.16072061e-12
136      1.32291606e-07    1.03325643e+00   -5.77116410e-06    5.77116410e-06    4.16454780e-12    5.77116410e-06    4.16454780e-12
137      1.32867859e-07    8.23428237e-01   -3.90270118e-06    3.90270118e-06    4.16733510e-12    3.90270118e-06    4.16733510e-12
138      1.33444112e-07    6.35491571e-01   -1.91945504e-06    1.91945504e-06    4.16901261e-12    1.91945504e-06    4.16901261e-12
139      1.34020365e-07    4.70431501e-01    1.64955774e-07   -1.64955774e-07    4.16951813e-12   -1.64955774e-07    4.16951813e-12
140      1.34596617e-07    3.29113190e-01    2.33635408e-06   -2.33635408e-06    4.16879744e-12   -2.33635408e-06    4.16879744e-12
141      1.35172870e-07    2.12277360e-01    4.58007947e-06   -4.58007947e-06    4.16680463e-12   -4.58007947e-06    4.16680463e-12
142      1.35749123e-07    1.20536407e-01    6.88106624e-06   -6.88106624e-06    4.16350237e-12   -6.88106624e-06    4.16350237e-12
143      1.36325376e-07    5.43711894e-02    9.22392347e-06   -9.22392347e-06    4.15886210e-12   -9.22392347e-06    4.15886210e-12
144      1.36901629e-07    1.41285144e-02    1.15930169e-05   -1.15930169e-05    4.15286419e-12   -1.15930169e-05    4.15286419e-12
145      1.37477882e-07    1.93137620e-05    1.39725517e-05   -1.39725517e-05    4.14549807e-12   -1.39725517e-05    4.14549807e-12
146      1.38054134e-07    1.21175410e-02    1.63466570e-05   -1.63466570e-05    4.13676231e-12   -1.63466570e-05    4.13676231e-12
147      1.38630387e-07    5.03597831e-02    1.86994694e-05   -1.86994694e-05    4.12666459e-12   -1.86994694e-05    4.12666459e-12
148      1.39206640e-07    1.14545593e-01    2.10152181e-05   -2.10152181e-05    4.11522174e-12   -2.10152181e-05    4.11522174e-12
149      1.39782893e-07    2.04338541e-01    2.32783081e-05   -2.32783081e-05    4.10245961e-12   -2.32783081e-05    4.10245961e-12
