Index       TIME              V(3)              V(2)              V(4)             I(VCC)            I(VIN)             I(D1)             I(D2)             I(R1)             I(R2)             I(R3)             I(R4)             I(C1)      
0        0.00000000e+00    0.00000000e+00    9.43396226e-01   -5.33121067e-28   -1.22927427e-03    9.43396226e-04   -4.00000000e-10   -4.00000000e-10    9.43396226e-04    1.22927387e-03    2.85877644e-04   -9.52001906e-32    0.00000000e+00
1        2.00000000e-09    1.25663706e-04    9.43406846e-01    1.06200082e-05   -1.22922964e-03    9.43281183e-04    4.10107802e-08   -6.57001073e-08    9.43281183e-04    1.22927065e-03    2.85880863e-04    1.89643003e-09    1.89645383e-09
2        6.00000000e-09    3.76991118e-04    9.43459417e-01    6.31905825e-05   -1.22915260e-03    9.43082426e-04    1.02124522e-07   -1.62094486e-07    9.43082426e-04    1.22925472e-03    2.85896793e-04    1.12840326e-08    1.12840406e-08
3        1.40000000e-08    8.79645942e-04    9.43610805e-01    2.14577859e-04   -1.22901651e-03    9.42731159e-04    1.92335361e-07   -3.04367218e-07    9.42731159e-04    1.22920885e-03    2.85942668e-04    3.83174749e-08    3.83174677e-08
4        3.00000000e-08    1.88495558e-03    9.44075856e-01    6.79626316e-04   -1.22880752e-03    9.42190900e-04    2.60405604e-07   -4.11661869e-07    9.42190900e-04    1.22906792e-03    2.86083593e-04    1.21361842e-07    1.21361848e-07
5        6.20000000e-08    3.89557479e-03    9.45178987e-01    1.78274285e-03   -1.22845689e-03    9.41283413e-04    2.76752069e-07   -4.37253474e-07    9.41283413e-04    1.22873364e-03    2.86417875e-04    3.18346938e-07    3.18346931e-07
6        1.26000000e-07    7.91681266e-03    9.47437533e-01    4.04121732e-03   -1.22777600e-03    9.39520720e-04    2.73233618e-07   -4.31350170e-07    9.39520720e-04    1.22804923e-03    2.87102283e-04    7.21645951e-07    7.21645959e-07
7        2.54000000e-07    1.59592839e-02    9.51941484e-01    8.54486298e-03   -1.22640909e-03    9.35982201e-04    2.75308412e-07   -4.33904794e-07    9.35982201e-04    1.22668440e-03    2.88467117e-04    1.52586839e-06    1.52586838e-06
8        5.10000000e-07    3.20441902e-02    9.60957264e-01    1.75593729e-02   -1.22367831e-03    9.28913074e-04    2.74031700e-07   -4.30465700e-07    9.28913074e-04    1.22395234e-03    2.91199171e-04    3.13560231e-06    3.13560231e-06
9        1.02200000e-06    6.42137125e-02    9.78982725e-01    3.55796655e-02   -1.21821432e-03    9.14769012e-04    2.75759726e-07   -4.30367613e-07    9.14769012e-04    1.21849008e-03    2.96661432e-04    6.35351169e-06    6.35351169e-06
10       2.04600000e-06    1.28550431e-01    1.01503886e+00    7.16149517e-02   -1.20728859e-03    8.86488433e-04    2.75394677e-07   -4.24234229e-07    8.86488433e-04    1.20756398e-03    3.07587534e-04    1.27883842e-05    1.27883842e-05
11       4.09400000e-06    2.57205239e-01    1.08713949e+00    1.43631836e-01   -1.18543703e-03    8.29934252e-04    2.78270801e-07   -4.18031009e-07    8.29934252e-04    1.18571531e-03    3.29436210e-04    2.56485421e-05    2.56485421e-05
12       8.19000000e-06    5.14365795e-01    1.23127841e+00    2.87435339e-01   -1.14175635e-03    7.16912620e-04    2.80493343e-07   -4.01320952e-07    7.16912620e-04    1.14203684e-03    3.73114671e-04    5.13277391e-05    5.13277391e-05
13       1.63820000e-05    1.02749482e+00    1.51894808e+00    5.73764777e-01   -1.05457588e-03    4.91453260e-04    2.88337673e-07   -3.77328288e-07    4.91453260e-04    1.05486422e-03    4.60287296e-04    1.02457996e-04    1.02457996e-04
14       3.27660000e-05    2.04423613e+00    2.08921919e+00    1.13870589e+00   -8.81754351e-04    4.49830600e-05    3.00439138e-07   -3.34228916e-07    4.49830600e-05    8.82054790e-04    6.33096725e-04    2.03340338e-04    2.03340338e-04
15       4.91500000e-05    3.03933297e+00    2.64770033e+00    1.68838780e+00   -7.12503115e-04   -3.91632641e-04    3.14968301e-07   -3.04501103e-07   -3.91632641e-04    7.12818083e-04    8.02333432e-04    3.01497822e-04    3.01497822e-04
16       6.55340000e-05    4.00224919e+00    3.18848705e+00    2.21701910e+00   -5.48615084e-04   -8.13762139e-04    3.28234104e-07   -2.72757960e-07   -8.13762139e-04    5.48943318e-04    9.66208197e-04    3.95896267e-04    3.95896267e-04
17       8.19180000e-05    4.92278939e+00    3.70584254e+00    2.71901138e+00   -3.91822760e-04   -1.21694685e-03    3.46168076e-07   -2.49278651e-07   -1.21694685e-03    3.92168928e-04    1.12298259e-03    4.85537746e-04    4.85537746e-04
18       9.83020000e-05    5.79120684e+00    4.19429499e+00    3.18907513e+00   -2.43785463e-04   -1.59691186e-03    3.67570674e-07   -2.21135324e-07   -1.59691186e-03    2.44153034e-04    1.27099848e-03    5.69477702e-04    5.69477702e-04
19       1.13047600e-04    6.52060507e+00    4.60489509e+00    3.58071160e+00   -1.19327717e-04   -1.91570998e-03    4.01043908e-07   -2.02154019e-07   -1.91570998e-03    1.19728761e-04    1.39542275e-03    6.39412786e-04    6.39412786e-04
20       1.27793200e-04    7.19407110e+00    4.98435132e+00    3.93910321e+00   -4.27851732e-06   -2.20971977e-03    4.63505886e-07   -1.77512973e-07   -2.20971977e-03    4.74202323e-06    1.51040949e-03    7.03411287e-04    7.03411287e-04
21       1.42538800e-04    7.80582811e+00    5.32801456e+00    4.25979955e+00    1.02427438e-04   -2.47781354e-03    3.02913584e-06   -1.57743243e-07   -2.47781354e-03   -9.93983529e-05    1.61454987e-03    7.60678492e-04    7.60678492e-04
22       1.44396818e-04    7.87826484e+00    5.36665921e+00    4.29541193e+00    1.18159694e-04   -2.51160563e-03    7.05084519e-06   -1.47719416e-07   -2.51160563e-03   -1.11108852e-04    1.62626037e-03    7.67037844e-04    7.67037844e-04
23       1.48112854e-04    8.01990746e+00    5.42833883e+00    4.35098776e+00    1.69567930e-04   -2.59156863e-03    3.97688685e-05   -8.74380835e-08   -2.59156863e-03   -1.29799646e-04    1.64495116e-03    7.76962100e-04    7.76962100e-04
24       1.51828889e-04    8.15717819e+00    5.47042825e+00    4.38690880e+00    2.45595092e-04   -2.68674994e-03    1.03040502e-04   -7.27438757e-08   -2.68674994e-03   -1.42554016e-04    1.65770553e-03    7.83376572e-04    7.83376572e-04
25       1.55544925e-04    8.29000221e+00    5.49612753e+00    4.40640059e+00    3.41499075e-04   -2.79387467e-03    1.91173487e-04   -2.51592846e-08   -2.79387467e-03   -1.50341677e-04    1.66549319e-03    7.86857248e-04    7.86857248e-04
26       1.59260961e-04    8.41830710e+00    5.51348982e+00    4.41753376e+00    4.45176321e-04   -2.90481728e-03    2.89557257e-04   -4.11520147e-08   -2.90481728e-03   -1.55602975e-04    1.67075449e-03    7.88845314e-04    7.88845314e-04
27       1.66693032e-04    8.66108222e+00    5.53529581e+00    4.42685265e+00    6.57913916e-04   -3.12578642e-03    4.95724689e-04   -7.35405129e-10   -3.12578642e-03   -1.62210851e-04    1.67736237e-03    7.90509401e-04    7.90509401e-04
28       1.74125104e-04    8.88497428e+00    5.54900466e+00    4.42805953e+00    8.63702272e-04   -3.33596962e-03    6.97315885e-04   -2.58658030e-08   -3.33596962e-03   -1.66365049e-04    1.68151656e-03    7.90724917e-04    7.90724917e-04
29       1.81557176e-04    9.08949512e+00    5.55854691e+00    4.42510229e+00    1.05635034e-03   -3.53094821e-03    8.87115038e-04    7.11981649e-09   -3.53094821e-03   -1.69256639e-04    1.68440815e-03    7.90196838e-04    7.90196838e-04
30       1.88989247e-04    9.27419885e+00    5.56565056e+00    4.41971823e+00    1.23273084e-03   -3.70854829e-03    1.06130025e-03   -2.12724649e-08   -3.70854829e-03   -1.71409261e-04    1.68656078e-03    7.89235398e-04    7.89235398e-04
31       1.96421319e-04    9.43868278e+00    5.57109069e+00    4.41268817e+00    1.39141301e-03   -3.86759209e-03    1.21837657e-03    1.02507974e-08   -3.86759209e-03   -1.73057785e-04    1.68820930e-03    7.87980030e-04    7.87980030e-04
32       2.03853390e-04    9.58258829e+00    5.57534207e+00    4.40449086e+00    1.53121336e-03   -4.00724622e-03    1.35684594e-03   -1.90364037e-08   -4.00724622e-03   -1.74346082e-04    1.68949760e-03    7.86516224e-04    7.86516224e-04
33       2.11285462e-04    9.70560164e+00    5.57866660e+00    4.39539111e+00    1.65155073e-03   -4.12693504e-03    1.47621856e-03    1.19932490e-08   -4.12693504e-03   -1.75353514e-04    1.69050503e-03    7.84891270e-04    7.84891270e-04
34       2.18717533e-04    9.80745462e+00    5.58124712e+00    4.38557408e+00    1.75176463e-03   -4.22620750e-03    1.57560780e-03   -1.76383151e-08   -4.22620750e-03   -1.76135492e-04    1.69128701e-03    7.83138228e-04    7.83138228e-04
35       2.26149605e-04    9.88792519e+00    5.58319509e+00    4.37515305e+00    1.83158866e-03   -4.30473011e-03    1.65488421e-03    1.31814304e-08   -4.30473011e-03   -1.76725783e-04    1.69187730e-03    7.81277331e-04    7.81277331e-04
36       2.33581676e-04    9.94683789e+00    5.58459058e+00    4.36420972e+00    1.89060737e-03   -4.36224731e-03    1.71343737e-03   -1.66008817e-08   -4.36224731e-03   -1.77148660e-04    1.69230018e-03    7.79323165e-04    7.79323165e-04
37       2.41013748e-04    9.98406428e+00    5.58548234e+00    4.35279423e+00    1.92874097e-03   -4.39858194e-03    1.75134342e-03    1.41270765e-08   -4.39858194e-03   -1.77418892e-04    1.69257041e-03    7.77284684e-04    7.77284684e-04
38       2.48445819e-04    9.99952321e+00    5.58590176e+00    4.34093925e+00    1.94574051e-03   -4.41362145e-03    1.76817318e-03   -1.57142610e-08   -4.41362145e-03   -1.77545988e-04    1.69269750e-03    7.75167723e-04    7.75167723e-04
39       2.55877891e-04    9.99318096e+00    5.58586188e+00    4.32865904e+00    1.94167382e-03   -4.40731908e-03    1.76416126e-03    1.49891092e-08   -4.40731908e-03   -1.77533903e-04    1.69268542e-03    7.72974828e-04    7.72974828e-04
40       2.63309962e-04    9.96505136e+00    5.58536190e+00    4.31595402e+00    1.91643462e-03   -4.37968946e-03    1.73903089e-03   -1.48507132e-08   -4.37968946e-03   -1.77382395e-04    1.69253391e-03    7.70706074e-04    7.70706074e-04
41       2.70742034e-04    9.91519575e+00    5.58438518e+00    4.30280874e+00    1.87022981e-03   -4.33081057e-03    1.69316473e-03    1.58839818e-08   -4.33081057e-03   -1.77086419e-04    1.69223793e-03    7.68358704e-04    7.68358704e-04
42       2.78174105e-04    9.84372281e+00    5.58289852e+00    4.28919131e+00    1.80309595e-03   -4.26082429e-03    1.62643869e-03   -1.38933425e-08   -4.26082429e-03   -1.76635916e-04    1.69178743e-03    7.65927020e-04    7.65927020e-04
43       2.85606177e-04    9.75078839e+00    5.58084731e+00    4.27504853e+00    1.71539064e-03   -4.16994107e-03    1.53939765e-03    1.69441227e-08   -4.16994107e-03   -1.76014337e-04    1.69116585e-03    7.63401523e-04    7.63401523e-04
44       2.93038248e-04    9.63659508e+00    5.57814864e+00    4.26029907e+00    1.60731800e-03   -4.05844644e-03    1.43210011e-03   -1.26770652e-08   -4.05844644e-03   -1.75196557e-04    1.69034807e-03    7.60767692e-04    7.60767692e-04
45       3.00470320e-04    9.50139187e+00    5.57467791e+00    4.24482024e+00    1.47943240e-03   -3.92671395e-03    1.30530892e-03    1.83950006e-08   -3.92671395e-03   -1.74144822e-04    1.68929634e-03    7.58003615e-04    7.58003615e-04
46       3.07902391e-04    9.34547351e+00    5.57024559e+00    4.22842482e+00    1.33218799e-03   -3.77522793e-03    1.15936496e-03   -1.08691064e-08   -3.77522793e-03   -1.72801694e-04    1.68795321e-03    7.55075861e-04    7.55075861e-04
47       3.15334463e-04    9.16917996e+00    5.56455213e+00    4.21081627e+00    1.16648921e-03   -3.60462784e-03    9.95434164e-04    2.07674207e-08   -3.60462784e-03   -1.71076402e-04    1.68622792e-03    7.51931476e-04    7.51931476e-04
48       3.22766535e-04    8.97289557e+00    5.55709448e+00    4.19149567e+00    9.83344144e-04   -3.41580109e-03    8.14506361e-04   -7.54822802e-09   -3.41580109e-03   -1.68816510e-04    1.68396803e-03    7.48481370e-04    7.48481370e-04
49       3.30198606e-04    8.75704828e+00    5.54694551e+00    4.16954202e+00    7.84674951e-04   -3.21010277e-03    6.18955559e-04    2.58373955e-08   -3.21010277e-03   -1.65741064e-04    1.68089258e-03    7.44561075e-04    7.44561075e-04
50       3.37630678e-04    8.52210868e+00    5.53213276e+00    4.14299307e+00    5.73753108e-04   -2.98997592e-03    4.12481891e-04    1.24610146e-09   -2.98997592e-03   -1.61252352e-04    1.67640387e-03    7.39820191e-04    7.39820191e-04
51       3.45062749e-04    8.26858901e+00    5.50792912e+00    4.10714133e+00    3.58215929e-04   -2.76065989e-03    2.09734763e-04    4.35717910e-08   -2.76065989e-03   -1.53917915e-04    1.66906943e-03    7.33418095e-04    7.33418095e-04
52       3.52494821e-04    7.99704198e+00    5.45012824e+00    4.03784081e+00    1.74381582e-04   -2.54691374e-03    3.25432218e-05    6.48569096e-08   -2.54691374e-03   -1.36402497e-04    1.65155401e-03    7.21043002e-04    7.21043002e-04
53       3.59926892e-04    7.70805962e+00    5.30945173e+00    3.88597692e+00    9.59605821e-05   -2.39860789e-03    7.62319353e-06    2.01913504e-07   -2.39860789e-03   -9.37732525e-05    1.60892477e-03    6.93924451e-04    6.93924451e-04
54       3.66167414e-04    7.45240159e+00    5.16964593e+00    3.73713385e+00    4.89679030e-05   -2.28275566e-03   -7.87581869e-06    1.16943839e-07   -2.28275566e-03   -5.14078577e-05    1.56655937e-03    6.67345330e-04    6.67345330e-04
55       3.72407936e-04    7.18528731e+00    5.01874263e+00    3.57755892e+00    7.09449770e-06   -2.16654468e-03    6.85077543e-06    2.30728901e-07   -2.16654468e-03   -5.67958622e-06    1.52083110e-03    6.38849807e-04    6.38849807e-04
56       3.84888980e-04    6.61834951e+00    4.70471239e+00    3.24734670e+00   -9.17795583e-05   -1.91363711e-03   -7.73432974e-06    1.37086105e-07   -1.91363711e-03    8.94810925e-05    1.42567042e-03    5.79883339e-04    5.79883339e-04
57       3.97370024e-04    6.01073098e+00    4.36364340e+00    2.89172185e+00   -1.91335130e-04   -1.64708758e-03    6.93606809e-06    2.72376989e-07   -1.64708758e-03    1.92835334e-04    1.32231618e-03    5.16378902e-04    5.16378902e-04
58       4.09851068e-04    5.36616655e+00    4.00578815e+00    2.52103286e+00   -3.03511761e-04   -1.36037840e-03   -7.67130602e-06    1.69475613e-07   -1.36037840e-03    3.01276319e-04    1.21387520e-03    4.50184439e-04    4.50184439e-04
59       4.22332112e-04    4.68861813e+00    3.62520689e+00    2.12942528e+00   -4.15075054e-04   -1.06341123e-03    6.96478129e-06    3.15771883e-07   -1.06341123e-03    4.16603972e-04    1.09854754e-03    3.80254514e-04    3.80254514e-04
60       4.34813156e-04    3.98225038e+00    3.23234282e+00    1.72741656e+00   -5.37853628e-04   -7.49907562e-04   -7.63580051e-06    2.03874609e-07   -7.49907562e-04    5.35653691e-04    9.79497824e-04    3.08467243e-04    3.08467243e-04
61       4.47294200e-04    3.25140511e+00    2.82153183e+00    1.30940521e+00   -6.58595722e-04   -4.29873273e-04    6.98201039e-06    3.63014706e-07   -4.29873273e-04    6.60141868e-04    8.55009647e-04    2.33822359e-04    2.33822359e-04
62       4.59775244e-04    2.50057456e+00    2.40334892e+00    8.86016909e-01   -7.89036070e-04   -9.72256426e-05   -7.60797039e-06    2.43140939e-07   -9.72256426e-05    7.86863964e-04    7.28287551e-04    1.58217305e-04    1.58217305e-04
63       4.72256288e-04    1.73437384e+00    1.97234050e+00    4.51836417e-01   -9.15911748e-04    2.37966661e-04    6.99669090e-06    4.18930923e-07    2.37966661e-04    9.17472575e-04    5.97678940e-04    8.06850745e-05    8.06850745e-05
64       4.84737332e-04    9.57512522e-01    1.53915334e+00    1.75363590e-02   -1.05088782e-03    5.81640815e-04   -7.58227384e-06    2.94583621e-07    5.81640815e-04    1.04874141e-03    4.66410102e-04    3.13149268e-06    3.13149268e-06
65       4.97218376e-04    1.74765700e-01    1.09848103e+00   -4.22176541e-01   -1.18070267e-03    9.23715327e-04    7.01167089e-06    4.97030854e-07    9.23715327e-04    1.18227848e-03    3.32873038e-04   -7.53886681e-05   -7.53886681e-05
66       5.09699420e-04   -6.09055347e-01    6.60979201e-01   -8.56646254e-01   -1.31697552e-03    1.27003455e-03   -7.55660066e-06    3.83202301e-07    1.27003455e-03    1.31485479e-03    2.00296727e-04   -1.52972545e-04   -1.52972545e-04
67       5.22180464e-04   -1.38913274e+00    2.21434782e-01   -1.29109833e+00   -1.44645788e-03    1.61056752e-03    7.02804684e-06    6.57817902e-07    1.61056752e-03    1.44805007e-03    6.71014492e-05   -2.30553273e-04   -2.30553273e-04
68       5.34661508e-04   -2.16067161e+00   -2.09442988e-01   -1.71484894e+00   -1.58071312e-03    1.95122862e-03   -7.52990079e-06    8.24896738e-07    1.95122862e-03    1.57861909e-03   -6.34675722e-05   -3.06223025e-04   -3.06223025e-04
69       5.40036361e-04   -2.48911168e+00   -3.88376895e-01   -1.88992340e+00   -1.63307845e-03    2.10073479e-03   -2.36966022e-07    1.24800834e-05    2.10073479e-03    1.63284148e-03   -1.17689968e-04   -3.37486322e-04   -3.37486322e-04
70       5.40788224e-04   -2.53483779e+00   -4.07064061e-01   -1.90806551e+00   -1.63868012e-03    2.12777373e-03   -1.75862819e-07    2.50152744e-05    2.12777373e-03    1.63850426e-03   -1.23352746e-04   -3.40725983e-04   -3.40725983e-04
71       5.41540086e-04   -2.58050732e+00   -4.24062358e-01   -1.92451639e+00   -1.64379903e-03    2.15644496e-03   -1.43775040e-07    4.04781453e-05    2.15644496e-03    1.64365526e-03   -1.28503745e-04   -3.43663642e-04   -3.43663642e-04
72       5.43043810e-04   -2.67167260e+00   -4.54097596e-01   -1.95344385e+00   -1.65289513e-03    2.21757500e-03   -1.38279564e-07    7.82595394e-05    2.21757500e-03    1.65275685e-03   -1.37605332e-04   -3.48829258e-04   -3.48829258e-04
73       5.46051259e-04   -2.85327956e+00   -4.93009513e-01   -1.99010272e+00   -1.66459264e-03    2.36027005e-03   -4.43020638e-08    1.90990788e-04    2.36027005e-03    1.66454834e-03   -1.49396822e-04   -3.55375486e-04   -3.55375486e-04
74       5.49058707e-04   -3.03386773e+00   -5.16669295e-01   -2.01147630e+00   -1.67178477e-03    2.51719844e-03   -6.68044001e-08    3.29578098e-04    2.51719844e-03    1.67171797e-03   -1.56566453e-04   -3.59192197e-04   -3.59192197e-04
75       5.52066156e-04   -3.21337262e+00   -5.32519274e-01   -2.02502014e+00   -1.67652879e-03    2.68085335e-03   -7.79754960e-09    4.81429045e-04    2.68085335e-03    1.67652099e-03   -1.61369477e-04   -3.61610739e-04   -3.61610739e-04
76       5.58081053e-04   -3.56887660e+00   -5.53339962e-01   -2.04119457e+00   -1.68287171e-03    3.01553664e-03   -4.14190287e-08    8.00428501e-04    3.01553664e-03    1.68283029e-03   -1.67678776e-04   -3.64499031e-04   -3.64499031e-04
77       5.64095950e-04   -3.91928379e+00   -5.67134063e-01   -2.05031352e+00   -1.68700174e-03    3.35214973e-03    8.57754236e-09    1.12843327e-03    3.35214973e-03    1.68701032e-03   -1.71858807e-04   -3.66127415e-04   -3.66127415e-04
78       5.76125745e-04   -4.60281414e+00   -5.85217339e-01   -2.05900579e+00   -1.69252046e-03    4.01759680e-03   -3.03585057e-08    1.77883569e-03    4.01759680e-03    1.69249010e-03   -1.77338588e-04   -3.67679606e-04   -3.67679606e-04
79       5.88155539e-04   -5.26006041e+00   -5.97302436e-01   -2.06167392e+00   -1.69613670e-03    4.66275797e-03    1.55502961e-08    2.41868729e-03    4.66275797e-03    1.69615225e-03   -1.81000738e-04   -3.68156057e-04   -3.68156057e-04
80       6.00185334e-04   -5.88726943e+00   -6.06162626e-01   -2.06111232e+00   -1.69886377e-03    5.28110680e-03   -2.66135944e-08    3.02933707e-03    5.28110680e-03    1.69883716e-03   -1.83685644e-04   -3.68055772e-04   -3.68055772e-04
81       6.12215128e-04   -6.48085957e+00   -6.13075035e-01   -2.05860995e+00   -1.70091402e-03    5.86778453e-03    1.78105162e-08    3.61480045e-03    5.86778453e-03    1.70093183e-03   -1.85780314e-04   -3.67608920e-04   -3.67608920e-04
