Index       TIME          {V(VOUT)+1.0}      {V(IN)+4.0}       {V(1)+4.0}          IG(MP1)           IG(MN1)           IS(MP1)           ID(MN1)           ID(MP1)     
0        0.00000000e+00    3.91195120e+00    4.00000000e+00    4.00000000e+00    0.00000000e+00    0.00000000e+00    2.91195043e-04    4.03781348e-12   -2.91195043e-04
1        1.00000000e-10    3.91196022e+00    4.00002727e+00    4.00018850e+00    1.06292384e-07    5.49324151e-08    2.91098760e-04    4.30747476e-12   -2.91205052e-04
2        3.00000000e-10    3.91198091e+00    4.00015685e+00    4.00056549e+00    2.78137095e-07    1.30503738e-07    2.90930308e-04    1.29575491e-11   -2.91208445e-04
3        7.00000000e-10    3.91201295e+00    4.00052759e+00    4.00131947e+00    5.48984511e-07    2.42895936e-07    2.90658094e-04    1.04961905e-10   -2.91207078e-04
4        1.50000000e-09    3.91202137e+00    4.00168782e+00    4.00282743e+00    7.98233258e-07    3.41378246e-07    2.90401368e-04    1.03693481e-09   -2.91199601e-04
5        3.10000000e-09    3.91195076e+00    4.00456320e+00    4.00584336e+00    8.97543560e-07    3.82617657e-07    2.90299833e-04    7.55396009e-09   -2.91197376e-04
6        6.30000000e-09    3.91176262e+00    4.01060668e+00    4.01187519e+00    8.90280028e-07    3.78231531e-07    2.90320272e-04    4.07948828e-08   -2.91210552e-04
7        1.27000000e-08    3.91136212e+00    4.02266314e+00    4.02393868e+00    8.94844234e-07    3.80697855e-07    2.90421589e-04    1.86231669e-07   -2.91316434e-04
8        2.55000000e-08    3.91045559e+00    4.04679050e+00    4.04806431e+00    8.95127854e-07    3.78685793e-07    2.90936084e-04    7.93819005e-07   -2.91831212e-04
9        5.11000000e-08    3.90820662e+00    4.09502249e+00    4.09630468e+00    9.01851426e-07    3.80340282e-07    2.93183217e-04    3.27383896e-06   -2.94085068e-04
10       1.02300000e-07    3.90186337e+00    4.19140983e+00    4.19269820e+00    9.10286477e-07    3.78082743e-07    3.02544819e-04    1.32841139e-05   -3.03455105e-04
11       2.04700000e-07    3.88083970e+00    4.38347731e+00    4.38478748e+00    9.32617023e-07    3.77557911e-07    3.40444801e-04    5.33191639e-05   -3.41377418e-04
12       3.07100000e-07    3.84647237e+00    4.57395787e+00    4.57528444e+00    9.54732455e-07    3.71839449e-07    4.03095004e-04    1.19443908e-04   -4.04049736e-04
13       4.09500000e-07    3.79513874e+00    4.76204846e+00    4.76340076e+00    9.84147706e-07    3.68155182e-07    4.89027612e-04    2.10556740e-04   -4.90011760e-04
14       5.11900000e-07    3.72134767e+00    4.94697909e+00    4.94835799e+00    1.01949045e-06    3.59407408e-07    5.96180745e-04    3.25150743e-04   -5.97200236e-04
15       6.14300000e-07    3.61579029e+00    5.12796566e+00    5.12939074e+00    1.07243646e-06    3.52638244e-07    7.21698708e-04    4.61313032e-04   -7.22771145e-04
16       7.16700000e-07    3.45963954e+00    5.30425624e+00    5.30574987e+00    1.15263874e-06    3.40932231e-07    8.61406382e-04    6.16779330e-04   -8.62559021e-04
17       7.30598684e-07    3.43253423e+00    5.32777727e+00    5.32928645e+00    1.16770594e-06    3.40889872e-07    8.81098917e-04    6.39225988e-04   -8.82266624e-04
18       7.44497368e-07    3.40348732e+00    5.35118460e+00    5.35272167e+00    1.20028869e-06    3.37594210e-07    9.00905515e-04    6.61962425e-04   -9.02105805e-04
19       7.72294737e-07    3.33842669e+00    5.39771717e+00    5.39928083e+00    1.22514652e-06    3.36801499e-07    9.40689744e-04    7.08341300e-04   -9.41914892e-04
20       8.00092105e-07    3.26137801e+00    5.44379523e+00    5.44541316e+00    1.28862334e-06    3.31006996e-07    9.80378279e-04    7.55814410e-04   -9.81666904e-04
21       8.27889474e-07    3.16683529e+00    5.48943593e+00    5.49110458e+00    1.33642758e-06    3.30462990e-07    1.01930683e-03    8.04354729e-04   -1.02064326e-03
22       8.55686842e-07    3.04297883e+00    5.53459024e+00    5.53634116e+00    1.42832821e-06    3.23957573e-07    1.05623714e-03    8.53864244e-04   -1.05766547e-03
23       8.60180923e-07    3.01855579e+00    5.54184819e+00    5.54361103e+00    1.43494310e-06    3.25315242e-07    1.06182393e-03    8.61960160e-04   -1.06325887e-03
24       8.64675003e-07    2.99237636e+00    5.54908636e+00    5.55086861e+00    1.46188733e-06    3.23542497e-07    1.06724014e-03    8.70072061e-04   -1.06870203e-03
25       8.73663164e-07    2.93299965e+00    5.56353217e+00    5.56534659e+00    1.48135028e-06    3.23946744e-07    1.07746712e-03    8.86375221e-04   -1.07894847e-03
26       8.82651325e-07    2.85974361e+00    5.57794675e+00    5.57977466e+00    1.51424240e-06    3.22142645e-07    1.08635004e-03    9.02793972e-04   -1.08786428e-03
27       8.91639486e-07    2.75899957e+00    5.59234682e+00    5.59415234e+00    1.46870280e-06    3.23296341e-07    1.09243421e-03    9.19346640e-04   -1.09390292e-03
28       8.92730963e-07    2.74315807e+00    5.59410547e+00    5.59589484e+00    1.45541601e-06    3.24560642e-07    1.09277067e-03    9.21378484e-04   -1.09422609e-03
29       8.94913916e-07    2.70665098e+00    5.59767818e+00    5.59937758e+00    1.38926797e-06    3.34788811e-07    1.09292466e-03    9.25513109e-04   -1.09431393e-03
30       8.97096870e-07    2.65960883e+00    5.60129071e+00    5.60285732e+00    1.20409204e-06    3.31906700e-07    1.09200811e-03    9.29703211e-04   -1.09321220e-03
31       8.99279824e-07    2.58815980e+00    5.60510915e+00    5.60633405e+00    7.22918963e-07    5.17143065e-07    1.08787854e-03    9.33893894e-04   -1.08860146e-03
32       9.01462777e-07    2.51456278e+00    5.60852507e+00    5.60980775e+00    2.49715634e-07    1.02278808e-06    1.08273262e-03    9.34155357e-04   -1.08298233e-03
33       9.03645731e-07    2.46534017e+00    5.61175666e+00    5.61327842e+00    6.70435937e-07    8.62763934e-07    1.07758145e-03    9.33596986e-04   -1.07825188e-03
34       9.05610389e-07    2.42884126e+00    5.61486856e+00    5.61639943e+00    3.14086732e-07    1.21368317e-06    1.07281515e-03    9.32071111e-04   -1.07312924e-03
35       9.09539706e-07    2.36662980e+00    5.62100217e+00    5.62263406e+00    6.56169173e-07    9.78496782e-07    1.06328347e-03    9.28617519e-04   -1.06393965e-03
36       9.13469023e-07    2.31511598e+00    5.62725065e+00    5.62885879e+00    3.32256966e-07    1.27322670e-06    1.05369410e-03    9.23795812e-04   -1.05402636e-03
37       9.17398339e-07    2.27004300e+00    5.63343806e+00    5.63507360e+00    6.46510852e-07    9.89663099e-07    1.04419295e-03    9.18849846e-04   -1.04483946e-03
38       9.25256972e-07    2.19379329e+00    5.64588420e+00    5.64747328e+00    3.37896475e-07    1.24942354e-06    1.02526420e-03    9.07149531e-04   -1.02560210e-03
39       9.40974239e-07    2.07350257e+00    5.67060204e+00    5.67215184e+00    6.39612126e-07    9.11953035e-07    9.88151180e-04    8.82044452e-04   -9.88790795e-04
40       9.56691505e-07    1.97877815e+00    5.69519126e+00    5.69666732e+00    3.32810253e-07    1.14147419e-06    9.51928633e-04    8.54985085e-04   -9.52261446e-04
41       9.72408771e-07    1.89950602e+00    5.71957186e+00    5.72101734e+00    6.31361854e-07    8.14727047e-07    9.16665400e-04    8.27751875e-04   -9.17296764e-04
42       1.00384330e-06    1.77134455e+00    5.76787476e+00    5.76921150e+00    3.23748045e-07    1.01252248e-06    8.48786404e-04    7.72385153e-04   -8.49110156e-04
43       1.06671237e-06    1.58535023e+00    5.86228532e+00    5.86351085e+00    6.09658289e-07    6.16335787e-07    7.23634102e-04    6.65890983e-04   -7.24243764e-04
44       1.12958143e-06    1.45322839e+00    5.95378946e+00    5.95490278e+00    2.95013243e-07    8.17826915e-07    6.11862719e-04    5.67072975e-04   -6.12157736e-04
45       1.19245050e-06    1.35359058e+00    6.04219717e+00    6.04324468e+00    5.79044835e-07    4.68940896e-07    5.12762695e-04    4.78061579e-04   -5.13341743e-04
46       1.25531957e-06    1.27645123e+00    6.12743650e+00    6.12839874e+00    2.63688556e-07    6.98077947e-07    4.25504781e-04    3.98289854e-04   -4.25768473e-04
47       1.31818863e-06    1.21556852e+00    6.20931827e+00    6.21023210e+00    5.45849637e-07    3.68454671e-07    3.49331654e-04    3.28347832e-04   -3.49877507e-04
48       1.38105770e-06    1.16732184e+00    6.28777675e+00    6.28861707e+00    2.29843776e-07    6.09999342e-07    2.83389869e-04    2.67013839e-04   -2.83619716e-04
49       1.44392676e-06    1.12878319e+00    6.36263131e+00    6.36343137e+00    5.10218707e-07    2.90314621e-07    2.26890910e-04    2.14519107e-04   -2.27401132e-04
50       1.50679583e-06    1.09820406e+00    6.43382571e+00    6.43455826e+00    1.93657072e-07    5.38424306e-07    1.78979514e-04    1.69453755e-04   -1.79173175e-04
51       1.56966489e-06    1.07386147e+00    6.50119030e+00    6.50188679e+00    4.72354599e-07    2.24608011e-07    1.38862235e-04    1.31924901e-04   -1.39334594e-04
52       1.63253396e-06    1.05478325e+00    6.56467957e+00    6.56531190e+00    1.55343014e-07    4.76515997e-07    1.05707549e-04    1.00468809e-04   -1.05862896e-04
53       1.69540302e-06    1.03981270e+00    6.62413615e+00    6.62473464e+00    4.32484804e-07    1.66471075e-07    7.87446365e-05    7.51592420e-05   -7.91771254e-05
54       1.75827209e-06    1.02837095e+00    6.67952600e+00    6.68006229e+00    1.15136488e-07    4.20681661e-07    5.71908642e-05    5.45419226e-05   -5.73060048e-05
55       1.82114115e-06    1.01961531e+00    6.73070496e+00    6.73120854e+00    3.90853124e-07    1.13203588e-07    4.03247472e-05    3.87089151e-05   -4.07156044e-05
56       1.88401022e-06    1.01319634e+00    6.77765100e+00    6.77809359e+00    7.32870312e-08    3.68830442e-07    2.74360537e-05    2.62552902e-05   -2.75093449e-05
57       1.94687928e-06    1.00846829e+00    6.82023387e+00    6.82064429e+00    3.47715903e-07    6.31710835e-08    1.78774160e-05    1.73277696e-05   -1.82251361e-05
58       2.00974835e-06    1.00523145e+00    6.85844406e+00    6.85879424e+00    3.00557710e-08    3.19650498e-07    1.10320949e-05    1.05998450e-05   -1.10621548e-05
59       2.07261741e-06    1.00297664e+00    6.89216576e+00    6.89248394e+00    3.03339596e-07    1.53153244e-08    6.34893573e-06    6.30095371e-06   -6.65227949e-06
60       2.13548648e-06    1.00161180e+00    6.92140237e+00    6.92166082e+00   -1.42868416e-08    2.72265876e-07    3.32274801e-06    3.20528905e-06   -3.30846533e-06
61       2.19835555e-06    1.00073097e+00    6.94605291e+00    6.94627935e+00    2.57998756e-07   -3.10910291e-08    1.51738253e-06    1.64708636e-06   -1.77538544e-06
62       2.26122461e-06    1.00032648e+00    6.96613406e+00    6.96630113e+00   -5.94630182e-08    2.26055764e-07    5.53711440e-07    5.18092897e-07   -4.94252582e-07
63       2.32409368e-06    1.00007652e+00    6.98155999e+00    6.98169491e+00    2.11974159e-07   -7.65797586e-08    1.25583020e-07    2.74215799e-07   -3.37561339e-07
64       2.38696274e-06    1.00004491e+00    6.99236086e+00    6.99243669e+00   -1.05189519e-07    1.80550105e-07   -9.50443003e-09   -6.33865034e-08    1.14689789e-07
65       2.44983181e-06    9.99983235e-01    6.99846620e+00    6.99850971e+00    1.65550981e-07   -1.21568959e-07   -1.68958525e-08    9.47380454e-08   -1.48659288e-07
66       2.51270087e-06    1.00002028e+00    6.99991982e+00    6.99990448e+00   -1.51179498e-07    1.35363191e-07    3.84400593e-09   -9.38795570e-08    1.47331333e-07
67       2.57556994e-06    9.99975716e-01    6.99666670e+00    6.99661883e+00    1.19016979e-07   -1.66418129e-07    3.45376443e-08    1.00649058e-07   -1.53558783e-07
68       2.63843900e-06    1.00004126e+00    6.98876441e+00    6.98865788e+00   -1.97144339e-07    9.01459904e-08    1.20424235e-07   -2.57118975e-08    7.67159441e-08
69       2.70130807e-06    1.00010347e+00    6.97617335e+00    6.97603407e+00    7.26606884e-08   -2.11470780e-07    3.92260131e-07    3.99250099e-07   -4.64924979e-07
70       2.76417713e-06    1.00041891e+00    6.95896486e+00    6.95876708e+00   -2.42795462e-07    4.45460315e-08    1.03743613e-06    8.07078083e-07   -7.94644829e-07
71       2.82704620e-06    1.00094384e+00    6.93711465e+00    6.93688385e+00    2.67696267e-08   -2.57093785e-07    2.33279101e-06    2.20918686e-06   -2.35956479e-06
72       2.88991526e-06    1.00200577e+00    6.91070774e+00    6.91041853e+00   -2.87846121e-07   -1.83339684e-09    4.60073753e-06    4.16493394e-06   -4.31289557e-06
73       2.95278433e-06    1.00363828e+00    6.87973498e+00    6.87941241e+00   -1.83714760e-08   -3.03721455e-07    8.25682543e-06    7.81682057e-06   -8.23845811e-06
74       3.01565340e-06    1.00625174e+00    6.84429488e+00    6.84391386e+00   -3.32013150e-07   -4.94832388e-08    1.37470401e-05    1.28393524e-05   -1.34150311e-05
75       3.07852246e-06    1.00997155e+00    6.80439313e+00    6.80397826e+00   -6.24824021e-08   -3.51914138e-07    2.16139665e-05    2.04930044e-05   -2.15514883e-05
76       3.14139153e-06    1.01531187e+00    6.76014153e+00    6.75966793e+00   -3.75018660e-07   -9.90599620e-08    3.24116621e-05    3.05498002e-05   -3.20366476e-05
77       3.20426059e-06    1.02251606e+00    6.71156020e+00    6.71105199e+00   -1.05289094e-07   -4.02447092e-07    4.67940932e-05    4.43699438e-05   -4.66888083e-05
78       3.26712966e-06    1.03223880e+00    6.65877392e+00    6.65820630e+00   -4.16591609e-07   -1.51499608e-07    6.54042076e-05    6.18000681e-05   -6.49876201e-05
79       3.32999872e-06    1.04488879e+00    6.60181676e+00    6.60121330e+00   -1.46525164e-07   -4.56459785e-07    8.89881472e-05    8.42761763e-05   -8.88416262e-05
80       3.39286779e-06    1.06132847e+00    6.54082614e+00    6.54016192e+00   -4.56469186e-07   -2.08218314e-07    1.18255342e-04    1.11690302e-04   -1.17798877e-04
81       3.45573685e-06    1.08222262e+00    6.47584955e+00    6.47514741e+00   -1.85933124e-07   -5.15730644e-07    1.54021857e-04    1.45522925e-04   -1.53835928e-04
82       3.51860592e-06    1.10877393e+00    6.40703662e+00    6.40627120e+00   -4.94397759e-07   -2.71499010e-07    1.97038483e-04    1.85672972e-04   -1.96544089e-04
83       3.58147498e-06    1.14209310e+00    6.33444772e+00    6.33364075e+00   -2.23264971e-07   -5.83234585e-07    2.48166456e-04    2.33621614e-04   -2.47943195e-04
84       3.64434405e-06    1.18401572e+00    6.25824436e+00    6.25736937e+00   -5.30132750e-07   -3.45321624e-07    3.08170592e-04    2.89217796e-04   -3.07640463e-04
85       3.70721311e-06    1.23655431e+00    6.17849925e+00    6.17757608e+00   -2.58280991e-07   -6.64420253e-07    3.77930522e-04    3.53870771e-04   -3.77672245e-04
86       3.77008218e-06    1.30294679e+00    6.09538573e+00    6.09438535e+00   -5.63435221e-07   -4.37414671e-07    4.58195814e-04    4.27272536e-04   -4.57632382e-04
87       3.83295124e-06    1.38747301e+00    6.00898887e+00    6.00792699e+00   -2.90742238e-07   -7.70667592e-07    5.49835658e-04    5.10593885e-04   -5.49544919e-04
88       3.89582031e-06    1.49748617e+00    5.91949493e+00    5.91833588e+00   -5.94055112e-07   -5.65460901e-07    6.53552149e-04    6.03063222e-04   -6.52958098e-04
89       3.95868938e-06    1.64567860e+00    5.82700396e+00    5.82575180e+00   -3.20372898e-07   -9.31273574e-07    7.70169994e-04    7.04956511e-04   -7.69849624e-04
90       4.01527153e-06    1.83509466e+00    5.74137572e+00    5.73998644e+00   -6.20269662e-07   -7.69295974e-07    8.86652812e-04    8.02178288e-04   -8.86032545e-04
91       4.02245034e-06    1.86517016e+00    5.73034493e+00    5.72894556e+00   -4.77542002e-07   -9.21824089e-07    9.02258752e-04    8.14845245e-04   -9.01781213e-04
92       4.02962915e-06    1.89710213e+00    5.71930251e+00    5.71786950e+00   -4.78548732e-07   -9.54918952e-07    9.18013884e-04    8.27354427e-04   -9.17535338e-04
93       4.04398677e-06    1.96815868e+00    5.69708243e+00    5.69561276e+00   -4.83396292e-07   -9.85807590e-07    9.50133369e-04    8.52314988e-04   -9.49649975e-04
94       4.05834439e-06    2.05123096e+00    5.67474001e+00    5.67321802e+00   -4.83845233e-07   -1.03856594e-06    9.82982246e-04    8.76737189e-04   -9.82498403e-04
95       4.07270201e-06    2.15259063e+00    5.65225729e+00    5.65068712e+00   -4.89469962e-07   -1.08011804e-06    1.01660633e-03    9.00083813e-04   -1.01611687e-03
96       4.08705963e-06    2.28580510e+00    5.62963321e+00    5.62802189e+00   -4.89965186e-07   -1.12088450e-06    1.05100755e-03    9.20854123e-04   -1.05051759e-03
97       4.08913086e-06    2.30953467e+00    5.62635420e+00    5.62474122e+00   -4.92007941e-07   -1.12092855e-06    1.05604297e-03    9.23451781e-04   -1.05555096e-03
98       4.09120209e-06    2.33483863e+00    5.62306357e+00    5.62145780e+00   -4.95492809e-07   -1.11170978e-06    1.06110975e-03    9.25833996e-04   -1.06061426e-03
99       4.09534456e-06    2.39246920e+00    5.61648596e+00    5.61488273e+00   -4.91461181e-07   -1.10042522e-06    1.07126301e-03    9.30023185e-04   -1.07077155e-03
100      4.09948702e-06    2.46455403e+00    5.60981999e+00    5.60829672e+00   -5.08750734e-07   -1.02396228e-06    1.08162342e-03    9.32678418e-04   -1.08111467e-03
101      4.10362948e-06    2.57003538e+00    5.60297233e+00    5.60169982e+00   -5.18723042e-07   -7.24082145e-07    1.09231019e-03    9.31652151e-04   -1.09179147e-03
102      4.10735770e-06    2.68012754e+00    5.59732717e+00    5.59575333e+00   -1.46653797e-06   -1.35070083e-07    1.09721851e-03    9.24967174e-04   -1.09575197e-03
103      4.10802046e-06    2.69525886e+00    5.59635459e+00    5.59469531e+00   -1.34426451e-06   -2.95596429e-07    1.09714182e-03    9.23980267e-04   -1.09579756e-03
104      4.10868322e-06    2.70889286e+00    5.59536208e+00    5.59363701e+00   -1.44260148e-06   -3.07711107e-07    1.09698031e-03    9.22831683e-04   -1.09553771e-03
105      4.11000874e-06    2.73209179e+00    5.59327660e+00    5.59151959e+00   -1.39921571e-06   -3.26132154e-07    1.09671848e-03    9.20420575e-04   -1.09531926e-03
106      4.11265978e-06    2.77121479e+00    5.58909281e+00    5.58728143e+00   -1.53683531e-06   -3.09657932e-07    1.09550963e-03    9.15593057e-04   -1.09397280e-03
107      4.11796187e-06    2.83324618e+00    5.58064517e+00    5.57879193e+00   -1.48027562e-06   -3.32215894e-07    1.09177515e-03    9.05884323e-04   -1.09029488e-03
108      4.12856605e-06    2.92593574e+00    5.56358513e+00    5.56176044e+00   -1.55184932e-06   -3.15917655e-07    1.08123988e-03    8.86435272e-04   -1.07968803e-03
109      4.14977441e-06    3.05581769e+00    5.52924264e+00    5.52749024e+00   -1.37278078e-06   -3.36440682e-07    1.05544396e-03    8.47923677e-04   -1.05407118e-03
110      4.17098277e-06    3.15136180e+00    5.49464599e+00    5.49294880e+00   -1.41471915e-06   -3.20745612e-07    1.02686031e-03    8.09991843e-04   -1.02544559e-03
111      4.19219113e-06    3.22830787e+00    5.45977966e+00    5.45814226e+00   -1.25683103e-06   -3.41563234e-07    9.97138085e-04    7.72642482e-04   -9.95881255e-04
112      4.23460784e-06    3.34926317e+00    5.38932242e+00    5.38775865e+00   -1.27659993e-06   -3.27627740e-07    9.36210537e-04    6.99858194e-04   -9.34933938e-04
113      4.27702456e-06    3.44277022e+00    5.31790199e+00    5.31638939e+00   -1.12142167e-06   -3.50711406e-07    8.75442845e-04    6.29752921e-04   -8.74321424e-04
114      4.31944128e-06    3.51867422e+00    5.24555906e+00    5.24408516e+00   -1.17739131e-06   -3.36389437e-07    8.15618626e-04    5.62513068e-04   -8.14441235e-04
115      4.36185799e-06    3.58179016e+00    5.17233965e+00    5.17089734e+00   -1.04294758e-06   -3.59036095e-07    7.57775414e-04    4.98322933e-04   -7.56732467e-04
116      4.40427471e-06    3.63527021e+00    5.09829793e+00    5.09687788e+00   -1.11589669e-06   -3.44199629e-07    7.02025822e-04    4.37365272e-04   -7.00909926e-04
117      4.44669142e-06    3.68092919e+00    5.02347738e+00    5.02207938e+00   -9.91308114e-07   -3.66433275e-07    6.49083256e-04    3.79804812e-04   -6.48091948e-04
