Index       TIME          {V(VOUT)+1.0}     {V(IN)+4.0}       {V(1)+4.0}         IG(MP1)           IG(MN1)           IS(MP1)           ID(MN1)           ID(MP1)     
0        0.00000000e+00    3.91210983e+00    3.99875273e+00    4.00000000e+00    9.07388384e-07    3.39885280e-07    2.90358594e-04    1.93826222e-08   -2.91265983e-04
1        1.63934426e-07    3.89066726e+00    4.30714634e+00    4.30846299e+00    9.09257092e-07    4.07394894e-07    3.22267538e-04    3.41833432e-05   -3.23176796e-04
2        3.27868852e-07    3.83754335e+00    4.61233879e+00    4.61365620e+00    9.77054768e-07    3.40349263e-07    4.18778366e-04    1.35979317e-04   -4.19755421e-04
3        4.91803279e-07    3.73801899e+00    4.91095219e+00    4.91234450e+00    9.91322481e-07    4.00980891e-07    5.73484926e-04    3.00845397e-04   -5.74476249e-04
4        6.55737705e-07    3.56027050e+00    5.19993066e+00    5.20136172e+00    1.14544987e-06    2.85608477e-07    7.76992736e-04    5.22114074e-04   -7.78138186e-04
5        8.19672131e-07    3.19739784e+00    5.47599230e+00    5.47764420e+00    1.15954495e-06    4.92357208e-07    1.00768761e-03    7.89740105e-04   -1.00884715e-03
6        9.83606557e-07    1.85060956e+00    5.73679384e+00    5.73826329e+00    6.54618172e-07    8.14831448e-07    8.92162692e-04    8.08428134e-04   -8.92817313e-04
7        1.14754098e-06    1.42180083e+00    5.97939876e+00    5.98045636e+00    3.75830954e-07    6.81772841e-07    5.82258035e-04    5.40482166e-04   -5.82633870e-04
8        1.31147541e-06    1.22153538e+00    6.20071559e+00    6.20165610e+00    4.38720400e-07    5.01790674e-07    3.56981494e-04    3.35447070e-04   -3.57420219e-04
9        1.47540984e-06    1.11253414e+00    6.39877226e+00    6.39951773e+00    3.20010303e-07    4.25462316e-07    2.01862035e-04    1.90908287e-04   -2.02182049e-04
10       1.63934426e-06    1.05299483e+00    6.57129253e+00    6.57194388e+00    3.29930461e-07    3.21420768e-07    1.02510848e-04    9.76226371e-05   -1.02840782e-04
11       1.80327869e-06    1.02183214e+00    6.71661152e+00    6.71710679e+00    2.22094163e-07    2.73170468e-07    4.46780419e-05    4.26836969e-05   -4.49001402e-05
12       1.96721311e-06    1.00731876e+00    6.83306636e+00    6.83346769e+00    2.18651388e-07    1.82675921e-07    1.53954635e-05    1.49277146e-05   -1.56141190e-05
13       2.13114754e-06    1.00164469e+00    6.91953641e+00    6.91979312e+00    1.08593414e-07    1.48120701e-07    3.48772403e-06    3.39834461e-06   -3.59632161e-06
14       2.29508197e-06    1.00019011e+00    6.97500771e+00    6.97516802e+00    1.02442912e-07    5.78733404e-08    2.73423004e-07    3.88957968e-07   -3.75870076e-07
15       2.45901639e-06    9.99986320e-01    6.99898575e+00    6.99900540e+00   -1.30506746e-08    3.27054422e-08   -1.42930778e-08   -5.49943015e-08    2.73395924e-08
16       2.62295082e-06    1.00002591e+00    6.99113113e+00    6.99105258e+00   -1.46749288e-08   -6.38732188e-08    8.86487409e-08    9.81467325e-08   -7.39779719e-08
17       2.78688525e-06    1.00054542e+00    6.95161190e+00    6.95139385e+00   -1.37769731e-07   -8.02794592e-08    1.41483671e-06    1.19674010e-06   -1.27707114e-06
18       2.95081967e-06    1.00361055e+00    6.88076682e+00    6.88044962e+00   -1.26931509e-07   -1.90263676e-07    8.11625221e-06    7.64839159e-06   -7.98932485e-06
19       3.11475410e-06    1.01281679e+00    6.77943011e+00    6.77897190e+00   -2.61951352e-07   -1.96253644e-07    2.74363085e-05    2.58621790e-05   -2.71743613e-05
20       3.27868852e-06    1.03432435e+00    6.64859594e+00    6.64803639e+00   -2.26647695e-07   -3.32895410e-07    6.93538308e-05    6.56965019e-05   -6.91271872e-05
21       3.44262295e-06    1.07743460e+00    6.48974018e+00    6.48903104e+00   -3.85520492e-07   -3.23622007e-07    1.45976970e-04    1.37794323e-04   -1.45591454e-04
22       3.60655738e-06    1.15771673e+00    6.30446430e+00    6.30364134e+00   -2.99690718e-07   -5.23273457e-07    2.71001256e-04    2.54878798e-04   -2.70701569e-04
23       3.77049180e-06    1.30338287e+00    6.09484045e+00    6.09383246e+00   -5.24684945e-07   -4.83304199e-07    4.58749210e-04    4.27764742e-04   -4.58224529e-04
24       3.93442623e-06    1.58266706e+00    5.86303761e+00    5.86182845e+00   -2.84300866e-07   -9.24863350e-07    7.23601954e-04    6.64763008e-04   -7.23317657e-04
25       4.09836066e-06    2.44684113e+00    5.61169794e+00    5.61008858e+00   -9.26624628e-07   -6.82732132e-07    1.07867445e-03    9.32350041e-04   -1.07774783e-03
26       4.26229508e-06    3.41243863e+00    5.34287292e+00    5.34128138e+00   -1.37936833e-06   -2.12174201e-07    8.96675086e-04    6.53709800e-04   -8.95295719e-04
27       4.42622951e-06    3.65982592e+00    5.05963427e+00    5.05825626e+00   -9.43623505e-07   -4.34387730e-07    6.74192202e-04    4.07197283e-04   -6.73248579e-04
28       4.59016393e-06    3.79351236e+00    4.76538524e+00    4.76401336e+00   -1.06066976e-06   -3.11207610e-07    4.92831934e-04    2.12344685e-04   -4.91771264e-04
29       4.75409836e-06    3.86796276e+00    4.46297534e+00    4.46167173e+00   -8.85481943e-07   -4.18130577e-07    3.65473541e-04    7.77645812e-05   -3.64588059e-04
30       4.91803279e-06    3.90420793e+00    4.15573200e+00    4.15443626e+00   -9.52713479e-07   -3.43025904e-07    3.00141481e-04    8.75483593e-06   -2.99188768e-04
31       5.08196721e-06    3.91609829e+00    3.84679711e+00    3.84556374e+00   -8.49436399e-07   -3.83942543e-07    2.92499040e-04    3.29408091e-08   -2.91649603e-04
32       5.24590164e-06    3.92352589e+00    3.53964378e+00    3.53832827e+00   -9.11226888e-07   -4.04278528e-07    2.93235297e-04   -2.88081642e-08   -2.92324070e-04
33       5.40983607e-06    3.92964610e+00    3.23738586e+00    3.23598664e+00   -8.27959658e-07   -5.71260205e-07    2.93826861e-04    2.57029526e-08   -2.92998901e-04
34       5.57377049e-06    3.93472647e+00    2.94310641e+00    2.94174374e+00   -8.55223329e-07   -5.07444701e-07    2.94301230e-04   -2.32723284e-08   -2.93446007e-04
35       5.73770492e-06    3.93896113e+00    2.66002017e+00    2.65871862e+00   -7.67938302e-07   -5.33605953e-07    2.94694712e-04    2.13511090e-08   -2.93926773e-04
36       5.90163934e-06    3.94250528e+00    2.39113778e+00    2.38991142e+00   -7.67875627e-07   -4.58489409e-07    2.94993041e-04   -1.97783587e-08   -2.94225165e-04
37       6.06557377e-06    3.94546658e+00    2.13931216e+00    2.13817155e+00   -6.73183843e-07   -4.67419966e-07    2.95248062e-04    1.84998941e-08   -2.94574878e-04
38       6.22950820e-06    3.94794204e+00    1.90720753e+00    1.90616754e+00   -6.51285279e-07   -3.88705028e-07    2.95420920e-04   -1.74223779e-08   -2.94769634e-04
39       6.39344262e-06    3.94999128e+00    1.69729056e+00    1.69635866e+00   -5.48550020e-07   -3.83347272e-07    2.95574282e-04    1.65349105e-08   -2.95025732e-04
40       6.55737705e-06    3.95167786e+00    1.51177906e+00    1.51096896e+00   -5.09328981e-07   -3.00768959e-07    2.95652937e-04   -1.57727728e-08   -2.95143608e-04
41       6.72131148e-06    3.95303297e+00    1.35264782e+00    1.35196361e+00   -3.99639373e-07   -2.84574795e-07    2.95728535e-04    1.51447761e-08   -2.95328896e-04
42       6.88524590e-06    3.95409965e+00    1.22157428e+00    1.22102810e+00   -3.47411406e-07   -1.98771253e-07    2.95733230e-04   -1.46000539e-08   -2.95385818e-04
43       7.04918033e-06    3.95489056e+00    1.11995828e+00    1.11955038e+00   -2.32921623e-07   -1.74979355e-07    2.95747059e-04    1.41575322e-08   -2.95514137e-04
44       7.21311475e-06    3.95543515e+00    1.04886540e+00    1.04860615e+00   -1.72001489e-07   -8.72576488e-08    2.95691051e-04   -1.37738388e-08   -2.95519049e-04
45       7.37704918e-06    3.95573247e+00    1.00906198e+00    1.00894742e+00   -5.55398657e-08   -5.90177148e-08    2.95653780e-04    1.34736790e-08   -2.95598241e-04
46       7.54098361e-06    3.95580203e+00    1.00095593e+00    1.00099460e+00    9.74330206e-09    2.89216913e-08    2.95545302e-04   -1.32182202e-08   -2.95555045e-04
47       7.70491803e-06    3.95563117e+00    1.02464851e+00    1.02483198e+00    1.24960826e-07    5.85051159e-08    2.95463476e-04    1.30359011e-08   -2.95588437e-04
48       7.86885246e-06    3.95523106e+00    1.07987176e+00    1.08020688e+00    1.90332544e-07    1.44785610e-07    2.95306497e-04   -1.28910739e-08   -2.95496829e-04
49       8.03278689e-06    3.95457708e+00    1.16605871e+00    1.16653231e+00    3.00941113e-07    1.72658744e-07    2.95182853e-04    1.28150469e-08   -2.95483795e-04
50       8.19672131e-06    3.95367197e+00    1.28227550e+00    1.28289321e+00    3.62291517e-07    2.55424196e-07    2.94976982e-04   -1.27749427e-08   -2.95339273e-04
51       8.36065574e-06    3.95247672e+00    1.42731253e+00    1.42805612e+00    4.64989896e-07    2.78592271e-07    2.94810052e-04    1.28049047e-08   -2.95275042e-04
52       8.52459016e-06    3.95098382e+00    1.59960754e+00    1.60048227e+00    5.18500587e-07    3.56225923e-07    2.94549611e-04   -1.28752455e-08   -2.95068112e-04
53       8.68852459e-06    3.94913449e+00    1.79736196e+00    1.79834390e+00    6.10246909e-07    3.71694112e-07    2.94332521e-04    1.30238706e-08   -2.94942768e-04
54       8.85245902e-06    3.94690665e+00    2.01844795e+00    2.01954364e+00    6.52517796e-07    4.43167517e-07    2.94004545e-04   -1.32259619e-08   -2.94657063e-04
55       9.01639344e-06    3.94421159e+00    2.26055841e+00    2.26173671e+00    7.30717064e-07    4.47582675e-07    2.93722651e-04    1.35259190e-08   -2.94453368e-04
56       9.18032787e-06    3.94100392e+00    2.52108345e+00    2.52235580e+00    7.58873788e-07    5.13467996e-07    2.93303083e-04   -1.39082506e-08   -2.94061957e-04
57       9.34426230e-06    3.93714578e+00    2.79731575e+00    2.79863828e+00    8.21587440e-07    5.00950060e-07    2.92929562e-04    1.44310130e-08   -2.93751149e-04
58       9.50819672e-06    3.93255122e+00    3.08625171e+00    3.08765550e+00    8.33287799e-07    5.70509630e-07    2.92376085e-04   -1.50995842e-08   -2.93209373e-04
59       9.67213115e-06    3.92699430e+00    3.38496649e+00    3.38634380e+00    8.79946723e-07    4.97360619e-07    2.91862970e-04    1.60021620e-08   -2.92742917e-04
60       9.83606557e-06    3.92030857e+00    3.69028573e+00    3.69153701e+00    8.73379619e-07    3.77903814e-07    2.91100008e-04   -1.71593140e-08   -2.91973388e-04
End of Xyce(TM) Simulation
