Index       TIME          {V(VOUT)+1.0}      {V(IN)+4.0}       {V(1)+4.0}          IG(MP1)           IG(MN1)           IS(MP1)           ID(MN1)           ID(MP1)     
0        2.00000000e-05    3.91212331e+00    3.99873083e+00    4.00000000e+00    8.68649929e-07    3.24687629e-07    2.90374778e-04    1.58260716e-08   -2.91243428e-04
1        2.00001000e-05    3.91211771e+00    3.99891910e+00    4.00018850e+00    8.90525589e-07    3.78872203e-07    2.90315654e-04    4.03804438e-12   -2.91206180e-04
2        2.00003000e-05    3.91210666e+00    3.99929576e+00    4.00056549e+00    8.90643851e-07    3.79081215e-07    2.90314499e-04    4.03802905e-12   -2.91205143e-04
3        2.00007000e-05    3.91208461e+00    4.00004928e+00    4.00131947e+00    8.90835955e-07    3.79349681e-07    2.90312118e-04    4.91864657e-12   -2.91202954e-04
4        2.00015000e-05    3.91204024e+00    4.00155672e+00    4.00282743e+00    8.91147278e-07    3.79561240e-07    2.90308213e-04    8.82711293e-10   -2.91199360e-04
5        2.00031000e-05    3.91194986e+00    4.00457218e+00    4.00584336e+00    8.91549162e-07    3.79632955e-07    2.90305371e-04    7.58370159e-09   -2.91196920e-04
6        2.00063000e-05    3.91176257e+00    4.01060346e+00    4.01187519e+00    8.92073659e-07    3.79656757e-07    2.90319101e-04    4.07701285e-08   -2.91211174e-04
7        2.00127000e-05    3.91136192e+00    4.02266601e+00    4.02393868e+00    8.93011406e-07    3.79656465e-07    2.90423198e-04    1.86278908e-07   -2.91316210e-04
8        2.00255000e-05    3.91045489e+00    4.04678981e+00    4.04806431e+00    8.94865270e-07    3.79635776e-07    2.90937324e-04    7.93795682e-07   -2.91832190e-04
9        2.00511000e-05    3.90820555e+00    4.09502655e+00    4.09630468e+00    8.98579477e-07    3.79550405e-07    2.93187195e-04    3.27411884e-06   -2.94085774e-04
10       2.00767000e-05    3.90535177e+00    4.14323726e+00    4.14452014e+00    9.03531105e-07    3.79345570e-07    2.97059526e-04    7.43902840e-06   -2.97963058e-04
11       2.01023000e-05    3.90186189e+00    4.19141060e+00    4.19269820e+00    9.08551111e-07    3.79051522e-07    3.02548226e-04    1.32842202e-05   -3.03456777e-04
12       2.01279000e-05    3.89770258e+00    4.23953412e+00    4.24082641e+00    9.13631488e-07    3.78659534e-07    3.09643995e-04    2.08036158e-05   -3.10557626e-04
13       2.01535000e-05    3.89283819e+00    4.28759536e+00    4.28889232e+00    9.18789117e-07    3.78169439e-07    3.18335428e-04    2.99893993e-05   -3.19254217e-04
14       2.01791000e-05    3.88723046e+00    4.33558185e+00    4.33688348e+00    9.24043732e-07    3.77581338e-07    3.28609125e-04    4.08320273e-05   -3.29533168e-04
15       2.02021400e-05    3.88151418e+00    4.37869529e+00    4.38000136e+00    9.29137138e-07    3.76930757e-07    3.39194911e-04    5.19976592e-05   -3.40124048e-04
16       2.02251800e-05    3.87512981e+00    4.42172927e+00    4.42303960e+00    9.34094820e-07    3.76236128e-07    3.51037855e-04    6.44868953e-05   -3.51971950e-04
17       2.02482200e-05    3.86804273e+00    4.46467454e+00    4.46598919e+00    9.39180423e-07    3.75460633e-07    3.64123278e-04    7.82891807e-05   -3.65062459e-04
18       2.02712600e-05    3.86021530e+00    4.50752209e+00    4.50884112e+00    9.44422320e-07    3.74606184e-07    3.78435782e-04    9.33929045e-05   -3.79380205e-04
19       2.02919960e-05    3.85250416e+00    4.54599366e+00    4.54731695e+00    9.49560564e-07    3.73720056e-07    3.92351883e-04    1.08088423e-04   -3.93301444e-04
20       2.03127320e-05    3.84412795e+00    4.58437243e+00    4.58569987e+00    9.54613946e-07    3.72818521e-07    4.07235472e-04    1.23817893e-04   -4.08190086e-04
21       2.03334680e-05    3.83505200e+00    4.62265166e+00    4.62398336e+00    9.59849515e-07    3.71851586e-07    4.23071879e-04    1.40570526e-04   -4.24031728e-04
22       2.03542040e-05    3.82523843e+00    4.66082481e+00    4.66216094e+00    9.65297686e-07    3.70821212e-07    4.39845869e-04    1.58334902e-04   -4.40811167e-04
23       2.03728664e-05    3.81574178e+00    4.69508437e+00    4.69642484e+00    9.70684708e-07    3.69781919e-07    4.55730178e-04    1.75177779e-04   -4.56700863e-04
24       2.03915288e-05    3.80558130e+00    4.72924820e+00    4.73059299e+00    9.76027993e-07    3.68748774e-07    4.72348617e-04    1.92821167e-04   -4.73324645e-04
25       2.04101912e-05    3.79472158e+00    4.76331140e+00    4.76466068e+00    9.81604859e-07    3.67662570e-07    4.89687363e-04    2.11255232e-04   -4.90668968e-04
26       2.04288536e-05    3.78312367e+00    4.79726925e+00    4.79862324e+00    9.87449578e-07    3.66525418e-07    5.07732299e-04    2.30469786e-04   -5.08719749e-04
27       2.04456498e-05    3.77201950e+00    4.82773711e+00    4.82909578e+00    9.93265047e-07    3.65395695e-07    5.24563655e-04    2.48421297e-04   -5.25556921e-04
28       2.04624459e-05    3.76024853e+00    4.85811262e+00    4.85947599e+00    9.99069793e-07    3.64288150e-07    5.41943980e-04    2.66988497e-04   -5.42943050e-04
29       2.04792421e-05    3.74777374e+00    4.88839217e+00    4.88976048e+00    1.00515957e-06    3.63137270e-07    5.59860654e-04    2.86162955e-04   -5.60865814e-04
30       2.04960382e-05    3.73455415e+00    4.91857234e+00    4.91994587e+00    1.01157370e-06    3.61945446e-07    5.78300939e-04    3.05936078e-04   -5.79312513e-04
31       2.05111548e-05    3.72198285e+00    4.94564645e+00    4.94702522e+00    1.01798285e-06    3.60772308e-07    5.95333154e-04    3.24236246e-04   -5.96351138e-04
32       2.05262713e-05    3.70873508e+00    4.97263508e+00    4.97401914e+00    1.02440955e-06    3.59633179e-07    6.12768890e-04    3.43007666e-04   -6.13793300e-04
33       2.05413879e-05    3.69477124e+00    4.99953554e+00    5.00092519e+00    1.03117503e-06    3.58458257e-07    6.30596678e-04    3.62243370e-04   -6.31627853e-04
34       2.05565044e-05    3.68004714e+00    5.02634534e+00    5.02774094e+00    1.03832521e-06    3.57250352e-07    6.48805040e-04    3.81936357e-04   -6.49843365e-04
35       2.05701093e-05    3.66610548e+00    5.05039434e+00    5.05179592e+00    1.04548975e-06    3.56068350e-07    6.65507202e-04    4.00044877e-04   -6.66552693e-04
36       2.05837142e-05    3.65146825e+00    5.07436639e+00    5.07577404e+00    1.05269868e-06    3.54929094e-07    6.82499120e-04    4.18512847e-04   -6.83551819e-04
37       2.05973191e-05    3.63609192e+00    5.09825946e+00    5.09967356e+00    1.06030511e-06    3.53759757e-07    6.99770201e-04    4.37334635e-04   -7.00830507e-04
38       2.06095635e-05    3.62158150e+00    5.11969389e+00    5.12111446e+00    1.06792503e-06    3.52619116e-07    7.15543359e-04    4.54571898e-04   -7.16611284e-04
39       2.06218079e-05    3.60639263e+00    5.14106186e+00    5.14248902e+00    1.07559765e-06    3.51525787e-07    7.31526681e-04    4.72087331e-04   -7.32602279e-04
40       2.06340523e-05    3.59048166e+00    5.16236181e+00    5.16379595e+00    1.08369001e-06    3.50406823e-07    7.47710758e-04    4.89876530e-04   -7.48794449e-04
41       2.06462967e-05    3.57379934e+00    5.18359242e+00    5.18503399e+00    1.09226078e-06    3.49266103e-07    7.64086291e-04    5.07935211e-04   -7.65178553e-04
42       2.06573166e-05    3.55808087e+00    5.20263925e+00    5.20408830e+00    1.10085807e-06    3.48156056e-07    7.78978815e-04    5.24414524e-04   -7.80079674e-04
43       2.06683366e-05    3.54164701e+00    5.22162821e+00    5.22308488e+00    1.10953611e-06    3.47098357e-07    7.94011370e-04    5.41105650e-04   -7.95120907e-04
44       2.06793566e-05    3.52444766e+00    5.24055806e+00    5.24202283e+00    1.11869982e-06    3.46018006e-07    8.09174713e-04    5.58005083e-04   -8.10293413e-04
45       2.06892745e-05    3.50826755e+00    5.25754319e+00    5.25901609e+00    1.12788226e-06    3.44967270e-07    8.22924985e-04    5.73389569e-04   -8.24052868e-04
46       2.06991925e-05    3.49137352e+00    5.27447929e+00    5.27596047e+00    1.13715499e-06    3.43971221e-07    8.36767460e-04    5.88937934e-04   -8.37904615e-04
47       2.07091105e-05    3.47371347e+00    5.29136533e+00    5.29285529e+00    1.14693803e-06    3.42954839e-07    8.50693396e-04    6.04647433e-04   -8.51840335e-04
48       2.07180366e-05    3.45711621e+00    5.30651897e+00    5.30801773e+00    1.15672976e-06    3.41966162e-07    8.63289877e-04    6.18921263e-04   -8.64446607e-04
49       2.07269628e-05    3.43979988e+00    5.32163129e+00    5.32313902e+00    1.16662226e-06    3.41033976e-07    8.75941034e-04    6.33322022e-04   -8.77107657e-04
50       2.07358890e-05    3.42170943e+00    5.33670147e+00    5.33821869e+00    1.17704863e-06    3.40083035e-07    8.88638358e-04    6.47847549e-04   -8.89815408e-04
51       2.07439225e-05    3.40471498e+00    5.35022771e+00    5.35175442e+00    1.18747045e-06    3.39156968e-07    9.00097285e-04    6.61025170e-04   -9.01284756e-04
52       2.07519561e-05    3.38698827e+00    5.36371932e+00    5.36525570e+00    1.19800494e-06    3.38288886e-07    9.11580997e-04    6.74301229e-04   -9.12779003e-04
53       2.07599896e-05    3.36847013e+00    5.37717560e+00    5.37872221e+00    1.20909550e-06    3.37403036e-07    9.23080947e-04    6.87674001e-04   -9.24290043e-04
54       2.07672198e-05    3.35107185e+00    5.38925523e+00    5.39081203e+00    1.22016462e-06    3.36538517e-07    9.33436473e-04    6.99790501e-04   -9.34656639e-04
55       2.07744500e-05    3.33291803e+00    5.40130595e+00    5.40287316e+00    1.23135979e-06    3.35733341e-07    9.43792357e-04    7.11983446e-04   -9.45023718e-04
56       2.07809572e-05    3.31588169e+00    5.41212592e+00    5.41370342e+00    1.24245201e-06    3.34938357e-07    9.53104341e-04    7.23020836e-04   -9.54346794e-04
57       2.07874644e-05    3.29812438e+00    5.42292207e+00    5.42451006e+00    1.25365271e-06    3.34201231e-07    9.62404011e-04    7.34118550e-04   -9.63657665e-04
58       2.07939715e-05    3.27958384e+00    5.43369389e+00    5.43529288e+00    1.26539275e-06    3.33447622e-07    9.71683032e-04    7.45275477e-04   -9.72948426e-04
59       2.07998280e-05    3.26216922e+00    5.44336700e+00    5.44497691e+00    1.27704605e-06    3.32707631e-07    9.80008185e-04    7.55366133e-04   -9.81285232e-04
60       2.08056845e-05    3.24399763e+00    5.45302035e+00    5.45464137e+00    1.28882232e-06    3.32027746e-07    9.88303960e-04    7.65503814e-04   -9.89592783e-04
61       2.08109553e-05    3.22694004e+00    5.46169062e+00    5.46332255e+00    1.30041161e-06    3.31349622e-07    9.95736198e-04    7.74666696e-04   -9.97036611e-04
62       2.08162261e-05    3.20915038e+00    5.47034466e+00    5.47198768e+00    1.31210126e-06    3.30729420e-07    1.00313170e-03    7.83866787e-04   -1.00444380e-03
63       2.08214969e-05    3.19055967e+00    5.47898207e+00    5.48063667e+00    1.32428492e-06    3.30093620e-07    1.01048171e-03    7.93103344e-04   -1.01180599e-03
64       2.08262406e-05    3.17307778e+00    5.48674090e+00    5.48840688e+00    1.33628969e-06    3.29463705e-07    1.01704890e-03    8.01446508e-04   -1.01838519e-03
65       2.08309844e-05    3.15480833e+00    5.49448631e+00    5.49616386e+00    1.34839863e-06    3.28894037e-07    1.02356546e-03    8.09818787e-04   -1.02491386e-03
66       2.08352537e-05    3.13762813e+00    5.50144500e+00    5.50313379e+00    1.36020346e-06    3.28319282e-07    1.02937738e-03    8.17377770e-04   -1.03073759e-03
67       2.08395231e-05    3.11967145e+00    5.50839272e+00    5.51009289e+00    1.37207500e-06    3.27801539e-07    1.03513368e-03    8.24959865e-04   -1.03650575e-03
68       2.08433655e-05    3.10278157e+00    5.51463565e+00    5.51634680e+00    1.38357190e-06    3.27276570e-07    1.04025708e-03    8.31802680e-04   -1.04164065e-03
69       2.08472079e-05    3.08512206e+00    5.52086962e+00    5.52259187e+00    1.39509847e-06    3.26806754e-07    1.04532068e-03    8.38663873e-04   -1.04671578e-03
70       2.08506661e-05    3.06850415e+00    5.52647199e+00    5.52820484e+00    1.40617358e-06    3.26329118e-07    1.04981700e-03    8.44853965e-04   -1.05122317e-03
71       2.08541243e-05    3.05111859e+00    5.53206707e+00    5.53381060e+00    1.41723007e-06    3.25904221e-07    1.05424985e-03    8.51058713e-04   -1.05566708e-03
72       2.08572366e-05    3.03474676e+00    5.53709597e+00    5.53884960e+00    1.42774774e-06    3.25472538e-07    1.05817514e-03    8.56654962e-04   -1.05960289e-03
73       2.08603490e-05    3.01760352e+00    5.54211897e+00    5.54388270e+00    1.43818187e-06    3.25090396e-07    1.06203348e-03    8.62262946e-04   -1.06347166e-03
74       2.08631501e-05    3.00144334e+00    5.54663430e+00    5.54840745e+00    1.44797483e-06    3.24704685e-07    1.06543840e-03    8.67319760e-04   -1.06688637e-03
75       2.08659513e-05    2.98450100e+00    5.55114490e+00    5.55292741e+00    1.45759499e-06    3.24364334e-07    1.06877278e-03    8.72386034e-04   -1.07023037e-03
76       2.08684723e-05    2.96850780e+00    5.55520022e+00    5.55699125e+00    1.46644954e-06    3.24026654e-07    1.07170256e-03    8.76953530e-04   -1.07316901e-03
77       2.08709933e-05    2.95171288e+00    5.55925180e+00    5.56105119e+00    1.47500564e-06    3.23728972e-07    1.07455777e-03    8.81528738e-04   -1.07603278e-03
78       2.08732622e-05    2.93582899e+00    5.56289503e+00    5.56470179e+00    1.48263775e-06    3.23444528e-07    1.07705213e-03    8.85652972e-04   -1.07853476e-03
79       2.08755311e-05    2.91911223e+00    5.56653543e+00    5.56834921e+00    1.48978982e-06    3.23193381e-07    1.07946706e-03    8.89783618e-04   -1.08095685e-03
80       2.08775731e-05    2.90326251e+00    5.56980954e+00    5.57162916e+00    1.49580513e-06    3.22972521e-07    1.08155990e-03    8.93506867e-04   -1.08305571e-03
81       2.08794110e-05    2.88825255e+00    5.57275460e+00    5.57457890e+00    1.50067458e-06    3.22791409e-07    1.08336923e-03    8.96862553e-04   -1.08486990e-03
82       2.08812488e-05    2.87243106e+00    5.57569826e+00    5.57752654e+00    1.50465692e-06    3.22638862e-07    1.08509911e-03    9.00222938e-04   -1.08660377e-03
83       2.08829028e-05    2.85740231e+00    5.57834688e+00    5.58017763e+00    1.50714537e-06    3.22556566e-07    1.08657494e-03    9.03251884e-04   -1.08808208e-03
84       2.08843914e-05    2.84313925e+00    5.58073031e+00    5.58256214e+00    1.50826186e-06    3.22512241e-07    1.08782805e-03    9.05981909e-04   -1.08933631e-03
85       2.08858801e-05    2.82806590e+00    5.58311354e+00    5.58494527e+00    1.50798484e-06    3.22484963e-07    1.08900021e-03    9.08715823e-04   -1.09050819e-03
86       2.08872198e-05    2.81370346e+00    5.58525923e+00    5.58708890e+00    1.50572266e-06    3.22602598e-07    1.08997165e-03    9.11180766e-04   -1.09147737e-03
87       2.08884256e-05    2.80002447e+00    5.58719134e+00    5.58901721e+00    1.50170911e-06    3.22769453e-07    1.09076779e-03    9.13403218e-04   -1.09226950e-03
88       2.08896314e-05    2.78550683e+00    5.58912451e+00    5.59094460e+00    1.49546720e-06    3.22944377e-07    1.09147871e-03    9.15629585e-04   -1.09297418e-03
89       2.08907166e-05    2.77160369e+00    5.59086682e+00    5.59267847e+00    1.48641920e-06    3.23401541e-07    1.09202903e-03    9.17638473e-04   -1.09351545e-03
90       2.08916933e-05    2.75828480e+00    5.59243757e+00    5.59423833e+00    1.47487655e-06    3.23952668e-07    1.09243906e-03    9.19451440e-04   -1.09391394e-03
91       2.08925724e-05    2.74552242e+00    5.59385436e+00    5.59564168e+00    1.46063575e-06    3.24665530e-07    1.09272558e-03    9.21088236e-04   -1.09418622e-03
92       2.08934514e-05    2.73187649e+00    5.59527440e+00    5.59704455e+00    1.44222480e-06    3.25409080e-07    1.09292028e-03    9.22730241e-04   -1.09436251e-03
93       2.08942425e-05    2.71868915e+00    5.59655801e+00    5.59830671e+00    1.41902927e-06    3.26829922e-07    1.09299539e-03    9.24215757e-04   -1.09441442e-03
94       2.08949545e-05    2.70591918e+00    5.59771935e+00    5.59944232e+00    1.39129533e-06    3.28554403e-07    1.09296431e-03    9.25560804e-04   -1.09435561e-03
95       2.08955953e-05    2.69352580e+00    5.59877158e+00    5.60046410e+00    1.35831460e-06    3.30760298e-07    1.09283663e-03    9.26780319e-04   -1.09419495e-03
96       2.08961720e-05    2.68146534e+00    5.59972676e+00    5.60138348e+00    1.31925551e-06    3.33616938e-07    1.09261982e-03    9.27888057e-04   -1.09393907e-03
97       2.08966911e-05    2.66968958e+00    5.60059603e+00    5.60221074e+00    1.27301958e-06    3.37344870e-07    1.09231914e-03    9.28896737e-04   -1.09359216e-03
98       2.08971583e-05    2.65814386e+00    5.60138978e+00    5.60295512e+00    1.21811462e-06    3.42258985e-07    1.09193749e-03    9.29818251e-04   -1.09315561e-03
99       2.08975787e-05    2.64676416e+00    5.60211785e+00    5.60362495e+00    1.15245452e-06    3.48827822e-07    1.09147485e-03    9.30663933e-04   -1.09262730e-03
100      2.08979517e-05    2.63564316e+00    5.60278052e+00    5.60421912e+00    1.07392152e-06    3.57866019e-07    1.09093543e-03    9.31433975e-04   -1.09200935e-03
101      2.08982779e-05    2.62486679e+00    5.60338010e+00    5.60473861e+00    9.80294867e-07    3.70286556e-07    1.09032485e-03    9.32130981e-04   -1.09130515e-03
102      2.08985605e-05    2.61445141e+00    5.60392369e+00    5.60518880e+00    8.68518014e-07    3.87336275e-07    1.08964546e-03    9.32763124e-04   -1.09051397e-03
103      2.08988034e-05    2.60440503e+00    5.60441917e+00    5.60557552e+00    7.34636379e-07    4.11043861e-07    1.08889715e-03    9.33339427e-04   -1.08963179e-03
104      2.08990103e-05    2.59533785e+00    5.60483185e+00    5.60590493e+00    6.19912670e-07    4.55991253e-07    1.08826702e-03    9.33732821e-04   -1.08888693e-03
105      2.08992172e-05    2.58649257e+00    5.60519030e+00    5.60623432e+00    5.38445568e-07    5.04092028e-07    1.08778904e-03    9.33955012e-04   -1.08832749e-03
106      2.08994241e-05    2.57804289e+00    5.60551568e+00    5.60656368e+00    4.88774740e-07    5.57063304e-07    1.08733100e-03    9.34101700e-04   -1.08781978e-03
107      2.08996310e-05    2.57005264e+00    5.60582247e+00    5.60689302e+00    4.60848449e-07    6.07448576e-07    1.08688033e-03    9.34200130e-04   -1.08734118e-03
108      2.08998379e-05    2.56252058e+00    5.60612021e+00    5.60722232e+00    4.47248774e-07    6.52820672e-07    1.08642956e-03    9.34267304e-04   -1.08687681e-03
109      2.09000447e-05    2.55541323e+00    5.60641470e+00    5.60755160e+00    4.42375134e-07    6.92777950e-07    1.08597522e-03    9.34313261e-04   -1.08641759e-03
110      2.09002516e-05    2.54868455e+00    5.60670921e+00    5.60788085e+00    4.42401344e-07    7.27791637e-07    1.08551605e-03    9.34343668e-04   -1.08595845e-03
111      2.09004585e-05    2.54228680e+00    5.60700539e+00    5.60821008e+00    4.44902322e-07    7.58602076e-07    1.08505190e-03    9.34361602e-04   -1.08549681e-03
112      2.09006654e-05    2.53617579e+00    5.60730392e+00    5.60853928e+00    4.48441601e-07    7.85944916e-07    1.08458315e-03    9.34368684e-04   -1.08503159e-03
113      2.09008723e-05    2.53031303e+00    5.60760498e+00    5.60886845e+00    4.52227829e-07    8.10449563e-07    1.08411032e-03    9.34365766e-04   -1.08456255e-03
114      2.09010792e-05    2.52466606e+00    5.60790845e+00    5.60919759e+00    4.55864612e-07    8.32618567e-07    1.08363397e-03    9.34353316e-04   -1.08408984e-03
115      2.09012861e-05    2.51920805e+00    5.60821413e+00    5.60952671e+00    4.59183097e-07    8.52840001e-07    1.08315461e-03    9.34331637e-04   -1.08361379e-03
116      2.09014930e-05    2.51391698e+00    5.60852178e+00    5.60985580e+00    4.62136813e-07    8.71409720e-07    1.08267265e-03    9.34300969e-04   -1.08313479e-03
117      2.09019068e-05    2.50379732e+00    5.60914646e+00    5.61051389e+00    4.69180587e-07    8.97041919e-07    1.08169332e-03    9.34229562e-04   -1.08216250e-03
