Index       TIME          {V(VOUT)+1.0}      {V(IN)+4.0}       {V(1)+4.0}          IG(MP1)           IG(MN1)           IS(MP1)           ID(MN1)           ID(MP1)     
0        2.00000000e-05    3.91209793e+00    3.99872308e+00    4.00000000e+00    9.28027516e-07    3.51229881e-07    2.90440961e-04    4.03801694e-12   -2.91368988e-04
1        2.00001000e-05    3.91210703e+00    3.99891678e+00    4.00018850e+00    8.81915905e-07    3.89800171e-07    2.90337898e-04    4.03802957e-12   -2.91219814e-04
2        2.00003000e-05    3.91210373e+00    3.99929604e+00    4.00056549e+00    8.87754968e-07    3.81692955e-07    2.90320968e-04    4.03802499e-12   -2.91208724e-04
3        2.00007000e-05    3.91208407e+00    4.00004997e+00    4.00131947e+00    8.89937408e-07    3.79557798e-07    2.90313561e-04    4.94349341e-12   -2.91203498e-04
4        2.00015000e-05    3.91204015e+00    4.00155711e+00    4.00282743e+00    8.90840234e-07    3.79484122e-07    2.90308567e-04    8.83145008e-10   -2.91199407e-04
5        2.00031000e-05    3.91194984e+00    4.00457230e+00    4.00584336e+00    8.91461817e-07    3.79599766e-07    2.90305462e-04    7.58410123e-09   -2.91196923e-04
6        2.00063000e-05    3.91176257e+00    4.01060348e+00    4.01187519e+00    8.92058105e-07    3.79650540e-07    2.90319116e-04    4.07702959e-08   -2.91211175e-04
7        2.00127000e-05    3.91136192e+00    4.02266602e+00    4.02393868e+00    8.93009870e-07    3.79655848e-07    2.90423200e-04    1.86278943e-07   -2.91316210e-04
8        2.00255000e-05    3.91045489e+00    4.04678981e+00    4.04806431e+00    8.94865190e-07    3.79635744e-07    2.90937324e-04    7.93795686e-07   -2.91832190e-04
9        2.00511000e-05    3.90820555e+00    4.09502655e+00    4.09630468e+00    8.98579475e-07    3.79550404e-07    2.93187195e-04    3.27411884e-06   -2.94085774e-04
10       2.01023000e-05    3.90186050e+00    4.19141293e+00    4.19269820e+00    9.06068227e-07    3.79207700e-07    3.02552132e-04    1.32845432e-05   -3.03458200e-04
11       2.01535000e-05    3.89283659e+00    4.28759769e+00    4.28889232e+00    9.16210672e-07    3.78414513e-07    3.18339709e-04    2.99898860e-05   -3.19255920e-04
12       2.02047000e-05    3.88083628e+00    4.38348351e+00    4.38478748e+00    9.26730541e-07    3.77238393e-07    3.40454350e-04    5.33208899e-05   -3.41381080e-04
13       2.02559000e-05    3.86551532e+00    4.47897101e+00    4.48028446e+00    9.37777788e-07    3.75671305e-07    3.68764506e-04    8.31806762e-05   -3.69702284e-04
14       2.03071000e-05    3.84646754e+00    4.57396115e+00    4.57528444e+00    9.49571901e-07    3.73714560e-07    4.03105254e-04    1.19445275e-04   -4.04054827e-04
15       2.03583000e-05    3.82320542e+00    4.66835534e+00    4.66968910e+00    9.62390455e-07    3.71369950e-07    4.43276839e-04    1.61964122e-04   -4.44239230e-04
16       2.04095000e-05    3.79513178e+00    4.76205553e+00    4.76340076e+00    9.76589891e-07    3.68639589e-07    4.89042406e-04    2.10560650e-04   -4.90018996e-04
17       2.04607000e-05    3.76149768e+00    4.85496428e+00    4.85632244e+00    9.92637154e-07    3.65525861e-07    5.40124414e-04    2.65032975e-04   -5.41117051e-04
18       2.05119000e-05    3.72133705e+00    4.94698480e+00    4.94835799e+00    1.01115865e-06    3.62031355e-07    5.96198770e-04    3.25154663e-04   -5.97209929e-04
19       2.05631000e-05    3.67336032e+00    5.03802099e+00    5.03941217e+00    1.03301910e-06    3.58158739e-07    6.56884862e-04    3.90675554e-04   -6.57917881e-04
20       2.06091800e-05    3.62203078e+00    5.11903187e+00    5.12044395e+00    1.05794617e-06    3.54129711e-07    7.15068264e-04    4.54034527e-04   -7.16126211e-04
21       2.06506520e-05    3.56767002e+00    5.19113576e+00    5.19257148e+00    1.08508059e-06    3.50215318e-07    7.69950161e-04    5.14430241e-04   -7.71035242e-04
22       2.06879768e-05    3.51042332e+00    5.25533334e+00    5.25679535e+00    1.11497523e-06    3.46459640e-07    8.21116750e-04    5.71376130e-04   -8.22231725e-04
23       2.07215691e-05    3.45032266e+00    5.31251613e+00    5.31400685e+00    1.14782725e-06    3.42891564e-07    8.68321752e-04    6.24616230e-04   -8.69469580e-04
24       2.07518022e-05    3.38729686e+00    5.36347435e+00    5.36499745e+00    1.18357114e-06    3.39518329e-07    9.11396643e-04    6.74059001e-04   -9.12580215e-04
25       2.07790120e-05    3.32099650e+00    5.40890903e+00    5.41046838e+00    1.22299535e-06    3.36351863e-07    9.50363415e-04    7.19730435e-04   -9.51586411e-04
26       2.08034777e-05    3.25086999e+00    5.44940231e+00    5.45100205e+00    1.26633375e-06    3.33392912e-07    9.85230349e-04    7.61696335e-04   -9.86496684e-04
27       2.08244887e-05    3.17953398e+00    5.48389524e+00    5.48553873e+00    1.31278045e-06    3.30685744e-07    1.01468254e-03    7.98381473e-04   -1.01599532e-03
28       2.08422597e-05    3.10760362e+00    5.51285898e+00    5.51454787e+00    1.36055043e-06    3.28302536e-07    1.03884740e-03    8.29852406e-04   -1.04020795e-03
29       2.08570371e-05    3.03567105e+00    5.53679272e+00    5.53852673e+00    1.40769181e-06    3.26244239e-07    1.05798952e-03    8.56316978e-04   -1.05939722e-03
30       2.08691132e-05    2.96412825e+00    5.55624799e+00    5.55802381e+00    1.45115388e-06    3.24520720e-07    1.07250464e-03    8.78135574e-04   -1.07395579e-03
31       2.08787772e-05    2.89327006e+00    5.57175259e+00    5.57356200e+00    1.48594611e-06    3.23172246e-07    1.08282762e-03    8.95720126e-04   -1.08431357e-03
32       2.08863105e-05    2.82322669e+00    5.58380771e+00    5.58563400e+00    1.50328924e-06    3.22345994e-07    1.08940173e-03    9.09512917e-04   -1.09090502e-03
33       2.08919806e-05    2.75379945e+00    5.59288679e+00    5.59469698e+00    1.48598554e-06    3.22536910e-07    1.09263775e-03    9.19970253e-04   -1.09412374e-03
34       2.08946566e-05    2.71106918e+00    5.59721464e+00    5.59896726e+00    1.42548294e-06    3.25770344e-07    1.09305930e-03    9.24976134e-04   -1.09448479e-03
35       2.08965155e-05    2.67348538e+00    5.60026917e+00    5.60193084e+00    1.32886925e-06    3.31003807e-07    1.09251325e-03    9.28517386e-04   -1.09384212e-03
36       2.08978175e-05    2.63943995e+00    5.60248973e+00    5.60400538e+00    1.16889840e-06    3.43538008e-07    1.09125293e-03    9.31096033e-04   -1.09242183e-03
37       2.08991195e-05    2.59209326e+00    5.60480226e+00    5.60607885e+00    8.53191905e-07    4.17880567e-07    1.08838132e-03    9.33666581e-04   -1.08923451e-03
38       2.09000874e-05    2.55598572e+00    5.60645274e+00    5.60761948e+00    5.29970223e-07    6.40533663e-07    1.08582832e-03    9.34486318e-04   -1.08635829e-03
39       2.09011556e-05    2.52380038e+00    5.60805268e+00    5.60931910e+00    4.65490155e-07    8.01577924e-07    1.08339973e-03    9.34497593e-04   -1.08386522e-03
40       2.09021170e-05    2.49941312e+00    5.60947897e+00    5.61084815e+00    4.61076533e-07    8.95551742e-07    1.08118407e-03    9.34245501e-04   -1.08164515e-03
41       2.09030783e-05    2.47776689e+00    5.61093857e+00    5.61237661e+00    4.71846338e-07    9.59820216e-07    1.07890372e-03    9.33854223e-04   -1.07937557e-03
42       2.09040397e-05    2.45804002e+00    5.61241722e+00    5.61390448e+00    4.78003494e-07    1.00530044e-06    1.07660081e-03    9.33329425e-04   -1.07707881e-03
43       2.09050011e-05    2.43977864e+00    5.61390812e+00    5.61543176e+00    4.81964014e-07    1.03895169e-06    1.07428353e-03    9.32689119e-04   -1.07476550e-03
44       2.09069238e-05    2.40668539e+00    5.61691979e+00    5.61848455e+00    4.86790346e-07    1.07252804e-06    1.06961333e-03    9.31154046e-04   -1.07010013e-03
45       2.09088466e-05    2.37694431e+00    5.61993994e+00    5.62153498e+00    4.88162471e-07    1.10229208e-06    1.06494363e-03    9.29284761e-04   -1.06543180e-03
46       2.09107693e-05    2.34981529e+00    5.62297084e+00    5.62458304e+00    4.89899737e-07    1.11918162e-06    1.06026721e-03    9.27187253e-04   -1.06075711e-03
47       2.09126921e-05    2.32477773e+00    5.62600772e+00    5.62762873e+00    4.90865145e-07    1.12793421e-06    1.05559266e-03    9.24908615e-04   -1.05608352e-03
48       2.09146148e-05    2.30146176e+00    5.62904754e+00    5.63067205e+00    4.91341903e-07    1.13152736e-06    1.05092439e-03    9.22482802e-04   -1.05141573e-03
49       2.09184603e-05    2.25904238e+00    5.63512789e+00    5.63675154e+00    4.91398966e-07    1.12884201e-06    1.04161868e-03    9.17306009e-04   -1.04211008e-03
50       2.09223058e-05    2.22087406e+00    5.64120670e+00    5.64282147e+00    4.91273573e-07    1.12350776e-06    1.03235687e-03    9.11753287e-04   -1.03284815e-03
51       2.09261513e-05    2.18607611e+00    5.64727651e+00    5.64888181e+00    4.90547408e-07    1.11275463e-06    1.02315061e-03    9.05936402e-04   -1.02364116e-03
52       2.09299968e-05    2.15399349e+00    5.65334052e+00    5.65493253e+00    4.90077760e-07    1.10052122e-06    1.01399407e-03    8.99917896e-04   -1.01448415e-03
53       2.09338423e-05    2.12416135e+00    5.65939590e+00    5.66097359e+00    4.89380565e-07    1.08726633e-06    1.00489184e-03    8.93740108e-04   -1.00538122e-03
54       2.09376877e-05    2.09623437e+00    5.66544188e+00    5.66700494e+00    4.88621557e-07    1.07364676e-06    9.95844712e-04    8.87435641e-04   -9.96333337e-04
55       2.09415332e-05    2.06994695e+00    5.67147812e+00    5.67302657e+00    4.87833223e-07    1.06000416e-06    9.86853013e-04    8.81029421e-04   -9.87340849e-04
56       2.09492242e-05    2.02155055e+00    5.68351528e+00    5.68504049e+00    4.86406933e-07    1.03879498e-06    9.69043748e-04    8.68004365e-04   -9.69530157e-04
57       2.09569152e-05    1.97761728e+00    5.69551615e+00    5.69701505e+00    4.84940157e-07    1.01395872e-06    9.51449608e-04    8.54744055e-04   -9.51934551e-04
58       2.09646062e-05    1.93735372e+00    5.70747696e+00    5.70894999e+00    4.83321335e-07    9.89708078e-07    9.34074686e-04    8.41346155e-04   -9.34558010e-04
59       2.09722972e-05    1.90015041e+00    5.71939598e+00    5.72084503e+00    4.81632573e-07    9.66779832e-07    9.16919770e-04    8.27867317e-04   -9.17401405e-04
60       2.09799881e-05    1.86555390e+00    5.73127424e+00    5.73269987e+00    4.79985419e-07    9.45174858e-07    8.99981615e-04    8.14354050e-04   -9.00461603e-04
61       2.09876791e-05    1.83320701e+00    5.74311075e+00    5.74451426e+00    4.78298906e-07    9.24837258e-07    8.83260047e-04    8.00836752e-04   -8.83738349e-04
62       2.09953701e-05    1.80282948e+00    5.75490536e+00    5.75628790e+00    4.76605227e-07    9.05651488e-07    8.66753622e-04    7.87341132e-04   -8.67230230e-04
63       2.10030611e-05    1.77419495e+00    5.76665789e+00    5.76802054e+00    4.74904915e-07    8.87516884e-07    8.50460907e-04    7.73887754e-04   -8.50935815e-04
64       2.10184431e-05    1.72147759e+00    5.79002785e+00    5.79136167e+00    4.72175475e-07    8.61650478e-07    8.18521275e-04    7.47188418e-04   -8.18993454e-04
65       2.10338250e-05    1.67382362e+00    5.81323549e+00    5.81453548e+00    4.68895860e-07    8.31099773e-07    7.87408754e-04    7.20805096e-04   -7.87877653e-04
66       2.10492070e-05    1.63043409e+00    5.83627149e+00    5.83753980e+00    4.65428097e-07    8.02881412e-07    7.57122462e-04    6.94826565e-04   -7.57587894e-04
67       2.10645889e-05    1.59067843e+00    5.85913358e+00    5.86037248e+00    4.61914101e-07    7.76992376e-07    7.27651908e-04    6.69304439e-04   -7.28113825e-04
68       2.10799709e-05    1.55406579e+00    5.88181992e+00    5.88303139e+00    4.58363371e-07    7.53108660e-07    6.98986010e-04    6.44275821e-04   -6.99444377e-04
69       2.10953529e-05    1.52020581e+00    5.90432869e+00    5.90551441e+00    4.54775552e-07    7.30949826e-07    6.71113638e-04    6.19767963e-04   -6.71568417e-04
70       2.11107348e-05    1.48878182e+00    5.92665801e+00    5.92781944e+00    4.51149960e-07    7.10286061e-07    6.44023620e-04    5.95800883e-04   -6.44474774e-04
71       2.11261168e-05    1.45953255e+00    5.94880599e+00    5.94994440e+00    4.47486110e-07    6.90928002e-07    6.17704737e-04    5.72389124e-04   -6.18152226e-04
72       2.11414988e-05    1.43223936e+00    5.97077072e+00    5.97188722e+00    4.43783692e-07    6.72718153e-07    5.92145705e-04    5.49542992e-04   -5.92589492e-04
73       2.11568807e-05    1.40671694e+00    5.99255029e+00    5.99364585e+00    4.40042538e-07    6.55524330e-07    5.67335175e-04    5.27269452e-04   -5.67775222e-04
74       2.11876446e-05    1.36038866e+00    6.03553688e+00    6.03660244e+00    4.34258651e-07    6.31299089e-07    5.19922171e-04    4.84468161e-04   -5.20356434e-04
75       2.12184086e-05    1.31947447e+00    6.07776952e+00    6.07879812e+00    4.26642030e-07    6.01949658e-07    4.75356028e-04    4.43968221e-04   -4.75782674e-04
76       2.12491725e-05    1.28319672e+00    6.11922341e+00    6.12021711e+00    4.18774957e-07    5.74920359e-07    4.33552718e-04    4.05769748e-04   -4.33971497e-04
77       2.12799364e-05    1.25092378e+00    6.15988323e+00    6.16084395e+00    4.10753142e-07    5.49958159e-07    3.94418190e-04    3.69841474e-04   -3.94828947e-04
78       2.13107003e-05    1.22214420e+00    6.19973414e+00    6.20066345e+00    4.02581306e-07    5.26729606e-07    3.57857367e-04    3.36139083e-04   -3.58259952e-04
79       2.13414643e-05    1.19643641e+00    6.23876151e+00    6.23966074e+00    3.94261849e-07    5.04967826e-07    3.23774493e-04    3.04608683e-04   -3.24168759e-04
80       2.13722282e-05    1.17344754e+00    6.27695100e+00    6.27782126e+00    3.85797339e-07    4.84458672e-07    2.92073303e-04    2.75189076e-04   -2.92459104e-04
81       2.14029921e-05    1.15287823e+00    6.31428851e+00    6.31513073e+00    3.77190527e-07    4.65028035e-07    2.62657199e-04    2.47813433e-04   -2.63034393e-04
82       2.14337561e-05    1.13447154e+00    6.35076025e+00    6.35157522e+00    3.68444314e-07    4.46532671e-07    2.35429431e-04    2.22410558e-04   -2.35797879e-04
83       2.14645200e-05    1.11800474e+00    6.38635271e+00    6.38714112e+00    3.59561718e-07    4.28853480e-07    2.10293280e-04    1.98905898e-04   -2.10652846e-04
84       2.14952839e-05    1.10328303e+00    6.42105270e+00    6.42181514e+00    3.50545861e-07    4.11890500e-07    1.87152246e-04    1.77222346e-04   -1.87502796e-04
85       2.15260478e-05    1.09013471e+00    6.45484736e+00    6.45558432e+00    3.41399954e-07    3.95559119e-07    1.65910232e-04    1.57280905e-04   -1.66251636e-04
86       2.15568118e-05    1.07840737e+00    6.48772413e+00    6.48843604e+00    3.32127285e-07    3.79787170e-07    1.46471734e-04    1.39001249e-04   -1.46803865e-04
87       2.15875757e-05    1.06796493e+00    6.51967080e+00    6.52035804e+00    3.22731213e-07    3.64512673e-07    1.28742024e-04    1.22302210e-04   -1.29064760e-04
88       2.16183396e-05    1.05868524e+00    6.55067548e+00    6.55133838e+00    3.13215163e-07    3.49682057e-07    1.12627338e-04    1.07102197e-04   -1.12940557e-04
89       2.16798675e-05    1.04318963e+00    6.60980137e+00    6.61042815e+00    2.98650367e-07    3.28137700e-07    8.48741976e-05    8.08790741e-05   -8.51728521e-05
90       2.17413953e-05    1.03114338e+00    6.66503737e+00    6.66561706e+00    2.79002253e-07    3.00685038e-07    6.24866988e-05    5.96709463e-05   -6.27657052e-05
91       2.18029232e-05    1.02191814e+00    6.71628949e+00    6.71682263e+00    2.58879248e-07    2.74262437e-07    4.47688995e-05    4.28509623e-05   -4.50277829e-05
92       2.18644510e-05    1.01498087e+00    6.76348124e+00    6.76396835e+00    2.38369934e-07    2.48742861e-07    3.10556152e-05    2.98071776e-05   -3.12939893e-05
93       2.19259789e-05    1.00988115e+00    6.80654229e+00    6.80698376e+00    2.17505413e-07    2.23966310e-07    2.07188826e-05    1.99565657e-05   -2.09363922e-05
94       2.19875067e-05    1.00623718e+00    6.84540847e+00    6.84580459e+00    1.96316713e-07    1.99802165e-07    1.31727493e-05    1.27512744e-05   -1.33690701e-05
95       2.20490346e-05    1.00372532e+00    6.88002184e+00    6.88037282e+00    1.74835376e-07    1.76142806e-07    7.87772645e-06    7.68411618e-06   -8.05256598e-06
96       2.21105624e-05    1.00207227e+00    6.91033080e+00    6.91063679e+00    1.53093409e-07    1.52898330e-07    4.34487332e-06    4.29343030e-06   -4.49797088e-06
97       2.21720903e-05    1.00104918e+00    6.93629018e+00    6.93655129e+00    1.31123229e-07    1.29992560e-07    2.13948642e-06    2.16735864e-06   -2.27061380e-06
98       2.22336181e-05    1.00046716e+00    6.95786127e+00    6.95807759e+00    1.08957610e-07    1.07359964e-07    8.84370153e-07    9.47561481e-07   -9.93331922e-07
99       2.22951460e-05    1.00017393e+00    6.97501194e+00    6.97518351e+00    8.66296324e-08    8.49432361e-08    2.62667351e-07    3.32384905e-07   -3.49301143e-07
100      2.23566738e-05    1.00005122e+00    6.98771664e+00    6.98784350e+00    6.41726279e-08    6.26913364e-08    2.02316043e-08    7.94853429e-08   -8.44083921e-08
101      2.24182017e-05    1.00001300e+00    6.99595646e+00    6.99603864e+00    4.16201302e-08    4.05578768e-08   -3.24736802e-08    7.91293849e-09   -9.15060986e-09
102      2.24797295e-05    1.00000410e+00    6.99971918e+00    6.99975668e+00    1.90058228e-08    1.84997368e-08   -1.89617069e-08   -3.47034610e-10   -4.82757354e-11
103      2.25412574e-05    9.99999479e-01    6.99899923e+00    6.99899207e+00   -3.63651176e-09   -3.52415741e-09    4.19678092e-09    6.24005665e-10   -5.64429066e-10
104      2.26027852e-05    1.00000385e+00    6.99379778e+00    6.99374595e+00   -2.62730430e-08   -2.55539579e-08    4.77921700e-08    2.11316051e-08   -2.15232869e-08
105      2.26643131e-05    1.00005171e+00    6.98412265e+00    6.98402615e+00   -4.88699436e-08   -4.76299760e-08    1.89891493e-07    1.35776671e-07   -1.41025709e-07
106      2.27258409e-05    1.00020789e+00    6.96998840e+00    6.96984721e+00   -7.13934393e-08   -6.97937712e-08    5.75251208e-07    4.82818630e-07   -5.03861928e-07
107      2.27873688e-05    1.00056845e+00    6.95141621e+00    6.95123031e+00   -9.38098598e-08   -9.20892978e-08    1.41423081e-06    1.26299406e-06   -1.32042511e-06
108      2.28488966e-05    1.00126213e+00    6.92843393e+00    6.92820328e+00   -1.16085688e-07   -1.14564166e-07    2.98121397e-06    2.73779188e-06   -2.86513244e-06
109      2.29104245e-05    1.00245243e+00    6.90107597e+00    6.90080051e+00   -1.38187609e-07   -1.37271085e-07    5.61254696e-06    5.22718602e-06   -5.47436351e-06
110      2.29719523e-05    1.00434035e+00    6.86938331e+00    6.86906296e+00   -1.60082559e-07   -1.60269563e-07    9.70400709e-06    9.10682539e-06   -9.54392868e-06
111      2.30334802e-05    1.00716810e+00    6.83340343e+00    6.83303806e+00   -1.81737773e-07   -1.83627985e-07    1.57078169e-05    1.48046776e-05   -1.55260833e-05
112      2.30950080e-05    1.01122395e+00    6.79319019e+00    6.79277964e+00   -2.03120829e-07   -2.07426201e-07    2.41292224e-05    2.27971193e-05   -2.39261057e-05
113      2.31565359e-05    1.01684865e+00    6.74880383e+00    6.74834787e+00   -2.24199697e-07   -2.31758834e-07    3.55226568e-05    3.36044549e-05   -3.52984612e-05
114      2.32180637e-05    1.02444395e+00    6.70031081e+00    6.69980912e+00   -2.44942777e-07   -2.56739597e-07    5.04875124e-05    4.77858344e-05   -5.02425737e-05
115      2.32795916e-05    1.03448401e+00    6.64778378e+00    6.64723595e+00   -2.65318942e-07   -2.82507039e-07    6.96635476e-05    6.59335140e-05   -6.93982328e-05
116      2.33411194e-05    1.04753088e+00    6.59130144e+00    6.59070691e+00   -2.85297571e-07   -3.09232367e-07    9.37259556e-05    8.86663692e-05   -9.34406621e-05
117      2.34026473e-05    1.06425593e+00    6.53094846e+00    6.53030648e+00   -3.04848585e-07   -3.37130318e-07    1.23380124e-04    1.16622503e-04   -1.23075280e-04
