Index       TIME          {V(VOUT)+1.0}      {V(IN)+4.0}       {V(1)+4.0}          IG(MP1)           IG(MN1)           IS(MP1)           ID(MN1)           ID(MP1)     
0        0.00000000e+00    3.91212275e+00    3.99874536e+00    4.00000000e+00    8.85647178e-07    3.68988821e-07    2.90313602e-04   -5.70704573e-09   -2.91199250e-04
1        2.49376559e-08    3.91049858e+00    4.04572194e+00    4.04700445e+00    9.01759608e-07    3.80746986e-07    2.90905353e-04    7.63055929e-07   -2.91807112e-04
2        4.98753117e-08    3.90832767e+00    4.09272160e+00    4.09399736e+00    8.94744344e-07    3.81014044e-07    2.93038527e-04    3.11222598e-06   -2.93933272e-04
3        7.48129676e-08    3.90558493e+00    4.13967881e+00    4.14096719e+00    9.11950318e-07    3.76433648e-07    2.96715398e-04    7.07902278e-06   -2.97627348e-04
4        9.97506234e-08    3.90224017e+00    4.18661591e+00    4.18790242e+00    9.04049131e-07    3.82465348e-07    3.01925077e-04    1.26219310e-05   -3.02829126e-04
5        1.24688279e-07    3.89826394e+00    4.23349479e+00    4.23479151e+00    9.22314424e-07    3.74412481e-07    3.08662170e-04    1.97730252e-05   -3.09584485e-04
6        1.49625935e-07    3.89362261e+00    4.28032692e+00    4.28162297e+00    9.13581794e-07    3.82466806e-07    3.16913541e-04    2.84873424e-05   -3.17827123e-04
7        1.74563591e-07    3.88828197e+00    4.32707969e+00    4.32838528e+00    9.33045620e-07    3.72542500e-07    3.26669701e-04    3.87947456e-05   -3.27602746e-04
8        1.99501247e-07    3.88220366e+00    4.37376169e+00    4.37506697e+00    9.23459880e-07    3.81819281e-07    3.37914091e-04    5.06459569e-05   -3.38837551e-04
9        2.24438903e-07    3.87534772e+00    4.42034180e+00    4.42165658e+00    9.44329102e-07    3.70450444e-07    3.50633566e-04    6.40691567e-05   -3.51577895e-04
10       2.49376559e-07    3.86766957e+00    4.46682812e+00    4.46814267e+00    9.33822773e-07    3.80726509e-07    3.64807783e-04    7.90104487e-05   -3.65741606e-04
11       2.74314214e-07    3.85912207e+00    4.51318944e+00    4.51451383e+00    9.56373392e-07    3.68014907e-07    3.80419938e-04    9.54966495e-05   -3.81376311e-04
12       2.99251870e-07    3.84965243e+00    4.55943452e+00    4.56075867e+00    9.44880463e-07    3.79271616e-07    3.97445696e-04    1.13469034e-04   -3.98390577e-04
13       3.24189526e-07    3.83920424e+00    4.60553119e+00    4.60686584e+00    9.69475148e-07    3.65177268e-07    4.15864467e-04    1.32953372e-04   -4.16833942e-04
14       3.49127182e-07    3.82771375e+00    4.65148961e+00    4.65282403e+00    9.56909631e-07    3.77505020e-07    4.35647706e-04    1.53885893e-04   -4.36604616e-04
15       3.74064838e-07    3.81511216e+00    4.69727607e+00    4.69862194e+00    9.83970574e-07    3.61896920e-07    4.56770827e-04    1.76291713e-04   -4.57754798e-04
16       3.99002494e-07    3.80132078e+00    4.74290273e+00    4.74424833e+00    9.70131592e-07    3.75470505e-07    4.79200793e-04    2.00101746e-04   -4.80170925e-04
17       4.23940150e-07    3.78625432e+00    4.78833354e+00    4.78969201e+00    1.00034366e-06    3.58131076e-07    5.02908298e-04    2.25340809e-04   -5.03908642e-04
18       4.48877805e-07    3.76981275e+00    4.83358351e+00    4.83494181e+00    9.85086139e-07    3.73218225e-07    5.27855670e-04    2.51934257e-04   -5.28840757e-04
19       4.73815461e-07    3.75188733e+00    4.87861368e+00    4.87998663e+00    1.01912584e-06    3.53829470e-07    5.54008273e-04    2.79907250e-04   -5.55027400e-04
20       4.98753117e-07    3.73234786e+00    4.92344232e+00    4.92481541e+00    1.00228416e-06    3.70812451e-07    5.81322611e-04    3.09178872e-04   -5.82324895e-04
21       5.23690773e-07    3.71105070e+00    4.96802701e+00    4.96941714e+00    1.04121573e-06    3.48918194e-07    6.09757922e-04    3.39775618e-04   -6.10799139e-04
22       5.48628429e-07    3.68782019e+00    5.01239019e+00    5.01378088e+00    1.02233762e-06    3.68351495e-07    6.39263607e-04    3.71609500e-04   -6.40285945e-04
23       5.73566085e-07    3.66245993e+00    5.05648450e+00    5.05789572e+00    1.06794444e-06    3.43275009e-07    6.69790054e-04    4.04709213e-04   -6.70857999e-04
24       5.98503741e-07    3.63472093e+00    5.10033839e+00    5.10175085e+00    1.04645757e-06    3.65996735e-07    7.01278216e-04    4.38978912e-04   -7.02324674e-04
25       6.23441397e-07    3.60432063e+00    5.14389796e+00    5.14533548e+00    1.10082540e-06    3.36697268e-07    7.33665664e-04    4.74451140e-04   -7.34766490e-04
26       6.48379052e-07    3.57088683e+00    5.18719899e+00    5.18863893e+00    1.07592021e-06    3.64024989e-07    7.66879726e-04    5.11019855e-04   -7.67955647e-04
27       6.73316708e-07    3.53398378e+00    5.23017882e+00    5.23165057e+00    1.14295241e-06    3.28795070e-07    8.00837563e-04    5.48724233e-04   -8.01980516e-04
28       6.98254364e-07    3.49300924e+00    5.27288361e+00    5.27435982e+00    1.11322157e-06    3.62990475e-07    8.35443757e-04    5.87444688e-04   -8.36556979e-04
29       7.23192020e-07    3.44722232e+00    5.31523852e+00    5.31675621e+00    1.19894381e-06    3.18750365e-07    8.70578177e-04    6.27232253e-04   -8.71777121e-04
30       7.48129676e-07    3.39553210e+00    5.35730388e+00    5.35882934e+00    1.16130924e-06    3.64150979e-07    9.06097389e-04    6.67945943e-04   -9.07258699e-04
31       7.73067332e-07    3.33647968e+00    5.39898542e+00    5.40056886e+00    1.27896637e-06    3.04465279e-07    9.41795365e-04    7.09658335e-04   -9.43074332e-04
32       7.98004988e-07    3.26766864e+00    5.44036874e+00    5.44196453e+00    1.22461866e-06    3.71165103e-07    9.77409575e-04    7.52192660e-04   -9.78634194e-04
33       8.22942643e-07    3.18537289e+00    5.48132257e+00    5.48300619e+00    1.40484309e-06    2.78771138e-07    1.01246183e-03    7.95666271e-04   -1.01386667e-03
34       8.47880299e-07    3.08190721e+00    5.52198031e+00    5.52368376e+00    1.30348711e-06    3.99966390e-07    1.04620255e-03    8.39815860e-04   -1.04750604e-03
35       8.72817955e-07    2.93928162e+00    5.56214743e+00    5.56398726e+00    1.64310625e-06    1.96722695e-07    1.07649109e-03    8.84932762e-04   -1.07813420e-03
36       8.97755611e-07    2.63887809e+00    5.60225543e+00    5.60390680e+00    9.90501474e-07    6.60866823e-07    1.09166537e-03    9.30485303e-04   -1.09265587e-03
37       9.22693267e-07    2.21707771e+00    5.64192708e+00    5.64343256e+00    3.10420033e-07    1.19506307e-06    1.03126397e-03    9.11153005e-04   -1.03157439e-03
38       9.47630923e-07    2.03105899e+00    5.68098882e+00    5.68255485e+00    5.92858629e-07    9.73167991e-07    9.72768647e-04    8.70711380e-04   -9.73361509e-04
39       9.72568579e-07    1.89881484e+00    5.71985914e+00    5.72126407e+00    4.05918911e-07    9.99002075e-07    9.16257197e-04    8.27341252e-04   -9.16663119e-04
40       9.97506234e-07    1.79466120e+00    5.75816148e+00    5.75955070e+00    5.32657830e-07    8.56563388e-07    8.62225035e-04    7.83600627e-04   -8.62757696e-04
41       1.02244389e-06    1.70856303e+00    5.79611541e+00    5.79740535e+00    4.23182470e-07    8.66754140e-07    8.10303463e-04    7.40240046e-04   -8.10726649e-04
42       1.04738155e-06    1.63532807e+00    5.83354706e+00    5.83481873e+00    5.03198735e-07    7.68471839e-07    7.60675216e-04    6.97874710e-04   -7.61178418e-04
43       1.07231920e-06    1.57187329e+00    5.87058329e+00    5.87178165e+00    4.24561859e-07    7.73799603e-07    7.13114122e-04    6.56626076e-04   -7.13538687e-04
44       1.09725686e-06    1.51615437e+00    5.90710344e+00    5.90828504e+00    4.82237849e-07    6.99363915e-07    6.67718794e-04    6.16763295e-04   -6.68201036e-04
45       1.12219451e-06    1.46677276e+00    5.94319712e+00    5.94431993e+00    4.19999641e-07    7.02813236e-07    6.24319795e-04    5.78278088e-04   -6.24739798e-04
46       1.14713217e-06    1.42266991e+00    5.97877012e+00    5.97987748e+00    4.64575916e-07    6.42780774e-07    5.82973292e-04    5.41312224e-04   -5.83437872e-04
47       1.17206983e-06    1.38308054e+00    6.01389138e+00    6.01494895e+00    4.12440270e-07    6.45136565e-07    5.43540896e-04    5.05819725e-04   -5.43953340e-04
48       1.19700748e-06    1.34736515e+00    6.04848249e+00    6.04952575e+00    4.48384891e-07    5.94878272e-07    5.06052965e-04    4.71878893e-04   -5.06501354e-04
49       1.22194514e-06    1.31505491e+00    6.08259977e+00    6.08359937e+00    4.03062009e-07    5.96541398e-07    4.70389998e-04    4.39431487e-04   -4.70793064e-04
50       1.24688279e-06    1.28572268e+00    6.11617539e+00    6.11716146e+00    4.32873813e-07    5.53198205e-07    4.36564938e-04    4.08518292e-04   -4.36997815e-04
51       1.27182045e-06    1.25905954e+00    6.14925703e+00    6.15020377e+00    3.92428602e-07    5.54316564e-07    4.04471241e-04    3.79077991e-04   -4.04863673e-04
52       1.29675810e-06    1.23475916e+00    6.18178442e+00    6.18271820e+00    4.17646006e-07    5.16131261e-07    3.74109324e-04    3.51126697e-04   -3.74526974e-04
53       1.32169576e-06    1.21260740e+00    6.21379905e+00    6.21469675e+00    3.80846739e-07    5.16852351e-07    3.45382092e-04    3.24603616e-04   -3.45762943e-04
54       1.34663342e-06    1.19237243e+00    6.24524645e+00    6.24613158e+00    4.02486702e-07    4.82647588e-07    3.18280524e-04    2.99507407e-04   -3.18683014e-04
55       1.37157107e-06    1.17390024e+00    6.27616349e+00    6.27701498e+00    3.68502092e-07    4.82981760e-07    2.92714803e-04    2.75779340e-04   -2.93083309e-04
56       1.39650873e-06    1.15700816e+00    6.30650015e+00    6.30733935e+00    3.87270493e-07    4.51930440e-07    2.68668779e-04    2.53405243e-04   -2.69056054e-04
57       1.42144638e-06    1.14158247e+00    6.33628980e+00    6.33709726e+00    3.55514187e-07    4.51941434e-07    2.46058502e-04    2.32329129e-04   -2.46414020e-04
58       1.44638404e-06    1.12747436e+00    6.36548604e+00    6.36628139e+00    3.71923461e-07    4.23434736e-07    2.24862282e-04    2.12527022e-04   -2.25234210e-04
59       1.47132170e-06    1.11459830e+00    6.39411947e+00    6.39488459e+00    3.41966576e-07    4.23153323e-07    2.05001154e-04    1.93946037e-04   -2.05343124e-04
60       1.49625935e-06    1.10282979e+00    6.42214670e+00    6.42289984e+00    3.56400805e-07    3.96735676e-07    1.86449144e-04    1.76554573e-04   -1.86805549e-04
61       1.52119701e-06    1.09210375e+00    6.44959613e+00    6.45032024e+00    3.27920852e-07    3.96186985e-07    1.69131675e-04    1.60303029e-04   -1.69459600e-04
62       1.54613466e-06    1.08231373e+00    6.47642689e+00    6.47713908e+00    3.40676130e-07    3.71511768e-07    1.53019504e-04    1.45153813e-04   -1.53360184e-04
63       1.57107232e-06    1.07340989e+00    6.50266563e+00    6.50334976e+00    3.13425109e-07    3.70709093e-07    1.38042039e-04    1.31060718e-04   -1.38355468e-04
64       1.59600998e-06    1.06529954e+00    6.52827362e+00    6.52894586e+00    3.24734931e-07    3.47500653e-07    1.24167615e-04    1.17981439e-04   -1.24492354e-04
65       1.62094763e-06    1.05794459e+00    6.55327610e+00    6.55392108e+00    2.98518279e-07    3.46465016e-07    1.11329370e-04    1.05873249e-04   -1.11627893e-04
66       1.64588529e-06    1.05126305e+00    6.57763623e+00    6.57826930e+00    3.08570892e-07    3.24507650e-07    9.94939304e-05    9.46901573e-05   -9.98025054e-05
67       1.67082294e-06    1.04522605e+00    6.60137806e+00    6.60198455e+00    2.83233576e-07    3.23251801e-07    8.85980063e-05    8.43929969e-05   -8.88812439e-05
68       1.69576060e-06    1.03976015e+00    6.62446643e+00    6.62506098e+00    2.92183293e-07    3.02370108e-07    7.86071373e-05    7.49329375e-05   -7.88993247e-05
69       1.72069825e-06    1.03484388e+00    6.64692445e+00    6.64749295e+00    2.67600091e-07    3.00905495e-07    6.94615167e-05    6.62744567e-05   -6.97291209e-05
70       1.74563591e-06    1.03041074e+00    6.66871842e+00    6.66927495e+00    2.75575490e-07    2.80956162e-07    6.11261501e-05    5.83666040e-05   -6.14017297e-05
71       1.77057357e-06    1.02644531e+00    6.68987069e+00    6.69040162e+00    2.51644094e-07    2.79292484e-07    5.35446715e-05    5.11775872e-05   -5.37963197e-05
72       1.79551122e-06    1.02288684e+00    6.71034887e+00    6.71086778e+00    2.58753860e-07    2.60155759e-07    4.66820457e-05    4.46549522e-05   -4.69408037e-05
73       1.82044888e-06    1.01972495e+00    6.73017472e+00    6.73066841e+00    2.35389817e-07    2.58302176e-07    4.04853430e-05    3.87707303e-05   -4.07207369e-05
74       1.84538653e-06    1.01690370e+00    6.74931704e+00    6.74979865e+00    2.41727042e-07    2.39878910e-07    3.49199310e-05    3.34714998e-05   -3.51616621e-05
75       1.87032419e-06    1.01441700e+00    6.76779708e+00    6.76825379e+00    2.18860069e-07    2.37843367e-07    2.99363350e-05    2.87332123e-05   -3.01551993e-05
76       1.89526185e-06    1.01221302e+00    6.78558475e+00    6.78602930e+00    2.24505446e-07    2.20049261e-07    2.55007293e-05    2.45019492e-05   -2.57252389e-05
77       1.92019950e-06    1.01028935e+00    6.80270092e+00    6.80312083e+00    2.02076603e-07    2.17838780e-07    2.15671295e-05    2.07576820e-05   -2.17692103e-05
78       1.94513716e-06    1.00859770e+00    6.81911648e+00    6.81952418e+00    2.07100861e-07    2.00601973e-07    1.81028838e-05    1.74464110e-05   -1.83099888e-05
79       1.97007481e-06    1.00713891e+00    6.83485204e+00    6.83523532e+00    1.85060401e-07    1.98222864e-07    1.50655432e-05    1.45522281e-05   -1.52506077e-05
80       1.99501247e-06    1.00586776e+00    6.84987938e+00    6.85025039e+00    1.89526187e-07    1.81481463e-07    1.24239657e-05    1.20214204e-05   -1.26134960e-05
81       2.01995012e-06    1.00478799e+00    6.86421894e+00    6.86456571e+00    1.67831874e-07    1.78939231e-07    1.01392874e-05    9.84229929e-06   -1.03071234e-05
82       2.04488778e-06    1.00385710e+00    6.87784332e+00    6.87817776e+00    1.71795214e-07    1.62639771e-07    8.18218313e-06    7.96176538e-06   -8.35398250e-06
83       2.06982544e-06    1.00308147e+00    6.89077284e+00    6.89108319e+00    1.50411012e-07    1.59939351e-07    6.51742400e-06    6.37244546e-06   -6.66783917e-06
84       2.09476309e-06    1.00242100e+00    6.90298090e+00    6.90327886e+00    1.53922476e-07    1.44035050e-07    5.11778221e-06    5.02214262e-06   -5.27170885e-06
85       2.11970075e-06    1.00188447e+00    6.91448775e+00    6.91476174e+00    1.32817486e-07    1.41180715e-07    3.95171098e-06    3.90789037e-06   -4.08453262e-06
86       2.14463840e-06    1.00143399e+00    6.92526749e+00    6.92552904e+00    1.35923114e-07    1.25630425e-07    2.99433529e-06    2.97864859e-06   -3.13026256e-06
87       2.16957606e-06    1.00108058e+00    6.93534041e+00    6.93557810e+00    1.15070724e-07    1.22625839e-07    2.21783199e-06    2.23594259e-06   -2.33290687e-06
88       2.19451372e-06    1.00078832e+00    6.94468126e+00    6.94490646e+00    1.17812777e-07    1.07393097e-07    1.59991065e-06    1.63011119e-06   -1.71772758e-06
89       2.21945137e-06    1.00057036e+00    6.95331040e+00    6.95351183e+00    9.71899641e-08    1.04241312e-07    1.11650509e-06    1.16724912e-06   -1.21369921e-06
90       2.24438903e-06    1.00039259e+00    6.96120319e+00    6.96139209e+00    9.96075437e-08    8.92935577e-08    7.48118701e-07    7.99265569e-07   -8.47730404e-07
91       2.26932668e-06    1.00027020e+00    6.96838012e+00    6.96854532e+00    7.91942956e-08    8.59970222e-08    4.74465544e-07    5.36893723e-07   -5.53663999e-07
92       2.29426434e-06    1.00017075e+00    6.97481711e+00    6.97496974e+00    8.13238502e-08    7.13049518e-08    2.79030299e-07    3.33775312e-07   -3.60358309e-07
93       2.31920200e-06    1.00011139e+00    6.98053483e+00    6.98066380e+00    6.11026834e-08    6.78654835e-08    1.45318753e-07    2.05341475e-07   -2.06425596e-07
94       2.34413965e-06    1.00006126e+00    6.98550970e+00    6.98562608e+00    6.29784361e-08    5.34025031e-08    5.99632964e-08    1.07100101e-07   -1.22945892e-07
95       2.36907731e-06    1.00003943e+00    6.98976262e+00    6.98985538e+00    4.29339850e-08    4.98212695e-08    1.02596802e-08    5.92295772e-08   -5.31978251e-08
96       2.39401496e-06    1.00001648e+00    6.99327049e+00    6.99335064e+00    4.45882947e-08    3.55630313e-08   -1.38659491e-08    1.92097201e-08   -3.07265055e-08
97       2.41895262e-06    1.00001343e+00    6.99605448e+00    6.99611103e+00    2.47069593e-08    3.18405140e-08   -2.13441828e-08    1.20046111e-08   -3.36693643e-09
98       2.44389027e-06    1.00000222e+00    6.99809191e+00    6.99813584e+00    2.61706314e-08    1.77645124e-08   -1.88288418e-08   -2.85565825e-09   -7.34594947e-09
99       2.46882793e-06    1.00000577e+00    6.99940426e+00    6.99942460e+00    6.44027048e-09    1.39004600e-08   -1.15088109e-08    4.40587309e-09    5.06438056e-09
100      2.49376559e-06    9.99997358e-01    6.99996925e+00    6.99997698e+00    7.74282698e-09   -1.43240505e-11   -2.51075719e-09   -4.57925148e-09   -5.23622969e-09
101      2.51870324e-06    1.00000181e+00    6.99980872e+00    6.99979285e+00   -1.18475140e-08   -4.02095512e-09    6.66956368e-09    4.79447703e-09    5.17379038e-09
102      2.54364090e-06    9.99993682e-01    6.99890073e+00    6.99887225e+00   -1.06775939e-08   -1.77943741e-08    1.65212422e-08   -3.71583378e-09   -5.84780820e-09
103      2.56857855e-06    9.99999754e-01    6.99726750e+00    6.99721542e+00   -3.01379283e-08   -2.19454936e-08    2.91755800e-08    9.32792824e-09    9.58188438e-10
104      2.59351621e-06    9.99995809e-01    6.99488741e+00    6.99482274e+00   -2.90729915e-08   -3.55965271e-08    4.88081971e-08    9.80546302e-09   -1.97393655e-08
105      2.61845387e-06    1.00001064e+00    6.99178313e+00    6.99169482e+00   -4.84126176e-08   -3.98950016e-08    8.10931044e-08    4.19799892e-08   -3.26846467e-08
106      2.64339152e-06    1.00002122e+00    6.98793329e+00    6.98783242e+00   -4.74256361e-08   -5.34420335e-08    1.33946151e-07    7.38235961e-08   -8.65246749e-08
107      2.66832918e-06    1.00005842e+00    6.98336104e+00    6.98323649e+00   -6.66533491e-08   -5.78917967e-08    2.16480714e-07    1.54405794e-07   -1.49831525e-07
108      2.69326683e-06    1.00010041e+00    6.97804523e+00    6.97790816e+00   -6.57177296e-08   -7.13528829e-08    3.40390352e-07    2.53733336e-07   -2.74676782e-07
109      2.71820449e-06    1.00018023e+00    6.97200953e+00    6.97184873e+00   -8.48420269e-08   -7.59590697e-08    5.18104794e-07    4.25652304e-07   -4.33266926e-07
110      2.74314214e-06    1.00027722e+00    6.96523298e+00    6.96505970e+00   -8.39314255e-08   -8.93522048e-08    7.65117539e-07    6.42118431e-07   -6.81190273e-07
111      2.76807980e-06    1.00042670e+00    6.95773981e+00    6.95754272e+00   -1.02960709e-07   -9.41213139e-08    1.09703132e-06    9.61714326e-07   -9.94074770e-07
112      2.79301746e-06    1.00060921e+00    6.94950917e+00    6.94929966e+00   -1.02048844e-07   -1.07464705e-07    1.53314767e-06    1.35823046e-06   -1.43110299e-06
113      2.81795511e-06    1.00086247e+00    6.94056591e+00    6.94033252e+00   -1.20991628e-07   -1.12404794e-07    2.09207798e-06    1.89493637e-06   -1.97109051e-06
114      2.84289277e-06    1.00116825e+00    6.93088928e+00    6.93064351e+00   -1.20052088e-07   -1.25717148e-07    2.79692705e-06    2.54731361e-06   -2.67687912e-06
115      2.86783042e-06    1.00156686e+00    6.92050477e+00    6.92023501e+00   -1.38917210e-07   -1.30838080e-07    3.66912885e-06    3.38326054e-06   -3.53021580e-06
116      2.89276808e-06    1.00204131e+00    6.90939164e+00    6.90910958e+00   -1.37923247e-07   -1.44138921e-07    4.73557532e-06    4.37977565e-06   -4.59765623e-06
117      2.91770574e-06    1.00263472e+00    6.89757611e+00    6.89726994e+00   -1.56720105e-07   -1.49452651e-07    6.02031442e-06    5.60932062e-06   -5.86359847e-06
