Index       TIME          {V(VOUT)+1.0}      {V(IN)+4.0}       {V(1)+4.0}          IG(MP1)           IG(MN1)           IS(MP1)           ID(MN1)           ID(MP1)     
0        0.00000000e+00    3.91195120e+00    4.00000000e+00    4.00000000e+00    0.00000000e+00    0.00000000e+00    2.91195043e-04    4.03781348e-12   -2.91195043e-04
1        1.00000000e-10    3.91196022e+00    4.00002727e+00    4.00018850e+00    1.06292384e-07    5.49324151e-08    2.91098760e-04    4.30747476e-12   -2.91205052e-04
2        3.00000000e-10    3.91198091e+00    4.00015685e+00    4.00056549e+00    2.78137095e-07    1.30503738e-07    2.90930308e-04    1.29575491e-11   -2.91208445e-04
3        5.00000000e-10    3.91199975e+00    4.00031810e+00    4.00094248e+00    4.30055510e-07    1.94320183e-07    2.90778464e-04    4.07269760e-11   -2.91208520e-04
4        9.00000000e-10    3.91202049e+00    4.00078530e+00    4.00169646e+00    6.34926747e-07    2.76229665e-07    2.90569213e-04    2.27641649e-10   -2.91204140e-04
5        1.70000000e-09    3.91201440e+00    4.00203178e+00    4.00320442e+00    8.21165697e-07    3.51476259e-07    2.90378391e-04    1.50081853e-09   -2.91199557e-04
6        3.30000000e-09    3.91193952e+00    4.00494250e+00    4.00622035e+00    8.96433461e-07    3.81417897e-07    2.90300404e-04    8.86124703e-09   -2.91196838e-04
7        4.90000000e-09    3.91184556e+00    4.00796491e+00    4.00923627e+00    8.91754598e-07    3.79601090e-07    2.90310037e-04    2.30060557e-08   -2.91201791e-04
8        8.10000000e-09    3.91165367e+00    4.01399557e+00    4.01526807e+00    8.92872667e-07    3.79633581e-07    2.90337296e-04    7.10247506e-08   -2.91230169e-04
9        1.13000000e-08    3.91145273e+00    4.02002689e+00    4.02129982e+00    8.93249816e-07    3.79684301e-07    2.90391113e-04    1.45426259e-07   -2.91284363e-04
10       1.77000000e-08    3.91102496e+00    4.03208881e+00    4.03336303e+00    8.94631907e-07    3.79588676e-07    2.90574182e-04    3.73349664e-07   -2.91468814e-04
11       3.05000000e-08    3.91006234e+00    4.05621101e+00    4.05748763e+00    8.96982105e-07    3.79632835e-07    2.91246878e-04    1.14564033e-06   -2.92143860e-04
12       5.61000000e-08    3.90769794e+00    4.10444267e+00    4.10572411e+00    9.02058263e-07    3.79387905e-07    2.93812365e-04    3.95512578e-06   -2.94714424e-04
13       8.17000000e-08    3.90472247e+00    4.15264708e+00    4.15393325e+00    9.06957540e-07    3.79204203e-07    2.98000971e-04    8.44853066e-06   -2.98907929e-04
14       1.07300000e-07    3.90110470e+00    4.20081167e+00    4.20210255e+00    9.12115709e-07    3.78761191e-07    3.03804031e-04    1.46211657e-05   -3.04716147e-04
15       1.32900000e-07    3.89681058e+00    4.24892404e+00    4.25021957e+00    9.17149305e-07    3.78382277e-07    3.11212389e-04    2.24666188e-05   -3.12129538e-04
16       1.58500000e-07    3.89180430e+00    4.29697165e+00    4.29827185e+00    9.22461258e-07    3.77742178e-07    3.20213636e-04    3.19767262e-05   -3.21136098e-04
17       1.84100000e-07    3.88604672e+00    4.34494209e+00    4.34624697e+00    9.27704339e-07    3.77167897e-07    3.30794565e-04    4.31416141e-05   -3.31722269e-04
18       2.09700000e-07    3.87949628e+00    4.39282291e+00    4.39413250e+00    9.33256372e-07    3.76331722e-07    3.42938790e-04    5.59496802e-05   -3.43872047e-04
19       2.35300000e-07    3.87210736e+00    4.44060169e+00    4.44191606e+00    9.38802484e-07    3.75562217e-07    3.56628981e-04    7.03876249e-05   -3.57567783e-04
20       2.60900000e-07    3.86383105e+00    4.48826606e+00    4.48958529e+00    9.44701213e-07    3.74531061e-07    3.71844653e-04    8.64404559e-05   -3.72789355e-04
21       2.86500000e-07    3.85461329e+00    4.53580362e+00    4.53712785e+00    9.50667741e-07    3.73566740e-07    3.88564213e-04    1.04091498e-04   -3.89514881e-04
22       3.12100000e-07    3.84439554e+00    4.58320206e+00    4.58453145e+00    9.57046927e-07    3.72341785e-07    4.06762902e-04    1.23322430e-04   -4.07719950e-04
23       3.37700000e-07    3.83311261e+00    4.63044905e+00    4.63178382e+00    9.63583197e-07    3.71183291e-07    4.26414655e-04    1.44113266e-04   -4.27378239e-04
24       3.63300000e-07    3.82069302e+00    4.67753235e+00    4.67887273e+00    9.70613602e-07    3.69765812e-07    4.47490177e-04    1.66442428e-04   -4.48460791e-04
25       3.88900000e-07    3.80705649e+00    4.72443967e+00    4.72578601e+00    9.77912789e-07    3.68413986e-07    4.69958605e-04    1.90286695e-04   -4.70936518e-04
26       4.14500000e-07    3.79211375e+00    4.77115887e+00    4.77251151e+00    9.85816825e-07    3.66805332e-07    4.93785695e-04    2.15621316e-04   -4.94771513e-04
27       4.40100000e-07    3.77576347e+00    4.81767773e+00    4.81903714e+00    9.94133965e-07    3.65261176e-07    5.18935271e-04    2.42419925e-04   -5.19929405e-04
28       4.65700000e-07    3.75789117e+00    4.86398419e+00    4.86535088e+00    1.00320817e-06    3.63462744e-07    5.45367475e-04    2.70654691e-04   -5.46370684e-04
29       4.91300000e-07    3.73836507e+00    4.91006609e+00    4.91144073e+00    1.01288837e-06    3.61727353e-07    5.73039957e-04    3.00296197e-04   -5.74052846e-04
30       5.16900000e-07    3.71703354e+00    4.95591146e+00    4.95729477e+00    1.02353929e-06    3.59740522e-07    6.01906127e-04    3.31313632e-04   -6.02929667e-04
31       5.42500000e-07    3.69371892e+00    5.00150822e+00    5.00290114e+00    1.03506374e-06    3.57814985e-07    6.31915990e-04    3.63674632e-04   -6.32951055e-04
32       5.68100000e-07    3.66821218e+00    5.04684448e+00    5.04824804e+00    1.04786775e-06    3.55640995e-07    6.63014254e-04    3.97345506e-04   -6.64062122e-04
33       5.93700000e-07    3.64026270e+00    5.09190822e+00    5.09332373e+00    1.06193257e-06    3.53526208e-07    6.95140610e-04    4.32291041e-04   -6.96202543e-04
34       6.19300000e-07    3.60956715e+00    5.13668758e+00    5.13811657e+00    1.07774148e-06    3.51165914e-07    7.28227379e-04    4.68474760e-04   -7.29305121e-04
35       6.44900000e-07    3.57575049e+00    5.18117057e+00    5.18261494e+00    1.09540138e-06    3.48862209e-07    7.62198744e-04    5.05858678e-04   -7.63294146e-04
36       6.70500000e-07    3.53834129e+00    5.22534535e+00    5.22680736e+00    1.11554155e-06    3.46315533e-07    7.96967122e-04    5.44403591e-04   -7.98082664e-04
37       6.96100000e-07    3.49673088e+00    5.26919984e+00    5.27068237e+00    1.13849153e-06    3.43821840e-07    8.32429975e-04    5.84068768e-04   -8.33568467e-04
38       7.19140000e-07    3.45502738e+00    5.30838503e+00    5.30988912e+00    1.16249360e-06    3.41352167e-07    8.64838223e-04    6.20690496e-04   -8.66000717e-04
39       7.39876000e-07    3.41337641e+00    5.34341425e+00    5.34494072e+00    1.18699877e-06    3.39208644e-07    8.94308543e-04    6.54370728e-04   -8.95495543e-04
40       7.58538400e-07    3.37189302e+00    5.37474238e+00    5.37629214e+00    1.21235295e-06    3.37074469e-07    9.20987780e-04    6.85246159e-04   -9.22200134e-04
41       7.77200800e-07    3.32581828e+00    5.40587783e+00    5.40745432e+00    1.24096984e-06    3.35048935e-07    9.47714710e-04    7.16636837e-04   -9.48955681e-04
42       7.93996960e-07    3.27953277e+00    5.43373030e+00    5.43533495e+00    1.27100160e-06    3.33010650e-07    9.71701455e-04    7.45313336e-04   -9.72972458e-04
43       8.09113504e-07    3.23300419e+00    5.45865742e+00    5.46029092e+00    1.30149350e-06    3.31314997e-07    9.93126282e-04    7.71454959e-04   -9.94427776e-04
44       8.22718394e-07    3.18615971e+00    5.48097535e+00    5.48263873e+00    1.33285166e-06    3.29561638e-07    1.01215788e-03    7.95242579e-04   -1.01349073e-03
45       8.34962794e-07    3.13885612e+00    5.50096529e+00    5.50265918e+00    1.36457383e-06    3.28149944e-07    1.02896401e-03    8.16855553e-04   -1.03032858e-03
46       8.45982755e-07    3.09088230e+00    5.51887695e+00    5.52060157e+00    1.39634275e-06    3.26662924e-07    1.04369235e-03    8.36467649e-04   -1.04508869e-03
47       8.55784108e-07    3.04252608e+00    5.53474366e+00    5.53649863e+00    1.42740865e-06    3.25509058e-07    1.05632971e-03    8.54034978e-04   -1.05775712e-03
48       8.64323823e-07    2.99450261e+00    5.54851888e+00    5.55030192e+00    1.45596194e-06    3.24346476e-07    1.06682194e-03    8.69434713e-04   -1.06827790e-03
49       8.71668502e-07    2.94713672e+00    5.56033026e+00    5.56213792e+00    1.48064385e-06    3.23525539e-07    1.07528394e-03    8.82748579e-04   -1.07676459e-03
50       8.77917064e-07    2.90059590e+00    5.57035500e+00    5.57218133e+00    1.49886835e-06    3.22804459e-07    1.08187901e-03    8.94127899e-04   -1.08337788e-03
51       8.83169727e-07    2.85500460e+00    5.57876855e+00    5.58060528e+00    1.50804501e-06    3.22494757e-07    1.08677933e-03    9.03734570e-04   -1.08828737e-03
52       8.87520036e-07    2.81050475e+00    5.58573464e+00    5.58756905e+00    1.50326690e-06    3.22610649e-07    1.09014990e-03    9.11727368e-04   -1.09165317e-03
53       8.91062108e-07    2.76717053e+00    5.59141646e+00    5.59323027e+00    1.47819425e-06    3.23625463e-07    1.09215522e-03    9.18272659e-04   -1.09363341e-03
54       8.91544150e-07    2.76052100e+00    5.59219318e+00    5.59400010e+00    1.48053561e-06    3.24575190e-07    1.09235921e-03    9.19169246e-04   -1.09383975e-03
55       8.92026192e-07    2.75368350e+00    5.59297602e+00    5.59476978e+00    1.46681341e-06    3.29678129e-07    1.09252048e-03    9.20073323e-04   -1.09398729e-03
56       8.92990275e-07    2.73925633e+00    5.59453452e+00    5.59630871e+00    1.44793680e-06    3.21582897e-07    1.09281164e-03    9.21874531e-04   -1.09425958e-03
57       8.93954358e-07    2.72369706e+00    5.59609857e+00    5.59784705e+00    1.41655912e-06    3.31995123e-07    1.09294491e-03    9.23683918e-04   -1.09436147e-03
58       8.94918442e-07    2.70667800e+00    5.59767150e+00    5.59938480e+00    1.38183490e-06    3.25292596e-07    1.09294627e-03    9.25505364e-04   -1.09432811e-03
59       8.95882525e-07    2.68773372e+00    5.59925949e+00    5.60092197e+00    1.32093750e-06    3.38290681e-07    1.09270327e-03    9.27346076e-04   -1.09402421e-03
60       8.96846609e-07    2.66608013e+00    5.60087400e+00    5.60245855e+00    1.23499968e-06    3.36372060e-07    1.09217737e-03    9.29219396e-04   -1.09341237e-03
61       8.97810692e-07    2.64020897e+00    5.60254167e+00    5.60399454e+00    1.07165577e-06    3.60506881e-07    1.09111502e-03    9.31156387e-04   -1.09218668e-03
62       8.97960810e-07    2.63557120e+00    5.60281246e+00    5.60423365e+00    1.05362788e-06    3.63361086e-07    1.09088076e-03    9.31471104e-04   -1.09193439e-03
63       8.98110928e-07    2.63076201e+00    5.60309379e+00    5.60447276e+00    9.93383279e-07    3.91611563e-07    1.09056937e-03    9.31798111e-04   -1.09156276e-03
64       8.98411164e-07    2.62034922e+00    5.60366611e+00    5.60495092e+00    8.95509614e-07    3.76357418e-07    1.08997109e-03    9.32463561e-04   -1.09086660e-03
65       8.98711400e-07    2.60861537e+00    5.60426713e+00    5.60542902e+00    7.27565965e-07    4.30108923e-07    1.08909440e-03    9.33162625e-04   -1.08982197e-03
66       8.99011636e-07    2.59566292e+00    5.60486041e+00    5.60590707e+00    5.87619709e-07    4.69234101e-07    1.08827775e-03    9.33718989e-04   -1.08886537e-03
67       8.99311872e-07    2.58268601e+00    5.60536159e+00    5.60638506e+00    4.49949516e-07    5.56093148e-07    1.08758723e-03    9.34000235e-04   -1.08803719e-03
68       8.99612108e-07    2.57061566e+00    5.60579853e+00    5.60686300e+00    4.54636221e-07    6.18111651e-07    1.08694691e-03    9.34157749e-04   -1.08740154e-03
69       8.99912344e-07    2.55963879e+00    5.60621839e+00    5.60734088e+00    4.14575852e-07    6.94177026e-07    1.08628611e-03    9.34236525e-04   -1.08670069e-03
70       9.00212580e-07    2.54963006e+00    5.60663993e+00    5.60781870e+00    4.58120979e-07    7.31161460e-07    1.08563136e-03    9.34297168e-04   -1.08608948e-03
71       9.00512816e-07    2.54039488e+00    5.60706854e+00    5.60829646e+00    4.29212751e-07    7.86174539e-07    1.08494616e-03    9.34319135e-04   -1.08537538e-03
72       9.00813052e-07    2.53176141e+00    5.60750434e+00    5.60877416e+00    4.73017436e-07    8.07947132e-07    1.08426932e-03    9.34335464e-04   -1.08474234e-03
73       9.01413524e-07    2.51580545e+00    5.60839137e+00    5.60972940e+00    4.45171987e-07    8.81084270e-07    1.08286963e-03    9.34280097e-04   -1.08331480e-03
74       9.02614468e-07    2.48747199e+00    5.61020313e+00    5.61163919e+00    4.92530805e-07    9.50544428e-07    1.08004931e-03    9.33971788e-04   -1.08054184e-03
75       9.03815412e-07    2.46233521e+00    5.61205086e+00    5.61354807e+00    4.63785525e-07    1.02046773e-06    1.07716084e-03    9.33405414e-04   -1.07762463e-03
76       9.05016356e-07    2.43941295e+00    5.61391641e+00    5.61545602e+00    5.01759476e-07    1.04849294e-06    1.07427390e-03    9.32639631e-04   -1.07477566e-03
77       9.06217300e-07    2.41828471e+00    5.61579419e+00    5.61736306e+00    4.70112974e-07    1.08582003e-06    1.07134947e-03    9.31706591e-04   -1.07181958e-03
78       9.07418244e-07    2.39861696e+00    5.61768020e+00    5.61926917e+00    5.06017210e-07    1.09418823e-06    1.06844077e-03    9.30646599e-04   -1.06894679e-03
79       9.08619188e-07    2.38017536e+00    5.61957156e+00    5.62117436e+00    4.72881627e-07    1.11732817e-06    1.06550477e-03    9.29471091e-04   -1.06597765e-03
80       9.09820132e-07    2.36278054e+00    5.62146648e+00    5.62307863e+00    5.07865566e-07    1.11578386e-06    1.06259121e-03    9.28207951e-04   -1.06309908e-03
81       9.11021076e-07    2.34629170e+00    5.62336373e+00    5.62498197e+00    4.74079142e-07    1.13177600e-06    1.05965481e-03    9.26859623e-04   -1.06012889e-03
82       9.12222020e-07    2.33059636e+00    5.62526244e+00    5.62688439e+00    5.08630008e-07    1.12497695e-06    1.05674389e-03    9.25447519e-04   -1.05725252e-03
83       9.13422964e-07    2.31560297e+00    5.62716204e+00    5.62878589e+00    4.74533741e-07    1.13703818e-06    1.05381223e-03    9.23969367e-04   -1.05428677e-03
84       9.14623907e-07    2.30123601e+00    5.62906209e+00    5.63068645e+00    5.08865232e-07    1.12724650e-06    1.05090756e-03    9.22443047e-04   -1.05141643e-03
85       9.17025795e-07    2.27413667e+00    5.63286209e+00    5.63448479e+00    4.74507647e-07    1.13578963e-06    1.04507540e-03    9.19243142e-04   -1.04554991e-03
86       9.19427683e-07    2.24891017e+00    5.63666110e+00    5.63827942e+00    5.08608326e-07    1.12050171e-06    1.03928452e-03    9.15897027e-04   -1.03979313e-03
87       9.21829571e-07    2.22524540e+00    5.64045858e+00    5.64207031e+00    4.74110312e-07    1.12596203e-06    1.03348866e-03    9.12414583e-04   -1.03396277e-03
88       9.24231459e-07    2.20292913e+00    5.64425327e+00    5.64585746e+00    5.07887901e-07    1.10724779e-06    1.02773694e-03    9.08834418e-04   -1.02824483e-03
89       9.26633347e-07    2.18178258e+00    5.64804484e+00    5.64964086e+00    4.73303289e-07    1.11120301e-06    1.02198235e-03    9.05156231e-04   -1.02245565e-03
90       9.29035235e-07    2.16166581e+00    5.65183312e+00    5.65342050e+00    5.07036534e-07    1.09139156e-06    1.01627255e-03    9.01409677e-04   -1.01677959e-03
91       9.31437123e-07    2.14246383e+00    5.65561786e+00    5.65719638e+00    4.72386307e-07    1.09470369e-06    1.01056045e-03    8.97589057e-04   -1.01103284e-03
92       9.33839011e-07    2.12408219e+00    5.65939898e+00    5.66096849e+00    5.06100631e-07    1.07451351e-06    1.00489351e-03    8.93719706e-04   -1.00539962e-03
93       9.36240899e-07    2.10644125e+00    5.66317635e+00    5.66473681e+00    4.71415565e-07    1.07765940e-06    9.99224509e-04    8.89792678e-04   -9.99695927e-04
94       9.38642787e-07    2.08947382e+00    5.66694993e+00    5.66850134e+00    5.05120277e-07    1.05743412e-06    9.93600798e-04    8.85830730e-04   -9.94105921e-04
95       9.41044674e-07    2.07312207e+00    5.67071965e+00    5.67226207e+00    4.70416039e-07    1.06065146e-06    9.87975103e-04    8.81822894e-04   -9.88445521e-04
96       9.43446562e-07    2.05733621e+00    5.67448548e+00    5.67601899e+00    5.04115279e-07    1.04056306e-06    9.82394732e-04    8.77790277e-04   -9.82898850e-04
97       9.48250338e-07    2.02729183e+00    5.68200541e+00    5.68352137e+00    4.68896280e-07    1.03564211e-06    9.71263423e-04    8.69629176e-04   -9.71732322e-04
98       9.53054114e-07    1.99905682e+00    5.68950921e+00    5.69100842e+00    5.02028241e-07    1.00800372e-06    9.60242750e-04    8.61388859e-04   -9.60744781e-04
99       9.57857890e-07    1.97239618e+00    5.69699748e+00    5.69848006e+00    4.66888494e-07    1.00451657e-06    9.49283898e-04    8.53071623e-04   -9.49750789e-04
100      9.62661666e-07    1.94713147e+00    5.70446949e+00    5.70593623e+00    4.99922179e-07    9.77696541e-07    9.38435271e-04    8.44713656e-04   -9.38935196e-04
101      9.67465441e-07    1.92310982e+00    5.71192546e+00    5.71337685e+00    4.64814283e-07    9.75462647e-07    9.27648283e-04    8.36310787e-04   -9.28113100e-04
102      9.72269217e-07    1.90020728e+00    5.71936528e+00    5.72080187e+00    4.97832794e-07    9.49671467e-07    9.16970571e-04    8.27892670e-04   -9.17468406e-04
103      9.77072993e-07    1.87831791e+00    5.72678890e+00    5.72821121e+00    4.62717461e-07    9.48505798e-07    9.06353935e-04    8.19451332e-04   -9.06816655e-04
104      9.81876769e-07    1.85735237e+00    5.73419631e+00    5.73560481e+00    4.95735852e-07    9.23698536e-07    8.95845844e-04    8.11012860e-04   -8.96341583e-04
105      9.86680545e-07    1.83723320e+00    5.74158743e+00    5.74298259e+00    4.60609147e-07    9.23484449e-07    8.85398160e-04    8.02566669e-04   -8.85858772e-04
106      9.91484320e-07    1.81789366e+00    5.74896226e+00    5.75034450e+00    4.93628088e-07    8.99566338e-07    8.75058319e-04    7.94136628e-04   -8.75551950e-04
107      9.96288096e-07    1.79927501e+00    5.75632071e+00    5.75769046e+00    4.58490502e-07    9.00199581e-07    8.64778199e-04    7.85710386e-04   -8.65236692e-04
108      1.00109187e-06    1.78132585e+00    5.76366279e+00    5.76502040e+00    4.91508704e-07    8.77074741e-07    8.54605230e-04    7.77310319e-04   -8.55096742e-04
109      1.00589565e-06    1.76400037e+00    5.77098841e+00    5.77233427e+00    4.56361025e-07    8.78461315e-07    8.44491298e-04    7.68922846e-04   -8.44947663e-04
110      1.01069942e-06    1.74725800e+00    5.77829755e+00    5.77963199e+00    4.89377139e-07    8.56042689e-07    8.34483831e-04    7.60569291e-04   -8.34973211e-04
111      1.02030698e-06    1.71537927e+00    5.79286630e+00    5.79417873e+00    4.53156462e-07    8.48197023e-07    8.14679254e-04    7.43936267e-04   -8.15132414e-04
112      1.02991453e-06    1.68544147e+00    5.80736818e+00    5.80866009e+00    4.85050475e-07    8.17707439e-07    7.95225335e-04    7.27447448e-04   -7.95710388e-04
113      1.03952208e-06    1.65723556e+00    5.82180352e+00    5.82307554e+00    4.48852124e-07    8.12174337e-07    7.76070430e-04    7.11101627e-04   -7.76519285e-04
114      1.04912963e-06    1.63059098e+00    5.83617118e+00    5.83742455e+00    4.80671626e-07    7.83568397e-07    7.57260845e-04    6.94931136e-04   -7.57741520e-04
115      1.05873718e-06    1.60536124e+00    5.85047129e+00    5.85170661e+00    4.44481550e-07    7.79872590e-07    7.38745039e-04    6.78929853e-04   -7.39189524e-04
116      1.06834473e-06    1.58142245e+00    5.86470300e+00    5.86592119e+00    4.76246589e-07    7.52837128e-07    7.20569014e-04    6.63124865e-04   -7.21045264e-04
117      1.07795229e-06    1.55866705e+00    5.87886615e+00    5.88006778e+00    4.40046524e-07    7.50626765e-07    7.02681478e-04    6.47506647e-04   -7.03121528e-04
