Index        TIME             V(2A)        {V(2A)/V(2B)}    {I(R1)/I(R2)}        V(2C)        {V(2C)/V(2D)}    {I(R3)/I(R4)}
0       0.00000000e+00   9.36181881e-01   1.00000000e+00   1.00000000e+00   1.58280689e+00   1.00000000e+00   1.00000000e+00   
1       1.00000000e-10   9.36181868e-01   1.00000000e+00   1.00000000e+00   1.58280689e+00   1.00000000e+00   1.00000000e+00   
2       3.00000000e-10   9.36181868e-01   1.00000000e+00   1.00000000e+00   1.58280689e+00   1.00000000e+00   1.00000000e+00   
3       7.00000000e-10   9.36181868e-01   1.00000000e+00   1.00000000e+00   1.58280689e+00   1.00000000e+00   1.00000000e+00   
4       1.50000000e-09   9.36181868e-01   1.00000000e+00   1.00000000e+00   1.58280689e+00   1.00000000e+00   1.00000000e+00   
5       3.10000000e-09   9.36181868e-01   1.00000000e+00   1.00000000e+00   1.58280689e+00   1.00000000e+00   1.00000000e+00   
6       6.30000000e-09   9.36181868e-01   1.00000000e+00   1.00000000e+00   1.58280689e+00   1.00000000e+00   1.00000000e+00   
7       1.27000000e-08   9.36181868e-01   1.00000000e+00   1.00000000e+00   1.58280689e+00   1.00000000e+00   1.00000000e+00   
8       2.55000000e-08   9.36181868e-01   1.00000000e+00   1.00000000e+00   1.58280689e+00   1.00000000e+00   1.00000000e+00   
9       5.11000000e-08   9.36181868e-01   1.00000000e+00   1.00000000e+00   1.58280689e+00   1.00000000e+00   1.00000000e+00   
10      1.02300000e-07   9.36181868e-01   1.00000000e+00   1.00000000e+00   1.58280689e+00   1.00000000e+00   1.00000000e+00   
11      2.04700000e-07   9.36181868e-01   1.00000000e+00   1.00000000e+00   1.58280689e+00   1.00000000e+00   1.00000000e+00   
12      4.09500000e-07   9.36181868e-01   1.00000000e+00   1.00000000e+00   1.58280689e+00   1.00000000e+00   1.00000000e+00   
13      8.19100000e-07   9.36181868e-01   1.00000000e+00   1.00000000e+00   1.58280689e+00   1.00000000e+00   1.00000000e+00   
14      1.63830000e-06   9.36181868e-01   1.00000000e+00   1.00000000e+00   1.58280689e+00   1.00000000e+00   1.00000000e+00   
15      3.27670000e-06   9.36181868e-01   1.00000000e+00   1.00000000e+00   1.58280689e+00   1.00000000e+00   1.00000000e+00   
16      6.55350000e-06   9.36181868e-01   1.00000000e+00   1.00000000e+00   1.58280689e+00   1.00000000e+00   1.00000000e+00   
17      1.15535000e-05   9.36181868e-01   1.00000000e+00   1.00000000e+00   1.58280689e+00   1.00000000e+00   1.00000000e+00   
18      1.65535000e-05   9.36181868e-01   1.00000000e+00   1.00000000e+00   1.58280689e+00   1.00000000e+00   1.00000000e+00   
19      2.15535000e-05   9.36181868e-01   1.00000000e+00   1.00000000e+00   1.58280689e+00   1.00000000e+00   1.00000000e+00   
20      2.65535000e-05   9.36181868e-01   1.00000000e+00   1.00000000e+00   1.58280689e+00   1.00000000e+00   1.00000000e+00   
21      3.15535000e-05   9.36181868e-01   1.00000000e+00   1.00000000e+00   1.58280689e+00   1.00000000e+00   1.00000000e+00   
22      3.65535000e-05   9.36181868e-01   1.00000000e+00   1.00000000e+00   1.58280689e+00   1.00000000e+00   1.00000000e+00   
23      4.15535000e-05   9.36181868e-01   1.00000000e+00   1.00000000e+00   1.58280689e+00   1.00000000e+00   1.00000000e+00   
24      4.65535000e-05   9.36181868e-01   1.00000000e+00   1.00000000e+00   1.58280689e+00   1.00000000e+00   1.00000000e+00   
25      5.00000000e-05   9.36181868e-01   1.00000000e+00   1.00000000e+00   1.58280689e+00   1.00000000e+00   1.00000000e+00   
26      5.00005000e-05   9.34633656e-01   1.00000000e+00   1.00000000e+00   1.57671189e+00   1.00000000e+00   1.00000000e+00   
27      5.00015000e-05   9.31448268e-01   1.00000000e+00   1.00000000e+00   1.56444124e+00   1.00000000e+00   1.00000000e+00   
28      5.00035000e-05   9.25028290e-01   1.00000000e+00   1.00000000e+00   1.53985127e+00   1.00000000e+00   1.00000000e+00   
29      5.00075000e-05   9.12117604e-01   1.00000000e+00   1.00000000e+00   1.49060930e+00   1.00000000e+00   1.00000000e+00   
30      5.00155000e-05   8.86002610e-01   1.00000000e+00   1.00000000e+00   1.39187957e+00   1.00000000e+00   1.00000000e+00   
31      5.00315000e-05   8.32174567e-01   1.00000000e+00   1.00000000e+00   1.19308652e+00   1.00000000e+00   1.00000000e+00   
32      5.00499870e-05   7.64616318e-01   1.00000000e+00   1.00000000e+00   9.58944598e-01   1.00000000e+00   1.00000000e+00   
33      5.00614601e-05   7.15369767e-01   1.00000000e+00   1.00000000e+00   8.07673090e-01   1.00000000e+00   1.00000000e+00   
34      5.00676525e-05   6.82212578e-01   1.00000000e+00   1.00000000e+00   7.20887711e-01   1.00000000e+00   1.00000000e+00   
35      5.00715978e-05   6.55425040e-01   1.00000000e+00   1.00000000e+00   6.61398520e-01   1.00000000e+00   1.00000000e+00   
36      5.00732275e-05   6.42689248e-01   1.00000000e+00   1.00000000e+00   6.35636976e-01   1.00000000e+00   1.00000000e+00   
37      5.00748573e-05   6.28019157e-01   1.00000000e+00   1.00000000e+00   6.08517502e-01   1.00000000e+00   1.00000000e+00   
38      5.00761530e-05   6.14875701e-01   1.00000000e+00   1.00000000e+00   5.85930152e-01   1.00000000e+00   1.00000000e+00   
39      5.00774487e-05   6.00041741e-01   1.00000000e+00   1.00000000e+00   5.62177403e-01   1.00000000e+00   1.00000000e+00   
40      5.00787444e-05   5.83295282e-01   1.00000000e+00   1.00000000e+00   5.37107827e-01   1.00000000e+00   1.00000000e+00   
41      5.00800401e-05   5.64431931e-01   1.00000000e+00   1.00000000e+00   5.10575321e-01   1.00000000e+00   1.00000000e+00   
42      5.00813358e-05   5.43278973e-01   1.00000000e+00   1.00000000e+00   4.82449191e-01   1.00000000e+00   1.00000000e+00   
43      5.00826315e-05   5.19697476e-01   1.00000000e+00   1.00000000e+00   4.52618841e-01   1.00000000e+00   1.00000000e+00   
44      5.00839272e-05   4.93573282e-01   1.00000000e+00   1.00000000e+00   4.20992029e-01   1.00000000e+00   1.00000000e+00   
45      5.00852229e-05   4.64801908e-01   1.00000000e+00   1.00000000e+00   3.87488055e-01   1.00000000e+00   1.00000000e+00   
46      5.00865186e-05   4.33292026e-01   1.00000000e+00   1.00000000e+00   3.52029187e-01   1.00000000e+00   1.00000000e+00   
47      5.00878142e-05   3.98989390e-01   1.00000000e+00   1.00000000e+00   3.14551478e-01   1.00000000e+00   1.00000000e+00   
48      5.00891099e-05   3.61853144e-01   1.00000000e+00   1.00000000e+00   2.75011974e-01   1.00000000e+00   1.00000000e+00   
49      5.00904056e-05   3.21851477e-01   1.00000000e+00   1.00000000e+00   2.33373714e-01   1.00000000e+00   1.00000000e+00   
50      5.00917013e-05   2.78962422e-01   1.00000000e+00   1.00000000e+00   1.89604653e-01   1.00000000e+00   1.00000000e+00   
51      5.00929970e-05   2.33175092e-01   1.00000000e+00   1.00000000e+00   1.43678142e-01   1.00000000e+00   1.00000000e+00   
52      5.00942927e-05   1.84490904e-01   1.00000000e+00   1.00000000e+00   9.55737194e-02   1.00000000e+00   1.00000000e+00   
53      5.00955884e-05   1.32924548e-01   1.00000000e+00   1.00000000e+00   4.52779390e-02   1.00000000e+00   1.00000000e+00   
54      5.00966660e-05   8.79492061e-02   1.00000000e+00   1.00000000e+00   1.85116210e-03   1.00000000e+00   1.00000000e+00   
55      5.00968739e-05   7.91136138e-02   1.00000000e+00   1.00000000e+00   -6.64216791e-03  1.00000000e+00   1.00000000e+00   
56      5.00970818e-05   7.02039366e-02   1.00000000e+00   1.00000000e+00   -1.51929664e-02  1.00000000e+00   1.00000000e+00   
57      5.00972897e-05   6.12203749e-02   1.00000000e+00   1.00000000e+00   -2.38012112e-02  1.00000000e+00   1.00000000e+00   
58      5.00977055e-05   4.30014259e-02   1.00000000e+00   1.00000000e+00   -4.12180194e-02  1.00000000e+00   1.00000000e+00   
59      5.00981213e-05   2.44909148e-02   1.00000000e+00   1.00000000e+00   -5.88634478e-02  1.00000000e+00   1.00000000e+00   
60      5.00985371e-05   5.69080238e-03   1.00000000e+00   1.00000000e+00   -7.67370975e-02  1.00000000e+00   1.00000000e+00   
61      5.00988148e-05   -7.01357303e-03  1.00000000e+00   1.00000000e+00   -8.87900160e-02  1.00000000e+00   1.00000000e+00   
62      5.00990925e-05   -1.98459336e-02  1.00000000e+00   1.00000000e+00   -1.00944586e-01  1.00000000e+00   1.00000000e+00   
63      5.00993702e-05   -3.28055839e-02  1.00000000e+00   1.00000000e+00   -1.13200618e-01  1.00000000e+00   1.00000000e+00   
64      5.00996478e-05   -4.58917986e-02  1.00000000e+00   1.00000000e+00   -1.25557904e-01  1.00000000e+00   1.00000000e+00   
65      5.00997536e-05   -5.09036034e-02  1.00000000e+00   1.00000000e+00   -1.30285660e-01  1.00000000e+00   1.00000000e+00   
66      5.00998594e-05   -5.59336901e-02  1.00000000e+00   1.00000000e+00   -1.35028101e-01  1.00000000e+00   1.00000000e+00   
67      5.01000000e-05   -6.26512012e-02  1.00000000e+00   1.00000000e+00   -1.41357629e-01  1.00000000e+00   1.00000000e+00   
68      5.01001058e-05   -6.73909220e-02  1.00000000e+00   1.00000000e+00   -1.44844410e-01  1.00000000e+00   1.00000000e+00   
69      5.01003173e-05   -7.68088003e-02  1.00000000e+00   1.00000000e+00   -1.51785577e-01  1.00000000e+00   1.00000000e+00   
70      5.01007404e-05   -9.53969699e-02  1.00000000e+00   1.00000000e+00   -1.65536836e-01  1.00000000e+00   1.00000000e+00   
71      5.01011634e-05   -1.13776536e-01  1.00000000e+00   1.00000000e+00   -1.79184772e-01  1.00000000e+00   1.00000000e+00   
72      5.01015865e-05   -1.31941617e-01  1.00000000e+00   1.00000000e+00   -1.92725188e-01  1.00000000e+00   1.00000000e+00   
73      5.01020095e-05   -1.49886785e-01  1.00000000e+00   1.00000000e+00   -2.06154106e-01  1.00000000e+00   1.00000000e+00   
74      5.01024326e-05   -1.67607095e-01  1.00000000e+00   1.00000000e+00   -2.19467776e-01  1.00000000e+00   1.00000000e+00   
75      5.01028556e-05   -1.85098062e-01  1.00000000e+00   1.00000000e+00   -2.32662668e-01  1.00000000e+00   1.00000000e+00   
76      5.01032787e-05   -2.02355631e-01  1.00000000e+00   1.00000000e+00   -2.45735466e-01  1.00000000e+00   1.00000000e+00   
77      5.01041248e-05   -2.35802255e-01  1.00000000e+00   1.00000000e+00   -2.71283926e-01  1.00000000e+00   1.00000000e+00   
78      5.01049709e-05   -2.68293283e-01  1.00000000e+00   1.00000000e+00   -2.96315594e-01  1.00000000e+00   1.00000000e+00   
79      5.01058171e-05   -2.99811987e-01  1.00000000e+00   1.00000000e+00   -3.20812070e-01  1.00000000e+00   1.00000000e+00   
80      5.01066632e-05   -3.30347071e-01  1.00000000e+00   1.00000000e+00   -3.44757875e-01  1.00000000e+00   1.00000000e+00   
81      5.01075093e-05   -3.59892215e-01  1.00000000e+00   1.00000000e+00   -3.68140286e-01  1.00000000e+00   1.00000000e+00   
82      5.01083554e-05   -3.88445445e-01  1.00000000e+00   1.00000000e+00   -3.90949094e-01  1.00000000e+00   1.00000000e+00   
83      5.01092015e-05   -4.16009251e-01  1.00000000e+00   1.00000000e+00   -4.13176683e-01  1.00000000e+00   1.00000000e+00   
84      5.01108938e-05   -4.67066839e-01  1.00000000e+00   1.00000000e+00   -4.55109409e-01  1.00000000e+00   1.00000000e+00   
85      5.01125860e-05   -5.14429821e-01  1.00000000e+00   1.00000000e+00   -4.94751159e-01  1.00000000e+00   1.00000000e+00   
86      5.01142782e-05   -5.58219818e-01  1.00000000e+00   1.00000000e+00   -5.32113408e-01  1.00000000e+00   1.00000000e+00   
87      5.01159705e-05   -5.98585630e-01  1.00000000e+00   1.00000000e+00   -5.67229612e-01  1.00000000e+00   1.00000000e+00   
88      5.01176627e-05   -6.35695235e-01  1.00000000e+00   1.00000000e+00   -6.00151157e-01  1.00000000e+00   1.00000000e+00   
89      5.01193549e-05   -6.69729038e-01  1.00000000e+00   1.00000000e+00   -6.30943707e-01  1.00000000e+00   1.00000000e+00   
90      5.01210472e-05   -7.00874295e-01  1.00000000e+00   1.00000000e+00   -6.59683948e-01  1.00000000e+00   1.00000000e+00   
91      5.01227394e-05   -7.29320598e-01  1.00000000e+00   1.00000000e+00   -6.86456729e-01  1.00000000e+00   1.00000000e+00   
92      5.01244316e-05   -7.55256286e-01  1.00000000e+00   1.00000000e+00   -7.11352588e-01  1.00000000e+00   1.00000000e+00   
93      5.01261239e-05   -7.78865675e-01  1.00000000e+00   1.00000000e+00   -7.34465644e-01  1.00000000e+00   1.00000000e+00   
94      5.01278161e-05   -8.00326974e-01  1.00000000e+00   1.00000000e+00   -7.55891821e-01  1.00000000e+00   1.00000000e+00   
95      5.01295084e-05   -8.19810782e-01  1.00000000e+00   1.00000000e+00   -7.75727373e-01  1.00000000e+00   1.00000000e+00   
96      5.01312006e-05   -8.37479063e-01  1.00000000e+00   1.00000000e+00   -7.94067686e-01  1.00000000e+00   1.00000000e+00   
97      5.01328928e-05   -8.53484511e-01  1.00000000e+00   1.00000000e+00   -8.11006315e-01  1.00000000e+00   1.00000000e+00   
98      5.01345851e-05   -8.67970218e-01  1.00000000e+00   1.00000000e+00   -8.26634236e-01  1.00000000e+00   1.00000000e+00   
99      5.01362773e-05   -8.81069596e-01  1.00000000e+00   1.00000000e+00   -8.41039265e-01  1.00000000e+00   1.00000000e+00   
100     5.01379695e-05   -8.92906481e-01  1.00000000e+00   1.00000000e+00   -8.54305648e-01  1.00000000e+00   1.00000000e+00   
101     5.01396618e-05   -9.03595380e-01  1.00000000e+00   1.00000000e+00   -8.66513765e-01  1.00000000e+00   1.00000000e+00   
102     5.01413540e-05   -9.13241813e-01  1.00000000e+00   1.00000000e+00   -8.77739950e-01  1.00000000e+00   1.00000000e+00   
103     5.01430462e-05   -9.21942740e-01  1.00000000e+00   1.00000000e+00   -8.88056396e-01  1.00000000e+00   1.00000000e+00   
104     5.01447385e-05   -9.29787022e-01  1.00000000e+00   1.00000000e+00   -8.97531131e-01  1.00000000e+00   1.00000000e+00   
105     5.01464307e-05   -9.36855913e-01  1.00000000e+00   1.00000000e+00   -9.06228058e-01  1.00000000e+00   1.00000000e+00   
106     5.01481229e-05   -9.43223560e-01  1.00000000e+00   1.00000000e+00   -9.14207029e-01  1.00000000e+00   1.00000000e+00   
107     5.01498152e-05   -9.48957508e-01  1.00000000e+00   1.00000000e+00   -9.21523964e-01  1.00000000e+00   1.00000000e+00   
108     5.01515074e-05   -9.54119190e-01  1.00000000e+00   1.00000000e+00   -9.28230989e-01  1.00000000e+00   1.00000000e+00   
109     5.01531997e-05   -9.58764400e-01  1.00000000e+00   1.00000000e+00   -9.34376599e-01  1.00000000e+00   1.00000000e+00   
110     5.01548919e-05   -9.62943750e-01  1.00000000e+00   1.00000000e+00   -9.40005825e-01  1.00000000e+00   1.00000000e+00   
111     5.01565841e-05   -9.66703098e-01  1.00000000e+00   1.00000000e+00   -9.45160415e-01  1.00000000e+00   1.00000000e+00   
112     5.01582764e-05   -9.70083958e-01  1.00000000e+00   1.00000000e+00   -9.49879017e-01  1.00000000e+00   1.00000000e+00   
113     5.01599686e-05   -9.73123874e-01  1.00000000e+00   1.00000000e+00   -9.54197362e-01  1.00000000e+00   1.00000000e+00   
114     5.01616608e-05   -9.75856775e-01  1.00000000e+00   1.00000000e+00   -9.58148446e-01  1.00000000e+00   1.00000000e+00   
115     5.01633531e-05   -9.78313303e-01  1.00000000e+00   1.00000000e+00   -9.61762703e-01  1.00000000e+00   1.00000000e+00   
116     5.01650453e-05   -9.80521111e-01  1.00000000e+00   1.00000000e+00   -9.65068180e-01  1.00000000e+00   1.00000000e+00   
117     5.01667375e-05   -9.82505145e-01  1.00000000e+00   1.00000000e+00   -9.68090700e-01  1.00000000e+00   1.00000000e+00   
118     5.01684298e-05   -9.84287892e-01  1.00000000e+00   1.00000000e+00   -9.70854021e-01  1.00000000e+00   1.00000000e+00   
119     5.01701220e-05   -9.85889620e-01  1.00000000e+00   1.00000000e+00   -9.73379981e-01  1.00000000e+00   1.00000000e+00   
120     5.01718142e-05   -9.87328583e-01  1.00000000e+00   1.00000000e+00   -9.75688646e-01  1.00000000e+00   1.00000000e+00   
121     5.01735065e-05   -9.88621221e-01  1.00000000e+00   1.00000000e+00   -9.77798439e-01  1.00000000e+00   1.00000000e+00   
122     5.01751987e-05   -9.89782332e-01  1.00000000e+00   1.00000000e+00   -9.79726266e-01  1.00000000e+00   1.00000000e+00   
123     5.01768910e-05   -9.90825233e-01  1.00000000e+00   1.00000000e+00   -9.81487632e-01  1.00000000e+00   1.00000000e+00   
124     5.01785832e-05   -9.91761907e-01  1.00000000e+00   1.00000000e+00   -9.83096755e-01  1.00000000e+00   1.00000000e+00   
125     5.01802754e-05   -9.92603131e-01  1.00000000e+00   1.00000000e+00   -9.84566663e-01  1.00000000e+00   1.00000000e+00   
126     5.01819677e-05   -9.93358596e-01  1.00000000e+00   1.00000000e+00   -9.85909291e-01  1.00000000e+00   1.00000000e+00   
127     5.01836599e-05   -9.94037019e-01  1.00000000e+00   1.00000000e+00   -9.87135571e-01  1.00000000e+00   1.00000000e+00   
128     5.01853521e-05   -9.94646233e-01  1.00000000e+00   1.00000000e+00   -9.88255508e-01  1.00000000e+00   1.00000000e+00   
129     5.01870444e-05   -9.95193281e-01  1.00000000e+00   1.00000000e+00   -9.89278262e-01  1.00000000e+00   1.00000000e+00   
130     5.01887366e-05   -9.95684492e-01  1.00000000e+00   1.00000000e+00   -9.90212213e-01  1.00000000e+00   1.00000000e+00   
131     5.01904288e-05   -9.96125553e-01  1.00000000e+00   1.00000000e+00   -9.91065027e-01  1.00000000e+00   1.00000000e+00   
132     5.01921211e-05   -9.96521575e-01  1.00000000e+00   1.00000000e+00   -9.91843718e-01  1.00000000e+00   1.00000000e+00   
133     5.01938133e-05   -9.96877150e-01  1.00000000e+00   1.00000000e+00   -9.92554698e-01  1.00000000e+00   1.00000000e+00   
134     5.01955055e-05   -9.97196402e-01  1.00000000e+00   1.00000000e+00   -9.93203827e-01  1.00000000e+00   1.00000000e+00   
135     5.01971978e-05   -9.97483038e-01  1.00000000e+00   1.00000000e+00   -9.93796467e-01  1.00000000e+00   1.00000000e+00   
136     5.01988900e-05   -9.97740384e-01  1.00000000e+00   1.00000000e+00   -9.94337516e-01  1.00000000e+00   1.00000000e+00   
137     5.02005822e-05   -9.97971432e-01  1.00000000e+00   1.00000000e+00   -9.94831449e-01  1.00000000e+00   1.00000000e+00   
138     5.02022745e-05   -9.98178866e-01  1.00000000e+00   1.00000000e+00   -9.95282358e-01  1.00000000e+00   1.00000000e+00   
139     5.02039667e-05   -9.98365096e-01  1.00000000e+00   1.00000000e+00   -9.95693980e-01  1.00000000e+00   1.00000000e+00   
140     5.02056590e-05   -9.98532290e-01  1.00000000e+00   1.00000000e+00   -9.96069730e-01  1.00000000e+00   1.00000000e+00   
141     5.02073512e-05   -9.98682391e-01  1.00000000e+00   1.00000000e+00   -9.96412726e-01  1.00000000e+00   1.00000000e+00   
142     5.02107357e-05   -9.98926898e-01  1.00000000e+00   1.00000000e+00   -9.96988665e-01  1.00000000e+00   1.00000000e+00   
143     5.02141201e-05   -9.99126042e-01  1.00000000e+00   1.00000000e+00   -9.97472204e-01  1.00000000e+00   1.00000000e+00   
144     5.02175046e-05   -9.99288235e-01  1.00000000e+00   1.00000000e+00   -9.97878147e-01  1.00000000e+00   1.00000000e+00   
145     5.02208891e-05   -9.99420332e-01  1.00000000e+00   1.00000000e+00   -9.98218933e-01  1.00000000e+00   1.00000000e+00   
146     5.02242735e-05   -9.99527915e-01  1.00000000e+00   1.00000000e+00   -9.98505009e-01  1.00000000e+00   1.00000000e+00   
147     5.02276580e-05   -9.99615534e-01  1.00000000e+00   1.00000000e+00   -9.98745152e-01  1.00000000e+00   1.00000000e+00   
148     5.02310425e-05   -9.99686892e-01  1.00000000e+00   1.00000000e+00   -9.98946732e-01  1.00000000e+00   1.00000000e+00   
149     5.02344270e-05   -9.99745006e-01  1.00000000e+00   1.00000000e+00   -9.99115939e-01  1.00000000e+00   1.00000000e+00   
150     5.02378114e-05   -9.99792335e-01  1.00000000e+00   1.00000000e+00   -9.99257968e-01  1.00000000e+00   1.00000000e+00   
151     5.02411959e-05   -9.99830879e-01  1.00000000e+00   1.00000000e+00   -9.99377184e-01  1.00000000e+00   1.00000000e+00   
152     5.02445804e-05   -9.99862270e-01  1.00000000e+00   1.00000000e+00   -9.99477249e-01  1.00000000e+00   1.00000000e+00   
153     5.02479648e-05   -9.99887834e-01  1.00000000e+00   1.00000000e+00   -9.99561239e-01  1.00000000e+00   1.00000000e+00   
154     5.02513493e-05   -9.99908653e-01  1.00000000e+00   1.00000000e+00   -9.99631736e-01  1.00000000e+00   1.00000000e+00   
