Index       TIME              V(3)              V(4)        N(YMIN!KTRANS1_H) N(YMIN!KTRANS1_B) N(YMIN!KTRANS1_LP1_BRANCH)
0        0.00000000e+00    0.00000000e+00    0.00000000e+00    0.00000000e+00    0.00000000e+00    0.00000000e+00
1        1.00000000e-10    1.57055009e-03    6.28220036e-04    1.54714906e-08    3.12582311e-06    2.46236421e-10
2        3.00000000e-10    4.71066563e-03    1.88426625e-03    1.08281033e-07    2.18768424e-05    1.72334616e-09
3        5.00000000e-10    7.85028894e-03    3.14011557e-03    2.32019005e-07    4.68765685e-05    3.69269715e-09
4        9.00000000e-10    1.41265830e-02    5.65063321e-03    6.65007328e-07    1.34356509e-04    1.05839203e-08
5        1.70000000e-09    2.66673704e-02    1.06669481e-02    2.27245174e-06    4.59120891e-04    3.61671928e-08
6        3.30000000e-09    5.17018157e-02    2.06807263e-02    8.44856117e-06    1.70692937e-03    1.34463027e-07
7        6.50000000e-09    1.01582780e-01    4.06331120e-02    3.26085146e-05    6.58818008e-03    5.18980628e-07
8        9.70000000e-09    1.51214120e-01    6.04856480e-02    7.24527563e-05    1.46383373e-02    1.15312143e-06
9        1.29000000e-08    2.00597093e-01    8.02388372e-02    1.27902258e-04    2.58415434e-02    2.03562765e-06
10       1.93000000e-08    2.98623581e-01    1.19449432e-01    2.85262361e-04    5.76362839e-02    4.54009148e-06
11       2.57000000e-08    3.95671637e-01    1.58268655e-01    5.04098420e-04    1.01855092e-01    8.02297553e-06
12       3.21000000e-08    4.91751254e-01    1.96700502e-01    7.83782197e-04    1.58373988e-01    1.24742811e-05
13       4.49000000e-08    6.81049817e-01    2.72419927e-01    1.52288702e-03    3.07762708e-01    2.42374997e-05
14       5.77000000e-08    8.66593237e-01    3.46637295e-01    2.49792724e-03    5.04898231e-01    3.97557467e-05
15       7.05000000e-08    1.04845976e+00    4.19383904e-01    3.70398455e-03    7.48834113e-01    5.89507451e-05
16       8.33000000e-08    1.22672686e+00    4.90690744e-01    5.13618896e-03    1.03864379e+00    8.17449862e-05
17       9.61000000e-08    1.40147119e+00    5.60588476e-01    6.78972226e-03    1.37342039e+00    1.08061786e-04
18       1.08900000e-07    1.57276853e+00    6.29107411e-01    8.65982126e-03    1.75227648e+00    1.37825336e-04
19       1.34500000e-07    1.90535667e+00    7.62142668e-01    1.30286939e-02    2.63836255e+00    2.07358103e-04
20       1.60100000e-07    2.22504006e+00    8.90016023e-01    1.82083103e-02    3.69062959e+00    2.89794259e-04
21       1.85700000e-07    2.53238970e+00    1.01295588e+00    2.41627768e-02    4.90265196e+00    3.84562537e-04
22       2.11300000e-07    2.82795953e+00    1.13118381e+00    3.08572714e-02    6.26829100e+00    4.91108728e-04
23       2.36900000e-07    3.11228583e+00    1.24491433e+00    3.82580839e-02    7.78168600e+00    6.08896317e-04
24       2.62500000e-07    3.38588666e+00    1.35435467e+00    4.63326457e-02    9.43724506e+00    7.37406958e-04
25       2.88100000e-07    3.64926163e+00    1.45970465e+00    5.50495500e-02    1.12296357e+01    8.76140799e-04
26       3.13700000e-07    3.90289165e+00    1.56115666e+00    6.43785635e-02    1.31537751e+01    1.02461666e-03
27       3.39300000e-07    4.14723892e+00    1.65889557e+00    7.42906294e-02    1.52048210e+01    1.18237209e-03
28       3.64900000e-07    4.38274695e+00    1.75309878e+00    8.47578641e-02    1.73781617e+01    1.34896330e-03
29       4.16100000e-07    4.82911790e+00    1.93164716e+00    1.07240117e-01    2.20724368e+01    1.70677947e-03
30       4.67300000e-07    5.24496408e+00    2.09798563e+00    1.31639235e-01    2.72062743e+01    2.09510350e-03
31       5.18500000e-07    5.63319140e+00    2.25327656e+00    1.57772503e-01    3.27500850e+01    2.51102738e-03
32       5.69700000e-07    5.99643956e+00    2.39857582e+00    1.85473936e-01    3.86771027e+01    2.95190937e-03
33       6.20900000e-07    6.33709855e+00    2.53483942e+00    2.14593232e-01    4.49631209e+01    3.41535737e-03
34       6.72100000e-07    6.65732651e+00    2.66293060e+00    2.44994663e-01    5.15862471e+01    3.89921116e-03
35       7.23300000e-07    6.95906796e+00    2.78362718e+00    2.76555919e-01    5.85266764e+01    4.40152416e-03
36       7.74500000e-07    7.24407187e+00    2.89762875e+00    3.09166979e-01    6.57664827e+01    4.92054530e-03
37       8.25700000e-07    7.51390927e+00    3.00556371e+00    3.42729002e-01    7.32894288e+01    5.45470148e-03
38       9.28100000e-07    8.01413127e+00    3.20565251e+00    4.12325484e-01    8.91214204e+01    6.56236390e-03
39       1.03050000e-06    8.46860583e+00    3.38744233e+00    4.84786885e-01    1.05928192e+02    7.71562290e-03
40       1.13290000e-06    8.88510891e+00    3.55404356e+00    5.59623580e-01    1.23624500e+02    8.90668590e-03
41       1.23530000e-06    9.26988427e+00    3.70795371e+00    6.36442217e-01    1.42139360e+02    1.01292925e-02
42       1.33770000e-06    9.62795154e+00    3.85118061e+00    7.14926359e-01    1.61413246e+02    1.13784064e-02
43       1.54250000e-06    1.02806430e+01    4.11225719e+00    8.75838868e-01    2.02027157e+02    1.39394085e-02
44       1.95210000e-06    1.14026031e+01    4.56104124e+00    1.20899133e+00    2.90512767e+02    1.92416947e-02
45       2.36170000e-06    1.23511787e+01    4.94047150e+00    1.55271905e+00    3.87468849e+02    2.47122912e-02
46       2.77130000e-06    1.31815258e+01    5.27261030e+00    1.90348968e+00    4.91704444e+02    3.02949792e-02
47       3.59050000e-06    1.45836332e+01    5.83345326e+00    2.61985482e+00    7.18449263e+02    4.16962845e-02
48       4.40970000e-06    1.56950495e+01    6.27801980e+00    3.35214260e+00    9.65769145e+02    5.33510065e-02
49       5.22890000e-06    1.65535478e+01    6.62141912e+00    4.09744844e+00    1.22921371e+03    6.52129173e-02
50       6.86730000e-06    1.76024842e+01    7.04099370e+00    5.61930068e+00    1.78732342e+03    8.94339480e-02
51       8.50570000e-06    1.78660965e+01    7.14643860e+00    7.17268256e+00    2.36690678e+03    1.14156788e-01
52       1.01441000e-05    1.75066531e+01    7.00266122e+00    8.74324001e+00    2.94490309e+03    1.39152987e-01
53       1.17825000e-05    1.66958053e+01    6.67832212e+00    1.03160876e+01    3.50372308e+03    1.64185634e-01
54       1.34209000e-05    1.55968412e+01    6.23873650e+00    1.18769346e+01    4.03126457e+03    1.89027285e-01
55       1.50593000e-05    1.43482191e+01    5.73928764e+00    1.34131299e+01    4.52036755e+03    2.13476593e-01
56       1.66977000e-05    1.30546712e+01    5.22186849e+00    1.49142318e+01    4.96785427e+03    2.37367372e-01
57       1.83361000e-05    1.17866951e+01    4.71467804e+00    1.63720500e+01    5.37341571e+03    2.60569269e-01
58       1.99745000e-05    1.05859868e+01    4.23439473e+00    1.77803143e+01    5.73857917e+03    2.82982491e-01
59       2.16129000e-05    9.47322078e+00    3.78928831e+00    1.91341953e+01    6.06589236e+03    3.04530176e-01
60       2.32513000e-05    8.45536761e+00    3.38214704e+00    2.04298541e+01    6.35835497e+03    3.25151227e-01
61       2.48897000e-05    7.53127024e+00    3.01250810e+00    2.16641009e+01    6.61906131e+03    3.44794875e-01
62       2.65281000e-05    6.69537703e+00    2.67815081e+00    2.28341692e+01    6.85099533e+03    3.63417090e-01
63       2.81665000e-05    5.94004621e+00    2.37601848e+00    2.39375789e+01    7.05692456e+03    3.80978400e-01
64       2.98049000e-05    5.25689354e+00    2.10275742e+00    2.49720598e+01    7.23935374e+03    3.97442676e-01
65       3.14433000e-05    4.63754432e+00    1.85501773e+00    2.59355118e+01    7.40051287e+03    4.12776491e-01
66       3.30817000e-05    4.07402732e+00    1.62961093e+00    2.68259869e+01    7.54236397e+03    4.26948841e-01
67       3.47201000e-05    3.55895793e+00    1.42358317e+00    2.76416840e+01    7.66661736e+03    4.39931065e-01
68       3.63585000e-05    3.08559950e+00    1.23423980e+00    2.83809517e+01    7.77475181e+03    4.51696876e-01
69       3.79969000e-05    2.64785607e+00    1.05914243e+00    2.90422936e+01    7.86803571e+03    4.62222459e-01
70       3.96353000e-05    2.24022828e+00    8.96091312e-01    2.96243764e+01    7.94754732e+03    4.71486593e-01
71       4.12737000e-05    1.85775089e+00    7.43100358e-01    3.01260379e+01    8.01419325e+03    4.79470785e-01
72       4.29121000e-05    1.49592294e+00    5.98369175e-01    3.05462961e+01    8.06872487e+03    4.86159401e-01
73       4.45505000e-05    1.15063636e+00    4.60254546e-01    3.08843559e+01    8.11175228e+03    4.91539790e-01
74       4.61889000e-05    8.18106530e-01    3.27242612e-01    3.11396172e+01    8.14375611e+03    4.95602400e-01
75       4.78273000e-05    4.94805942e-01    1.97922377e-01    3.13116809e+01    8.16509697e+03    4.98340879e-01
76       4.94657000e-05    1.77401840e-01    7.09607361e-02    3.14003544e+01    8.17602286e+03    4.99752161e-01
77       4.96705000e-05    1.44788745e-01    5.79154982e-02    3.14051460e+01    8.17661118e+03    4.99828423e-01
78       5.00801000e-05    6.13689757e-02    2.45475903e-02    3.14119711e+01    8.17744887e+03    4.99937048e-01
79       5.01313000e-05    5.18505895e-02    2.07402358e-02    3.14124014e+01    8.17750154e+03    4.99943896e-01
80       5.02337000e-05    3.15235337e-02    1.26094135e-02    3.14130991e+01    8.17758622e+03    4.99955001e-01
81       5.02593000e-05    2.65821996e-02    1.06328798e-02    3.14132140e+01    8.17759972e+03    4.99956828e-01
82       5.03105000e-05    1.63349428e-02    6.53397713e-03    3.14134055e+01    8.17762150e+03    4.99959877e-01
83       5.04129000e-05   -3.45131888e-03   -1.38052755e-03    3.14135004e+01    8.17763460e+03    4.99961386e-01
84       5.04257000e-05   -5.67177732e-03   -2.26871093e-03    3.14134735e+01    8.17763318e+03    4.99960958e-01
85       5.04513000e-05   -9.86173122e-03   -3.94469249e-03    3.14133887e+01    8.17762929e+03    4.99959609e-01
86       5.04577000e-05   -1.07700493e-02   -4.30801971e-03    3.14133556e+01    8.17762794e+03    4.99959082e-01
87       5.04705000e-05   -1.25064368e-02   -5.00257470e-03    3.14132805e+01    8.17762503e+03    4.99957887e-01
88       5.04737000e-05   -1.29006311e-02   -5.16025243e-03    3.14132584e+01    8.17762423e+03    4.99957535e-01
89       5.04801000e-05   -1.36689999e-02   -5.46759995e-03    3.14132120e+01    8.17762258e+03    4.99956797e-01
90       5.04929000e-05   -1.50591161e-02   -6.02364644e-03    3.14131063e+01    8.17761900e+03    4.99955115e-01
91       5.04961000e-05   -1.53689562e-02   -6.14758248e-03    3.14130767e+01    8.17761805e+03    4.99954644e-01
92       5.05025000e-05   -1.59716216e-02   -6.38864863e-03    3.14130155e+01    8.17761610e+03    4.99953669e-01
93       5.05153000e-05   -1.70522484e-02   -6.82089937e-03    3.14128814e+01    8.17761201e+03    4.99951536e-01
94       5.05185000e-05   -1.72909508e-02   -6.91638032e-03    3.14128452e+01    8.17761094e+03    4.99950958e-01
95       5.05249000e-05   -1.77560686e-02   -7.10242743e-03    3.14127709e+01    8.17760877e+03    4.99949776e-01
96       5.05377000e-05   -1.85904823e-02   -7.43619291e-03    3.14126124e+01    8.17760427e+03    4.99947254e-01
97       5.05409000e-05   -1.87748455e-02   -7.50993821e-03    3.14125705e+01    8.17760311e+03    4.99946587e-01
98       5.05473000e-05   -1.91359770e-02   -7.65439082e-03    3.14124852e+01    8.17760077e+03    4.99945230e-01
99       5.05601000e-05   -1.97893208e-02   -7.91572831e-03    3.14123065e+01    8.17759596e+03    4.99942386e-01
100      5.05633000e-05   -1.99347745e-02   -7.97390981e-03    3.14122600e+01    8.17759473e+03    4.99941644e-01
101      5.05697000e-05   -2.02219291e-02   -8.08877164e-03    3.14121656e+01    8.17759226e+03    4.99940143e-01
102      5.05825000e-05   -2.07486650e-02   -8.29946599e-03    3.14119700e+01    8.17758721e+03    4.99937031e-01
103      5.05857000e-05   -2.08673656e-02   -8.34694622e-03    3.14119196e+01    8.17758592e+03    4.99936227e-01
104      5.05921000e-05   -2.11038556e-02   -8.44154224e-03    3.14118176e+01    8.17758334e+03    4.99934604e-01
105      5.06049000e-05   -2.15447752e-02   -8.61791007e-03    3.14116077e+01    8.17757808e+03    4.99931264e-01
106      5.06081000e-05   -2.16455222e-02   -8.65820889e-03    3.14115539e+01    8.17757675e+03    4.99930407e-01
107      5.06145000e-05   -2.18480870e-02   -8.73923479e-03    3.14114453e+01    8.17757408e+03    4.99928679e-01
108      5.06273000e-05   -2.22318608e-02   -8.89274433e-03    3.14112230e+01    8.17756865e+03    4.99925141e-01
109      5.06529000e-05   -2.29344503e-02   -9.17378013e-03    3.14107591e+01    8.17755755e+03    4.99917758e-01
110      5.06593000e-05   -2.30885202e-02   -9.23540808e-03    3.14106386e+01    8.17755471e+03    4.99915840e-01
111      5.06721000e-05   -2.34107344e-02   -9.36429377e-03    3.14103947e+01    8.17754900e+03    4.99911958e-01
112      5.06753000e-05   -2.34867655e-02   -9.39470620e-03    3.14103326e+01    8.17754756e+03    4.99910970e-01
113      5.06817000e-05   -2.36426472e-02   -9.45705889e-03    3.14102078e+01    8.17754467e+03    4.99908983e-01
114      5.06945000e-05   -2.39477779e-02   -9.57911117e-03    3.14099539e+01    8.17753882e+03    4.99904942e-01
115      5.07201000e-05   -2.45375522e-02   -9.81502088e-03    3.14094296e+01    8.17752693e+03    4.99896597e-01
116      5.07265000e-05   -2.46721107e-02   -9.86884429e-03    3.14092945e+01    8.17752391e+03    4.99894448e-01
117      5.07393000e-05   -2.49591436e-02   -9.98365743e-03    3.14090217e+01    8.17751782e+03    4.99890106e-01
118      5.07425000e-05   -2.50277386e-02   -1.00110954e-02    3.14089525e+01    8.17751629e+03    4.99889005e-01
119      5.07489000e-05   -2.51694928e-02   -1.00677971e-02    3.14088134e+01    8.17751321e+03    4.99886791e-01
120      5.07617000e-05   -2.54503516e-02   -1.01801407e-02    3.14085313e+01    8.17750701e+03    4.99882302e-01
121      5.07873000e-05   -2.60036320e-02   -1.04014528e-02    3.14079514e+01    8.17749441e+03    4.99873072e-01
122      5.07937000e-05   -2.61314482e-02   -1.04525793e-02    3.14078026e+01    8.17749122e+03    4.99870703e-01
123      5.08065000e-05   -2.64060638e-02   -1.05624255e-02    3.14075023e+01    8.17748479e+03    4.99865924e-01
124      5.08097000e-05   -2.64719361e-02   -1.05887745e-02    3.14074263e+01    8.17748317e+03    4.99864714e-01
125      5.08161000e-05   -2.66084577e-02   -1.06433831e-02    3.14072736e+01    8.17747992e+03    4.99862284e-01
126      5.08289000e-05   -2.68800084e-02   -1.07520034e-02    3.14069642e+01    8.17747338e+03    4.99857361e-01
127      5.08545000e-05   -2.74183476e-02   -1.09673391e-02    3.14063300e+01    8.17746011e+03    4.99847267e-01
128      5.08609000e-05   -2.75431959e-02   -1.10172784e-02    3.14061677e+01    8.17745674e+03    4.99844683e-01
129      5.08737000e-05   -2.78122491e-02   -1.11248996e-02    3.14058404e+01    8.17744998e+03    4.99839475e-01
130      5.08993000e-05   -2.83462052e-02   -1.13384821e-02    3.14051704e+01    8.17743626e+03    4.99828811e-01
131      5.09505000e-05   -2.94038531e-02   -1.17615412e-02    3.14037688e+01    8.17740808e+03    4.99806503e-01
132      5.09633000e-05   -2.96357803e-02   -1.18543121e-02    3.14034036e+01    8.17740085e+03    4.99800692e-01
133      5.09665000e-05   -2.97013321e-02   -1.18805328e-02    3.14033120e+01    8.17739904e+03    4.99799234e-01
134      5.09729000e-05   -2.98371134e-02   -1.19348453e-02    3.14031281e+01    8.17739541e+03    4.99796307e-01
135      5.09857000e-05   -3.01067338e-02   -1.20426935e-02    3.14027565e+01    8.17738811e+03    4.99790392e-01
136      5.10113000e-05   -3.06405273e-02   -1.22562109e-02    3.14019976e+01    8.17737331e+03    4.99778314e-01
137      5.10625000e-05   -3.16973909e-02   -1.26789564e-02    3.14004182e+01    8.17734295e+03    4.99753177e-01
138      5.10753000e-05   -3.19295147e-02   -1.27718059e-02    3.14000086e+01    8.17733518e+03    4.99746658e-01
139      5.11009000e-05   -3.24702313e-02   -1.29880925e-02    3.13991791e+01    8.17731951e+03    4.99733456e-01
140      5.11073000e-05   -3.25952727e-02   -1.30381091e-02    3.13989679e+01    8.17731555e+03    4.99730094e-01
141      5.11201000e-05   -3.28647184e-02   -1.31458874e-02    3.13985429e+01    8.17730759e+03    4.99723331e-01
142      5.11457000e-05   -3.34000549e-02   -1.33600220e-02    3.13976775e+01    8.17729148e+03    4.99709557e-01
143      5.11969000e-05   -3.44657879e-02   -1.37863151e-02    3.13958854e+01    8.17725850e+03    4.99681035e-01
144      5.12097000e-05   -3.47011683e-02   -1.38804673e-02    3.13954227e+01    8.17725008e+03    4.99673672e-01
145      5.12353000e-05   -3.52491261e-02   -1.40996504e-02    3.13944870e+01    8.17723309e+03    4.99658779e-01
146      5.12417000e-05   -3.53762164e-02   -1.41504866e-02    3.13942493e+01    8.17722880e+03    4.99654996e-01
147      5.12545000e-05   -3.56499188e-02   -1.42599675e-02    3.13937713e+01    8.17722018e+03    4.99647388e-01
148      5.12801000e-05   -3.61946625e-02   -1.44778650e-02    3.13927998e+01    8.17720275e+03    4.99631927e-01
149      5.13313000e-05   -3.72822188e-02   -1.49128875e-02    3.13907959e+01    8.17716711e+03    4.99600034e-01
150      5.13441000e-05   -3.75235256e-02   -1.50094102e-02    3.13902803e+01    8.17715801e+03    4.99591828e-01
151      5.13697000e-05   -3.80838627e-02   -1.52335451e-02    3.13892388e+01    8.17713968e+03    4.99575252e-01
152      5.13761000e-05   -3.82142046e-02   -1.52856819e-02    3.13889746e+01    8.17713505e+03    4.99571047e-01
153      5.13889000e-05   -3.84945211e-02   -1.53978084e-02    3.13884437e+01    8.17712576e+03    4.99562598e-01
154      5.14145000e-05   -3.90530931e-02   -1.56212372e-02    3.13873666e+01    8.17710697e+03    4.99545454e-01
155      5.14657000e-05   -4.01701636e-02   -1.60680654e-02    3.13851514e+01    8.17706859e+03    4.99510198e-01
156      5.15681000e-05   -4.24303474e-02   -1.69721389e-02    3.13804790e+01    8.17698862e+03    4.99435835e-01
157      5.17729000e-05   -4.71020374e-02   -1.88408149e-02    3.13701696e+01    8.17681544e+03    4.99271755e-01
158      5.21825000e-05   -5.70260436e-02   -2.28104174e-02    3.13456923e+01    8.17641310e+03    4.98882188e-01
159      5.30017000e-05   -7.82759650e-02   -3.13103860e-02    3.12812618e+01    8.17536833e+03    4.97856745e-01
160      5.46401000e-05   -1.22420045e-01   -4.89680179e-02    3.10904183e+01    8.17226857e+03    4.94819376e-01
161      5.62785000e-05   -1.67555110e-01   -6.70220442e-02    3.08173062e+01    8.16778730e+03    4.90472661e-01
162      5.79169000e-05   -2.14104161e-01   -8.56416644e-02    3.04626829e+01    8.16188436e+03    4.84828657e-01
163      5.95553000e-05   -2.62373973e-01   -1.04949589e-01    3.00275149e+01    8.15450744e+03    4.77902742e-01
164      6.11937000e-05   -3.12907613e-01   -1.25163045e-01    2.95129968e+01    8.14559008e+03    4.69713933e-01
165      6.28321000e-05   -3.66123043e-01   -1.46449217e-01    2.89205263e+01    8.13504987e+03    4.60284472e-01
166      6.44705000e-05   -4.22656569e-01   -1.69062628e-01    2.82517215e+01    8.12278690e+03    4.49640113e-01
167      6.61089000e-05   -4.83085307e-01   -1.93234123e-01    2.75083995e+01    8.10868121e+03    4.37809776e-01
168      6.77473000e-05   -5.48207528e-01   -2.19283011e-01    2.66925895e+01    8.09259006e+03    4.24825757e-01
169      6.93857000e-05   -6.18834980e-01   -2.47533992e-01    2.58065142e+01    8.07434418e+03    4.10723430e-01
170      7.10241000e-05   -6.96028773e-01   -2.78411509e-01    2.48525990e+01    8.05374338e+03    3.95541398e-01
171      7.26625000e-05   -7.80955355e-01   -3.12382142e-01    2.38334568e+01    8.03055081e+03    3.79321246e-01
172      7.43009000e-05   -8.75096497e-01   -3.50038599e-01    2.27518943e+01    8.00448603e+03    3.62107644e-01
173      7.59393000e-05   -9.80174900e-01   -3.92069960e-01    2.16109001e+01    7.97521592e+03    3.43948157e-01
