Index       TIME              V(1)        N(YMIN!KTRANS1_H) N(YMIN!KTRANS1_B)       V(2)              V(3)        N(XTX1:YMIN!KTRANSSUB_H) N(XTX1:YMIN!KTRANSSUB_B)
0        0.00000000e+00    0.00000000e+00    0.00000000e+00    0.00000000e+00    0.00000000e+00    0.00000000e+00    0.00000000e+00    0.00000000e+00
1        1.00000000e-10    0.00000000e+00    0.00000000e+00    0.00000000e+00    0.00000000e+00    0.00000000e+00    0.00000000e+00    0.00000000e+00
2        3.00000000e-10    0.00000000e+00    0.00000000e+00    0.00000000e+00    0.00000000e+00    0.00000000e+00    0.00000000e+00    0.00000000e+00
3        7.00000000e-10    0.00000000e+00    0.00000000e+00    0.00000000e+00    0.00000000e+00    0.00000000e+00    0.00000000e+00    0.00000000e+00
4        1.50000000e-09    0.00000000e+00    0.00000000e+00    0.00000000e+00    0.00000000e+00    0.00000000e+00    0.00000000e+00    0.00000000e+00
5        3.10000000e-09    0.00000000e+00    0.00000000e+00    0.00000000e+00    0.00000000e+00    0.00000000e+00    0.00000000e+00    0.00000000e+00
6        6.30000000e-09    0.00000000e+00    0.00000000e+00    0.00000000e+00    0.00000000e+00    0.00000000e+00    0.00000000e+00    0.00000000e+00
7        1.27000000e-08    0.00000000e+00    0.00000000e+00    0.00000000e+00    0.00000000e+00    0.00000000e+00    0.00000000e+00    0.00000000e+00
8        2.55000000e-08    0.00000000e+00    0.00000000e+00    0.00000000e+00    0.00000000e+00    0.00000000e+00    0.00000000e+00    0.00000000e+00
9        5.11000000e-08    0.00000000e+00    0.00000000e+00    0.00000000e+00    0.00000000e+00    0.00000000e+00    0.00000000e+00    0.00000000e+00
10       1.02300000e-07    0.00000000e+00    0.00000000e+00    0.00000000e+00    0.00000000e+00    0.00000000e+00    0.00000000e+00    0.00000000e+00
11       2.04700000e-07    0.00000000e+00    0.00000000e+00    0.00000000e+00    0.00000000e+00    0.00000000e+00    0.00000000e+00    0.00000000e+00
12       4.09500000e-07    0.00000000e+00    0.00000000e+00    0.00000000e+00    0.00000000e+00    0.00000000e+00    0.00000000e+00    0.00000000e+00
13       8.19100000e-07    0.00000000e+00    0.00000000e+00    0.00000000e+00    0.00000000e+00    0.00000000e+00    0.00000000e+00    0.00000000e+00
14       1.63830000e-06    0.00000000e+00    0.00000000e+00    0.00000000e+00    0.00000000e+00    0.00000000e+00    0.00000000e+00    0.00000000e+00
15       3.27670000e-06    0.00000000e+00    0.00000000e+00    0.00000000e+00    0.00000000e+00    0.00000000e+00    0.00000000e+00    0.00000000e+00
16       6.55350000e-06    0.00000000e+00    0.00000000e+00    0.00000000e+00    0.00000000e+00    0.00000000e+00    0.00000000e+00    0.00000000e+00
17       1.31071000e-05    0.00000000e+00    0.00000000e+00    0.00000000e+00    0.00000000e+00    0.00000000e+00    0.00000000e+00    0.00000000e+00
18       2.62143000e-05    0.00000000e+00    0.00000000e+00    0.00000000e+00    0.00000000e+00    0.00000000e+00    0.00000000e+00    0.00000000e+00
19       5.24287000e-05    0.00000000e+00    0.00000000e+00    0.00000000e+00    0.00000000e+00    0.00000000e+00    0.00000000e+00    0.00000000e+00
20       1.04857500e-04    0.00000000e+00    0.00000000e+00    0.00000000e+00    0.00000000e+00    0.00000000e+00    0.00000000e+00    0.00000000e+00
21       2.09715100e-04    0.00000000e+00    0.00000000e+00    0.00000000e+00    0.00000000e+00    0.00000000e+00    0.00000000e+00    0.00000000e+00
22       4.19430300e-04    0.00000000e+00    0.00000000e+00    0.00000000e+00    0.00000000e+00    0.00000000e+00    0.00000000e+00    0.00000000e+00
23       8.38860700e-04    0.00000000e+00    0.00000000e+00    0.00000000e+00    0.00000000e+00    0.00000000e+00    0.00000000e+00    0.00000000e+00
24       1.67772150e-03    0.00000000e+00    0.00000000e+00    0.00000000e+00    0.00000000e+00    0.00000000e+00    0.00000000e+00    0.00000000e+00
25       3.35544310e-03    0.00000000e+00    0.00000000e+00    0.00000000e+00    0.00000000e+00    0.00000000e+00    0.00000000e+00    0.00000000e+00
26       6.71088630e-03    0.00000000e+00    0.00000000e+00    0.00000000e+00    0.00000000e+00    0.00000000e+00    0.00000000e+00    0.00000000e+00
27       1.34217727e-02    0.00000000e+00    0.00000000e+00    0.00000000e+00    0.00000000e+00    0.00000000e+00    0.00000000e+00    0.00000000e+00
28       2.68435455e-02    0.00000000e+00    0.00000000e+00    0.00000000e+00    0.00000000e+00    0.00000000e+00    0.00000000e+00    0.00000000e+00
29       5.36870911e-02    0.00000000e+00    0.00000000e+00    0.00000000e+00    0.00000000e+00    0.00000000e+00    0.00000000e+00    0.00000000e+00
30       1.07374182e-01    0.00000000e+00    0.00000000e+00    0.00000000e+00    0.00000000e+00    0.00000000e+00    0.00000000e+00    0.00000000e+00
31       2.14748365e-01    0.00000000e+00    0.00000000e+00    0.00000000e+00    0.00000000e+00    0.00000000e+00    0.00000000e+00    0.00000000e+00
32       4.29496730e-01    0.00000000e+00    0.00000000e+00    0.00000000e+00    0.00000000e+00    0.00000000e+00    0.00000000e+00    0.00000000e+00
33       8.29496730e-01    0.00000000e+00    0.00000000e+00    0.00000000e+00    0.00000000e+00    0.00000000e+00    0.00000000e+00    0.00000000e+00
34       9.29496730e-01    0.00000000e+00    0.00000000e+00    0.00000000e+00    0.00000000e+00    0.00000000e+00    0.00000000e+00    0.00000000e+00
35       9.79496730e-01    0.00000000e+00    0.00000000e+00    0.00000000e+00    0.00000000e+00    0.00000000e+00    0.00000000e+00    0.00000000e+00
36       9.85746730e-01    0.00000000e+00    0.00000000e+00    0.00000000e+00    0.00000000e+00    0.00000000e+00    0.00000000e+00    0.00000000e+00
37       9.98246730e-01    0.00000000e+00    0.00000000e+00    0.00000000e+00    0.00000000e+00    0.00000000e+00    0.00000000e+00    0.00000000e+00
38       9.99809230e-01    0.00000000e+00    0.00000000e+00    0.00000000e+00    0.00000000e+00    0.00000000e+00    0.00000000e+00    0.00000000e+00
39       9.99858058e-01    0.00000000e+00    0.00000000e+00    0.00000000e+00    0.00000000e+00    0.00000000e+00    0.00000000e+00    0.00000000e+00
40       9.99955714e-01    0.00000000e+00    0.00000000e+00    0.00000000e+00    0.00000000e+00    0.00000000e+00    0.00000000e+00    0.00000000e+00
41       9.99967921e-01    0.00000000e+00    0.00000000e+00    0.00000000e+00    0.00000000e+00    0.00000000e+00    0.00000000e+00    0.00000000e+00
42       9.99992335e-01    0.00000000e+00    0.00000000e+00    0.00000000e+00    0.00000000e+00    0.00000000e+00    0.00000000e+00    0.00000000e+00
43       9.99995387e-01    0.00000000e+00    0.00000000e+00    0.00000000e+00    0.00000000e+00    0.00000000e+00    0.00000000e+00    0.00000000e+00
44       9.99996913e-01    0.00000000e+00    0.00000000e+00    0.00000000e+00    0.00000000e+00    0.00000000e+00    0.00000000e+00    0.00000000e+00
45       9.99999964e-01    0.00000000e+00    0.00000000e+00    0.00000000e+00    0.00000000e+00    0.00000000e+00    0.00000000e+00    0.00000000e+00
46       1.00000006e+00   -3.75288158e-08   -3.25006539e-12   -1.52917770e-08   -9.37562141e-07   -1.87512428e-06   -8.11946286e-11   -3.82026208e-07
47       1.00000025e+00   -1.57365363e-07   -2.01282645e-11   -9.47048430e-08   -3.93005835e-06   -7.86011670e-06   -5.02739634e-10   -2.36542391e-06
48       1.00000044e+00   -2.77194899e-07   -5.77619930e-11   -2.71774076e-07   -6.91818054e-06   -1.38363611e-05   -1.44221734e-09   -6.78572992e-06
49       1.00000063e+00   -3.97017425e-07   -1.16150037e-10   -5.46493762e-07   -9.90193510e-06   -1.98038702e-05   -2.89887069e-09   -1.36393823e-05
50       1.00000101e+00   -6.36641444e-07   -2.95183605e-10   -1.38885879e-06   -1.58563700e-05   -3.17127400e-05   -7.36030510e-09   -3.46307325e-05
51       1.00000178e+00   -1.11580537e-06   -9.02244244e-10   -4.24512007e-06   -2.77131338e-05   -5.54262677e-05   -2.24531056e-08   -1.05643379e-04
52       1.00000254e+00   -1.59485717e-06   -1.84123795e-09   -8.66314885e-06   -3.95007269e-05   -7.90014537e-05   -4.57364866e-08   -2.15193265e-04
53       1.00000330e+00   -2.07379686e-06   -3.11208705e-09   -1.46425797e-05   -5.12195527e-05   -1.02439105e-04   -7.71626645e-08   -3.63055568e-04
54       1.00000407e+00   -2.55262448e-06   -4.71471388e-09   -2.21830471e-05   -6.28700125e-05   -1.25740025e-04   -1.16684134e-07   -5.49006779e-04
55       1.00000559e+00   -3.50994361e-06   -8.91495138e-09   -4.19454483e-05   -8.59676236e-05   -1.71935247e-04   -2.19801038e-07   -1.03417891e-03
56       1.00000712e+00   -4.46681474e-06   -1.44413684e-08   -6.79476138e-05   -1.08796522e-04   -2.17593044e-04   -3.54736478e-07   -1.66905956e-03
57       1.00000864e+00   -5.42323809e-06   -2.12933442e-08   -1.00186624e-04   -1.31359834e-04   -2.62719669e-04   -5.21120265e-07   -2.45190706e-03
58       1.00001017e+00   -6.37921387e-06   -2.94702586e-08   -1.38659559e-04   -1.53660650e-04   -3.07321301e-04   -7.18586511e-07   -3.38099999e-03
59       1.00001169e+00   -7.33474228e-06   -3.89714913e-08   -1.83363503e-04   -1.75702024e-04   -3.51404048e-04   -9.46773582e-07   -4.45463698e-03
60       1.00001322e+00   -8.28982354e-06   -4.97964226e-08   -2.34295539e-04   -1.97486974e-04   -3.94973948e-04   -1.20532405e-06   -5.67113642e-03
61       1.00001475e+00   -9.24445785e-06   -6.19444331e-08   -2.91452753e-04   -2.19018483e-04   -4.38036967e-04   -1.49388464e-06   -7.02883629e-03
62       1.00001627e+00   -1.01986454e-05   -7.54149034e-08   -3.54832233e-04   -2.40299501e-04   -4.80599003e-04   -1.81210619e-06   -8.52609392e-03
63       1.00001780e+00   -1.11523865e-05   -9.02072147e-08   -4.24431065e-04   -2.61332943e-04   -5.22665885e-04   -2.15964358e-06   -1.01612857e-02
64       1.00001932e+00   -1.21056812e-05   -1.06320748e-07   -5.00246339e-04   -2.82121687e-04   -5.64243374e-04   -2.53615574e-06   -1.19328070e-02
65       1.00002085e+00   -1.30585298e-05   -1.23754885e-07   -5.82275147e-04   -3.02668582e-04   -6.05337164e-04   -2.94130554e-06   -1.38390718e-02
66       1.00002238e+00   -1.40109326e-05   -1.42509009e-07   -6.70514581e-04   -3.22976442e-04   -6.45952883e-04   -3.37475978e-06   -1.58785124e-02
67       1.00002390e+00   -1.49628896e-05   -1.62582500e-07   -7.64961734e-04   -3.43048047e-04   -6.86096094e-04   -3.83618913e-06   -1.80495797e-02
68       1.00002543e+00   -1.59144011e-05   -1.83974741e-07   -8.65613702e-04   -3.62886147e-04   -7.25772293e-04   -4.32526810e-06   -2.03507423e-02
69       1.00002695e+00   -1.68654674e-05   -2.06685115e-07   -9.72467580e-04   -3.82493458e-04   -7.64986916e-04   -4.84167499e-06   -2.27804867e-02
70       1.00002848e+00   -1.78160886e-05   -2.30713006e-07   -1.08552047e-03   -4.01872665e-04   -8.03745331e-04   -5.38509186e-06   -2.53373170e-02
71       1.00003001e+00   -1.87662650e-05   -2.56057796e-07   -1.20476946e-03   -4.21026423e-04   -8.42052847e-04   -5.95520443e-06   -2.80197548e-02
72       1.00003153e+00   -1.97159966e-05   -2.82718869e-07   -1.33021166e-03   -4.39957355e-04   -8.79914709e-04   -6.55170212e-06   -3.08263389e-02
73       1.00003306e+00   -2.06652839e-05   -3.10695609e-07   -1.46184418e-03   -4.58668052e-04   -9.17336104e-04   -7.17427795e-06   -3.37556249e-02
74       1.00003458e+00   -2.16141269e-05   -3.39987400e-07   -1.59966410e-03   -4.77161078e-04   -9.54322155e-04   -7.82262853e-06   -3.68061854e-02
75       1.00003611e+00   -2.25625259e-05   -3.70593626e-07   -1.74366854e-03   -4.95438964e-04   -9.90877927e-04   -8.49645398e-06   -3.99766095e-02
76       1.00003763e+00   -2.35104811e-05   -4.02513673e-07   -1.89385461e-03   -5.13504213e-04   -1.02700843e-03   -9.19545794e-06   -4.32655029e-02
77       1.00004069e+00   -2.54050609e-05   -4.70292459e-07   -2.21275859e-03   -5.49007869e-04   -1.09801574e-03   -1.06676909e-05   -5.01925311e-02
78       1.00004374e+00   -2.72978679e-05   -5.43319150e-07   -2.55635438e-03   -5.83690236e-04   -1.16738047e-03   -1.22371737e-05   -5.75771358e-02
79       1.00004679e+00   -2.91889038e-05   -6.21588833e-07   -2.92461886e-03   -6.17570308e-04   -1.23514062e-03   -1.39016568e-05   -6.54087321e-02
80       1.00004984e+00   -3.10781703e-05   -7.05096601e-07   -3.31752895e-03   -6.50666644e-04   -1.30133329e-03   -1.56589430e-05   -7.36769798e-02
81       1.00005289e+00   -3.29656689e-05   -7.93837550e-07   -3.73506160e-03   -6.82997367e-04   -1.36599473e-03   -1.75068861e-05   -8.23717781e-02
82       1.00005595e+00   -3.48514014e-05   -8.87806781e-07   -4.17719376e-03   -7.14580184e-04   -1.42916037e-03   -1.94433896e-05   -9.14832596e-02
83       1.00005900e+00   -3.67353693e-05   -9.86999400e-07   -4.64390241e-03   -7.45432389e-04   -1.49086478e-03   -2.14664055e-05   -1.01001785e-01
84       1.00006205e+00   -3.86175744e-05   -1.09141052e-06   -5.13516455e-03   -7.75570875e-04   -1.55114175e-03   -2.35739336e-05   -1.10917938e-01
85       1.00006510e+00   -4.04980183e-05   -1.20103525e-06   -5.65095722e-03   -8.05012144e-04   -1.61002429e-03   -2.57640199e-05   -1.21222520e-01
86       1.00006815e+00   -4.23767027e-05   -1.31586871e-06   -6.19125746e-03   -8.33772313e-04   -1.66754463e-03   -2.80347557e-05   -1.31906546e-01
87       1.00007120e+00   -4.42536291e-05   -1.43590603e-06   -6.75604233e-03   -8.61867129e-04   -1.72373426e-03   -3.03842768e-05   -1.42961236e-01
88       1.00007426e+00   -4.61287993e-05   -1.56114233e-06   -7.34528893e-03   -8.89311972e-04   -1.77862394e-03   -3.28107618e-05   -1.54378017e-01
89       1.00008036e+00   -4.98738782e-05   -1.82718999e-06   -8.59706435e-03   -9.42318571e-04   -1.88463714e-03   -3.78867097e-05   -1.78260581e-01
90       1.00008646e+00   -5.36119518e-05   -2.11397524e-06   -9.94641232e-03   -9.92900442e-04   -1.98580088e-03   -4.32497721e-05   -2.03493831e-01
91       1.00009257e+00   -5.73430331e-05   -2.42145928e-06   -1.13931503e-02   -1.04116838e-03   -2.08233677e-03   -4.88868289e-05   -2.30015980e-01
92       1.00009867e+00   -6.10671352e-05   -2.74960335e-06   -1.29370962e-02   -1.08722813e-03   -2.17445626e-03   -5.47853601e-05   -2.57768065e-01
93       1.00010477e+00   -6.47842712e-05   -3.09836880e-06   -1.45780681e-02   -1.13118058e-03   -2.26236117e-03   -6.09334180e-05   -2.86693815e-01
94       1.00011088e+00   -6.84944541e-05   -3.46771702e-06   -1.63158846e-02   -1.17312203e-03   -2.34624406e-03   -6.73196011e-05   -3.16739533e-01
95       1.00011698e+00   -7.21976969e-05   -3.85760949e-06   -1.81503644e-02   -1.21314436e-03   -2.42628871e-03   -7.39330285e-05   -3.47853973e-01
96       1.00012308e+00   -7.58940127e-05   -4.26800776e-06   -2.00813268e-02   -1.25133526e-03   -2.50267051e-03   -8.07633169e-05   -3.79988232e-01
97       1.00012919e+00   -7.95834142e-05   -4.69887344e-06   -2.21085913e-02   -1.28777841e-03   -2.57555682e-03   -8.78005571e-05   -4.13095642e-01
98       1.00013529e+00   -8.32659146e-05   -5.15016825e-06   -2.42319778e-02   -1.32255368e-03   -2.64510736e-03   -9.50352928e-05   -4.47131667e-01
99       1.00014750e+00   -9.06102698e-05   -6.11387331e-06   -2.87663083e-02   -1.38743586e-03   -2.77487173e-03   -1.10057549e-04   -5.17802575e-01
100      1.00015970e+00   -9.79271748e-05   -7.15883713e-06   -3.36829741e-02   -1.44651066e-03   -2.89302133e-03   -1.25767461e-04   -5.91706023e-01
101      1.00017191e+00   -1.05216732e-04   -8.28475589e-06   -3.89805461e-02   -1.50029695e-03   -3.00059390e-03   -1.42103590e-04   -6.68552654e-01
102      1.00018412e+00   -1.12479044e-04   -9.49132696e-06   -4.46576007e-02   -1.54926723e-03   -3.09853446e-03   -1.59009985e-04   -7.48078963e-01
103      1.00019633e+00   -1.19714212e-04   -1.07782489e-05   -5.07127196e-02   -1.59385181e-03   -3.18770361e-03   -1.76435694e-04   -8.30044988e-01
104      1.00020853e+00   -1.26922338e-04   -1.21452215e-05   -5.71444896e-02   -1.63444253e-03   -3.26888506e-03   -1.94334317e-04   -9.14232207e-01
105      1.00022074e+00   -1.34103522e-04   -1.35919456e-05   -6.39515030e-02   -1.67139625e-03   -3.34279249e-03   -2.12663599e-04   -1.00044162e+00
106      1.00024515e+00   -1.48385518e-04   -1.67233109e-05   -7.86849602e-02   -1.73579246e-03   -3.47158492e-03   -2.50448390e-04   -1.17814645e+00
107      1.00026957e+00   -1.62560950e-04   -2.01701262e-05   -9.49026390e-02   -1.78913406e-03   -3.57826812e-03   -2.89542158e-04   -1.36199198e+00
108      1.00029398e+00   -1.76630610e-04   -2.39300425e-05   -1.12593465e-01   -1.83331214e-03   -3.66662428e-03   -3.29720976e-04   -1.55092373e+00
109      1.00031840e+00   -1.90595285e-04   -2.80007299e-05   -1.31746445e-01   -1.86989436e-03   -3.73978871e-03   -3.70799216e-04   -1.74406761e+00
110      1.00036722e+00   -2.18213179e-04   -3.70640597e-05   -1.74389955e-01   -1.92565834e-03   -3.85131668e-03   -4.55016057e-04   -2.13998813e+00
111      1.00041605e+00   -2.45420405e-04   -4.73430167e-05   -2.22752366e-01   -1.96370704e-03   -3.92741408e-03   -5.41330519e-04   -2.54569439e+00
112      1.00046488e+00   -2.72223034e-04   -5.88196193e-05   -2.76748637e-01   -1.98962562e-03   -3.97925124e-03   -6.29081248e-04   -2.95807317e+00
113      1.00051371e+00   -2.98627044e-04   -7.14761615e-05   -3.36294984e-01   -2.00723896e-03   -4.01447791e-03   -7.17815328e-04   -3.37499282e+00
114      1.00061136e+00   -3.50265506e-04   -1.00251180e-04   -4.71669162e-01   -2.02773125e-03   -4.05546250e-03   -8.97027923e-04   -4.21678180e+00
115      1.00070902e+00   -4.00378830e-04   -1.33540604e-04   -6.28271144e-01   -2.03660743e-03   -4.07321487e-03   -1.07761557e-03   -5.06469766e+00
116      1.00080668e+00   -4.49011682e-04   -1.71212134e-04   -8.05473886e-01   -2.04019952e-03   -4.08039903e-03   -1.25882841e-03   -5.91521462e+00
117      1.00090433e+00   -4.96207388e-04   -2.13137450e-04   -1.00266871e+00   -2.04138904e-03   -4.08277808e-03   -1.44032517e-03   -6.76672906e+00
118      1.00100199e+00   -5.42007970e-04   -2.59192080e-04   -1.21926472e+00   -2.04148687e-03   -4.08297374e-03   -1.62195057e-03   -7.61851201e+00
119      1.00109965e+00   -5.86454193e-04   -3.09255289e-04   -1.45468833e+00   -2.04108914e-03   -4.08217829e-03   -1.80363395e-03   -8.47023231e+00
120      1.00119730e+00   -6.29585596e-04   -3.63209957e-04   -1.70838267e+00   -2.04046687e-03   -4.08093373e-03   -1.98534315e-03   -9.32173976e+00
121      1.00139261e+00   -7.12074036e-04   -4.82289871e-04   -2.26818581e+00   -2.03898421e-03   -4.07796842e-03   -2.34878716e-03   -1.10238762e+01
122      1.00158793e+00   -7.89746750e-04   -6.15621762e-04   -2.89481563e+00   -2.03739087e-03   -4.07478174e-03   -2.71224037e-03   -1.27247288e+01
123      1.00178324e+00   -8.62880065e-04   -7.62387077e-04   -3.58436873e+00   -2.03578546e-03   -4.07157091e-03   -3.07569057e-03   -1.44242465e+01
124      1.00197855e+00   -9.31734157e-04   -9.21815077e-04   -4.33316556e+00   -2.03418193e-03   -4.06836385e-03   -3.43913554e-03   -1.61224251e+01
125      1.00217386e+00   -9.96554042e-04   -1.09317990e-03   -5.13773735e+00   -2.03258222e-03   -4.06516444e-03   -3.80257452e-03   -1.78192668e+01
126      1.00236918e+00   -1.05757050e-03   -1.27579783e-03   -5.99481386e+00   -2.03098658e-03   -4.06197317e-03   -4.16600693e-03   -1.95147750e+01
127      1.00256449e+00   -1.11500094e-03   -1.46902473e-03   -6.90131187e+00   -2.02939501e-03   -4.05879003e-03   -4.52943223e-03   -2.12089530e+01
128      1.00275980e+00   -1.16905019e-03   -1.67225368e-03   -7.85432430e+00   -2.02780748e-03   -4.05561496e-03   -4.89284986e-03   -2.29018044e+01
129      1.00315043e+00   -1.26784953e-03   -2.10621595e-03   -9.88789997e+00   -2.02464530e-03   -4.04929061e-03   -5.61965986e-03   -2.62835426e+01
130      1.00354105e+00   -1.35528129e-03   -2.57379411e-03   -1.20768837e+01   -2.02149776e-03   -4.04299552e-03   -6.34643283e-03   -2.96600144e+01
131      1.00393168e+00   -1.43260582e-03   -3.07125277e-03   -1.44033549e+01   -2.01836590e-03   -4.03673180e-03   -7.07316427e-03   -3.30312449e+01
