Index       TIME              V(1)            {F(V(1))}           V(2)            {G(V(2))}    
0        0.00000000e+00    0.00000000e+00    0.00000000e+00    0.00000000e+00    1.00000000e+00
1        1.00000000e-10    6.28318531e-07    6.28318531e-07    0.00000000e+00    1.00000000e+00
2        3.00000000e-10    1.88495559e-06    1.88495559e-06    0.00000000e+00    1.00000000e+00
3        7.00000000e-10    4.39822972e-06    4.39822972e-06    0.00000000e+00    1.00000000e+00
4        1.50000000e-09    9.42477796e-06    9.42477796e-06    0.00000000e+00    1.00000000e+00
5        3.10000000e-09    1.94778745e-05    1.94778745e-05    0.00000000e+00    1.00000000e+00
6        6.30000000e-09    3.95840674e-05    3.95840674e-05    0.00000000e+00    1.00000000e+00
7        1.27000000e-08    7.97964533e-05    7.97964533e-05    0.00000000e+00    1.00000000e+00
8        2.55000000e-08    1.60221225e-04    1.60221225e-04    0.00000000e+00    1.00000000e+00
9        5.11000000e-08    3.21070764e-04    3.21070764e-04    0.00000000e+00    1.00000000e+00
10       1.02300000e-07    6.42769813e-04    6.42769813e-04    0.00000000e+00    1.00000000e+00
11       2.04700000e-07    1.28616768e-03    1.28616768e-03    0.00000000e+00    1.00000000e+00
12       4.09500000e-07    2.57296154e-03    2.57296154e-03    0.00000000e+00    1.00000000e+00
13       8.19100000e-07    5.14653437e-03    5.14653437e-03    0.00000000e+00    1.00000000e+00
14       1.63830000e-06    1.02935607e-02    1.02935607e-02    0.00000000e+00    1.00000000e+00
15       3.27670000e-06    2.05866589e-02    2.05866589e-02    0.00000000e+00    1.00000000e+00
16       6.55350000e-06    4.11652198e-02    4.11652198e-02    0.00000000e+00    1.00000000e+00
17       1.31071000e-05    8.22612786e-02    8.22612786e-02    0.00000000e+00    1.00000000e+00
18       1.96607000e-05    1.23217876e-01    1.23217876e-01    0.00000000e+00    1.00000000e+00
19       2.62143000e-05    1.63965577e-01    1.63965577e-01    0.00000000e+00    1.00000000e+00
20       3.27679000e-05    2.04435299e-01    2.04435299e-01    0.00000000e+00    1.00000000e+00
21       3.93215000e-05    2.44558433e-01    2.44558433e-01    0.00000000e+00    1.00000000e+00
22       4.58751000e-05    2.84266956e-01    2.84266956e-01    0.00000000e+00    1.00000000e+00
23       5.24287000e-05    3.23493548e-01    3.23493548e-01    0.00000000e+00    1.00000000e+00
24       5.89823000e-05    3.62171707e-01    3.62171707e-01    0.00000000e+00    1.00000000e+00
25       6.55359000e-05    4.00235859e-01    4.00235859e-01    0.00000000e+00    1.00000000e+00
26       7.20895000e-05    4.37621474e-01    4.37621474e-01    0.00000000e+00    1.00000000e+00
27       7.86431000e-05    4.74265168e-01    4.74265168e-01    0.00000000e+00    1.00000000e+00
28       8.51967000e-05    5.10104820e-01    5.10104820e-01    0.00000000e+00    1.00000000e+00
29       9.17503000e-05    5.45079668e-01    5.45079668e-01    0.00000000e+00    1.00000000e+00
30       9.83039000e-05    5.79130417e-01    5.79130417e-01    0.00000000e+00    1.00000000e+00
31       1.04857500e-04    6.12199340e-01    6.12199340e-01    0.00000000e+00    1.00000000e+00
32       1.11411100e-04    6.44230373e-01    6.44230373e-01    0.00000000e+00    1.00000000e+00
33       1.17964700e-04    6.75169214e-01    6.75169214e-01    0.00000000e+00    1.00000000e+00
34       1.24518300e-04    7.04963409e-01    7.04963409e-01    0.00000000e+00    1.00000000e+00
35       1.31071900e-04    7.33562448e-01    7.33562448e-01    0.00000000e+00    1.00000000e+00
36       1.37625500e-04    7.60917845e-01    7.60917845e-01    0.00000000e+00    1.00000000e+00
37       1.44179100e-04    7.86983223e-01    7.86983223e-01    0.00000000e+00    1.00000000e+00
38       1.50732700e-04    8.11714393e-01    8.11714393e-01    0.00000000e+00    1.00000000e+00
39       1.57286300e-04    8.35069426e-01    8.35069426e-01    0.00000000e+00    1.00000000e+00
40       1.63839900e-04    8.57008728e-01    8.57008728e-01    0.00000000e+00    1.00000000e+00
41       1.70393500e-04    8.77495104e-01    8.77495104e-01    0.00000000e+00    1.00000000e+00
42       1.76947100e-04    8.96493823e-01    8.96493823e-01    0.00000000e+00    1.00000000e+00
43       1.83500700e-04    9.13972675e-01    9.13972675e-01    0.00000000e+00    1.00000000e+00
44       1.90054300e-04    9.29902027e-01    9.29902027e-01    0.00000000e+00    1.00000000e+00
45       1.96607900e-04    9.44254875e-01    9.44254875e-01    0.00000000e+00    1.00000000e+00
46       2.00000000e-04    9.51056516e-01    9.51056516e-01    0.00000000e+00    1.00000000e+00
47       2.00040960e-04    9.51136013e-01    9.51136013e-01    2.04800000e-02    1.06144000e+00
48       2.00077369e-04    9.51206624e-01    9.51206624e-01    3.86843003e-02    1.11605290e+00
49       2.00150186e-04    9.51347695e-01    9.51347695e-01    7.50929010e-02    1.22527870e+00
50       2.00295820e-04    9.51629241e-01    9.51629241e-01    1.47910102e-01    1.44373031e+00
51       2.00587089e-04    9.52189942e-01    9.52189942e-01    2.93544505e-01    1.88063352e+00
52       2.01169627e-04    9.53301774e-01    9.53301774e-01    5.84813311e-01    2.75443993e+00
53       2.02334702e-04    9.55487109e-01    9.55487109e-01    1.16735092e+00    4.50205277e+00
54       2.04664852e-04    9.59704059e-01    9.59704059e-01    2.33242614e+00    7.99727843e+00
55       2.09325153e-04    9.67519965e-01    9.67519965e-01    4.66257659e+00    1.49877298e+01
56       2.18645755e-04    9.80657288e-01    9.80657288e-01    9.32287748e+00    2.89686324e+01
57       2.37286959e-04    9.96811417e-01    9.96811417e-01    1.86434793e+01    5.69304378e+01
58       2.74569366e-04    9.88107998e-01    9.88107998e-01    3.72846828e+01    1.12854048e+02
59       3.11851773e-04    9.25430509e-01    9.25430509e-01    5.59258864e+01    1.68777659e+02
60       3.49134180e-04    8.12202623e-01    8.12202623e-01    7.45670899e+01    2.24701270e+02
61       4.00000000e-04    5.87785252e-01    5.87785252e-01    1.00000000e+02    3.01000000e+02
62       4.07456481e-04    5.49251337e-01    5.49251337e-01    1.00000000e+02    3.01000000e+02
63       4.22369444e-04    4.68654615e-01    4.68654615e-01    1.00000000e+02    3.01000000e+02
64       4.52195370e-04    2.95869218e-01    2.95869218e-01    1.00000000e+02    3.01000000e+02
65       5.11847221e-04   -7.43695617e-02    7.43695617e-02    1.00000000e+02    3.01000000e+02
66       6.11847221e-04   -6.46323767e-01    6.46323767e-01    1.00000000e+02    3.01000000e+02
67       7.11847221e-04   -9.71404261e-01    9.71404261e-01    1.00000000e+02    3.01000000e+02
68       8.11847221e-04   -9.25441344e-01    9.25441344e-01    1.00000000e+02    3.01000000e+02
69       9.11847221e-04   -5.25991289e-01    5.25991289e-01    1.00000000e+02    3.01000000e+02
70       1.01184722e-03    7.43695617e-02    7.43695617e-02    1.00000000e+02    3.01000000e+02
71       1.11184722e-03    6.46323767e-01    6.46323767e-01    1.00000000e+02    3.01000000e+02
72       1.21184722e-03    9.71404261e-01    9.71404261e-01    1.00000000e+02    3.01000000e+02
73       1.31184722e-03    9.25441344e-01    9.25441344e-01    1.00000000e+02    3.01000000e+02
74       1.40000000e-03    5.87785252e-01    5.87785252e-01    1.00000000e+02    3.01000000e+02
75       1.40062500e-03    5.84603726e-01    5.84603726e-01    9.96875000e+01    3.00062500e+02
76       1.40187500e-03    5.78213677e-01    5.78213677e-01    9.90625000e+01    2.98187500e+02
77       1.40437500e-03    5.65326973e-01    5.65326973e-01    9.78125000e+01    2.94437500e+02
78       1.40937500e-03    5.39138323e-01    5.39138323e-01    9.53125000e+01    2.86937500e+02
79       1.41937500e-03    4.85191199e-01    4.85191199e-01    9.03125000e+01    2.71937500e+02
80       1.43937500e-03    3.71772929e-01    3.71772929e-01    8.03125000e+01    2.41937500e+02
81       1.47937500e-03    1.29228282e-01    1.29228282e-01    6.03125000e+01    1.81937500e+02
82       1.55937500e-03   -3.64470500e-01    3.64470500e-01    2.03125000e+01    6.19375000e+01
83       1.60000000e-03   -5.87785252e-01    5.87785252e-01    7.10542736e-14    1.00000000e+00
84       1.60062500e-03   -5.90957714e-01    5.90957714e-01    0.00000000e+00    1.00000000e+00
85       1.60125000e-03   -5.94121063e-01    5.94121063e-01    0.00000000e+00    1.00000000e+00
86       1.60250000e-03   -6.00420225e-01    6.00420225e-01    0.00000000e+00    1.00000000e+00
87       1.60500000e-03   -6.12907054e-01    6.12907054e-01    0.00000000e+00    1.00000000e+00
88       1.61000000e-03   -6.37423990e-01    6.37423990e-01    0.00000000e+00    1.00000000e+00
89       1.62000000e-03   -6.84547106e-01    6.84547106e-01    0.00000000e+00    1.00000000e+00
90       1.63000000e-03   -7.28968627e-01    7.28968627e-01    0.00000000e+00    1.00000000e+00
91       1.64000000e-03   -7.70513243e-01    7.70513243e-01    0.00000000e+00    1.00000000e+00
92       1.65000000e-03   -8.09016994e-01    8.09016994e-01    0.00000000e+00    1.00000000e+00
93       1.66000000e-03   -8.44327926e-01    8.44327926e-01    0.00000000e+00    1.00000000e+00
94       1.67000000e-03   -8.76306680e-01    8.76306680e-01    0.00000000e+00    1.00000000e+00
95       1.68000000e-03   -9.04827052e-01    9.04827052e-01    0.00000000e+00    1.00000000e+00
96       1.69000000e-03   -9.29776486e-01    9.29776486e-01    0.00000000e+00    1.00000000e+00
97       1.70000000e-03   -9.51056516e-01    9.51056516e-01    0.00000000e+00    1.00000000e+00
98       1.71000000e-03   -9.68583161e-01    9.68583161e-01    0.00000000e+00    1.00000000e+00
99       1.72000000e-03   -9.82287251e-01    9.82287251e-01    0.00000000e+00    1.00000000e+00
100      1.73000000e-03   -9.92114701e-01    9.92114701e-01    0.00000000e+00    1.00000000e+00
101      1.74000000e-03   -9.98026728e-01    9.98026728e-01    0.00000000e+00    1.00000000e+00
102      1.75000000e-03   -1.00000000e+00    1.00000000e+00    0.00000000e+00    1.00000000e+00
103      1.76000000e-03   -9.98026728e-01    9.98026728e-01    0.00000000e+00    1.00000000e+00
104      1.77000000e-03   -9.92114701e-01    9.92114701e-01    0.00000000e+00    1.00000000e+00
105      1.78000000e-03   -9.82287251e-01    9.82287251e-01    0.00000000e+00    1.00000000e+00
106      1.79000000e-03   -9.68583161e-01    9.68583161e-01    0.00000000e+00    1.00000000e+00
107      1.80000000e-03   -9.51056516e-01    9.51056516e-01    0.00000000e+00    1.00000000e+00
108      1.81000000e-03   -9.29776486e-01    9.29776486e-01    0.00000000e+00    1.00000000e+00
109      1.82000000e-03   -9.04827052e-01    9.04827052e-01    0.00000000e+00    1.00000000e+00
110      1.83000000e-03   -8.76306680e-01    8.76306680e-01    0.00000000e+00    1.00000000e+00
111      1.84000000e-03   -8.44327926e-01    8.44327926e-01    0.00000000e+00    1.00000000e+00
112      1.85000000e-03   -8.09016994e-01    8.09016994e-01    0.00000000e+00    1.00000000e+00
113      1.86000000e-03   -7.70513243e-01    7.70513243e-01    0.00000000e+00    1.00000000e+00
114      1.87000000e-03   -7.28968627e-01    7.28968627e-01    0.00000000e+00    1.00000000e+00
115      1.88000000e-03   -6.84547106e-01    6.84547106e-01    0.00000000e+00    1.00000000e+00
116      1.89000000e-03   -6.37423990e-01    6.37423990e-01    0.00000000e+00    1.00000000e+00
117      1.90000000e-03   -5.87785252e-01    5.87785252e-01    0.00000000e+00    1.00000000e+00
118      1.91000000e-03   -5.35826795e-01    5.35826795e-01    0.00000000e+00    1.00000000e+00
119      1.92000000e-03   -4.81753674e-01    4.81753674e-01    0.00000000e+00    1.00000000e+00
120      1.93000000e-03   -4.25779292e-01    4.25779292e-01    0.00000000e+00    1.00000000e+00
121      1.94000000e-03   -3.68124553e-01    3.68124553e-01    0.00000000e+00    1.00000000e+00
122      1.95000000e-03   -3.09016994e-01    3.09016994e-01    0.00000000e+00    1.00000000e+00
123      1.96000000e-03   -2.48689887e-01    2.48689887e-01    0.00000000e+00    1.00000000e+00
124      1.97000000e-03   -1.87381315e-01    1.87381315e-01    0.00000000e+00    1.00000000e+00
125      1.98000000e-03   -1.25333234e-01    1.25333234e-01    0.00000000e+00    1.00000000e+00
126      1.99000000e-03   -6.27905195e-02    6.27905195e-02    0.00000000e+00    1.00000000e+00
127      2.00000000e-03    4.83921178e-15    4.83921178e-15    0.00000000e+00    1.00000000e+00
128      2.00125000e-03    7.85390089e-03    7.85390089e-03    0.00000000e+00    1.00000000e+00
129      2.00250000e-03    1.57073173e-02    1.57073173e-02    0.00000000e+00    1.00000000e+00
130      2.00500000e-03    3.14107591e-02    3.14107591e-02    0.00000000e+00    1.00000000e+00
131      2.01000000e-03    6.27905195e-02    6.27905195e-02    0.00000000e+00    1.00000000e+00
132      2.01500000e-03    9.41083133e-02    9.41083133e-02    0.00000000e+00    1.00000000e+00
133      2.02000000e-03    1.25333234e-01    1.25333234e-01    0.00000000e+00    1.00000000e+00
134      2.03000000e-03    1.87381315e-01    1.87381315e-01    0.00000000e+00    1.00000000e+00
135      2.04000000e-03    2.48689887e-01    2.48689887e-01    0.00000000e+00    1.00000000e+00
136      2.05000000e-03    3.09016994e-01    3.09016994e-01    0.00000000e+00    1.00000000e+00
137      2.06000000e-03    3.68124553e-01    3.68124553e-01    0.00000000e+00    1.00000000e+00
138      2.07000000e-03    4.25779292e-01    4.25779292e-01    0.00000000e+00    1.00000000e+00
139      2.08000000e-03    4.81753674e-01    4.81753674e-01    0.00000000e+00    1.00000000e+00
140      2.09000000e-03    5.35826795e-01    5.35826795e-01    0.00000000e+00    1.00000000e+00
141      2.10000000e-03    5.87785252e-01    5.87785252e-01    0.00000000e+00    1.00000000e+00
142      2.11000000e-03    6.37423990e-01    6.37423990e-01    0.00000000e+00    1.00000000e+00
143      2.12000000e-03    6.84547106e-01    6.84547106e-01    0.00000000e+00    1.00000000e+00
144      2.13000000e-03    7.28968627e-01    7.28968627e-01    0.00000000e+00    1.00000000e+00
145      2.14000000e-03    7.70513243e-01    7.70513243e-01    0.00000000e+00    1.00000000e+00
146      2.15000000e-03    8.09016994e-01    8.09016994e-01    0.00000000e+00    1.00000000e+00
147      2.16000000e-03    8.44327926e-01    8.44327926e-01    0.00000000e+00    1.00000000e+00
148      2.17000000e-03    8.76306680e-01    8.76306680e-01    0.00000000e+00    1.00000000e+00
149      2.18000000e-03    9.04827052e-01    9.04827052e-01    0.00000000e+00    1.00000000e+00
150      2.19000000e-03    9.29776486e-01    9.29776486e-01    0.00000000e+00    1.00000000e+00
151      2.20000000e-03    9.51056516e-01    9.51056516e-01    0.00000000e+00    1.00000000e+00
152      2.20006250e-03    9.51177794e-01    9.51177794e-01    3.12500000e-02    1.09375000e+00
153      2.20010748e-03    9.51264975e-01    9.51264975e-01    5.37377422e-02    1.16121323e+00
154      2.20019743e-03    9.51439110e-01    9.51439110e-01    9.87132266e-02    1.29613968e+00
155      2.20037733e-03    9.51786468e-01    9.51786468e-01    1.88664195e-01    1.56599259e+00
156      2.20073713e-03    9.52477535e-01    9.52477535e-01    3.68566133e-01    2.10569840e+00
157      2.20145674e-03    9.53845061e-01    9.53845061e-01    7.28370008e-01    3.18511002e+00
158      2.20289596e-03    9.56521588e-01    9.56521588e-01    1.44797776e+00    5.34393328e+00
159      2.20577439e-03    9.61639776e-01    9.61639776e-01    2.88719326e+00    9.66157978e+00
160      2.21153125e-03    9.70930970e-01    9.70930970e-01    5.76562426e+00    1.82968728e+01
161      2.22304497e-03    9.85692263e-01    9.85692263e-01    1.15224863e+01    3.55674588e+01
162      2.24607242e-03    9.99695521e-01    9.99695521e-01    2.30362103e+01    7.01086308e+01
163      2.26909987e-03    9.92807677e-01    9.92807677e-01    3.45499343e+01    1.04649803e+02
164      2.31515476e-03    9.17367999e-01    9.17367999e-01    5.75773823e+01    1.73732147e+02
165      2.36120966e-03    7.65646279e-01    7.65646279e-01    8.06048303e+01    2.42814491e+02
166      2.40000000e-03    5.87785252e-01    5.87785252e-01    1.00000000e+02    3.01000000e+02
167      2.40460549e-03    5.64131801e-01    5.64131801e-01    1.00000000e+02    3.01000000e+02
168      2.41381647e-03    5.15428057e-01    5.15428057e-01    1.00000000e+02    3.01000000e+02
169      2.43223843e-03    4.13011703e-01    4.13011703e-01    1.00000000e+02    3.01000000e+02
170      2.46908234e-03    1.93041843e-01    1.93041843e-01    1.00000000e+02    3.01000000e+02
171      2.54277018e-03   -2.65510079e-01    2.65510079e-01    1.00000000e+02    3.01000000e+02
172      2.64277018e-03   -7.81490680e-01    7.81490680e-01    1.00000000e+02    3.01000000e+02
173      2.74277018e-03   -9.98968402e-01    9.98968402e-01    1.00000000e+02    3.01000000e+02
174      2.84277018e-03   -8.34874149e-01    8.34874149e-01    1.00000000e+02    3.01000000e+02
175      2.94277018e-03   -3.51886347e-01    3.51886347e-01    1.00000000e+02    3.01000000e+02
176      3.04277018e-03    2.65510079e-01    2.65510079e-01    1.00000000e+02    3.01000000e+02
177      3.14277018e-03    7.81490680e-01    7.81490680e-01    1.00000000e+02    3.01000000e+02
178      3.24277018e-03    9.98968402e-01    9.98968402e-01    1.00000000e+02    3.01000000e+02
179      3.34277018e-03    8.34874149e-01    8.34874149e-01    1.00000000e+02    3.01000000e+02
180      3.40000000e-03    5.87785252e-01    5.87785252e-01    1.00000000e+02    3.01000000e+02
181      3.40062500e-03    5.84603726e-01    5.84603726e-01    9.96875000e+01    3.00062500e+02
182      3.40187500e-03    5.78213677e-01    5.78213677e-01    9.90625000e+01    2.98187500e+02
183      3.40437500e-03    5.65326973e-01    5.65326973e-01    9.78125000e+01    2.94437500e+02
184      3.40937500e-03    5.39138323e-01    5.39138323e-01    9.53125000e+01    2.86937500e+02
185      3.41937500e-03    4.85191199e-01    4.85191199e-01    9.03125000e+01    2.71937500e+02
186      3.43937500e-03    3.71772929e-01    3.71772929e-01    8.03125000e+01    2.41937500e+02
187      3.47937500e-03    1.29228282e-01    1.29228282e-01    6.03125000e+01    1.81937500e+02
188      3.55937500e-03   -3.64470500e-01    3.64470500e-01    2.03125000e+01    6.19375000e+01
189      3.60000000e-03   -5.87785252e-01    5.87785252e-01   -4.26325641e-14    1.00000000e+00
190      3.60062500e-03   -5.90957714e-01    5.90957714e-01    0.00000000e+00    1.00000000e+00
191      3.60125000e-03   -5.94121063e-01    5.94121063e-01    0.00000000e+00    1.00000000e+00
192      3.60250000e-03   -6.00420225e-01    6.00420225e-01    0.00000000e+00    1.00000000e+00
193      3.60500000e-03   -6.12907054e-01    6.12907054e-01    0.00000000e+00    1.00000000e+00
194      3.61000000e-03   -6.37423990e-01    6.37423990e-01    0.00000000e+00    1.00000000e+00
195      3.62000000e-03   -6.84547106e-01    6.84547106e-01    0.00000000e+00    1.00000000e+00
196      3.63000000e-03   -7.28968627e-01    7.28968627e-01    0.00000000e+00    1.00000000e+00
197      3.64000000e-03   -7.70513243e-01    7.70513243e-01    0.00000000e+00    1.00000000e+00
198      3.65000000e-03   -8.09016994e-01    8.09016994e-01    0.00000000e+00    1.00000000e+00
199      3.66000000e-03   -8.44327926e-01    8.44327926e-01    0.00000000e+00    1.00000000e+00
200      3.67000000e-03   -8.76306680e-01    8.76306680e-01    0.00000000e+00    1.00000000e+00
201      3.68000000e-03   -9.04827052e-01    9.04827052e-01    0.00000000e+00    1.00000000e+00
202      3.69000000e-03   -9.29776486e-01    9.29776486e-01    0.00000000e+00    1.00000000e+00
203      3.70000000e-03   -9.51056516e-01    9.51056516e-01    0.00000000e+00    1.00000000e+00
204      3.71000000e-03   -9.68583161e-01    9.68583161e-01    0.00000000e+00    1.00000000e+00
205      3.72000000e-03   -9.82287251e-01    9.82287251e-01    0.00000000e+00    1.00000000e+00
206      3.73000000e-03   -9.92114701e-01    9.92114701e-01    0.00000000e+00    1.00000000e+00
