Index        TIME             V(B)            I(VIB)           I(VIC)
0       0.00000000e+00   0.00000000e+00   0.00000000e+00   0.00000000e+00   
1       1.00000000e-06   1.00000000e-06   1.93314094e-18   3.91752738e-21   
2       2.80000000e-06   2.80000000e-06   5.41279464e-18   1.09690767e-20   
3       6.40000000e-06   6.40000000e-06   1.23721020e-17   2.50721752e-20   
4       1.36000000e-05   1.36000000e-05   2.62907168e-17   5.32783724e-20   
5       2.80000000e-05   2.80000000e-05   5.41279464e-17   1.09690767e-19   
6       5.68000000e-05   5.68000000e-05   1.09802406e-16   2.22515555e-19   
7       1.14400000e-04   1.14400000e-04   2.21151324e-16   4.48165132e-19   
8       2.29600000e-04   2.29600000e-04   4.43849161e-16   8.99464287e-19   
9       4.60000000e-04   4.60000000e-04   8.89244834e-16   1.80206260e-18   
10      9.20800000e-04   9.20800000e-04   1.78003618e-15   3.60725921e-18   
11      1.84240000e-03   1.84240000e-03   3.56161887e-15   7.21765245e-18   
12      3.68560000e-03   3.68560000e-03   7.38479025e-15   1.53146028e-17   
13      7.37200000e-03   7.37200000e-03   1.53167160e-14   3.29786892e-17   
14      1.47448000e-02   1.47448000e-02   3.29815142e-14   7.68387874e-17   
15      2.94904000e-02   2.94904000e-02   7.68436497e-14   2.12729240e-16   
16      5.89816000e-02   5.89816000e-02   2.12742857e-13   8.78026026e-16   
17      1.17964000e-01   1.17964000e-01   8.78135810e-13   9.46564495e-15   
18      2.17964000e-01   2.17964000e-01   6.66382480e-12   4.56775557e-13   
19      3.17964000e-01   3.17964000e-01   4.68315387e-11   2.18212484e-11   
20      4.17964000e-01   4.17964000e-01   3.33158808e-10   1.04223376e-09   
21      5.17964000e-01   5.17964000e-01   2.72881629e-09   4.97791695e-08   
22      5.42964000e-01   5.42964000e-01   4.92602953e-09   1.30863016e-07   
23      5.55464000e-01   5.55464000e-01   6.72796315e-09   2.12178231e-07   
24      5.67964000e-01   5.67964000e-01   9.30542370e-09   3.44020101e-07   
25      5.80464000e-01   5.80464000e-01   1.30462193e-08   5.57783126e-07   
26      5.92964000e-01   5.92964000e-01   1.85533881e-08   9.04366795e-07   
27      6.04214000e-01   6.04214000e-01   2.57910411e-08   1.39711705e-06   
28      6.12665503e-01   6.12665503e-01   3.32876057e-08   1.93700669e-06   
29      6.20271856e-01   6.20271856e-01   4.21136912e-08   2.59918141e-06   
30      6.27082305e-01   6.27082305e-01   5.22103648e-08   3.38201965e-06   
31      6.33211708e-01   6.33211708e-01   6.35657586e-08   4.28625788e-06   
32      6.38728172e-01   6.38728172e-01   7.60826888e-08   5.30501668e-06   
33      6.44244635e-01   6.44244635e-01   9.12823384e-08   6.56585198e-06   
34      6.49761099e-01   6.49761099e-01   1.09769010e-07   8.12625269e-06   
35      6.60794025e-01   6.60794025e-01   1.59751417e-07   1.24471060e-05   
36      6.65205322e-01   6.65205322e-01   1.86023196e-07   1.47604026e-05   
37      6.69616618e-01   6.69616618e-01   2.16870201e-07   1.75033317e-05   
38      6.74027914e-01   6.74027914e-01   2.53113846e-07   2.07555668e-05   
39      6.82850507e-01   6.82850507e-01   3.45851027e-07   2.91829848e-05   
40      6.90672775e-01   6.90672775e-01   4.57554369e-07   3.94727153e-05   
41      6.98495043e-01   6.98495043e-01   6.06893422e-07   5.33829860e-05   
42      7.06317311e-01   7.06317311e-01   8.06774365e-07   7.21814780e-05   
43      7.14139579e-01   7.14139579e-01   1.07452567e-06   9.75745917e-05   
44      7.19354424e-01   7.19354424e-01   1.30317319e-06   1.19395547e-04   
45      7.24569270e-01   7.24569270e-01   1.58064663e-06   1.45990246e-04   
46      7.29784115e-01   7.29784115e-01   1.91441054e-06   1.78095810e-04   
47      7.33142172e-01   7.33142172e-01   2.16971516e-06   2.02737418e-04   
48      7.36500229e-01   7.36500229e-01   2.45805297e-06   2.30624640e-04   
49      7.39858285e-01   7.39858285e-01   2.78235999e-06   2.62048108e-04   
50      7.43216342e-01   7.43216342e-01   3.15380708e-06   2.98118741e-04   
51      7.46574399e-01   7.46574399e-01   3.57359041e-06   3.38953860e-04   
52      7.49932456e-01   7.49932456e-01   4.04607256e-06   3.84986200e-04   
53      7.53290512e-01   7.53290512e-01   4.58559288e-06   4.37643379e-04   
54      7.56648569e-01   7.56648569e-01   5.19508868e-06   4.97216005e-04   
55      7.60006626e-01   7.60006626e-01   5.88106042e-06   5.64349998e-04   
56      7.63364682e-01   7.63364682e-01   6.66225976e-06   6.40914221e-04   
57      7.66722739e-01   7.66722739e-01   7.54343699e-06   7.27379889e-04   
58      7.70080796e-01   7.70080796e-01   8.53371782e-06   8.24654983e-04   
59      7.73438853e-01   7.73438853e-01   9.65813027e-06   9.35236316e-04   
60      7.76796909e-01   7.76796909e-01   1.09235283e-05   1.05980489e-03   
61      7.80154966e-01   7.80154966e-01   1.23424452e-05   1.19960915e-03   
62      7.85192051e-01   7.85192051e-01   1.48173601e-05   1.44374197e-03   
63      7.90229136e-01   7.90229136e-01   1.77600196e-05   1.73436203e-03   
64      7.95266222e-01   7.95266222e-01   2.12448921e-05   2.07890073e-03   
65      8.00303307e-01   8.00303307e-01   2.53535945e-05   2.48550462e-03   
66      8.03981389e-01   8.03981389e-01   2.88005542e-05   2.82688742e-03   
67      8.07659471e-01   8.07659471e-01   3.26657988e-05   3.20992443e-03   
68      8.11337553e-01   8.11337553e-01   3.69888328e-05   3.63856339e-03   
69      8.15015635e-01   8.15015635e-01   4.18112587e-05   4.11696231e-03   
70      8.18693716e-01   8.18693716e-01   4.71532961e-05   4.64715614e-03   
71      8.22371798e-01   8.22371798e-01   5.30647834e-05   5.23412483e-03   
72      8.26049880e-01   8.26049880e-01   5.95871687e-05   5.88201638e-03   
73      8.29727962e-01   8.29727962e-01   6.67631846e-05   6.59510818e-03   
74      8.33406044e-01   8.33406044e-01   7.45808609e-05   7.37221832e-03   
75      8.37084126e-01   8.37084126e-01   8.30938489e-05   8.21871652e-03   
76      8.40762208e-01   8.40762208e-01   9.23325036e-05   9.13764822e-03   
77      8.44440290e-01   8.44440290e-01   1.02326402e-04   1.01319824e-02   
78      8.48118372e-01   8.48118372e-01   1.13040898e-04   1.11982625e-02   
79      8.51796454e-01   8.51796454e-01   1.24512148e-04   1.23401185e-02   
80      8.55474536e-01   8.55474536e-01   1.36747871e-04   1.35583364e-02   
81      8.59152618e-01   8.59152618e-01   1.49752408e-04   1.48533653e-02   
82      8.62830700e-01   8.62830700e-01   1.63499522e-04   1.62225705e-02   
83      8.66508782e-01   8.66508782e-01   1.77990279e-04   1.76660793e-02   
84      8.70186864e-01   8.70186864e-01   1.93210507e-04   1.91824847e-02   
85      8.73864946e-01   8.73864946e-01   2.09141538e-04   2.07699301e-02   
86      8.77543028e-01   8.77543028e-01   2.25800180e-04   2.24278521e-02   
87      8.81221110e-01   8.81221110e-01   2.43153645e-04   2.41532712e-02   
88      8.84899192e-01   8.84899192e-01   2.61182076e-04   2.59435183e-02   
89      8.88577274e-01   8.88577274e-01   2.79862756e-04   2.77955458e-02   
90      8.90727064e-01   8.90727064e-01   2.91951908e-04   2.89003317e-02   
91      8.92876854e-01   8.92876854e-01   3.04706849e-04   3.00217370e-02   
92      8.95026644e-01   8.95026644e-01   3.18221709e-04   3.11584095e-02   
93      8.97176435e-01   8.97176435e-01   3.32598786e-04   3.23089048e-02   
94      8.99326225e-01   8.99326225e-01   3.58983010e-04   3.33796283e-02   
95      9.01476015e-01   9.01476015e-01   3.94645182e-04   3.43927102e-02   
96      9.03625805e-01   9.03625805e-01   4.42017321e-04   3.53271982e-02   
97      9.05775595e-01   9.05775595e-01   5.03778926e-04   3.61600508e-02   
98      9.07925385e-01   9.07925385e-01   5.79295316e-04   3.68845293e-02   
99      9.10075175e-01   9.10075175e-01   6.72328699e-04   3.74703801e-02   
100     9.12224966e-01   9.12224966e-01   7.85316576e-04   3.78933796e-02   
101     9.14374756e-01   9.14374756e-01   9.20824031e-04   3.81278343e-02   
102     9.15912585e-01   9.15912585e-01   1.00950903e-03   3.83686814e-02   
103     9.18988244e-01   9.18988244e-01   1.19376472e-03   3.87968312e-02   
104     9.22063904e-01   9.22063904e-01   1.38494487e-03   3.91717728e-02   
105     9.28215222e-01   9.28215222e-01   1.78140945e-03   3.98158286e-02   
106     9.34366540e-01   9.34366540e-01   2.19048480e-03   4.03686662e-02   
107     9.40517858e-01   9.40517858e-01   2.60804939e-03   4.08633011e-02   
108     9.52820494e-01   9.52820494e-01   3.46036006e-03   4.17435163e-02   
109     9.65123131e-01   9.65123131e-01   4.32842489e-03   4.25337133e-02   
110     9.77425767e-01   9.77425767e-01   5.20764665e-03   4.32682750e-02   
111     9.89728404e-01   9.89728404e-01   6.09546953e-03   4.39653478e-02   
112     1.00000000e+00   1.00000000e+00   6.84213340e-03   4.45265055e-02   
End of Xyce(TM) Simulation
