Index       TIME              V(1)              V(2)              V(3)              V(4)              V(5)              V(6)       
0        0.00000000e+00    0.00000000e+00    0.00000000e+00    0.00000000e+00    0.00000000e+00    0.00000000e+00    0.00000000e+00
1        5.00000000e-03    7.50000000e-03    7.50000000e-03    7.50000000e-03    0.00000000e+00    0.00000000e+00    0.00000000e+00
2        1.50000000e-02    2.25000000e-02    2.25000000e-02    2.25000000e-02    0.00000000e+00    0.00000000e+00    0.00000000e+00
3        3.50000000e-02    5.25000000e-02    5.25000000e-02    5.25000000e-02    0.00000000e+00    0.00000000e+00    0.00000000e+00
4        7.50000000e-02    1.12500000e-01    1.12500000e-01    1.12500000e-01    0.00000000e+00    0.00000000e+00    0.00000000e+00
5        1.55000000e-01    2.32500000e-01    2.32500000e-01    2.32500000e-01    0.00000000e+00    0.00000000e+00    0.00000000e+00
6        3.15000000e-01    4.72500000e-01    4.72500000e-01    4.72500000e-01    0.00000000e+00    0.00000000e+00    0.00000000e+00
7        6.35000000e-01    9.52500000e-01    9.52500000e-01    9.52500000e-01    0.00000000e+00    0.00000000e+00    0.00000000e+00
8        1.00000000e+00    1.50000000e+00    1.50000000e+00    1.50000000e+00    0.00000000e+00    0.00000000e+00    0.00000000e+00
9        1.00400000e+00    1.50600000e+00    1.50600000e+00    1.50600000e+00    6.00000000e-03    6.00000000e-03    6.00000000e-03
10       1.00800000e+00    1.51200000e+00    1.51200000e+00    1.51200000e+00    1.20000000e-02    1.20000000e-02    1.20000000e-02
11       1.01600000e+00    1.52400000e+00    1.52400000e+00    1.52400000e+00    2.40000000e-02    2.40000000e-02    2.40000000e-02
12       1.03200000e+00    1.54800000e+00    1.54800000e+00    1.54800000e+00    4.80000000e-02    4.80000000e-02    4.80000000e-02
13       1.06400000e+00    1.59600000e+00    1.59600000e+00    1.59600000e+00    9.60000000e-02    9.60000000e-02    9.60000000e-02
14       1.12800000e+00    1.69200000e+00    1.69200000e+00    1.69200000e+00    1.92000000e-01    1.92000000e-01    1.92000000e-01
15       1.25600000e+00    1.88400000e+00    1.88400000e+00    1.88400000e+00    3.84000000e-01    3.84000000e-01    3.84000000e-01
16       1.51200000e+00    2.26800000e+00    2.26800000e+00    2.26800000e+00    7.68000000e-01    7.68000000e-01    7.68000000e-01
17       2.00000000e+00    3.00000000e+00    3.00000000e+00    3.00000000e+00    1.50000000e+00    1.50000000e+00    1.50000000e+00
18       2.01305596e+00    2.98694404e+00    2.98694404e+00    2.98694404e+00    1.51958394e+00    1.51958394e+00    1.51958394e+00
19       2.02339764e+00    2.97660236e+00    2.97660236e+00    2.97660236e+00    1.53509647e+00    1.53509647e+00    1.53509647e+00
20       2.04408101e+00    2.95591899e+00    2.95591899e+00    2.95591899e+00    1.56612151e+00    1.56612151e+00    1.56612151e+00
21       2.08544774e+00    2.91455226e+00    2.91455226e+00    2.91455226e+00    1.62817161e+00    1.62817161e+00    1.62817161e+00
22       2.16818119e+00    2.83181881e+00    2.83181881e+00    2.83181881e+00    1.75227179e+00    1.75227179e+00    1.75227179e+00
23       2.33364811e+00    2.66635189e+00    2.66635189e+00    2.66635189e+00    2.00047217e+00    2.00047217e+00    2.00047217e+00
24       2.66458194e+00    2.33541806e+00    2.33541806e+00    2.33541806e+00    2.49687291e+00    2.49687291e+00    2.49687291e+00
25       3.00000000e+00    2.00000000e+00    2.00000000e+00    2.00000000e+00    3.00000000e+00    3.00000000e+00    3.00000000e+00
26       3.01993101e+00    2.00000000e+00    2.00000000e+00    2.00000000e+00    2.98006899e+00    2.98006899e+00    2.98006899e+00
27       3.03600599e+00    2.00000000e+00    2.00000000e+00    2.00000000e+00    2.96399401e+00    2.96399401e+00    2.96399401e+00
28       3.06815597e+00    2.00000000e+00    2.00000000e+00    2.00000000e+00    2.93184403e+00    2.93184403e+00    2.93184403e+00
29       3.13245593e+00    2.00000000e+00    2.00000000e+00    2.00000000e+00    2.86754407e+00    2.86754407e+00    2.86754407e+00
30       3.26105585e+00    2.00000000e+00    2.00000000e+00    2.00000000e+00    2.73894415e+00    2.73894415e+00    2.73894415e+00
31       3.51825568e+00    2.00000000e+00    2.00000000e+00    2.00000000e+00    2.48174432e+00    2.48174432e+00    2.48174432e+00
32       4.00000000e+00    2.00000000e+00    2.00000000e+00    2.00000000e+00    2.00000000e+00    2.00000000e+00    2.00000000e+00
33       4.00006250e+00    2.01875000e+00    2.01875000e+00    2.01875000e+00    2.00000000e+00    2.00000000e+00    2.00000000e+00
34       4.00012500e+00    2.03750000e+00    2.03750000e+00    2.03750000e+00    2.00000000e+00    2.00000000e+00    2.00000000e+00
35       4.00025000e+00    2.07500000e+00    2.07500000e+00    2.07500000e+00    2.00000000e+00    2.00000000e+00    2.00000000e+00
36       4.00050000e+00    2.15000000e+00    2.15000000e+00    2.15000000e+00    2.00000000e+00    2.00000000e+00    2.00000000e+00
37       4.00100000e+00    2.30000000e+00    2.30000000e+00    2.30000000e+00    2.00000000e+00    2.00000000e+00    2.00000000e+00
38       4.00200000e+00    2.60000000e+00    2.60000000e+00    2.60000000e+00    2.00000000e+00    2.00000000e+00    2.00000000e+00
39       4.00400000e+00    3.20000000e+00    3.20000000e+00    3.20000000e+00    2.00000000e+00    2.00000000e+00    2.00000000e+00
40       4.00800000e+00    4.40000000e+00    4.40000000e+00    4.40000000e+00    2.00000000e+00    2.00000000e+00    2.00000000e+00
41       4.01000000e+00    5.00000000e+00    5.00000000e+00    5.00000000e+00    2.00000000e+00    2.00000000e+00    2.00000000e+00
42       4.01080000e+00    5.00000000e+00    5.00000000e+00    5.00000000e+00    2.00000000e+00    2.00000000e+00    2.00000000e+00
43       4.01240000e+00    5.00000000e+00    5.00000000e+00    5.00000000e+00    2.00000000e+00    2.00000000e+00    2.00000000e+00
44       4.01560000e+00    5.00000000e+00    5.00000000e+00    5.00000000e+00    2.00000000e+00    2.00000000e+00    2.00000000e+00
45       4.02200000e+00    5.00000000e+00    5.00000000e+00    5.00000000e+00    2.00000000e+00    2.00000000e+00    2.00000000e+00
46       4.03480000e+00    5.00000000e+00    5.00000000e+00    5.00000000e+00    2.00000000e+00    2.00000000e+00    2.00000000e+00
47       4.06040000e+00    5.00000000e+00    5.00000000e+00    5.00000000e+00    2.00000000e+00    2.00000000e+00    2.00000000e+00
48       4.11160000e+00    5.00000000e+00    5.00000000e+00    5.00000000e+00    2.00000000e+00    2.00000000e+00    2.00000000e+00
49       4.21400000e+00    5.00000000e+00    5.00000000e+00    5.00000000e+00    2.00000000e+00    2.00000000e+00    2.00000000e+00
50       4.41880000e+00    5.00000000e+00    5.00000000e+00    5.00000000e+00    2.00000000e+00    2.00000000e+00    2.00000000e+00
51       4.50000000e+00    5.00000000e+00    5.00000000e+00    5.00000000e+00    2.00000000e+00    2.00000000e+00    2.00000000e+00
52       4.50006250e+00    4.95625000e+00    4.95625000e+00    4.95625000e+00    2.00000000e+00    2.00000000e+00    2.00000000e+00
53       4.50012500e+00    4.91250000e+00    4.91250000e+00    4.91250000e+00    2.00000000e+00    2.00000000e+00    2.00000000e+00
54       4.50025000e+00    4.82500000e+00    4.82500000e+00    4.82500000e+00    2.00000000e+00    2.00000000e+00    2.00000000e+00
55       4.50050000e+00    4.65000000e+00    4.65000000e+00    4.65000000e+00    2.00000000e+00    2.00000000e+00    2.00000000e+00
56       4.50100000e+00    4.30000000e+00    4.30000000e+00    4.30000000e+00    2.00000000e+00    2.00000000e+00    2.00000000e+00
57       4.50200000e+00    3.60000000e+00    3.60000000e+00    3.60000000e+00    2.00000000e+00    2.00000000e+00    2.00000000e+00
58       4.50400000e+00    2.20000000e+00    2.20000000e+00    2.20000000e+00    2.00000000e+00    2.00000000e+00    2.00000000e+00
59       4.50800000e+00   -6.00000000e-01   -6.00000000e-01   -6.00000000e-01    2.00000000e+00    2.00000000e+00    2.00000000e+00
60       4.51000000e+00   -2.00000000e+00   -2.00000000e+00   -2.00000000e+00    2.00000000e+00    2.00000000e+00    2.00000000e+00
61       4.51080000e+00   -1.99903614e+00   -1.99903614e+00   -1.99903614e+00    2.00000000e+00    2.00000000e+00    2.00000000e+00
62       4.51240000e+00   -1.99710843e+00   -1.99710843e+00   -1.99710843e+00    2.00000000e+00    2.00000000e+00    2.00000000e+00
63       4.51560000e+00   -1.99325301e+00   -1.99325301e+00   -1.99325301e+00    2.00000000e+00    2.00000000e+00    2.00000000e+00
64       4.52200000e+00   -1.98554217e+00   -1.98554217e+00   -1.98554217e+00    2.00000000e+00    2.00000000e+00    2.00000000e+00
65       4.53480000e+00   -1.97012048e+00   -1.97012048e+00   -1.97012048e+00    2.00000000e+00    2.00000000e+00    2.00000000e+00
66       4.56040000e+00   -1.93927711e+00   -1.93927711e+00   -1.93927711e+00    2.00000000e+00    2.00000000e+00    2.00000000e+00
67       4.61160000e+00   -1.87759036e+00   -1.87759036e+00   -1.87759036e+00    2.00000000e+00    2.00000000e+00    2.00000000e+00
68       4.71400000e+00   -1.75421687e+00   -1.75421687e+00   -1.75421687e+00    2.00000000e+00    2.00000000e+00    2.00000000e+00
69       4.91880000e+00   -1.50746988e+00   -1.50746988e+00   -1.50746988e+00    2.00000000e+00    2.00000000e+00    2.00000000e+00
70       5.00000000e+00   -1.40963855e+00   -1.40963855e+00   -1.40963855e+00    2.00000000e+00    2.00000000e+00    2.00000000e+00
71       5.00006250e+00   -1.40956325e+00   -1.40956325e+00   -1.40956325e+00    2.01875000e+00    2.01875000e+00    2.01875000e+00
72       5.00012500e+00   -1.40948795e+00   -1.40948795e+00   -1.40948795e+00    2.03750000e+00    2.03750000e+00    2.03750000e+00
73       5.00025000e+00   -1.40933735e+00   -1.40933735e+00   -1.40933735e+00    2.07500000e+00    2.07500000e+00    2.07500000e+00
74       5.00050000e+00   -1.40903614e+00   -1.40903614e+00   -1.40903614e+00    2.15000000e+00    2.15000000e+00    2.15000000e+00
75       5.00100000e+00   -1.40843373e+00   -1.40843373e+00   -1.40843373e+00    2.30000000e+00    2.30000000e+00    2.30000000e+00
76       5.00200000e+00   -1.40722892e+00   -1.40722892e+00   -1.40722892e+00    2.60000000e+00    2.60000000e+00    2.60000000e+00
77       5.00400000e+00   -1.40481928e+00   -1.40481928e+00   -1.40481928e+00    3.20000000e+00    3.20000000e+00    3.20000000e+00
78       5.00800000e+00   -1.40000000e+00   -1.40000000e+00   -1.40000000e+00    4.40000000e+00    4.40000000e+00    4.40000000e+00
79       5.01000000e+00   -1.39759036e+00   -1.39759036e+00   -1.39759036e+00    5.00000000e+00    5.00000000e+00    5.00000000e+00
80       5.01080000e+00   -1.39662651e+00   -1.39662651e+00   -1.39662651e+00    5.00000000e+00    5.00000000e+00    5.00000000e+00
81       5.01240000e+00   -1.39469880e+00   -1.39469880e+00   -1.39469880e+00    5.00000000e+00    5.00000000e+00    5.00000000e+00
82       5.01560000e+00   -1.39084337e+00   -1.39084337e+00   -1.39084337e+00    5.00000000e+00    5.00000000e+00    5.00000000e+00
83       5.02200000e+00   -1.38313253e+00   -1.38313253e+00   -1.38313253e+00    5.00000000e+00    5.00000000e+00    5.00000000e+00
84       5.03480000e+00   -1.36771084e+00   -1.36771084e+00   -1.36771084e+00    5.00000000e+00    5.00000000e+00    5.00000000e+00
85       5.06040000e+00   -1.33686747e+00   -1.33686747e+00   -1.33686747e+00    5.00000000e+00    5.00000000e+00    5.00000000e+00
86       5.11160000e+00   -1.27518072e+00   -1.27518072e+00   -1.27518072e+00    5.00000000e+00    5.00000000e+00    5.00000000e+00
87       5.21400000e+00   -1.15180723e+00   -1.15180723e+00   -1.15180723e+00    5.00000000e+00    5.00000000e+00    5.00000000e+00
88       5.41880000e+00   -9.05060241e-01   -9.05060241e-01   -9.05060241e-01    5.00000000e+00    5.00000000e+00    5.00000000e+00
89       5.50000000e+00   -8.07228916e-01   -8.07228916e-01   -8.07228916e-01    5.00000000e+00    5.00000000e+00    5.00000000e+00
90       5.50006250e+00   -8.07153614e-01   -8.07153614e-01   -8.07153614e-01    4.95625000e+00    4.95625000e+00    4.95625000e+00
91       5.50012500e+00   -8.07078313e-01   -8.07078313e-01   -8.07078313e-01    4.91250000e+00    4.91250000e+00    4.91250000e+00
92       5.50025000e+00   -8.06927711e-01   -8.06927711e-01   -8.06927711e-01    4.82500000e+00    4.82500000e+00    4.82500000e+00
93       5.50050000e+00   -8.06626506e-01   -8.06626506e-01   -8.06626506e-01    4.65000000e+00    4.65000000e+00    4.65000000e+00
94       5.50100000e+00   -8.06024096e-01   -8.06024096e-01   -8.06024096e-01    4.30000000e+00    4.30000000e+00    4.30000000e+00
95       5.50200000e+00   -8.04819277e-01   -8.04819277e-01   -8.04819277e-01    3.60000000e+00    3.60000000e+00    3.60000000e+00
96       5.50400000e+00   -8.02409639e-01   -8.02409639e-01   -8.02409639e-01    2.20000000e+00    2.20000000e+00    2.20000000e+00
97       5.50800000e+00   -7.97590361e-01   -7.97590361e-01   -7.97590361e-01   -6.00000000e-01   -6.00000000e-01   -6.00000000e-01
98       5.51000000e+00   -7.95180723e-01   -7.95180723e-01   -7.95180723e-01   -2.00000000e+00   -2.00000000e+00   -2.00000000e+00
99       5.51080000e+00   -7.94216867e-01   -7.94216867e-01   -7.94216867e-01   -1.99903614e+00   -1.99903614e+00   -1.99903614e+00
100      5.51160000e+00   -7.93253012e-01   -7.93253012e-01   -7.93253012e-01   -1.99807229e+00   -1.99807229e+00   -1.99807229e+00
101      5.51320000e+00   -7.91325301e-01   -7.91325301e-01   -7.91325301e-01   -1.99614458e+00   -1.99614458e+00   -1.99614458e+00
102      5.51640000e+00   -7.87469880e-01   -7.87469880e-01   -7.87469880e-01   -1.99228916e+00   -1.99228916e+00   -1.99228916e+00
103      5.52280000e+00   -7.79759036e-01   -7.79759036e-01   -7.79759036e-01   -1.98457831e+00   -1.98457831e+00   -1.98457831e+00
104      5.53560000e+00   -7.64337349e-01   -7.64337349e-01   -7.64337349e-01   -1.96915663e+00   -1.96915663e+00   -1.96915663e+00
105      5.56120000e+00   -7.33493976e-01   -7.33493976e-01   -7.33493976e-01   -1.93831325e+00   -1.93831325e+00   -1.93831325e+00
106      5.61240000e+00   -6.71807229e-01   -6.71807229e-01   -6.71807229e-01   -1.87662651e+00   -1.87662651e+00   -1.87662651e+00
107      5.71480000e+00   -5.48433735e-01   -5.48433735e-01   -5.48433735e-01   -1.75325301e+00   -1.75325301e+00   -1.75325301e+00
108      5.91960000e+00   -3.01686747e-01   -3.01686747e-01   -3.01686747e-01   -1.50650602e+00   -1.50650602e+00   -1.50650602e+00
109      6.32920000e+00    1.91807229e-01    1.91807229e-01    1.91807229e-01   -1.01301205e+00   -1.01301205e+00   -1.01301205e+00
110      7.00000000e+00    1.00000000e+00    1.00000000e+00    1.00000000e+00   -2.04819277e-01   -2.04819277e-01   -2.04819277e-01
111      7.00512000e+00    9.94880000e-01    9.94880000e-01    9.94880000e-01   -1.98650602e-01   -1.98650602e-01   -1.98650602e-01
112      7.01024000e+00    9.89760000e-01    9.89760000e-01    9.89760000e-01   -1.92481928e-01   -1.92481928e-01   -1.92481928e-01
113      7.02048000e+00    9.79520000e-01    9.79520000e-01    9.79520000e-01   -1.80144578e-01   -1.80144578e-01   -1.80144578e-01
114      7.04096000e+00    9.59040000e-01    9.59040000e-01    9.59040000e-01   -1.55469880e-01   -1.55469880e-01   -1.55469880e-01
115      7.08192000e+00    9.18080000e-01    9.18080000e-01    9.18080000e-01   -1.06120482e-01   -1.06120482e-01   -1.06120482e-01
116      7.16384000e+00    8.36160000e-01    8.36160000e-01    8.36160000e-01   -7.42168675e-03   -7.42168675e-03   -7.42168675e-03
117      7.32768000e+00    6.72320000e-01    6.72320000e-01    6.72320000e-01    1.89975904e-01    1.89975904e-01    1.89975904e-01
118      7.65536000e+00    3.44640000e-01    3.44640000e-01    3.44640000e-01    5.84771084e-01    5.84771084e-01    5.84771084e-01
119      8.00000000e+00    0.00000000e+00    0.00000000e+00    0.00000000e+00    1.00000000e+00    1.00000000e+00    1.00000000e+00
120      8.00409600e+00   -4.09600000e-03   -4.09600000e-03   -4.09600000e-03    9.95904000e-01    9.95904000e-01    9.95904000e-01
121      8.00819200e+00   -8.19200000e-03   -8.19200000e-03   -8.19200000e-03    9.91808000e-01    9.91808000e-01    9.91808000e-01
122      8.01638400e+00   -1.63840000e-02   -1.63840000e-02   -1.63840000e-02    9.83616000e-01    9.83616000e-01    9.83616000e-01
123      8.03276800e+00   -3.27680000e-02   -3.27680000e-02   -3.27680000e-02    9.67232000e-01    9.67232000e-01    9.67232000e-01
124      8.06553600e+00   -6.55360000e-02   -6.55360000e-02   -6.55360000e-02    9.34464000e-01    9.34464000e-01    9.34464000e-01
125      8.13107200e+00   -1.31072000e-01   -1.31072000e-01   -1.31072000e-01    8.68928000e-01    8.68928000e-01    8.68928000e-01
126      8.26214400e+00   -2.62144000e-01   -2.62144000e-01   -2.62144000e-01    7.37856000e-01    7.37856000e-01    7.37856000e-01
127      8.52428800e+00   -5.24288000e-01   -5.24288000e-01   -5.24288000e-01    4.75712000e-01    4.75712000e-01    4.75712000e-01
128      9.00000000e+00   -1.00000000e+00   -1.00000000e+00   -1.00000000e+00    0.00000000e+00    0.00000000e+00    0.00000000e+00
129      9.00006250e+00   -9.68750000e-01   -9.68750000e-01   -9.68750000e-01   -6.25000000e-05   -6.25000000e-05   -6.25000000e-05
130      9.00010862e+00   -9.45690919e-01   -9.45690919e-01   -9.45690919e-01   -1.08618162e-04   -1.08618162e-04   -1.08618162e-04
131      9.00020085e+00   -8.99572757e-01   -8.99572757e-01   -8.99572757e-01   -2.00854486e-04   -2.00854486e-04   -2.00854486e-04
132      9.00038533e+00   -8.07336433e-01   -8.07336433e-01   -8.07336433e-01   -3.85327133e-04   -3.85327133e-04   -3.85327133e-04
133      9.00075427e+00   -6.22863786e-01   -6.22863786e-01   -6.22863786e-01   -7.54272428e-04   -7.54272428e-04   -7.54272428e-04
134      9.00149216e+00   -2.53918491e-01   -2.53918491e-01   -2.53918491e-01   -1.49216302e-03   -1.49216302e-03   -1.49216302e-03
135      9.00296794e+00    4.83972099e-01    4.83972099e-01    4.83972099e-01   -2.96794420e-03   -2.96794420e-03   -2.96794420e-03
136      9.00591951e+00    1.95975328e+00    1.95975328e+00    1.95975328e+00   -5.91950656e-03   -5.91950656e-03   -5.91950656e-03
137      9.01000000e+00    4.00000000e+00    4.00000000e+00    4.00000000e+00   -1.00000000e-02   -1.00000000e-02   -1.00000000e-02
138      9.01059031e+00    3.99940372e+00    3.99940372e+00    3.99940372e+00   -1.05903125e-02   -1.05903125e-02   -1.05903125e-02
139      9.01177094e+00    3.99821117e+00    3.99821117e+00    3.99821117e+00   -1.17709374e-02   -1.17709374e-02   -1.17709374e-02
140      9.01413219e+00    3.99582607e+00    3.99582607e+00    3.99582607e+00   -1.41321873e-02   -1.41321873e-02   -1.41321873e-02
141      9.01885469e+00    3.99105587e+00    3.99105587e+00    3.99105587e+00   -1.88546871e-02   -1.88546871e-02   -1.88546871e-02
142      9.02829969e+00    3.98151547e+00    3.98151547e+00    3.98151547e+00   -2.82996866e-02   -2.82996866e-02   -2.82996866e-02
143      9.04718969e+00    3.96243466e+00    3.96243466e+00    3.96243466e+00   -4.71896857e-02   -4.71896857e-02   -4.71896857e-02
144      9.08496968e+00    3.92427305e+00    3.92427305e+00    3.92427305e+00   -8.49696840e-02   -8.49696840e-02   -8.49696840e-02
145      9.16052968e+00    3.84794982e+00    3.84794982e+00    3.84794982e+00   -1.60529680e-01   -1.60529680e-01   -1.60529680e-01
146      9.31164967e+00    3.69530336e+00    3.69530336e+00    3.69530336e+00   -3.11649673e-01   -3.11649673e-01   -3.11649673e-01
147      9.61388966e+00    3.39001045e+00    3.39001045e+00    3.39001045e+00   -6.13889659e-01   -6.13889659e-01   -6.13889659e-01
148      1.00000000e+01    3.00000000e+00    3.00000000e+00    3.00000000e+00   -1.00000000e+00   -1.00000000e+00   -1.00000000e+00
149      1.00000625e+01    3.00000000e+00    3.00000000e+00    3.00000000e+00   -9.68750000e-01   -9.68750000e-01   -9.68750000e-01
