Index    TIME    {V(DRAIN)}_quad_pce_mean    {V(DRAIN)}_quad_pce_meanPlus    {V(DRAIN)}_quad_pce_meanMinus    {V(DRAIN)}_quad_pce_stddev    {V(DRAIN)}_quad_pce_variance    
0   0.00000000e+00   1.00000000e+00   1.00000000e+00   1.00000000e+00   3.38717400e-09   1.14729500e-17   
1   1.00000000e-09   1.00000000e+00   1.00000000e+00   1.00000000e+00   3.54211800e-09   1.25466000e-17   
2   3.00000000e-09   1.00000000e+00   1.00000000e+00   1.00000000e+00   3.54416800e-09   1.25611300e-17   
3   7.00000000e-09   1.00000000e+00   1.00000000e+00   1.00000000e+00   3.54419500e-09   1.25613200e-17   
4   1.50000000e-08   1.00000000e+00   1.00000000e+00   1.00000000e+00   3.54416900e-09   1.25611300e-17   
5   3.10000000e-08   1.00000000e+00   1.00000000e+00   1.00000000e+00   3.54419500e-09   1.25613200e-17   
6   6.30000000e-08   1.00000000e+00   1.00000000e+00   1.00000000e+00   3.54416900e-09   1.25611300e-17   
7   1.03000000e-07   1.00000000e+00   1.00000000e+00   1.00000000e+00   3.54419500e-09   1.25613200e-17   
8   1.43000000e-07   1.00000000e+00   1.00000000e+00   1.00000000e+00   3.54416900e-09   1.25611300e-17   
9   1.83000000e-07   1.00000000e+00   1.00000000e+00   1.00000000e+00   3.54419500e-09   1.25613200e-17   
10   2.23000000e-07   1.00000000e+00   1.00000000e+00   1.00000000e+00   3.54416900e-09   1.25611300e-17   
11   2.63000000e-07   1.00000000e+00   1.00000000e+00   1.00000000e+00   3.54419500e-09   1.25613200e-17   
12   3.03000000e-07   1.00000000e+00   1.00000000e+00   1.00000000e+00   3.54416900e-09   1.25611300e-17   
13   3.43000000e-07   1.00000000e+00   1.00000000e+00   1.00000000e+00   3.54419500e-09   1.25613200e-17   
14   3.83000000e-07   1.00000000e+00   1.00000000e+00   1.00000000e+00   3.54416900e-09   1.25611300e-17   
15   4.00000000e-07   1.00000000e+00   1.00000000e+00   1.00000000e+00   3.54419500e-09   1.25613100e-17   
16   4.01096000e-07   1.00008600e+00   1.00011000e+00   1.00006100e+00   2.43875100e-05   5.94750800e-10   
17   4.01970600e-07   1.00008900e+00   1.00011500e+00   1.00006300e+00   2.64339000e-05   6.98751000e-10   
18   4.03719900e-07   1.00009500e+00   1.00012500e+00   1.00006400e+00   3.03551600e-05   9.21435500e-10   
19   4.07218400e-07   1.00011100e+00   1.00015300e+00   1.00006900e+00   4.21021800e-05   1.77259400e-09   
20   4.14215500e-07   1.00016600e+00   1.00025900e+00   1.00007300e+00   9.26393600e-05   8.58205100e-09   
21   4.28209600e-07   1.00075700e+00   1.00155400e+00   9.99959500e-01   7.97257600e-04   6.35619700e-07   
22   4.31999800e-07   1.00130100e+00   1.00285700e+00   9.99744400e-01   1.55639800e-03   2.42237600e-06   
23   4.35790000e-07   1.00193900e+00   1.00471000e+00   9.99167100e-01   2.77164000e-03   7.68198800e-06   
24   4.39580300e-07   1.00222400e+00   1.01005200e+00   9.94396800e-01   7.82743600e-03   6.12687500e-05   
25   4.39995600e-07   1.00205000e+00   1.01110300e+00   9.92996300e-01   9.05334100e-03   8.19629900e-05   
26   4.40410900e-07   1.00183000e+00   1.01228100e+00   9.91378700e-01   1.04510100e-02   1.09223600e-04   
27   4.41241500e-07   1.00109800e+00   1.01539500e+00   9.86800900e-01   1.42972200e-02   2.04410600e-04   
28   4.42072200e-07   9.99833100e-01   1.01968900e+00   9.79976900e-01   1.98562100e-02   3.94269000e-04   
29   4.42902800e-07   9.97839900e-01   1.02535900e+00   9.70320300e-01   2.75195800e-02   7.57327400e-04   
30   4.43733400e-07   9.94851200e-01   1.03254500e+00   9.57157200e-01   3.76939500e-02   1.42083400e-03   
31   4.44564000e-07   9.90483700e-01   1.04140000e+00   9.39567800e-01   5.09159300e-02   2.59243200e-03   
32   4.45394700e-07   9.84319400e-01   1.05210200e+00   9.16536400e-01   6.77830500e-02   4.59454200e-03   
33   4.46225300e-07   9.76005100e-01   1.06472400e+00   8.87285900e-01   8.87191500e-02   7.87108700e-03   
34   4.47055900e-07   9.65133100e-01   1.07906600e+00   8.51200200e-01   1.13932900e-01   1.29807100e-02   
35   4.47886600e-07   9.51006900e-01   1.09462300e+00   8.07390500e-01   1.43616400e-01   2.06256800e-02   
36   4.48717200e-07   9.32875600e-01   1.11092500e+00   7.54826700e-01   1.78048900e-01   3.17014200e-02   
37   4.49464700e-07   9.12855300e-01   1.12595200e+00   6.99758600e-01   2.13096700e-01   4.54102200e-02   
38   4.50212300e-07   8.89754400e-01   1.13918100e+00   6.40327300e-01   2.49427000e-01   6.22138400e-02   
39   4.50310000e-07   8.86589000e-01   1.14042700e+00   6.32750800e-01   2.53838200e-01   6.44338400e-02   
40   4.50407600e-07   8.83449900e-01   1.14152700e+00   6.25372500e-01   2.58077400e-01   6.66039600e-02   
41   4.50602900e-07   8.77289700e-01   1.14289600e+00   6.11683000e-01   2.65606700e-01   7.05469300e-02   
42   4.50798200e-07   8.71144500e-01   1.14355100e+00   5.98738400e-01   2.72406100e-01   7.42051000e-02   
43   4.50993600e-07   8.64872100e-01   1.14387900e+00   5.85865000e-01   2.79007100e-01   7.78449600e-02   
44   4.51384200e-07   8.52425000e-01   1.14286900e+00   5.61981500e-01   2.90443500e-01   8.43574400e-02   
45   4.51735700e-07   8.41280400e-01   1.14023400e+00   5.42327100e-01   2.98953300e-01   8.93730800e-02   
46   4.52087300e-07   8.29462100e-01   1.13737500e+00   5.21549500e-01   3.07912600e-01   9.48101800e-02   
47   4.52438900e-07   8.16708100e-01   1.13483100e+00   4.98584800e-01   3.18123300e-01   1.01202400e-01   
48   4.52790400e-07   8.03229000e-01   1.13236600e+00   4.74091900e-01   3.29137200e-01   1.08331300e-01   
49   4.53142000e-07   7.89799200e-01   1.12909100e+00   4.50507200e-01   3.39292000e-01   1.15119100e-01   
50   4.53458400e-07   7.77730000e-01   1.12539200e+00   4.30068300e-01   3.47661700e-01   1.20868700e-01   
51   4.53774800e-07   7.64955900e-01   1.12173000e+00   4.08181900e-01   3.56774000e-01   1.27287700e-01   
52   4.54091200e-07   7.51379000e-01   1.11824900e+00   3.84509500e-01   3.66869500e-01   1.34593200e-01   
53   4.54407600e-07   7.37089100e-01   1.11493600e+00   3.59242200e-01   3.77846900e-01   1.42768300e-01   
54   4.54724000e-07   7.22417900e-01   1.11164800e+00   3.33187900e-01   3.89229900e-01   1.51499900e-01   
55   4.55040400e-07   7.07545900e-01   1.10832100e+00   3.06771300e-01   4.00774700e-01   1.60620300e-01   
56   4.55356800e-07   6.92224900e-01   1.10512200e+00   2.79327900e-01   4.12897000e-01   1.70483900e-01   
57   4.55673200e-07   6.76895600e-01   1.10180400e+00   2.51987600e-01   4.24908000e-01   1.80546800e-01   
58   4.55989600e-07   6.62982800e-01   1.09760400e+00   2.28361200e-01   4.34621600e-01   1.88895900e-01   
59   4.56306000e-07   6.51313300e-01   1.09216800e+00   2.10458700e-01   4.40854600e-01   1.94352800e-01   
60   4.56622400e-07   6.41101600e-01   1.08582200e+00   1.96381300e-01   4.44720200e-01   1.97776100e-01   
61   4.56938800e-07   6.31032400e-01   1.07902500e+00   1.83039900e-01   4.47992500e-01   2.00697300e-01   
62   4.57255200e-07   6.21154400e-01   1.07181000e+00   1.70498900e-01   4.50655500e-01   2.03090400e-01   
63   4.57571600e-07   6.12445100e-01   1.06379200e+00   1.61098400e-01   4.51346700e-01   2.03713900e-01   
64   4.57888000e-07   6.04273100e-01   1.05497000e+00   1.53576300e-01   4.50696800e-01   2.03127600e-01   
65   4.58204400e-07   5.95607500e-01   1.04556200e+00   1.45652700e-01   4.49954800e-01   2.02459300e-01   
66   4.58520800e-07   5.86735100e-01   1.03552100e+00   1.37948700e-01   4.48786400e-01   2.01409200e-01   
67   4.58837200e-07   5.78227600e-01   1.02470700e+00   1.31748100e-01   4.46479400e-01   1.99343900e-01   
68   4.59153600e-07   5.69677600e-01   1.01317000e+00   1.26184900e-01   4.43492600e-01   1.96685700e-01   
69   4.59470000e-07   5.60464900e-01   1.00104900e+00   1.19880800e-01   4.40584100e-01   1.94114400e-01   
70   4.59786400e-07   5.50594900e-01   9.88397400e-01   1.12792300e-01   4.37802600e-01   1.91671100e-01   
71   4.60419300e-07   5.28823700e-01   9.61762000e-01   9.58854100e-02   4.32938300e-01   1.87435600e-01   
72   4.61052100e-07   5.04303600e-01   9.33865500e-01   7.47417500e-02   4.29561900e-01   1.84523400e-01   
73   4.61684900e-07   4.77004200e-01   9.05351600e-01   4.86568200e-02   4.28347400e-01   1.83481500e-01   
74   4.62317700e-07   4.46941000e-01   8.76849200e-01   1.70328000e-02   4.29908200e-01   1.84821100e-01   
75   4.62950500e-07   4.14211500e-01   8.48903900e-01   -2.04807800e-02   4.34692300e-01   1.88957400e-01   
76   4.63583300e-07   3.79367200e-01   8.22001700e-01   -6.32673600e-02   4.42634500e-01   1.95925300e-01   
77   4.63691100e-07   3.73351700e-01   8.17527500e-01   -7.08240800e-02   4.44175800e-01   1.97292100e-01   
78   4.63906600e-07   3.61910000e-01   8.08932100e-01   -8.51120200e-02   4.47022100e-01   1.99828700e-01   
79   4.64122200e-07   3.52270900e-01   8.00875700e-01   -9.63338600e-02   4.48604800e-01   2.01246300e-01   
80   4.64337700e-07   3.44829400e-01   7.93322000e-01   -1.03663200e-01   4.48492600e-01   2.01145600e-01   
81   4.64553200e-07   3.39049800e-01   7.86053600e-01   -1.07954100e-01   4.47003900e-01   1.99812500e-01   
82   4.64768800e-07   3.34233600e-01   7.78824000e-01   -1.10356800e-01   4.44590400e-01   1.97660600e-01   
83   4.64984300e-07   3.29845900e-01   7.71455800e-01   -1.11764000e-01   4.41609900e-01   1.95019300e-01   
84   4.65199900e-07   3.25834500e-01   7.63907900e-01   -1.12238900e-01   4.38073400e-01   1.91908300e-01   
85   4.65415400e-07   3.22113800e-01   7.56117800e-01   -1.11890200e-01   4.34004000e-01   1.88359500e-01   
86   4.65631000e-07   3.18379600e-01   7.47979200e-01   -1.11220000e-01   4.29599600e-01   1.84555800e-01   
87   4.66062100e-07   3.10364800e-01   7.30478700e-01   -1.09749200e-01   4.20113900e-01   1.76495700e-01   
88   4.66493200e-07   3.01520500e-01   7.11298600e-01   -1.08257600e-01   4.09778100e-01   1.67918100e-01   
89   4.66924300e-07   2.91801000e-01   6.90408300e-01   -1.06806400e-01   3.98607300e-01   1.58887800e-01   
90   4.67355300e-07   2.81169800e-01   6.67799800e-01   -1.05460100e-01   3.86629900e-01   1.49482700e-01   
91   4.67786400e-07   2.69593400e-01   6.43490900e-01   -1.04304000e-01   3.73897400e-01   1.39799300e-01   
92   4.68217500e-07   2.57044500e-01   6.17532400e-01   -1.03443300e-01   3.60487900e-01   1.29951500e-01   
93   4.68648600e-07   2.43502300e-01   5.90015200e-01   -1.03010600e-01   3.46512900e-01   1.20071200e-01   
94   4.69079700e-07   2.28954000e-01   5.61078300e-01   -1.03170400e-01   3.32124400e-01   1.10306600e-01   
95   4.69510800e-07   2.13395200e-01   5.30917000e-01   -1.04126600e-01   3.17521800e-01   1.00820100e-01   
96   4.69941900e-07   1.96831500e-01   4.99792300e-01   -1.06129200e-01   3.02960800e-01   9.17852300e-02   
97   4.70373000e-07   1.79280200e-01   4.68040900e-01   -1.09480400e-01   2.88760700e-01   8.33827300e-02   
98   4.70804100e-07   1.60774800e-01   4.36084900e-01   -1.14535400e-01   2.75310200e-01   7.57956800e-02   
99   4.71235200e-07   1.41378900e-01   4.04442500e-01   -1.21684700e-01   2.63063600e-01   6.92024500e-02   
100   4.71666300e-07   1.21261400e-01   3.73767600e-01   -1.31244700e-01   2.52506100e-01   6.37593500e-02   
101   4.72097400e-07   1.01654700e-01   3.45443100e-01   -1.42133600e-01   2.43788400e-01   5.94327600e-02   
102   4.72171600e-07   9.86390000e-02   3.40995000e-01   -1.43717000e-01   2.42356000e-01   5.87364300e-02   
103   4.72245800e-07   9.57848100e-02   3.36708700e-01   -1.45139100e-01   2.40923900e-01   5.80443300e-02   
104   4.72394300e-07   9.11361200e-02   3.28911400e-01   -1.46639200e-01   2.37775300e-01   5.65371000e-02   
105   4.72542700e-07   8.78192300e-02   3.21969300e-01   -1.46330800e-01   2.34150000e-01   5.48262400e-02   
106   4.72691100e-07   8.54153600e-02   3.15521700e-01   -1.44691000e-01   2.30106300e-01   5.29489300e-02   
107   4.72839600e-07   8.34598000e-02   3.09235800e-01   -1.42316200e-01   2.25776000e-01   5.09748100e-02   
108   4.73136500e-07   7.98797200e-02   2.96467700e-01   -1.36708300e-01   2.16588000e-01   4.69103600e-02   
109   4.73433400e-07   7.62834200e-02   2.83134700e-01   -1.30567900e-01   2.06851300e-01   4.27874600e-02   
110   4.74027100e-07   6.85454200e-02   2.54436700e-01   -1.17345900e-01   1.85891300e-01   3.45555800e-02   
111   4.74620900e-07   6.00878800e-02   2.23034500e-01   -1.02858700e-01   1.62946600e-01   2.65515900e-02   
112   4.75214700e-07   5.09201000e-02   1.88968800e-01   -8.71285600e-02   1.38048700e-01   1.90574300e-02   
113   4.75808500e-07   4.10689800e-02   1.52343700e-01   -7.02057500e-02   1.11274700e-01   1.23820700e-02   
114   4.76402300e-07   3.05831500e-02   1.13346900e-01   -5.21805800e-02   8.27637300e-02   6.84983400e-03   
115   4.76996000e-07   1.95547300e-02   7.23344100e-02   -3.32249400e-02   5.27796800e-02   2.78569400e-03   
116   4.77589800e-07   8.38693500e-03   3.08455100e-02   -1.40716400e-02   2.24585800e-02   5.04387700e-04   
117   4.77670500e-07   6.93311900e-03   2.54519800e-02   -1.15857400e-02   1.85188600e-02   3.42948300e-04   
118   4.77831900e-07   4.26438600e-03   1.55433900e-02   -7.01461700e-03   1.12790000e-02   1.27215900e-04   
119   4.78154800e-07   1.11085500e-03   3.71618400e-03   -1.49447300e-03   2.60532900e-03   6.78773800e-06   
120   4.78428300e-07   4.24706700e-04   1.05111900e-03   -2.01705700e-04   6.26412300e-04   3.92392400e-07   
121   4.78701900e-07   3.42708600e-04   7.64925400e-04   -7.95083000e-05   4.22216900e-04   1.78267100e-07   
122   4.78975500e-07   3.24612900e-04   7.17465400e-04   -6.82396800e-05   3.92852500e-04   1.54333100e-07   
123   4.79249000e-07   3.09280400e-04   6.78889800e-04   -6.03289800e-05   3.69609400e-04   1.36611100e-07   
124   4.79796200e-07   2.81442200e-04   6.09277300e-04   -4.63929400e-05   3.27835100e-04   1.07475900e-07   
125   4.80890500e-07   2.35311500e-04   4.95457400e-04   -2.48344200e-05   2.60145900e-04   6.76758900e-08   
126   4.83079000e-07   1.70498100e-04   3.39504900e-04   1.49125800e-06   1.69006800e-04   2.85633100e-08   
127   4.87456200e-07   1.01371100e-04   1.80739800e-04   2.20025000e-05   7.93686500e-05   6.29938200e-09   
128   4.96210500e-07   5.18241400e-05   7.66574400e-05   2.69908400e-05   2.48333000e-05   6.16692800e-10   
129   5.00000000e-07   4.27471600e-05   5.95136500e-05   2.59806700e-05   1.67664900e-05   2.81115300e-10   
130   5.01750900e-07   1.27993400e-07   2.26930400e-07   2.90562900e-08   9.89370700e-08   9.78854300e-15   
131   5.05252600e-07   9.18935800e-09   1.41885400e-08   4.19017800e-09   4.99918000e-09   2.49918000e-17   
132   5.12256000e-07   8.81284800e-09   1.34935000e-08   4.13219800e-09   4.68065000e-09   2.19084800e-17   
133   5.26262800e-07   9.18699200e-09   1.41841300e-08   4.18985700e-09   4.99713500e-09   2.49713600e-17   
134   5.54276600e-07   8.81333900e-09   1.34944900e-08   4.13219200e-09   4.68114700e-09   2.19131400e-17   
135   6.10304000e-07   9.18674700e-09   1.41836200e-08   4.18987800e-09   4.99686900e-09   2.49687000e-17   
136   7.10304000e-07   8.81346700e-09   1.34947400e-08   4.13219000e-09   4.68127600e-09   2.19143500e-17   
137   8.10304000e-07   9.18665500e-09   1.41834200e-08   4.18988600e-09   4.99676900e-09   2.49677000e-17   
138   9.00000000e-07   8.81356400e-09   1.34949400e-08   4.13218900e-09   4.68137400e-09   2.19152700e-17   
139   9.00625000e-07   -4.37013700e-05   -2.60742100e-05   -6.13285400e-05   1.76271600e-05   3.10716900e-10   
140   9.01875000e-07   -4.66893700e-05   -2.65621700e-05   -6.68165600e-05   2.01272000e-05   4.05104000e-10   
141   9.04375000e-07   -5.33376600e-05   -2.72482000e-05   -7.94271300e-05   2.60894600e-05   6.80660100e-10   
142   9.09375000e-07   -7.53435800e-05   -2.64591200e-05   -1.24228000e-04   4.88844600e-05   2.38969000e-09   
143   9.19375000e-07   -2.37628300e-04   2.22770600e-05   -4.97533600e-04   2.59905400e-04   6.75507900e-08   
144   9.24375000e-07   -5.52292600e-04   1.70906000e-04   -1.27549100e-03   7.23198600e-04   5.23016200e-07   
145   9.29375000e-07   -1.25816800e-03   5.68986200e-04   -3.08532300e-03   1.82715400e-03   3.33849300e-06   
146   9.34375000e-07   -2.56579700e-03   2.44980200e-03   -7.58139600e-03   5.01559900e-03   2.51562300e-05   
147   9.34891900e-07   -2.63814000e-03   3.00075500e-03   -8.27703500e-03   5.63889500e-03   3.17971300e-05   
148   9.35925800e-07   -2.68683700e-03   4.61258300e-03   -9.98625600e-03   7.29942000e-03   5.32815300e-05   
149   9.36959700e-07   -2.46854300e-03   7.53448700e-03   -1.24715700e-02   1.00030300e-02   1.00060600e-04   
150   9.37993600e-07   -1.77353600e-03   1.25653100e-02   -1.61123800e-02   1.43388400e-02   2.05602400e-04   
151   9.39027500e-07   -3.38259500e-04   2.06663200e-02   -2.13428400e-02   2.10045800e-02   4.41192500e-04   
152   9.40061400e-07   2.19468400e-03   3.28895500e-02   -2.85001800e-02   3.06948600e-02   9.42174700e-04   
153   9.41095200e-07   6.35830200e-03   5.05812700e-02   -3.78646700e-02   4.42229700e-02   1.95567100e-03   
154   9.42129100e-07   1.28616400e-02   7.54922100e-02   -4.97689400e-02   6.26305700e-02   3.92258900e-03   
155   9.43163000e-07   2.24091700e-02   1.09302400e-01   -6.44840200e-02   8.68931900e-02   7.55042700e-03   
156   9.44196900e-07   3.58147500e-02   1.53505500e-01   -8.18760000e-02   1.17690800e-01   1.38511100e-02   
157   9.45127400e-07   5.22208100e-02   2.03758800e-01   -9.93171600e-02   1.51538000e-01   2.29637600e-02   
158   9.45964800e-07   7.13520000e-02   2.58795200e-01   -1.16091200e-01   1.87443200e-01   3.51349700e-02   
159   9.46718500e-07   9.24245500e-02   3.16558800e-01   -1.31709700e-01   2.24134300e-01   5.02361800e-02   
160   9.46836000e-07   9.60805200e-02   3.26273500e-01   -1.34112500e-01   2.30193000e-01   5.29888300e-02   
161   9.47071100e-07   1.03479500e-01   3.45574900e-01   -1.38615900e-01   2.42095400e-01   5.86101700e-02   
162   9.47306200e-07   1.10871500e-01   3.63762700e-01   -1.42019700e-01   2.52891200e-01   6.39539600e-02   
163   9.47541200e-07   1.18068000e-01   3.80019600e-01   -1.43883700e-01   2.61951600e-01   6.86186400e-02   
164   9.47776300e-07   1.25263200e-01   3.95263100e-01   -1.44736700e-01   2.69999900e-01   7.28999400e-02   
165   9.48011300e-07   1.32685100e-01   4.10556000e-01   -1.45185700e-01   2.77870900e-01   7.72122100e-02   
166   9.48246400e-07   1.40133700e-01   4.25204500e-01   -1.44937100e-01   2.85070800e-01   8.12653700e-02   
167   9.48481400e-07   1.47374800e-01   4.38327900e-01   -1.43578300e-01   2.90953100e-01   8.46537100e-02   
168   9.48716500e-07   1.54667500e-01   4.50923700e-01   -1.41588600e-01   2.96256100e-01   8.77677000e-02   
169   9.49186600e-07   1.70406000e-01   4.78398200e-01   -1.37586200e-01   3.07992200e-01   9.48592000e-02   
170   9.49656700e-07   1.87875300e-01   5.09781900e-01   -1.34031300e-01   3.21906600e-01   1.03623900e-01   
171   9.50126800e-07   2.06419100e-01   5.43128800e-01   -1.30290600e-01   3.36709700e-01   1.13373400e-01   
172   9.50549900e-07   2.23102700e-01   5.71847300e-01   -1.25641900e-01   3.48744600e-01   1.21622800e-01   
173   9.50904700e-07   2.37699400e-01   5.96776200e-01   -1.21377300e-01   3.59076800e-01   1.28936100e-01   
174   9.51259400e-07   2.53490800e-01   6.24415500e-01   -1.17434000e-01   3.70924700e-01   1.37585200e-01   
175   9.51614200e-07   2.70311700e-01   6.54354300e-01   -1.13730900e-01   3.84042600e-01   1.47488700e-01   
176   9.51968900e-07   2.87848300e-01   6.85869900e-01   -1.10173300e-01   3.98021600e-01   1.58421200e-01   
177   9.52323600e-07   3.05617700e-01   7.17787800e-01   -1.06552400e-01   4.12170100e-01   1.69884200e-01   
178   9.52642900e-07   3.21268000e-01   7.45501000e-01   -1.02965100e-01   4.24233100e-01   1.79973700e-01   
179   9.52962200e-07   3.35254600e-01   7.68834500e-01   -9.83253600e-02   4.33579900e-01   1.87991600e-01   
180   9.53249500e-07   3.45795300e-01   7.84613300e-01   -9.30226400e-02   4.38817900e-01   1.92561200e-01   
