Index        TIME          {V(3)+2.0}       {V(11)+2.0}      {V(4)+2.0}
0       4.00000000e-04   1.99000953e+00   1.99000953e+00   2.00000000e+00   
1       4.00500000e-04   1.99000953e+00   1.99000953e+00   2.00000000e+00   
2       4.01500000e-04   1.99000953e+00   1.99000953e+00   2.00000000e+00   
3       4.03500000e-04   1.99000953e+00   1.99000953e+00   2.00000000e+00   
4       4.07500000e-04   1.99000953e+00   1.99000953e+00   2.00000000e+00   
5       4.15500000e-04   1.99000953e+00   1.99000953e+00   2.00000000e+00   
6       4.31500000e-04   1.99000953e+00   1.99000953e+00   2.00000000e+00   
7       4.63500000e-04   1.99000953e+00   1.99000953e+00   2.00000000e+00   
8       5.00000000e-04   1.99000953e+00   1.99000953e+00   2.00000000e+00   
9       5.00000500e-04   1.99010159e+00   1.99000997e+00   2.02500000e+00   
10      5.00000638e-04   1.99013392e+00   1.99001014e+00   2.03191707e+00   
11      5.00000777e-04   1.99017292e+00   1.99001035e+00   2.03883413e+00   
12      5.00001053e-04   1.99027623e+00   1.99001104e+00   2.05266827e+00   
13      5.00001330e-04   1.99039580e+00   1.99001192e+00   2.06650240e+00   
14      5.00001607e-04   1.99053629e+00   1.99001309e+00   2.08033654e+00   
15      5.00002160e-04   1.99088139e+00   1.99001658e+00   2.10800481e+00   
16      5.00003267e-04   1.99179474e+00   1.99002897e+00   2.16334135e+00   
17      5.00004262e-04   1.99284003e+00   1.99004679e+00   2.21310113e+00   
18      5.00005257e-04   1.99405845e+00   1.99007135e+00   2.26286092e+00   
19      5.00006252e-04   1.99541779e+00   1.99010262e+00   2.31262070e+00   
20      5.00007248e-04   1.99689130e+00   1.99014032e+00   2.36238048e+00   
21      5.00008243e-04   1.99845713e+00   1.99018399e+00   2.41214027e+00   
22      5.00009238e-04   2.00009777e+00   1.99023306e+00   2.46190005e+00   
23      5.00010025e-04   2.00143925e+00   1.99027533e+00   2.50123372e+00   
24      5.00010811e-04   2.00281319e+00   1.99032032e+00   2.54056739e+00   
25      5.00011598e-04   2.00421508e+00   1.99036776e+00   2.57990106e+00   
26      5.00012385e-04   2.00564148e+00   1.99041737e+00   2.61923472e+00   
27      5.00013171e-04   2.00708980e+00   1.99046893e+00   2.65856839e+00   
28      5.00014745e-04   2.01004428e+00   1.99057701e+00   2.73723573e+00   
29      5.00016318e-04   2.01307314e+00   1.99069107e+00   2.81590307e+00   
30      5.00017891e-04   2.01617583e+00   1.99081050e+00   2.89457040e+00   
31      5.00019465e-04   2.01935659e+00   1.99093506e+00   2.97323774e+00   
32      5.00021038e-04   2.02262360e+00   1.99106488e+00   3.05190508e+00   
33      5.00022611e-04   2.02598810e+00   1.99120042e+00   3.13057241e+00   
34      5.00024185e-04   2.02946358e+00   1.99134239e+00   3.20923975e+00   
35      5.00025758e-04   2.03306510e+00   1.99149173e+00   3.28790709e+00   
36      5.00027331e-04   2.03680878e+00   1.99164954e+00   3.36657442e+00   
37      5.00028905e-04   2.04071138e+00   1.99181707e+00   3.44524176e+00   
38      5.00030478e-04   2.04479001e+00   1.99199562e+00   3.52390910e+00   
39      5.00032052e-04   2.04906186e+00   1.99218659e+00   3.60257643e+00   
40      5.00035198e-04   2.05827556e+00   1.99261350e+00   3.75991111e+00   
41      5.00038345e-04   2.06846979e+00   1.99310826e+00   3.91724578e+00   
42      5.00041492e-04   2.07976655e+00   1.99368229e+00   4.07458045e+00   
43      5.00044638e-04   2.09228448e+00   1.99434740e+00   4.23191513e+00   
44      5.00047785e-04   2.10613588e+00   1.99511553e+00   4.38924980e+00   
45      5.00050932e-04   2.12142562e+00   1.99599884e+00   4.54658447e+00   
46      5.00054078e-04   2.13825088e+00   1.99700967e+00   4.70391915e+00   
47      5.00057225e-04   2.15670121e+00   1.99816071e+00   4.86125382e+00   
48      5.00060372e-04   2.17685883e+00   1.99946510e+00   5.01858849e+00   
49      5.00063518e-04   2.19879886e+00   2.00093650e+00   5.17592316e+00   
50      5.00066665e-04   2.22258970e+00   2.00258919e+00   5.33325784e+00   
51      5.00069381e-04   2.24465398e+00   2.00417183e+00   5.46904027e+00   
52      5.00072096e-04   2.26817914e+00   2.00591051e+00   5.60482270e+00   
53      5.00074812e-04   2.29319876e+00   2.00781587e+00   5.74060514e+00   
54      5.00077528e-04   2.31974295e+00   2.00989896e+00   5.87638757e+00   
55      5.00080243e-04   2.34783882e+00   2.01217128e+00   6.01217001e+00   
56      5.00082959e-04   2.37751067e+00   2.01464485e+00   6.14795244e+00   
57      5.00085675e-04   2.40878012e+00   2.01733214e+00   6.28373487e+00   
58      5.00088390e-04   2.44166628e+00   2.02024614e+00   6.41951731e+00   
59      5.00091106e-04   2.47618587e+00   2.02340033e+00   6.55529974e+00   
60      5.00093822e-04   2.51235331e+00   2.02680866e+00   6.69108217e+00   
61      5.00099253e-04   2.58968950e+00   2.03446632e+00   6.96264704e+00   
62      5.00100000e-04   2.60084836e+00   2.03560716e+00   7.00000000e+00   
63      5.00105431e-04   2.68344587e+00   2.04517762e+00   7.00000000e+00   
64      5.00107048e-04   2.70824982e+00   2.04813561e+00   7.00000000e+00   
65      5.00108665e-04   2.73335830e+00   2.05120614e+00   7.00000000e+00   
66      5.00110282e-04   2.75883744e+00   2.05439379e+00   7.00000000e+00   
67      5.00111899e-04   2.78458674e+00   2.05766167e+00   7.00000000e+00   
68      5.00113516e-04   2.81071990e+00   2.06103941e+00   7.00000000e+00   
69      5.00116750e-04   2.86436721e+00   2.06818253e+00   7.00000000e+00   
70      5.00119984e-04   2.91989645e+00   2.07586520e+00   7.00000000e+00   
71      5.00126452e-04   3.03645001e+00   2.09301525e+00   7.00000000e+00   
72      5.00132920e-04   3.15969713e+00   2.11267188e+00   7.00000000e+00   
73      5.00139388e-04   3.28860622e+00   2.13500468e+00   7.00000000e+00   
74      5.00145856e-04   3.42201444e+00   2.16017029e+00   7.00000000e+00   
75      5.00152324e-04   3.55877183e+00   2.18831697e+00   7.00000000e+00   
76      5.00158792e-04   3.69781174e+00   2.21958605e+00   7.00000000e+00   
77      5.00165260e-04   3.83817456e+00   2.25410983e+00   7.00000000e+00   
78      5.00171728e-04   3.97900849e+00   2.29200760e+00   7.00000000e+00   
79      5.00178196e-04   4.11956178e+00   2.33338129e+00   7.00000000e+00   
80      5.00191132e-04   4.39658383e+00   2.42689505e+00   7.00000000e+00   
81      5.00204068e-04   4.66564059e+00   2.53484991e+00   7.00000000e+00   
82      5.00217004e-04   4.92362221e+00   2.65713706e+00   7.00000000e+00   
83      5.00229940e-04   5.16811119e+00   2.79329221e+00   7.00000000e+00   
84      5.00242876e-04   5.39736798e+00   2.94250428e+00   7.00000000e+00   
85      5.00255812e-04   5.61025221e+00   3.10365248e+00   7.00000000e+00   
86      5.00268748e-04   5.80613157e+00   3.27535787e+00   7.00000000e+00   
87      5.00281684e-04   5.98479487e+00   3.45604113e+00   7.00000000e+00   
88      5.00294620e-04   6.14637406e+00   3.64398162e+00   7.00000000e+00   
89      5.00307556e-04   6.29127556e+00   3.83737444e+00   7.00000000e+00   
90      5.00320492e-04   6.42012052e+00   4.03438326e+00   7.00000000e+00   
91      5.00333428e-04   6.53369299e+00   4.23318763e+00   7.00000000e+00   
92      5.00346364e-04   6.63289541e+00   4.43202399e+00   7.00000000e+00   
93      5.00359300e-04   6.71871053e+00   4.62921997e+00   7.00000000e+00   
94      5.00372236e-04   6.79216918e+00   4.82322207e+00   7.00000000e+00   
95      5.00385172e-04   6.85432335e+00   5.01261690e+00   7.00000000e+00   
96      5.00411044e-04   6.95021562e+00   5.37150321e+00   7.00000000e+00   
97      5.00436916e-04   7.01336490e+00   5.69944935e+00   7.00000000e+00   
98      5.00462788e-04   7.05071403e+00   5.99156083e+00   7.00000000e+00   
99      5.00488659e-04   7.06856925e+00   6.24499618e+00   7.00000000e+00   
100     5.00514531e-04   7.07236405e+00   6.45893253e+00   7.00000000e+00   
101     5.00540403e-04   7.06659388e+00   6.63429696e+00   7.00000000e+00   
102     5.00566275e-04   7.05484220e+00   6.77340342e+00   7.00000000e+00   
103     5.00592147e-04   7.03985809e+00   6.87956669e+00   7.00000000e+00   
104     5.00618019e-04   7.02366139e+00   6.95673401e+00   7.00000000e+00   
105     5.00643891e-04   7.00765896e+00   7.00915863e+00   7.00000000e+00   
106     5.00669763e-04   6.99276115e+00   7.04112816e+00   7.00000000e+00   
107     5.00695635e-04   6.97949087e+00   7.05675268e+00   7.00000000e+00   
108     5.00721507e-04   6.96808101e+00   7.05981170e+00   7.00000000e+00   
109     5.00747379e-04   6.95855778e+00   7.05365526e+00   7.00000000e+00   
110     5.00773251e-04   6.95080938e+00   7.04115168e+00   7.00000000e+00   
111     5.00824995e-04   6.93950778e+00   7.00806168e+00   7.00000000e+00   
112     5.00876739e-04   6.93255006e+00   6.97093210e+00   7.00000000e+00   
113     5.00928483e-04   6.92832886e+00   6.93665356e+00   7.00000000e+00   
114     5.00980226e-04   6.92553177e+00   6.90857851e+00   7.00000000e+00   
115     5.01031970e-04   6.92323942e+00   6.88743616e+00   7.00000000e+00   
116     5.01135458e-04   6.91811729e+00   6.86014211e+00   7.00000000e+00   
117     5.01238946e-04   6.91204413e+00   6.84527920e+00   7.00000000e+00   
118     5.01342434e-04   6.90510362e+00   6.83485584e+00   7.00000000e+00   
119     5.01445921e-04   6.89773375e+00   6.82432325e+00   7.00000000e+00   
120     5.01549409e-04   6.89029920e+00   6.81215149e+00   7.00000000e+00   
121     5.01756385e-04   6.87574838e+00   6.78465006e+00   7.00000000e+00   
122     5.01963360e-04   6.86145817e+00   6.75565935e+00   7.00000000e+00   
123     5.02170336e-04   6.84726464e+00   6.72693161e+00   7.00000000e+00   
124     5.02584287e-04   6.81889823e+00   6.67073350e+00   7.00000000e+00   
125     5.03412189e-04   6.76247757e+00   6.56002616e+00   7.00000000e+00   
126     5.04240091e-04   6.70655247e+00   6.45095974e+00   7.00000000e+00   
127     5.05895896e-04   6.59623321e+00   6.23751950e+00   7.00000000e+00   
128     5.09207505e-04   6.38149491e+00   5.82941058e+00   7.00000000e+00   
129     5.15830722e-04   5.97455292e+00   5.08344410e+00   7.00000000e+00   
130     5.22453940e-04   5.59634454e+00   4.42516096e+00   7.00000000e+00   
131     5.29077158e-04   5.24510915e+00   3.84665869e+00   7.00000000e+00   
132     5.35700376e-04   4.91912709e+00   3.34038350e+00   7.00000000e+00   
133     5.42323593e-04   4.61676282e+00   2.89931550e+00   7.00000000e+00   
134     5.48946811e-04   4.33647523e+00   2.51700048e+00   7.00000000e+00   
135     5.54649041e-04   4.11181878e+00   2.23070141e+00   7.00000000e+00   
136     5.58545594e-04   3.96673934e+00   2.05615123e+00   7.00000000e+00   
137     5.60865772e-04   3.88347752e+00   1.95983789e+00   7.00000000e+00   
138     5.63185950e-04   3.80245278e+00   1.86884086e+00   7.00000000e+00   
139     5.65252110e-04   3.73213916e+00   1.79211811e+00   7.00000000e+00   
140     5.67318270e-04   3.66351852e+00   1.71930300e+00   7.00000000e+00   
141     5.69384429e-04   3.59655445e+00   1.65025943e+00   7.00000000e+00   
142     5.73516749e-04   3.46741090e+00   1.52280506e+00   7.00000000e+00   
143     5.77649069e-04   3.34446941e+00   1.40888583e+00   7.00000000e+00   
144     5.81781389e-04   3.22747969e+00   1.30760535e+00   7.00000000e+00   
145     5.85913709e-04   3.11619440e+00   1.21809262e+00   7.00000000e+00   
146     5.90046028e-04   3.01037374e+00   1.13951811e+00   7.00000000e+00   
147     5.94178348e-04   2.90978665e+00   1.07109749e+00   7.00000000e+00   
148     5.98310668e-04   2.81421106e+00   1.01209131e+00   7.00000000e+00   
149     6.02442988e-04   2.72343369e+00   9.61803352e-01   7.00000000e+00   
150     6.06575308e-04   2.63724977e+00   9.19578531e-01   7.00000000e+00   
151     6.10707627e-04   2.55546273e+00   8.84800853e-01   7.00000000e+00   
152     6.14839947e-04   2.47788392e+00   8.56891351e-01   7.00000000e+00   
153     6.18972267e-04   2.40433223e+00   8.35306129e-01   7.00000000e+00   
154     6.23104587e-04   2.33463387e+00   8.19534493e-01   7.00000000e+00   
155     6.27236907e-04   2.26862204e+00   8.09097173e-01   7.00000000e+00   
156     6.31369226e-04   2.20613668e+00   8.03544629e-01   7.00000000e+00   
157     6.35501546e-04   2.14702419e+00   8.02455444e-01   7.00000000e+00   
158     6.39633866e-04   2.09113719e+00   8.05434799e-01   7.00000000e+00   
159     6.43766186e-04   2.03833426e+00   8.12113020e-01   7.00000000e+00   
160     6.47898506e-04   1.98847973e+00   8.22144198e-01   7.00000000e+00   
161     6.52030825e-04   1.94144343e+00   8.35204885e-01   7.00000000e+00   
162     6.55352043e-04   1.90560648e+00   8.47713704e-01   7.00000000e+00   
163     6.58673260e-04   1.87144797e+00   8.61838312e-01   7.00000000e+00   
164     6.61994477e-04   1.83890627e+00   8.77436123e-01   7.00000000e+00   
165     6.68636912e-04   1.77836743e+00   9.12371116e-01   7.00000000e+00   
166     6.75279346e-04   1.72360258e+00   9.51685269e-01   7.00000000e+00   
167     6.81921781e-04   1.67421496e+00   9.94558201e-01   7.00000000e+00   
168     6.88564215e-04   1.62982192e+00   1.04023417e+00   7.00000000e+00   
169     6.95206650e-04   1.59006185e+00   1.08803440e+00   7.00000000e+00   
170     7.01849084e-04   1.55459551e+00   1.13735636e+00   7.00000000e+00   
171     7.08491519e-04   1.52310551e+00   1.18766875e+00   7.00000000e+00   
172     7.15133953e-04   1.49529529e+00   1.23850560e+00   7.00000000e+00   
173     7.21776388e-04   1.47088789e+00   1.28946028e+00   7.00000000e+00   
174     7.28418822e-04   1.44962473e+00   1.34017985e+00   7.00000000e+00   
175     7.35061257e-04   1.43126449e+00   1.39035986e+00   7.00000000e+00   
176     7.41703692e-04   1.41558201e+00   1.43973951e+00   7.00000000e+00   
177     7.48346126e-04   1.40236726e+00   1.48809729e+00   7.00000000e+00   
178     7.61630995e-04   1.38234424e+00   1.58086439e+00   7.00000000e+00   
179     7.74915864e-04   1.36998997e+00   1.66776159e+00   7.00000000e+00   
180     7.88200733e-04   1.36413980e+00   1.74811002e+00   7.00000000e+00   
181     8.01485602e-04   1.36374318e+00   1.82149148e+00   7.00000000e+00   
182     8.14770471e-04   1.36787684e+00   1.88772298e+00   7.00000000e+00   
183     8.28055340e-04   1.37573849e+00   1.94681401e+00   7.00000000e+00   
184     8.41340209e-04   1.38663486e+00   1.99892352e+00   7.00000000e+00   
185     8.46034525e-04   1.39114820e+00   2.01568974e+00   7.00000000e+00   
186     8.50728841e-04   1.39594169e+00   2.03162454e+00   7.00000000e+00   
187     8.55423156e-04   1.40098893e+00   2.04674534e+00   7.00000000e+00   
188     8.64811787e-04   1.41173176e+00   2.07464205e+00   7.00000000e+00   
189     8.74200418e-04   1.42324259e+00   2.09951417e+00   7.00000000e+00   
190     8.83589049e-04   1.43539006e+00   2.12151228e+00   7.00000000e+00   
191     8.92977680e-04   1.44805297e+00   2.14079478e+00   7.00000000e+00   
192     9.02366311e-04   1.46112193e+00   2.15752368e+00   7.00000000e+00   
193     9.11754943e-04   1.47449918e+00   2.17186185e+00   7.00000000e+00   
194     9.21143574e-04   1.48809778e+00   2.18397120e+00   7.00000000e+00   
195     9.30532205e-04   1.50184073e+00   2.19401109e+00   7.00000000e+00   
196     9.39920836e-04   1.51566003e+00   2.20213721e+00   7.00000000e+00   
197     9.49309467e-04   1.52949580e+00   2.20850064e+00   7.00000000e+00   
198     9.58698098e-04   1.54329556e+00   2.21324707e+00   7.00000000e+00   
199     9.68086729e-04   1.55701344e+00   2.21651631e+00   7.00000000e+00   
200     9.77475360e-04   1.57060956e+00   2.21844188e+00   7.00000000e+00   
201     9.86863991e-04   1.58404944e+00   2.21915072e+00   7.00000000e+00   
202     1.00564125e-03   1.61031763e+00   2.21753380e+00   7.00000000e+00   
203     1.02441852e-03   1.63566601e+00   2.21241832e+00   7.00000000e+00   
204     1.04319578e-03   1.65997115e+00   2.20453599e+00   7.00000000e+00   
205     1.06197304e-03   1.68314563e+00   2.19454649e+00   7.00000000e+00   
206     1.08075030e-03   1.70513543e+00   2.18302452e+00   7.00000000e+00   
207     1.09952756e-03   1.72591456e+00   2.17046040e+00   7.00000000e+00   
208     1.11479630e-03   1.74191493e+00   2.15973694e+00   7.00000000e+00   
209     1.12820039e-03   1.75530251e+00   2.15012071e+00   7.00000000e+00   
210     1.14160448e-03   1.76808301e+00   2.14044185e+00   7.00000000e+00   
211     1.15500857e-03   1.78026825e+00   2.13079458e+00   7.00000000e+00   
212     1.16841266e-03   1.79187247e+00   2.12125722e+00   7.00000000e+00   
213     1.18181675e-03   1.80291171e+00   2.11189490e+00   7.00000000e+00   
214     1.19522084e-03   1.81340337e+00   2.10276130e+00   7.00000000e+00   
215     1.20862493e-03   1.82336583e+00   2.09390000e+00   7.00000000e+00   
216     1.22202902e-03   1.83281811e+00   2.08534572e+00   7.00000000e+00   
217     1.24883720e-03   1.85029628e+00   2.06927796e+00   7.00000000e+00   
218     1.27564538e-03   1.86597665e+00   2.05465924e+00   7.00000000e+00   
219     1.30245356e-03   1.88000704e+00   2.04153957e+00   7.00000000e+00   
220     1.32926174e-03   1.89253412e+00   2.02991716e+00   7.00000000e+00   
221     1.35606992e-03   1.90369879e+00   2.01974787e+00   7.00000000e+00   
222     1.38287810e-03   1.91363394e+00   2.01095662e+00   7.00000000e+00   
223     1.40968628e-03   1.92246332e+00   2.00344771e+00   7.00000000e+00   
224     1.42572671e-03   1.92725383e+00   1.99953516e+00   7.00000000e+00   
225     1.43656512e-03   1.93029814e+00   1.99712171e+00   7.00000000e+00   
226     1.44740353e-03   1.93319796e+00   1.99488226e+00   7.00000000e+00   
227     1.45824194e-03   1.93596009e+00   1.99280875e+00   7.00000000e+00   
228     1.46908036e-03   1.93859082e+00   1.99089335e+00   7.00000000e+00   
229     1.47991877e-03   1.94109617e+00   1.98912839e+00   7.00000000e+00   
230     1.49075718e-03   1.94348183e+00   1.98750636e+00   7.00000000e+00   
231     1.51243401e-03   1.94792255e+00   1.98465260e+00   7.00000000e+00   
232     1.53411083e-03   1.95194862e+00   1.98228274e+00   7.00000000e+00   
233     1.55578766e-03   1.95559600e+00   1.98034606e+00   7.00000000e+00   
234     1.57746448e-03   1.95889874e+00   1.97879373e+00   7.00000000e+00   
235     1.59914131e-03   1.96188836e+00   1.97758000e+00   7.00000000e+00   
236     1.62081813e-03   1.96459378e+00   1.97666262e+00   7.00000000e+00   
237     1.64249496e-03   1.96704141e+00   1.97600289e+00   7.00000000e+00   
238     1.66417179e-03   1.96925536e+00   1.97556566e+00   7.00000000e+00   
239     1.68584861e-03   1.97125754e+00   1.97531913e+00   7.00000000e+00   
240     1.70752544e-03   1.97306790e+00   1.97523476e+00   7.00000000e+00   
241     1.72920226e-03   1.97470457e+00   1.97528704e+00   7.00000000e+00   
242     1.75087909e-03   1.97618400e+00   1.97545328e+00   7.00000000e+00   
243     1.77255591e-03   1.97752115e+00   1.97571341e+00   7.00000000e+00   
244     1.79423274e-03   1.97872955e+00   1.97604975e+00   7.00000000e+00   
245     1.81590956e-03   1.97982150e+00   1.97644684e+00   7.00000000e+00   
246     1.83758639e-03   1.98080813e+00   1.97689118e+00   7.00000000e+00   
247     1.85926321e-03   1.98169953e+00   1.97737110e+00   7.00000000e+00   
248     1.88094004e-03   1.98250482e+00   1.97787651e+00   7.00000000e+00   
249     1.90261686e-03   1.98323228e+00   1.97839881e+00   7.00000000e+00   
250     1.92429369e-03   1.98388940e+00   1.97893064e+00   7.00000000e+00   
251     1.94597052e-03   1.98448294e+00   1.97946584e+00   7.00000000e+00   
252     1.96764734e-03   1.98501902e+00   1.97999921e+00   7.00000000e+00   
253     1.98932417e-03   1.98550320e+00   1.98052649e+00   7.00000000e+00   
254     2.01100099e-03   1.98594048e+00   1.98104414e+00   7.00000000e+00   
255     2.05435464e-03   1.98669695e+00   1.98203758e+00   7.00000000e+00   
256     2.09770829e-03   1.98731472e+00   1.98296713e+00   7.00000000e+00   
257     2.14106194e-03   1.98781803e+00   1.98382440e+00   7.00000000e+00   
