Index       TIME              I(VS)             V(2)              V(3)              V(4)              V(5)              V(6)       
0        0.00000000e+00    0.00000000e+00    0.00000000e+00    0.00000000e+00    0.00000000e+00    0.00000000e+00    0.00000000e+00
1        1.00000000e-04   -6.33406367e-03    6.19603322e-02    4.60101477e-02    4.60101477e-02    4.60101477e-02    4.60101477e-02
2        1.54855884e-04   -9.83756972e-03    6.37698577e-02    4.77948587e-02    4.77948587e-02    4.77948587e-02    4.77948587e-02
3        1.99769759e-04   -1.27044453e-02    6.38256507e-02    4.78676180e-02    4.78676180e-02    4.78676180e-02    4.78676180e-02
4        2.89597510e-04   -1.84267397e-02    6.35915473e-02    4.76990339e-02    4.76990339e-02    4.76990339e-02    4.76990339e-02
5        4.69253010e-04   -2.98012591e-02    6.30481653e-02    4.72853558e-02    4.72853558e-02    4.72853558e-02    4.72853558e-02
6        6.48908511e-04   -4.10392617e-02    6.20818556e-02    4.65701222e-02    4.65701222e-02    4.65701222e-02    4.65701222e-02
7        8.28564012e-04   -5.20889573e-02    6.09564226e-02    4.57180718e-02    4.57180718e-02    4.57180718e-02    4.57180718e-02
8        1.00821951e-03   -6.28999221e-02    5.94335243e-02    4.45869801e-02    4.45869801e-02    4.45869801e-02    4.45869801e-02
9        1.18787501e-03   -7.34223546e-02    5.77490941e-02    4.33141533e-02    4.33141533e-02    4.33141533e-02    4.33141533e-02
10       1.36753051e-03   -8.36082208e-02    5.56952514e-02    4.17861165e-02    4.17861165e-02    4.17861165e-02    4.17861165e-02
11       1.54718601e-03   -9.34106112e-02    5.34847758e-02    4.01174798e-02    4.01174798e-02    4.01174798e-02    4.01174798e-02
12       1.72684152e-03   -1.02784770e-01    5.09356741e-02    3.82189924e-02    3.82189924e-02    3.82189924e-02    3.82189924e-02
13       1.90649702e-03   -1.11687531e-01    4.82414553e-02    3.61864814e-02    3.61864814e-02    3.61864814e-02    3.61864814e-02
14       2.08615252e-03   -1.20078243e-01    4.52421167e-02    3.39510829e-02    3.39510829e-02    3.39510829e-02    3.39510829e-02
15       2.26580802e-03   -1.27918270e-01    4.21150779e-02    3.15930634e-02    3.15930634e-02    3.15930634e-02    3.15930634e-02
16       2.44546352e-03   -1.35171815e-01    3.87189938e-02    2.90606818e-02    2.90606818e-02    2.90606818e-02    2.90606818e-02
17       2.62511902e-03   -1.41805472e-01    3.52177855e-02    2.64212855e-02    2.64212855e-02    2.64212855e-02    2.64212855e-02
18       2.80477452e-03   -1.47788962e-01    3.14859015e-02    2.36374704e-02    2.36374704e-02    2.36374704e-02    2.36374704e-02
19       2.98443002e-03   -1.53094715e-01    2.76758594e-02    2.07658187e-02    2.07658187e-02    2.07658187e-02    2.07658187e-02
20       3.16408552e-03   -1.57698531e-01    2.36754287e-02    1.77808770e-02    1.77808770e-02    1.77808770e-02    1.77808770e-02
21       3.34374102e-03   -1.61579175e-01    1.96274036e-02    1.47302086e-02    1.47302086e-02    1.47302086e-02    1.47302086e-02
22       3.52339652e-03   -1.64718973e-01    1.54307304e-02    1.15982581e-02    1.15982581e-02    1.15982581e-02    1.15982581e-02
23       3.70305202e-03   -1.67103411e-01    1.12198131e-02    8.42497580e-03    8.42497580e-03    8.42497580e-03    8.42497580e-03
24       3.88270752e-03   -1.68721668e-01    6.90290681e-03    5.20293323e-03    5.20293323e-03    5.20293323e-03    5.20293323e-03
25       4.06236302e-03   -1.69566216e-01    2.60707140e-03    1.96558989e-03    1.96558989e-03    1.96558989e-03    1.96558989e-03
26       4.24201852e-03   -1.69633286e-01   -1.75176306e-03   -1.28788954e-03   -1.28788954e-03   -1.28788954e-03   -1.28788954e-03
27       4.42167403e-03   -1.68922470e-01   -6.05307174e-03   -4.52964795e-03   -4.52964795e-03   -4.52964795e-03   -4.52964795e-03
28       4.60132953e-03   -1.67437125e-01   -1.03746833e-02   -7.75525947e-03   -7.75525947e-03   -7.75525947e-03   -7.75525947e-03
29       4.78098503e-03   -1.65183967e-01   -1.46019919e-02   -1.09417733e-02   -1.09417733e-02   -1.09417733e-02   -1.09417733e-02
30       4.96064053e-03   -1.62173420e-01   -1.88078455e-02   -1.40806613e-02   -1.40806613e-02   -1.40806613e-02   -1.40806613e-02
31       5.14029603e-03   -1.58419198e-01   -2.28830970e-02   -1.71533392e-02   -1.71533392e-02   -1.71533392e-02   -1.71533392e-02
32       5.31995153e-03   -1.53938604e-01   -2.68967225e-02   -2.01481855e-02   -2.01481855e-02   -2.01481855e-02   -2.01481855e-02
33       5.49960703e-03   -1.48752098e-01   -3.07446968e-02   -2.30505684e-02   -2.30505684e-02   -2.30505684e-02   -2.30505684e-02
34       5.67926253e-03   -1.42883545e-01   -3.44930990e-02   -2.58466513e-02   -2.58466513e-02   -2.58466513e-02   -2.58466513e-02
35       5.85891803e-03   -1.36359774e-01   -3.80427833e-02   -2.85254391e-02   -2.85254391e-02   -2.85254391e-02   -2.85254391e-02
36       6.03857353e-03   -1.29210778e-01   -4.14577858e-02   -3.10716423e-02   -3.10716423e-02   -3.10716423e-02   -3.10716423e-02
37       6.21822903e-03   -1.21469260e-01   -4.46436689e-02   -3.34776638e-02   -3.34776638e-02   -3.34776638e-02   -3.34776638e-02
38       6.39788453e-03   -1.13170795e-01   -4.76631694e-02   -3.57274197e-02   -3.57274197e-02   -3.57274197e-02   -3.57274197e-02
39       6.57754003e-03   -1.04353359e-01   -5.04264367e-02   -3.78165280e-02   -3.78165280e-02   -3.78165280e-02   -3.78165280e-02
40       6.75719553e-03   -9.50574584e-02   -5.29955498e-02   -3.97286750e-02   -3.97286750e-02   -3.97286750e-02   -3.97286750e-02
41       6.93685104e-03   -8.53256446e-02   -5.52851558e-02   -4.14625520e-02   -4.14625520e-02   -4.14625520e-02   -4.14625520e-02
42       7.11650654e-03   -7.52026145e-02   -5.73572229e-02   -4.30020932e-02   -4.30020932e-02   -4.30020932e-02   -4.30020932e-02
43       7.29616204e-03   -6.47347148e-02   -5.91308228e-02   -4.43489473e-02   -4.43489473e-02   -4.43489473e-02   -4.43489473e-02
44       7.47581754e-03   -5.39700156e-02   -6.06682700e-02   -4.54876953e-02   -4.54876953e-02   -4.54876953e-02   -4.54876953e-02
45       7.65547304e-03   -4.29578077e-02   -6.18929922e-02   -4.64228410e-02   -4.64228410e-02   -4.64228410e-02   -4.64228410e-02
46       7.83512854e-03   -3.17486552e-02   -6.28680221e-02   -4.71399367e-02   -4.71399367e-02   -4.71399367e-02   -4.71399367e-02
47       8.01478404e-03   -2.03938886e-02   -6.35210678e-02   -4.76462442e-02   -4.76462442e-02   -4.76462442e-02   -4.76462442e-02
48       8.19443954e-03   -8.94564128e-03   -6.39161708e-02   -4.79285421e-02   -4.79285421e-02   -4.79285421e-02   -4.79285421e-02
49       8.55375054e-03    1.40211339e-02   -6.39213420e-02   -4.79494760e-02   -4.79494760e-02   -4.79494760e-02   -4.79494760e-02
50       8.85543902e-03    3.31239234e-02   -6.27357320e-02   -4.70492971e-02   -4.70492971e-02   -4.70492971e-02   -4.70492971e-02
51       9.12695865e-03    4.99571152e-02   -6.12805466e-02   -4.59708556e-02   -4.59708556e-02   -4.59708556e-02   -4.59708556e-02
52       9.39847828e-03    6.62676122e-02   -5.89013582e-02   -4.41787734e-02   -4.41787734e-02   -4.41787734e-02   -4.41787734e-02
53       9.66999792e-03    8.18841166e-02   -5.61740223e-02   -4.21427592e-02   -4.21427592e-02   -4.21427592e-02   -4.21427592e-02
54       9.94151755e-03    9.66436704e-02   -5.26033930e-02   -3.94600629e-02   -3.94600629e-02   -3.94600629e-02   -3.94600629e-02
55       1.02130372e-02    1.10391265e-01   -4.87248389e-02   -3.65574912e-02   -3.65574912e-02   -3.65574912e-02   -3.65574912e-02
56       1.04845568e-02    1.22983456e-01   -4.41052251e-02   -3.30905938e-02   -3.30905938e-02   -3.30905938e-02   -3.30905938e-02
57       1.07560764e-02    1.34287973e-01   -3.92437707e-02   -2.94479844e-02   -2.94479844e-02   -2.94479844e-02   -2.94479844e-02
58       1.10275961e-02    1.44186902e-01   -3.37620944e-02   -2.53366980e-02   -2.53366980e-02   -2.53366980e-02   -2.53366980e-02
59       1.12991157e-02    1.52576207e-01   -2.81264899e-02   -2.11108674e-02   -2.11108674e-02   -2.11108674e-02   -2.11108674e-02
60       1.15706353e-02    1.59368455e-01   -2.20062597e-02   -1.65224925e-02   -1.65224925e-02   -1.65224925e-02   -1.65224925e-02
61       1.18421550e-02    1.64492169e-01   -1.58370372e-02   -1.18940729e-02   -1.18940729e-02   -1.18940729e-02   -1.18940729e-02
62       1.21136746e-02    1.67894065e-01   -9.32894941e-03   -7.01634614e-03   -7.01634614e-03   -7.01634614e-03   -7.01634614e-03
63       1.23851942e-02    1.69538193e-01   -2.88843810e-03   -2.18230182e-03   -2.18230182e-03   -2.18230182e-03   -2.18230182e-03
64       1.26567139e-02    1.69407665e-01    3.74015071e-03    2.78450106e-03    2.78450106e-03    2.78450106e-03    2.78450106e-03
65       1.29282335e-02    1.67503537e-01    1.01787270e-02    7.61904622e-03    7.61904622e-03    7.61904622e-03    7.61904622e-03
66       1.31997531e-02    1.63846038e-01    1.66550166e-02    1.24705257e-02    1.24705257e-02    1.24705257e-02    1.24705257e-02
67       1.34712728e-02    1.58473175e-01    2.28189027e-02    1.71008073e-02    1.71008073e-02    1.71008073e-02    1.71008073e-02
68       1.37427924e-02    1.51441464e-01    2.88760876e-02    2.16370219e-02    2.16370219e-02    2.16370219e-02    2.16370219e-02
69       1.40143120e-02    1.42824258e-01    3.45043457e-02    2.58671443e-02    2.58671443e-02    2.58671443e-02    2.58671443e-02
70       1.42858317e-02    1.32712014e-01    3.98927985e-02    2.99010008e-02    2.99010008e-02    2.99010008e-02    2.99010008e-02
71       1.45573513e-02    1.21210354e-01    4.47471688e-02    3.35520810e-02    3.35520810e-02    3.35520810e-02    3.35520810e-02
72       1.48288709e-02    1.08439913e-01    4.92449009e-02    3.69171841e-02    3.69171841e-02    3.69171841e-02    3.69171841e-02
73       1.51003905e-02    9.45341582e-02    5.31197183e-02    3.98347894e-02    3.98347894e-02    3.98347894e-02    3.98347894e-02
74       1.53719102e-02    7.96388736e-02    5.65416834e-02    4.23924224e-02    4.23924224e-02    4.23924224e-02    4.23924224e-02
75       1.56434298e-02    6.39097882e-02    5.92724373e-02    4.44529900e-02    4.44529900e-02    4.44529900e-02    4.44529900e-02
76       1.59149494e-02    4.75117572e-02    6.14782874e-02    4.60979369e-02    4.60979369e-02    4.60979369e-02    4.60979369e-02
77       1.61864691e-02    3.06162562e-02    6.29484662e-02    4.72139081e-02    4.72139081e-02    4.72139081e-02    4.72139081e-02
78       1.64579887e-02    1.34003368e-02    6.38484386e-02    4.78788724e-02    4.78788724e-02    4.78788724e-02    4.78788724e-02
79       1.67295083e-02   -3.95594988e-03    6.39943716e-02    4.80023259e-02    4.80023259e-02    4.80023259e-02    4.80023259e-02
80       1.68954320e-02   -1.45533469e-02    6.38708845e-02    4.79037574e-02    4.79037574e-02    4.79037574e-02    4.79037574e-02
81       1.70613557e-02   -2.50941141e-02    6.32026695e-02    4.74073912e-02    4.74073912e-02    4.74073912e-02    4.74073912e-02
82       1.72272794e-02   -3.55363349e-02    6.26794869e-02    4.70090279e-02    4.70090279e-02    4.70090279e-02    4.70090279e-02
83       1.73932031e-02   -4.58399207e-02    6.15474900e-02    4.61713025e-02    4.61713025e-02    4.61713025e-02    4.61713025e-02
84       1.75591268e-02   -5.59638686e-02    6.05123867e-02    4.53831058e-02    4.53831058e-02    4.53831058e-02    4.53831058e-02
85       1.77250505e-02   -6.58692307e-02    5.89266242e-02    4.42102892e-02    4.42102892e-02    4.42102892e-02    4.42102892e-02
86       1.78909741e-02   -7.55166565e-02    5.74028092e-02    4.30507625e-02    4.30507625e-02    4.30507625e-02    4.30507625e-02
87       1.80568978e-02   -8.48689756e-02    5.53816261e-02    4.15555864e-02    4.15555864e-02    4.15555864e-02    4.15555864e-02
88       1.82228215e-02   -9.38890794e-02    5.33988238e-02    4.00479239e-02    4.00479239e-02    4.00479239e-02    4.00479239e-02
89       1.83887452e-02   -1.02542180e-01    5.09683914e-02    3.82491692e-02    3.82491692e-02    3.82491692e-02    3.82491692e-02
90       1.85546689e-02   -1.10793968e-01    4.85625732e-02    3.64210895e-02    3.64210895e-02    3.64210895e-02    3.64210895e-02
91       1.87205926e-02   -1.18612602e-01    4.57563025e-02    3.43431147e-02    3.43431147e-02    3.43431147e-02    3.43431147e-02
92       1.88865163e-02   -1.25967091e-01    4.29692858e-02    3.22265886e-02    3.22265886e-02    3.22265886e-02    3.22265886e-02
93       1.90524400e-02   -1.32829053e-01    3.98271583e-02    2.98988030e-02    2.98988030e-02    2.98988030e-02    2.98988030e-02
94       1.92183637e-02   -1.39171285e-01    3.67060861e-02    2.75296870e-02    2.75296870e-02    2.75296870e-02    2.75296870e-02
95       1.93842873e-02   -1.44969323e-01    3.32739081e-02    2.49859700e-02    2.49859700e-02    2.49859700e-02    2.49859700e-02
96       1.95502110e-02   -1.50200162e-01    2.98706218e-02    2.24035552e-02    2.24035552e-02    2.24035552e-02    2.24035552e-02
97       1.97161347e-02   -1.54843653e-01    2.61992089e-02    1.96816272e-02    1.96816272e-02    1.96816272e-02    1.96816272e-02
98       1.98820584e-02   -1.58881337e-01    2.25695287e-02    1.69281161e-02    1.69281161e-02    1.69281161e-02    1.69281161e-02
99       2.00479821e-02   -1.62297703e-01    1.87138290e-02    1.40688668e-02    1.40688668e-02    1.40688668e-02    1.40688668e-02
100      2.02139058e-02   -1.65079118e-01    1.49167559e-02    1.11887876e-02    1.11887876e-02    1.11887876e-02    1.11887876e-02
101      2.03798295e-02   -1.67214961e-01    1.09349237e-02    8.23556942e-03    8.23556942e-03    8.23556942e-03    8.23556942e-03
102      2.05457532e-02   -1.68696631e-01    7.03177898e-03    5.27514178e-03    5.27514178e-03    5.27514178e-03    5.27514178e-03
103      2.07116768e-02   -1.69518569e-01    2.98420942e-03    2.27303611e-03    2.27303611e-03    2.27303611e-03    2.27303611e-03
104      2.08776005e-02   -1.69677332e-01   -9.62273147e-04   -7.20500605e-04   -7.20500605e-04   -7.20500605e-04   -7.20500605e-04
105      2.10435242e-02   -1.69172520e-01   -5.01393368e-03   -3.72543385e-03   -3.72543385e-03   -3.72543385e-03   -3.72543385e-03
106      2.12094479e-02   -1.68005893e-01   -8.94054653e-03   -6.70451723e-03   -6.70451723e-03   -6.70451723e-03   -6.70451723e-03
107      2.13753716e-02   -1.66182223e-01   -1.29344023e-02   -9.66599752e-03   -9.66599752e-03   -9.66599752e-03   -9.66599752e-03
108      2.15412953e-02   -1.63708440e-01   -1.67784175e-02   -1.25834511e-02   -1.25834511e-02   -1.25834511e-02   -1.25834511e-02
109      2.17072190e-02   -1.60594417e-01   -2.06533223e-02   -1.54557320e-02   -1.54557320e-02   -1.54557320e-02   -1.54557320e-02
110      2.18731427e-02   -1.56852144e-01   -2.43534433e-02   -1.82654743e-02   -1.82654743e-02   -1.82654743e-02   -1.82654743e-02
111      2.20390663e-02   -1.52496443e-01   -2.80499818e-02   -2.10040840e-02   -2.10040840e-02   -2.10040840e-02   -2.10040840e-02
112      2.22049900e-02   -1.47544171e-01   -3.15472785e-02   -2.36618255e-02   -2.36618255e-02   -2.36618255e-02   -2.36618255e-02
113      2.23709137e-02   -1.42014876e-01   -3.50087166e-02   -2.62242836e-02   -2.62242836e-02   -2.62242836e-02   -2.62242836e-02
114      2.25368374e-02   -1.35930011e-01   -3.82475265e-02   -2.86881993e-02   -2.86881993e-02   -2.86881993e-02   -2.86881993e-02
115      2.27027611e-02   -1.29313547e-01   -4.14207155e-02   -3.10346981e-02   -3.10346981e-02   -3.10346981e-02   -3.10346981e-02
116      2.28686848e-02   -1.22191198e-01   -4.43494982e-02   -3.32660658e-02   -3.32660658e-02   -3.32660658e-02   -3.32660658e-02
117      2.30346085e-02   -1.14590986e-01   -4.71857202e-02   -3.53601070e-02   -3.53601070e-02   -3.53601070e-02   -3.53601070e-02
118      2.32005322e-02   -1.06542477e-01   -4.97578496e-02   -3.73238993e-02   -3.73238993e-02   -3.73238993e-02   -3.73238993e-02
119      2.33664558e-02   -9.80773112e-02   -5.22135909e-02   -3.91328761e-02   -3.91328761e-02   -3.91328761e-02   -3.91328761e-02
120      2.35323795e-02   -8.92284444e-02   -5.43880729e-02   -4.07982972e-02   -4.07982972e-02   -4.07982972e-02   -4.07982972e-02
121      2.36983032e-02   -8.00306411e-02   -5.64257142e-02   -4.22940141e-02   -4.22940141e-02   -4.22940141e-02   -4.22940141e-02
122      2.38642269e-02   -7.05197274e-02   -5.81678188e-02   -4.36349721e-02   -4.36349721e-02   -4.36349721e-02   -4.36349721e-02
123      2.40301506e-02   -6.07330534e-02   -5.97562312e-02   -4.47940937e-02   -4.47940937e-02   -4.47940937e-02   -4.47940937e-02
124      2.41960743e-02   -5.07087524e-02   -6.10380277e-02   -4.57896009e-02   -4.57896009e-02   -4.57896009e-02   -4.57896009e-02
125      2.43619980e-02   -4.04861789e-02   -6.21530661e-02   -4.65940232e-02   -4.65940232e-02   -4.65940232e-02   -4.65940232e-02
126      2.45279217e-02   -3.01051746e-02   -6.29538536e-02   -4.72285186e-02   -4.72285186e-02   -4.72285186e-02   -4.72285186e-02
127      2.46938454e-02   -1.96064860e-02   -6.35787398e-02   -4.76656573e-02   -4.76656573e-02   -4.76656573e-02   -4.76656573e-02
128      2.50000000e-02   -6.40769126e-05   -6.40769126e-02   -4.80734182e-02   -4.80734182e-02   -4.80734182e-02   -4.80734182e-02
End of Xyce(TM) Simulation
