Index       TIME              I(VS)             V(2)              V(3)              V(4)              V(5)       
0        0.00000000e+00    0.00000000e+00    0.00000000e+00    0.00000000e+00    0.00000000e+00    0.00000000e+00
1        1.00000000e-04   -6.33372945e-03    6.22945464e-02    4.63443618e-02    4.63443618e-02    4.63443618e-02
2        1.54597713e-04   -9.82103973e-03    6.38113433e-02    4.78363050e-02    4.78363050e-02    4.78363050e-02
3        1.99177610e-04   -1.26666648e-02    6.38302223e-02    4.78720159e-02    4.78720159e-02    4.78720159e-02
4        2.88337405e-04   -1.83466044e-02    6.35890133e-02    4.76956257e-02    4.76956257e-02    4.76956257e-02
5        4.66656995e-04   -2.96377435e-02    6.30604500e-02    4.72951215e-02    4.72951215e-02    4.72951215e-02
6        6.44976585e-04   -4.07951444e-02    6.20969845e-02    4.65794759e-02    4.65794759e-02    4.65794759e-02
7        8.23296174e-04   -5.17681121e-02    6.09948286e-02    4.57469704e-02    4.57469704e-02    4.57469704e-02
8        1.00161576e-03   -6.25073522e-02    5.94829299e-02    4.46216038e-02    4.46216038e-02    4.46216038e-02
9        1.17993535e-03   -7.29640892e-02    5.78294089e-02    4.33740194e-02    4.33740194e-02    4.33740194e-02
10       1.35825494e-03   -8.30913325e-02    5.57941750e-02    4.18574884e-02    4.18574884e-02    4.18574884e-02
11       1.53657453e-03   -9.28430975e-02    5.36211922e-02    4.02189686e-02    4.02189686e-02    4.02189686e-02
12       1.71489412e-03   -1.02175554e-01    5.10974238e-02    3.83371422e-02    3.83371422e-02    3.83371422e-02
13       1.89321371e-03   -1.11046330e-01    4.84460198e-02    3.63386524e-02    3.63386524e-02    3.63386524e-02
14       2.07153330e-03   -1.19415555e-01    4.54775576e-02    3.41242105e-02    3.41242105e-02    3.41242105e-02
15       2.24985289e-03   -1.27245227e-01    4.23972014e-02    3.18030115e-02    3.18030115e-02    3.18030115e-02
16       2.42817248e-03   -1.34500161e-01    3.90361053e-02    2.92948253e-02    2.92948253e-02    2.92948253e-02
17       2.60649207e-03   -1.41147407e-01    3.55838289e-02    2.66938279e-02    2.66938279e-02    2.66938279e-02
18       2.78481166e-03   -1.47157102e-01    3.18894125e-02    2.39362328e-02    2.39362328e-02    2.39362328e-02
19       2.96313125e-03   -1.52501940e-01    2.81288056e-02    2.11032474e-02    2.11032474e-02    2.11032474e-02
20       3.14145084e-03   -1.57157927e-01    2.41665436e-02    1.81452206e-02    1.81452206e-02    1.81452206e-02
21       3.31977043e-03   -1.61103884e-01    2.01666262e-02    1.51321148e-02    1.51321148e-02    1.51321148e-02
22       3.49809002e-03   -1.64322125e-01    1.60069532e-02    1.20263719e-02    1.20263719e-02    1.20263719e-02
23       3.67640961e-03   -1.66797977e-01    1.18409480e-02    8.88815208e-03    8.88815208e-03    8.88815208e-03
24       3.85472920e-03   -1.68520385e-01    7.55797056e-03    5.69017950e-03    5.69017950e-03    5.69017950e-03
25       4.03304879e-03   -1.69481444e-01    3.30199671e-03    2.48401327e-03    2.48401327e-03    2.48401327e-03
26       4.21136838e-03   -1.69676931e-01   -1.02785842e-03   -7.48948052e-04   -7.48948052e-04   -7.48948052e-04
27       4.38968797e-03   -1.69105849e-01   -5.29614608e-03   -3.96475019e-03   -3.96475019e-03   -3.96475019e-03
28       4.56800756e-03   -1.67770888e-01   -9.59552391e-03   -7.17475005e-03   -7.17475005e-03   -7.17475005e-03
29       4.74632715e-03   -1.65677972e-01   -1.37983248e-02   -1.03417759e-02   -1.03417759e-02   -1.03417759e-02
30       4.92464674e-03   -1.62836659e-01   -1.79903491e-02   -1.34712115e-02   -1.34712115e-02   -1.34712115e-02
31       5.10296633e-03   -1.59259684e-01   -2.20511113e-02   -1.65319914e-02   -1.65319914e-02   -1.65319914e-02
32       5.28128592e-03   -1.54963304e-01   -2.60607813e-02   -1.95246564e-02   -1.95246564e-02   -1.95246564e-02
33       5.45960551e-03   -1.49966832e-01   -2.99055745e-02   -2.24236920e-02   -2.24236920e-02   -2.24236920e-02
34       5.63792509e-03   -1.44292933e-01   -3.36611269e-02   -2.52257989e-02   -2.52257989e-02   -2.52257989e-02
35       5.81624468e-03   -1.37967149e-01   -3.72199693e-02   -2.79105575e-02   -2.79105575e-02   -2.79105575e-02
36       5.99456427e-03   -1.31018143e-01   -4.06541805e-02   -3.04717154e-02   -3.04717154e-02   -3.04717154e-02
37       6.17288386e-03   -1.23477222e-01   -4.38622957e-02   -3.28935717e-02   -3.28935717e-02   -3.28935717e-02
38       6.35120345e-03   -1.15378536e-01   -4.69137006e-02   -3.51677017e-02   -3.51677017e-02   -3.51677017e-02
39       6.52952304e-03   -1.06758588e-01   -4.97126813e-02   -3.72828101e-02   -3.72828101e-02   -3.72828101e-02
40       6.70784263e-03   -9.76564003e-02   -5.23266887e-02   -3.92289822e-02   -3.92289822e-02   -3.92289822e-02
41       6.88616222e-03   -8.81130119e-02   -5.46655456e-02   -4.09990630e-02   -4.09990630e-02   -4.09990630e-02
42       7.06448181e-03   -7.81716123e-02   -5.67954274e-02   -4.25822395e-02   -4.25822395e-02   -4.25822395e-02
43       7.24280140e-03   -6.78770363e-02   -5.86315060e-02   -4.39752661e-02   -4.39752661e-02   -4.39752661e-02
44       7.42112099e-03   -5.72758633e-02   -6.02392450e-02   -4.51669376e-02   -4.51669376e-02   -4.51669376e-02
45       7.59944058e-03   -4.64159115e-02   -6.15389911e-02   -4.61577107e-02   -4.61577107e-02   -4.61577107e-02
46       7.77776017e-03   -3.53463117e-02   -6.25959702e-02   -4.69364141e-02   -4.69364141e-02   -4.69364141e-02
47       7.95607976e-03   -2.41170009e-02   -6.33355333e-02   -4.75070137e-02   -4.75070137e-02   -4.75070137e-02
48       8.13439935e-03   -1.27787759e-02   -6.38230551e-02   -4.78587225e-02   -4.78587225e-02   -4.78587225e-02
49       8.31271894e-03   -1.38278938e-03   -6.39887154e-02   -4.79988286e-02   -4.79988286e-02   -4.79988286e-02
50       8.40239697e-03    4.35390361e-03   -6.39704053e-02   -4.79779928e-02   -4.79779928e-02   -4.79779928e-02
51       8.49207500e-03    1.00855846e-02   -6.39150317e-02   -4.79366483e-02   -4.79366483e-02   -4.79366483e-02
52       8.58175303e-03    1.58058582e-02   -6.36677249e-02   -4.77537336e-02   -4.77537336e-02   -4.77537336e-02
53       8.76110908e-03    2.71854179e-02   -6.32340176e-02   -4.74255468e-02   -4.74255468e-02   -4.74255468e-02
54       8.94046514e-03    3.84409540e-02   -6.22940330e-02   -4.67268218e-02   -4.67268218e-02   -4.67268218e-02
55       9.11982120e-03    4.95206046e-02   -6.12745132e-02   -4.59565665e-02   -4.59565665e-02   -4.59565665e-02
56       9.29917726e-03    6.03741332e-02   -5.97811048e-02   -4.48452161e-02   -4.48452161e-02   -4.48452161e-02
57       9.47853332e-03    7.09515608e-02   -5.81978172e-02   -4.36498061e-02   -4.36498061e-02   -4.36498061e-02
58       9.65788938e-03    8.12049037e-02   -5.61750375e-02   -4.21434825e-02   -4.21434825e-02   -4.21434825e-02
59       9.83724543e-03    9.10869651e-02   -5.40599119e-02   -4.05471922e-02   -4.05471922e-02   -4.05471922e-02
60       1.00166015e-02    1.00552903e-01   -5.15418599e-02   -3.86711340e-02   -3.86711340e-02   -3.86711340e-02
61       1.01959575e-02    1.09559152e-01   -4.89361830e-02   -3.67052098e-02   -3.67052098e-02   -3.67052098e-02
62       1.03753136e-02    1.18064842e-01   -4.59663314e-02   -3.44917306e-02   -3.44917306e-02   -3.44917306e-02
63       1.05546697e-02    1.26030827e-01   -4.29200401e-02   -3.21938672e-02   -3.21938672e-02   -3.21938672e-02
64       1.07340257e-02    1.33420961e-01   -3.95503971e-02   -2.96817213e-02   -2.96817213e-02   -2.96817213e-02
65       1.09133818e-02    1.40201222e-01   -3.61212074e-02   -2.70954145e-02   -2.70954145e-02   -2.70954145e-02
66       1.10927378e-02    1.46340860e-01   -3.24113292e-02   -2.43290517e-02   -2.43290517e-02   -2.43290517e-02
67       1.12720939e-02    1.51811591e-01   -2.86637177e-02   -2.15028395e-02   -2.15028395e-02   -2.15028395e-02
68       1.14514500e-02    1.56588628e-01   -2.46795882e-02   -1.85315603e-02   -1.85315603e-02   -1.85315603e-02
69       1.16308060e-02    1.60649934e-01   -2.06836457e-02   -1.55181671e-02   -1.55181671e-02   -1.55181671e-02
70       1.18101621e-02    1.63977144e-01   -1.64964431e-02   -1.23951942e-02   -1.23951942e-02   -1.23951942e-02
71       1.19895181e-02    1.66554864e-01   -1.23266208e-02   -9.25059435e-03   -9.25059435e-03   -9.25059435e-03
72       1.21688742e-02    1.68371496e-01   -8.01139317e-03   -6.03207653e-03   -6.03207653e-03   -6.03207653e-03
73       1.23482302e-02    1.69418561e-01   -3.74516656e-03   -2.81449516e-03   -2.81449516e-03   -2.81449516e-03
74       1.25275863e-02    1.69691444e-01    6.20559570e-04    4.41539630e-04    4.41539630e-04    4.41539630e-04
75       1.27069424e-02    1.69188734e-01    4.90408599e-03    3.67266988e-03    3.67266988e-03    3.67266988e-03
76       1.28862984e-02    1.67912886e-01    9.24173980e-03    6.90739226e-03    6.90739226e-03    6.90739226e-03
77       1.30656545e-02    1.65869580e-01    1.34632595e-02    1.00924995e-02    1.00924995e-02    1.00924995e-02
78       1.32450105e-02    1.63068300e-01    1.76946765e-02    1.32473688e-02    1.32473688e-02    1.32473688e-02
79       1.34243666e-02    1.59521706e-01    2.17761143e-02    1.63278149e-02    1.63278149e-02    1.63278149e-02
80       1.36037227e-02    1.55246144e-01    2.58249775e-02    1.93456617e-02    1.93456617e-02    1.93456617e-02
81       1.37830787e-02    1.50261021e-01    2.96909022e-02    2.22648002e-02    2.22648002e-02    2.22648002e-02
82       1.39624348e-02    1.44589248e-01    3.34841475e-02    2.50908822e-02    2.50908822e-02    2.50908822e-02
83       1.41417908e-02    1.38256622e-01    3.70631384e-02    2.77950816e-02    2.77950816e-02    2.77950816e-02
84       1.43211469e-02    1.31292205e-01    4.05322988e-02    3.03780937e-02    3.03780937e-02    3.03780937e-02
85       1.45005029e-02    1.23727706e-01    4.37582399e-02    3.28177069e-02    3.28177069e-02    3.28177069e-02
86       1.46798590e-02    1.15597812e-01    4.68407051e-02    3.51107266e-02    3.51107266e-02    3.51107266e-02
87       1.48592151e-02    1.06939565e-01    4.96539842e-02    3.72409898e-02    3.72409898e-02    3.72409898e-02
88       1.50385711e-02    9.77926444e-02    5.22941513e-02    3.92023416e-02    3.92023416e-02    3.92023416e-02
89       1.52179272e-02    8.81987455e-02    5.46427414e-02    4.09841840e-02    4.09841840e-02    4.09841840e-02
90       1.53972832e-02    7.82018180e-02    5.67930368e-02    4.25782075e-02    4.25782075e-02    4.25782075e-02
91       1.55766393e-02    6.78474474e-02    5.86334394e-02    4.39789587e-02    4.39789587e-02    4.39789587e-02
92       1.57559954e-02    5.71830542e-02    6.02551938e-02    4.51766648e-02    4.51766648e-02    4.51766648e-02
93       1.59353514e-02    4.62572785e-02    6.15532283e-02    4.61706461e-02    4.61706461e-02    4.61706461e-02
94       1.61147075e-02    3.51201484e-02    6.26173872e-02    4.69502521e-02    4.69502521e-02    4.69502521e-02
95       1.62940635e-02    2.38224679e-02    6.33488099e-02    4.75192405e-02    4.75192405e-02    4.75192405e-02
96       1.64734196e-02    1.24159613e-02    6.38364688e-02    4.78665716e-02    4.78665716e-02    4.78665716e-02
97       1.66527756e-02    9.52667074e-04    6.39874118e-02    4.80001288e-02    4.80001288e-02    4.80001288e-02
98       1.67424537e-02   -4.78387501e-03    6.39687852e-02    4.79768002e-02    4.79768002e-02    4.79768002e-02
99       1.68231639e-02   -9.94225116e-03    6.39134508e-02    4.79355038e-02    4.79355038e-02    4.79355038e-02
100      1.69038741e-02   -1.50915277e-02    6.36946736e-02    4.77738443e-02    4.77738443e-02    4.77738443e-02
101      1.70652946e-02   -2.53431644e-02    6.33308305e-02    4.74980601e-02    4.74980601e-02    4.74980601e-02
102      1.72267150e-02   -3.55011681e-02    6.25431735e-02    4.69133293e-02    4.69133293e-02    4.69133293e-02
103      1.73881355e-02   -4.55275660e-02    6.17016813e-02    4.62767205e-02    4.62767205e-02    4.62767205e-02
104      1.75495559e-02   -5.53855844e-02    6.04648307e-02    4.53574181e-02    4.53574181e-02    4.53574181e-02
105      1.77109764e-02   -6.50384042e-02    5.91611139e-02    4.43719608e-02    4.43719608e-02    4.43719608e-02
106      1.78723968e-02   -7.44505946e-02    5.74906015e-02    4.31293351e-02    4.31293351e-02    4.31293351e-02
107      1.80338173e-02   -8.35870240e-02    5.57465228e-02    4.18117719e-02    4.18117719e-02    4.18117719e-02
108      1.81952377e-02   -9.24141393e-02    5.36646658e-02    4.02622187e-02    4.02622187e-02    4.02622187e-02
109      1.83566582e-02   -1.00899006e-01    5.15082619e-02    3.86338694e-02    3.86338694e-02    3.86338694e-02
110      1.85180786e-02   -1.09010455e-01    4.90437780e-02    3.67986355e-02    3.67986355e-02    3.67986355e-02
111      1.86794991e-02   -1.16718227e-01    4.65088948e-02    3.48851321e-02    3.48851321e-02    3.48851321e-02
112      1.88409196e-02   -1.23994005e-01    4.36964310e-02    3.27899542e-02    3.27899542e-02    3.27899542e-02
113      1.90023400e-02   -1.30810648e-01    4.08222662e-02    3.06209043e-02    3.06209043e-02    3.06209043e-02
114      1.91637605e-02   -1.37143115e-01    3.77018470e-02    2.82955893e-02    2.82955893e-02    2.82955893e-02
115      1.93251809e-02   -1.42967777e-01    3.45324057e-02    2.59041743e-02    2.59041743e-02    2.59041743e-02
116      1.94866014e-02   -1.48263248e-01    3.11488071e-02    2.33821244e-02    2.33821244e-02    2.33821244e-02
117      1.96480218e-02   -1.53009755e-01    2.77322826e-02    2.08046400e-02    2.08046400e-02    2.08046400e-02
118      1.98094423e-02   -1.57189887e-01    2.41343411e-02    1.81223302e-02    1.81223302e-02    1.81223302e-02
119      1.99708627e-02   -1.60788014e-01    2.05224279e-02    1.53976753e-02    1.53976753e-02    1.53976753e-02
120      2.01322832e-02   -1.63790964e-01    1.67622938e-02    1.25940893e-02    1.25940893e-02    1.25940893e-02
121      2.02937036e-02   -1.66187479e-01    1.30094451e-02    9.76321296e-03    9.76321296e-03    9.76321296e-03
122      2.04551241e-02   -1.67968821e-01    9.14179009e-03    6.87924599e-03    6.87924599e-03    6.87924599e-03
123      2.06165445e-02   -1.69128266e-01    5.30443185e-03    3.98456090e-03    3.98456090e-03    3.98456090e-03
124      2.07779650e-02   -1.69661647e-01    1.38562236e-03    1.06239683e-03    1.06239683e-03    1.06239683e-03
125      2.09393854e-02   -1.69566868e-01   -2.47866571e-03   -1.85283208e-03   -1.85283208e-03   -1.85283208e-03
126      2.11008059e-02   -1.68844397e-01   -6.39141716e-03   -4.77035967e-03   -4.77035967e-03   -4.77035967e-03
127      2.12622263e-02   -1.67496795e-01   -1.02247394e-02   -7.66264149e-03   -7.66264149e-03   -7.66264149e-03
128      2.14236468e-02   -1.65529162e-01   -1.40742336e-02   -1.05326958e-02   -1.05326958e-02   -1.05326958e-02
129      2.15850672e-02   -1.62948675e-01   -1.78192231e-02   -1.33589453e-02   -1.33589453e-02   -1.33589453e-02
130      2.17464877e-02   -1.59764990e-01   -2.15491313e-02   -1.61393308e-02   -1.61393308e-02   -1.61393308e-02
131      2.19079081e-02   -1.55989794e-01   -2.51497887e-02   -1.88574958e-02   -1.88574958e-02   -1.88574958e-02
132      2.20693286e-02   -1.51637160e-01   -2.87054952e-02   -2.15072919e-02   -2.15072919e-02   -2.15072919e-02
133      2.22307491e-02   -1.46723107e-01   -3.21080084e-02   -2.40769671e-02   -2.40769671e-02   -2.40769671e-02
134      2.23921695e-02   -1.41265919e-01   -3.54374265e-02   -2.65571414e-02   -2.65571414e-02   -2.65571414e-02
135      2.25535900e-02   -1.35285709e-01   -3.85909597e-02   -2.89401587e-02   -2.89401587e-02   -2.89401587e-02
136      2.27150104e-02   -1.28804705e-01   -4.16453090e-02   -3.12141508e-02   -3.12141508e-02   -3.12141508e-02
137      2.28764309e-02   -1.21846814e-01   -4.45027484e-02   -3.33751378e-02   -3.33751378e-02   -3.33751378e-02
138      2.30378513e-02   -1.14437878e-01   -4.72372823e-02   -3.54094065e-02   -3.54094065e-02   -3.54094065e-02
139      2.31992718e-02   -1.06605244e-01   -4.97559280e-02   -3.73163048e-02   -3.73163048e-02   -3.73163048e-02
140      2.33606922e-02   -9.83779889e-02   -5.21306007e-02   -3.90808285e-02   -3.90808285e-02   -3.90808285e-02
141      2.35221127e-02   -8.97864917e-02   -5.42727937e-02   -4.07053633e-02   -4.07053633e-02   -4.07053633e-02
142      2.36835331e-02   -8.08626368e-02   -5.62528564e-02   -4.21740888e-02   -4.21740888e-02   -4.21740888e-02
143      2.38449536e-02   -7.16393842e-02   -5.79865323e-02   -4.34921836e-02   -4.34921836e-02   -4.34921836e-02
144      2.40063740e-02   -6.21509546e-02   -5.95430513e-02   -4.46434148e-02   -4.46434148e-02   -4.46434148e-02
145      2.41677945e-02   -5.24324006e-02   -6.08422109e-02   -4.56355442e-02   -4.56355442e-02   -4.56355442e-02
146      2.43292149e-02   -4.25197742e-02   -6.19524985e-02   -4.64522660e-02   -4.64522660e-02   -4.64522660e-02
147      2.44906354e-02   -3.24497006e-02   -6.27975899e-02   -4.71037420e-02   -4.71037420e-02   -4.71037420e-02
148      2.46520558e-02   -2.22595310e-02   -6.34455427e-02   -4.75738747e-02   -4.75738747e-02   -4.75738747e-02
149      2.48134763e-02   -1.19869200e-02   -6.38237482e-02   -4.78750615e-02   -4.78750615e-02   -4.78750615e-02
150      2.50000000e-02   -6.40164435e-05   -6.40164435e-02   -4.80039593e-02   -4.80039593e-02   -4.80039593e-02
End of Xyce(TM) Simulation
