Index       TIME              V(1A)             V(2A)             V(3A)        {I(C1A)+I(C1B)}        I(C2)             I(C3)        {P(C1A)+P(C1B)}        P(C2)             P(C3)      
0        0.00000000e+00    0.00000000e+00    0.00000000e+00    0.00000000e+00    0.00000000e+00    0.00000000e+00    0.00000000e+00    0.00000000e+00    0.00000000e+00    0.00000000e+00
1        5.00000000e-08    0.00000000e+00    0.00000000e+00    0.00000000e+00    0.00000000e+00    0.00000000e+00    0.00000000e+00    0.00000000e+00    0.00000000e+00    0.00000000e+00
2        1.50000000e-07    0.00000000e+00    0.00000000e+00    0.00000000e+00    0.00000000e+00    0.00000000e+00    0.00000000e+00    0.00000000e+00    0.00000000e+00    0.00000000e+00
3        3.50000000e-07    0.00000000e+00    0.00000000e+00    0.00000000e+00    0.00000000e+00    0.00000000e+00    0.00000000e+00    0.00000000e+00    0.00000000e+00    0.00000000e+00
4        7.50000000e-07    0.00000000e+00    0.00000000e+00    0.00000000e+00    0.00000000e+00    0.00000000e+00    0.00000000e+00    0.00000000e+00    0.00000000e+00    0.00000000e+00
5        1.55000000e-06    0.00000000e+00    0.00000000e+00    0.00000000e+00    0.00000000e+00    0.00000000e+00    0.00000000e+00    0.00000000e+00    0.00000000e+00    0.00000000e+00
6        2.55000000e-06    0.00000000e+00    0.00000000e+00    0.00000000e+00    0.00000000e+00    0.00000000e+00    0.00000000e+00    0.00000000e+00    0.00000000e+00    0.00000000e+00
7        3.55000000e-06    0.00000000e+00    0.00000000e+00    0.00000000e+00    0.00000000e+00    0.00000000e+00    0.00000000e+00    0.00000000e+00    0.00000000e+00    0.00000000e+00
8        4.55000000e-06    0.00000000e+00    0.00000000e+00    0.00000000e+00    0.00000000e+00    0.00000000e+00    0.00000000e+00    0.00000000e+00    0.00000000e+00    0.00000000e+00
9        5.55000000e-06    0.00000000e+00    0.00000000e+00    0.00000000e+00    0.00000000e+00    0.00000000e+00    0.00000000e+00    0.00000000e+00    0.00000000e+00    0.00000000e+00
10       6.55000000e-06    0.00000000e+00    0.00000000e+00    0.00000000e+00    0.00000000e+00    0.00000000e+00    0.00000000e+00    0.00000000e+00    0.00000000e+00    0.00000000e+00
11       7.55000000e-06    0.00000000e+00    0.00000000e+00    0.00000000e+00    0.00000000e+00    0.00000000e+00    0.00000000e+00    0.00000000e+00    0.00000000e+00    0.00000000e+00
12       8.55000000e-06    0.00000000e+00    0.00000000e+00    0.00000000e+00    0.00000000e+00    0.00000000e+00    0.00000000e+00    0.00000000e+00    0.00000000e+00    0.00000000e+00
13       9.55000000e-06    0.00000000e+00    0.00000000e+00    0.00000000e+00    0.00000000e+00    0.00000000e+00    0.00000000e+00    0.00000000e+00    0.00000000e+00    0.00000000e+00
14       1.00000000e-05    0.00000000e+00    0.00000000e+00    0.00000000e+00    0.00000000e+00    0.00000000e+00    0.00000000e+00    0.00000000e+00    0.00000000e+00    0.00000000e+00
15       1.00003906e-05    1.90734862e-12    3.81469723e-12    3.81469723e-12    3.90624998e-07    3.90624996e-07    3.90624996e-07    7.45058052e-19    1.49011609e-18    1.49011609e-18
16       1.00006855e-05    4.43363519e-12    8.86727033e-12    8.86727033e-12    6.85465430e-07    6.85465426e-07    6.85465426e-07    3.03910365e-18    6.07820723e-18    6.07820723e-18
17       1.00012751e-05    1.16594803e-11    2.33189605e-11    2.33189605e-11    1.27514629e-06    1.27514628e-06    1.27514628e-06    1.48675431e-17    2.97350858e-17    2.97350858e-17
18       1.00024545e-05    3.91508027e-11    7.83016044e-11    7.83016044e-11    2.45450800e-06    2.45450796e-06    2.45450796e-06    9.60959585e-17    1.92191912e-16    1.92191912e-16
19       1.00048132e-05    1.46291974e-10    2.92583943e-10    2.92583943e-10    4.81323137e-06    4.81323123e-06    4.81323123e-06    7.04137121e-16    1.40827417e-15    1.40827417e-15
20       1.00095307e-05    5.69208419e-10    1.13841679e-09    1.13841679e-09    9.53067790e-06    9.53067733e-06    9.53067733e-06    5.42494210e-15    1.08498831e-14    1.08498831e-14
21       1.00189656e-05    2.24957765e-09    4.49915492e-09    4.49915492e-09    1.89655701e-05    1.89655679e-05    1.89655679e-05    4.26645227e-14    8.53290280e-14    8.53290280e-14
22       1.00378354e-05    8.94846099e-09    1.78969190e-08    1.78969190e-08    3.78353512e-05    3.78353423e-05    3.78353423e-05    3.38568165e-13    6.77136055e-13    6.77136055e-13
23       1.00755749e-05    3.56988032e-08    7.13975824e-08    7.13975824e-08    7.55749001e-05    7.55748644e-05    7.55748644e-05    2.69793349e-12    5.39586261e-12    5.39586261e-12
24       1.01510541e-05    1.42609758e-07    2.85219325e-07    2.85219325e-07    1.51053944e-04    1.51053802e-04    1.51053802e-04    2.15417665e-11    4.30834633e-11    4.30834633e-11
25       1.03020124e-05    5.70072500e-07    1.14014346e-06    1.14014346e-06    3.02011820e-04    3.02011249e-04    3.02011249e-04    1.72168633e-10    3.44336152e-10    3.44336152e-10
26       1.06039290e-05    2.27955929e-06    4.55910629e-06    4.55910629e-06    6.03926715e-04    6.03924436e-04    6.03924436e-04    1.37668676e-09    2.75335569e-09    2.75335569e-09
27       1.10000000e-05    6.24997424e-06    1.24998940e-05    1.24998940e-05    9.99993750e-04    9.99987500e-04    9.99987500e-04    6.24993517e-09    1.24997377e-08    1.24997377e-08
28       1.10603833e-05    7.00476046e-06    1.40094558e-05    1.40094558e-05    9.99992995e-04    9.99985991e-04    9.99985991e-04    7.00471140e-09    1.40092596e-08    1.40092596e-08
29       1.11811500e-05    8.51433063e-06    1.70285705e-05    1.70285705e-05    9.99991486e-04    9.99982971e-04    9.99982971e-04    8.51425814e-09    1.70282805e-08    1.70282805e-08
30       1.14226832e-05    1.15334664e-05    2.30667815e-05    2.30667815e-05    9.99988467e-04    9.99976933e-04    9.99976933e-04    1.15333334e-08    2.30662494e-08    2.30662494e-08
31       1.19057498e-05    1.75717106e-05    3.51430942e-05    3.51430942e-05    9.99982428e-04    9.99964857e-04    9.99964857e-04    1.75714019e-08    3.51418592e-08    3.51418592e-08
32       1.28718830e-05    2.96480897e-05    5.92952821e-05    5.92952821e-05    9.99970352e-04    9.99940705e-04    9.99940705e-04    2.96472107e-08    5.92917662e-08    5.92917662e-08
33       1.48041492e-05    5.38004103e-05    1.07597908e-04    1.07597908e-04    9.99946200e-04    9.99892402e-04    9.99892402e-04    5.37975159e-08    1.07586331e-07    1.07586331e-07
34       1.86686818e-05    1.02103302e-04    2.04196160e-04    2.04196160e-04    9.99897897e-04    9.99795804e-04    9.99795804e-04    1.02092876e-07    2.04154464e-07    2.04154464e-07
35       2.63977469e-05    1.98702084e-04    3.97364668e-04    3.97364668e-04    9.99801298e-04    9.99602635e-04    9.99602635e-04    1.98662602e-07    3.97206770e-07    3.97206770e-07
36       4.18558770e-05    3.91871654e-04    7.83589731e-04    7.83589731e-04    9.99608128e-04    9.99216410e-04    9.99216410e-04    3.91718091e-07    7.82975718e-07    7.82975718e-07
37       7.27721374e-05    7.78098839e-04    1.55559226e-03    1.55559226e-03    9.99221901e-04    9.98444408e-04    9.98444408e-04    7.77493401e-07    1.55317239e-06    1.55317239e-06
38       1.34604658e-04    1.55010561e-03    3.09780863e-03    3.09780863e-03    9.98449894e-04    9.96902191e-04    9.96902191e-04    1.54770278e-06    3.08821221e-06    3.08821221e-06
39       2.58269700e-04    3.09233045e-03    6.17510048e-03    6.17510048e-03    9.96907670e-04    9.93824900e-04    9.93824900e-04    3.08276795e-06    6.13696861e-06    6.13696861e-06
40       5.05599782e-04    6.16963922e-03    1.23012306e-02    1.23012306e-02    9.93830361e-04    9.87698769e-04    9.87698769e-04    6.13157477e-06    1.21499104e-05    1.21499104e-05
41       1.00025995e-03    1.22958030e-02    2.44405511e-02    2.44405511e-02    9.87704197e-04    9.75559449e-04    9.75559449e-04    1.21446163e-05    2.38432106e-05    2.38432106e-05
42       1.98958028e-03    2.44351902e-02    4.82743305e-02    4.82743305e-02    9.75564810e-04    9.51725670e-04    9.51725670e-04    2.38381117e-05    4.59439195e-05    4.59439195e-05
43       3.96822094e-03    4.82691006e-02    9.42161293e-02    9.42161293e-02    9.51730899e-04    9.05783871e-04    9.05783871e-04    4.59391945e-05    8.53394503e-05    8.53394503e-05
44       5.94686160e-03    7.15207274e-02    1.37940221e-01    1.37940221e-01    9.28479273e-04    8.62059779e-04    8.62059779e-04    6.64055130e-05    1.18912716e-04    1.18912716e-04
45       7.92550227e-03    9.42042965e-02    1.79553659e-01    1.79553659e-01    9.05795703e-04    8.20446341e-04    8.20446341e-04    8.53298470e-05    1.47314142e-04    1.47314142e-04
46       9.90414293e-03    1.16333686e-01    2.19158328e-01    2.19158328e-01    8.83666314e-04    7.80841672e-04    7.80841672e-04    1.02800159e-04    1.71127956e-04    1.71127956e-04
47       1.18827836e-02    1.37922435e-01    2.56851197e-01    2.56851197e-01    8.62077565e-04    7.43148803e-04    7.43148803e-04    1.18899837e-04    1.90878660e-04    1.90878660e-04
48       1.38614243e-02    1.58983752e-01    2.92724552e-01    2.92724552e-01    8.41016248e-04    7.07275448e-04    7.07275448e-04    1.33707918e-04    2.07036889e-04    2.07036889e-04
49       1.58400649e-02    1.79530522e-01    3.26866225e-01    3.26866225e-01    8.20469478e-04    6.73133775e-04    6.73133775e-04    1.47299313e-04    2.20024696e-04    2.20024696e-04
50       1.78187056e-02    1.99575316e-01    3.59359808e-01    3.59359808e-01    8.00424684e-04    6.40640192e-04    6.40640192e-04    1.59745009e-04    2.30220336e-04    2.30220336e-04
51       1.97973462e-02    2.19130398e-01    3.90284856e-01    3.90284856e-01    7.80869602e-04    6.09715144e-04    6.09715144e-04    1.71112267e-04    2.37962587e-04    2.37962587e-04
52       2.37546276e-02    2.56824616e-01    4.47762048e-01    4.47762048e-01    7.43175384e-04    5.52237952e-04    5.52237952e-04    1.90865732e-04    2.47271196e-04    2.47271196e-04
53       2.77119089e-02    2.92699254e-01    4.99820926e-01    4.99820926e-01    7.07300746e-04    5.00179074e-04    5.00179074e-04    2.07026401e-04    2.49999968e-04    2.49999968e-04
54       3.16691902e-02    3.26842148e-01    5.46972269e-01    5.46972269e-01    6.73157852e-04    4.53027731e-04    4.53027731e-04    2.20016358e-04    2.47793606e-04    2.47793606e-04
55       3.56264715e-02    3.59336892e-01    5.89678706e-01    5.89678706e-01    6.40663108e-04    4.10321294e-04    4.10321294e-04    2.30213890e-04    2.41957730e-04    2.41957730e-04
56       3.95837529e-02    3.90263048e-01    6.28359254e-01    6.28359254e-01    6.09736952e-04    3.71640746e-04    3.71640746e-04    2.37957801e-04    2.33523902e-04    2.33523902e-04
57       4.35410342e-02    4.19696332e-01    6.63393427e-01    6.63393427e-01    5.80303668e-04    3.36606573e-04    3.36606573e-04    2.43551321e-04    2.23302588e-04    2.23302588e-04
58       4.74983155e-02    4.47708810e-01    6.95124967e-01    6.95124967e-01    5.52291190e-04    3.04875033e-04    3.04875033e-04    2.47265631e-04    2.11926247e-04    2.11926247e-04
59       5.14555968e-02    4.74369067e-01    7.23865209e-01    7.23865209e-01    5.25630933e-04    2.76134791e-04    2.76134791e-04    2.49343055e-04    1.99884368e-04    1.99884368e-04
60       5.54128782e-02    4.99742377e-01    7.49896139e-01    7.49896139e-01    5.00257623e-04    2.50103861e-04    2.50103861e-04    2.49999934e-04    1.87551920e-04    1.87551920e-04
61       5.93701595e-02    5.23890864e-01    7.73473161e-01    7.73473161e-01    4.76109136e-04    2.26526839e-04    2.26526839e-04    2.49429227e-04    1.75212430e-04    1.75212430e-04
62       6.33274408e-02    5.46873653e-01    7.94827602e-01    7.94827602e-01    4.53126347e-04    2.05172398e-04    2.05172398e-04    2.47802861e-04    1.63076685e-04    1.63076685e-04
63       6.72847221e-02    5.68747014e-01    8.14168984e-01    8.14168984e-01    4.31252986e-04    1.85831016e-04    1.85831016e-04    2.45273848e-04    1.51297850e-04    1.51297850e-04
64       7.12420035e-02    5.89564503e-01    8.31687074e-01    8.31687074e-01    4.10435497e-04    1.68312926e-04    1.68312926e-04    2.41978200e-04    1.39983685e-04    1.39983685e-04
65       7.51992848e-02    6.09377087e-01    8.47553752e-01    8.47553752e-01    3.90622913e-04    1.52446248e-04    1.52446248e-04    2.38036653e-04    1.29206389e-04    1.29206389e-04
66       7.91565661e-02    6.28233276e-01    8.61924696e-01    8.61924696e-01    3.71766724e-04    1.38075304e-04    1.38075304e-04    2.33556227e-04    1.19010514e-04    1.19010514e-04
67       8.70711288e-02    6.63279325e-01    8.86785325e-01    8.86785325e-01    3.36720675e-04    1.13214675e-04    1.13214675e-04    2.23339862e-04    1.00397113e-04    1.00397113e-04
68       9.49856914e-02    6.95021621e-01    9.07169767e-01    9.07169767e-01    3.04978379e-04    9.28302335e-05    9.28302335e-05    2.11966567e-04    8.42127812e-05    8.42127812e-05
69       1.00011000e-01    7.13595869e-01    9.18142983e-01    9.18142983e-01    2.86404131e-04    8.18570168e-05    8.18570168e-05    2.04376805e-04    7.51564456e-05    7.51564456e-05
70       1.00011006e-01    7.13595891e-01    9.18142995e-01    9.18142995e-01    2.80154110e-04    7.56070044e-05    7.56070044e-05    1.99916821e-04    6.94180414e-05    6.94180414e-05
71       1.00011013e-01    7.13595912e-01    9.18143006e-01    9.18143006e-01    2.73904087e-04    6.93569952e-05    6.93569952e-05    1.95456837e-04    6.36796400e-05    6.36796400e-05
72       1.00011025e-01    7.13595954e-01    9.18143026e-01    9.18143026e-01    2.61404046e-04    5.68569736e-05    5.68569736e-05    1.86536870e-04    5.22028337e-05    5.22028337e-05
73       1.00011050e-01    7.13596032e-01    9.18143053e-01    9.18143053e-01    2.36403968e-04    3.18569471e-05    3.18569471e-05    1.68696934e-04    2.92492347e-05    2.92492347e-05
74       1.00011100e-01    7.13596164e-01    9.18143062e-01    9.18143062e-01    1.86403836e-04   -1.81430625e-05   -1.81430625e-05    1.33017062e-04   -1.66579269e-05   -1.66579269e-05
75       1.00011200e-01    7.13596334e-01    9.18142892e-01    9.18142892e-01    8.64036654e-05   -1.18142891e-04   -1.18142891e-04    6.16573389e-05   -1.08472056e-04   -1.08472056e-04
76       1.00011400e-01    7.13596300e-01    9.18141801e-01    9.18141801e-01   -1.13596300e-04   -3.18141801e-04   -3.18141801e-04   -8.10618997e-05   -2.92099286e-04   -2.92099286e-04
77       1.00011800e-01    7.13594733e-01    9.18136619e-01    9.18136619e-01   -5.13594733e-04   -7.18136619e-04   -7.18136619e-04   -3.66498496e-04   -6.59347528e-04   -6.59347528e-04
78       1.00012000e-01    7.13593199e-01    9.18132529e-01    9.18132529e-01   -7.13593198e-04   -9.18132529e-04   -9.18132529e-04   -5.09215253e-04   -8.42967341e-04   -8.42967341e-04
79       1.00012080e-01    7.13592485e-01    9.18130692e-01    9.18130692e-01   -7.13592485e-04   -9.18130692e-04   -9.18130692e-04   -5.09214235e-04   -8.42963968e-04   -8.42963968e-04
80       1.00012240e-01    7.13591058e-01    9.18127020e-01    9.18127020e-01   -7.13591058e-04   -9.18127020e-04   -9.18127020e-04   -5.09212198e-04   -8.42957225e-04   -8.42957225e-04
81       1.00012560e-01    7.13588203e-01    9.18119675e-01    9.18119675e-01   -7.13588203e-04   -9.18119675e-04   -9.18119675e-04   -5.09208124e-04   -8.42943738e-04   -8.42943738e-04
82       1.00013200e-01    7.13582495e-01    9.18104985e-01    9.18104985e-01   -7.13582495e-04   -9.18104985e-04   -9.18104985e-04   -5.09199977e-04   -8.42916764e-04   -8.42916764e-04
83       1.00014480e-01    7.13571077e-01    9.18075606e-01    9.18075606e-01   -7.13571077e-04   -9.18075606e-04   -9.18075606e-04   -5.09183683e-04   -8.42862819e-04   -8.42862819e-04
84       1.00017040e-01    7.13548244e-01    9.18016851e-01    9.18016851e-01   -7.13548244e-04   -9.18016851e-04   -9.18016851e-04   -5.09151096e-04   -8.42754939e-04   -8.42754939e-04
85       1.00022160e-01    7.13502578e-01    9.17899353e-01    9.17899353e-01   -7.13502578e-04   -9.17899353e-04   -9.17899353e-04   -5.09085929e-04   -8.42539222e-04   -8.42539222e-04
86       1.00032400e-01    7.13411255e-01    9.17664401e-01    9.17664401e-01   -7.13411255e-04   -9.17664401e-04   -9.17664401e-04   -5.08955619e-04   -8.42107952e-04   -8.42107952e-04
87       1.00052880e-01    7.13228646e-01    9.17194677e-01    9.17194677e-01   -7.13228646e-04   -9.17194677e-04   -9.17194677e-04   -5.08695101e-04   -8.41246075e-04   -8.41246075e-04
88       1.00093840e-01    7.12863566e-01    9.16255950e-01    9.16255950e-01   -7.12863566e-04   -9.16255950e-04   -9.16255950e-04   -5.08174464e-04   -8.39524966e-04   -8.39524966e-04
89       1.00175760e-01    7.12133967e-01    9.14381377e-01    9.14381377e-01   -7.12133967e-04   -9.14381377e-04   -9.14381377e-04   -5.07134787e-04   -8.36093303e-04   -8.36093303e-04
90       1.00339600e-01    7.10677009e-01    9.10643726e-01    9.10643726e-01   -7.10677009e-04   -9.10643726e-04   -9.10643726e-04   -5.05061811e-04   -8.29271995e-04   -8.29271995e-04
91       1.00667280e-01    7.07772025e-01    9.03214164e-01    9.03214164e-01   -7.07772025e-04   -9.03214164e-04   -9.03214164e-04   -5.00941240e-04   -8.15795826e-04   -8.15795826e-04
92       1.01322640e-01    7.01997609e-01    8.88536145e-01    8.88536145e-01   -7.01997609e-04   -8.88536145e-04   -8.88536145e-04   -4.92800643e-04   -7.89496482e-04   -7.89496482e-04
93       1.02633360e-01    6.90589535e-01    8.59889933e-01    8.59889933e-01   -6.90589535e-04   -8.59889933e-04   -8.59889933e-04   -4.76913906e-04   -7.39410696e-04   -7.39410696e-04
94       1.05254800e-01    6.68325078e-01    8.05324196e-01    8.05324196e-01   -6.68325078e-04   -8.05324196e-04   -8.05324196e-04   -4.46658410e-04   -6.48547061e-04   -6.48547061e-04
95       1.07876240e-01    6.46778422e-01    7.54221018e-01    7.54221018e-01   -6.46778422e-04   -7.54221018e-04   -7.54221018e-04   -4.18322327e-04   -5.68849345e-04   -5.68849345e-04
96       1.10497680e-01    6.25926426e-01    7.06360677e-01    7.06360677e-01   -6.25926426e-04   -7.06360677e-04   -7.06360677e-04   -3.91783891e-04   -4.98945407e-04   -4.98945407e-04
97       1.13119120e-01    6.05746693e-01    6.61537393e-01    6.61537393e-01   -6.05746693e-04   -6.61537393e-04   -6.61537393e-04   -3.66929057e-04   -4.37631723e-04   -4.37631723e-04
98       1.15740560e-01    5.86217551e-01    6.19558445e-01    6.19558445e-01   -5.86217551e-04   -6.19558445e-04   -6.19558445e-04   -3.43651017e-04   -3.83852667e-04   -3.83852667e-04
99       1.18362000e-01    5.67318024e-01    5.80243340e-01    5.80243340e-01   -5.67318024e-04   -5.80243340e-04   -5.80243340e-04   -3.21849741e-04   -3.36682334e-04   -3.36682334e-04
100      1.20983440e-01    5.49027814e-01    5.43423040e-01    5.43423040e-01   -5.49027814e-04   -5.43423040e-04   -5.43423040e-04   -3.01431541e-04   -2.95308601e-04   -2.95308601e-04
101      1.23604880e-01    5.31327276e-01    5.08939233e-01    5.08939233e-01   -5.31327276e-04   -5.08939233e-04   -5.08939233e-04   -2.82308675e-04   -2.59019143e-04   -2.59019143e-04
102      1.26226320e-01    5.14197400e-01    4.76643653e-01    4.76643653e-01   -5.14197400e-04   -4.76643653e-04   -4.76643653e-04   -2.64398966e-04   -2.27189172e-04   -2.27189172e-04
103      1.28847760e-01    4.97619787e-01    4.46397443e-01    4.46397443e-01   -4.97619787e-04   -4.46397443e-04   -4.46397443e-04   -2.47625453e-04   -1.99270677e-04   -1.99270677e-04
104      1.31469200e-01    4.81576633e-01    4.18070555e-01    4.18070555e-01   -4.81576633e-04   -4.18070555e-04   -4.18070555e-04   -2.31916054e-04   -1.74782989e-04   -1.74782989e-04
105      1.34090640e-01    4.66050707e-01    3.91541197e-01    3.91541197e-01   -4.66050707e-04   -3.91541197e-04   -3.91541197e-04   -2.17203261e-04   -1.53304509e-04   -1.53304509e-04
