Index       TIME              V(1A)             V(2A)             I(C1)             I(C2)             P(C1)             P(C2)      
0        0.00000000e+00    1.00000000e+00    1.00000000e+00   -1.00000000e-03   -1.00000000e-03   -1.00000000e-03   -1.00000000e-03
1        5.00000000e-07    9.99987500e-01    9.99987500e-01   -9.99987500e-04   -9.99987500e-04   -9.99975000e-04   -9.99975000e-04
2        1.50000000e-06    9.99962501e-01    9.99962501e-01   -9.99962501e-04   -9.99962501e-04   -9.99925004e-04   -9.99925004e-04
3        2.40000000e-06    9.99940002e-01    9.99940002e-01   -9.99940002e-04   -9.99940002e-04   -9.99880008e-04   -9.99880008e-04
4        4.20000000e-06    9.99895006e-01    9.99895006e-01   -9.99895006e-04   -9.99895006e-04   -9.99790023e-04   -9.99790023e-04
5        7.80000000e-06    9.99805020e-01    9.99805020e-01   -9.99805020e-04   -9.99805020e-04   -9.99610077e-04   -9.99610077e-04
6        1.50000000e-05    9.99625071e-01    9.99625071e-01   -9.99625071e-04   -9.99625071e-04   -9.99250282e-04   -9.99250282e-04
7        2.94000000e-05    9.99265271e-01    9.99265271e-01   -9.99265271e-04   -9.99265271e-04   -9.98531081e-04   -9.98531081e-04
8        5.82000000e-05    9.98546059e-01    9.98546059e-01   -9.98546059e-04   -9.98546059e-04   -9.97094231e-04   -9.97094231e-04
9        1.15800000e-04    9.97109187e-01    9.97109187e-01   -9.97109187e-04   -9.97109187e-04   -9.94226730e-04   -9.94226730e-04
10       2.31000000e-04    9.94241642e-01    9.94241642e-01   -9.94241642e-04   -9.94241642e-04   -9.88516442e-04   -9.88516442e-04
11       4.61400000e-04    9.88531256e-01    9.88531256e-01   -9.88531256e-04   -9.88531256e-04   -9.77194043e-04   -9.77194043e-04
12       9.22200000e-04    9.77208594e-01    9.77208594e-01   -9.77208594e-04   -9.77208594e-04   -9.54936636e-04   -9.54936636e-04
13       1.84380000e-03    9.54950126e-01    9.54950126e-01   -9.54950126e-04   -9.54950126e-04   -9.11929743e-04   -9.11929743e-04
14       3.68700000e-03    9.11937045e-01    9.11937045e-01   -9.11937045e-04   -9.11937045e-04   -8.31629175e-04   -8.31629175e-04
15       5.53020000e-03    8.70861370e-01    8.70861370e-01   -8.70861370e-04   -8.70861370e-04   -7.58399525e-04   -7.58399525e-04
16       7.37340000e-03    8.31635834e-01    8.31635834e-01   -8.31635834e-04   -8.31635834e-04   -6.91618161e-04   -6.91618161e-04
17       9.21660000e-03    7.94177104e-01    7.94177104e-01   -7.94177104e-04   -7.94177104e-04   -6.30717273e-04   -6.30717273e-04
18       1.10598000e-02    7.58405599e-01    7.58405599e-01   -7.58405599e-04   -7.58405599e-04   -5.75179052e-04   -5.75179052e-04
19       1.29030000e-02    7.24245321e-01    7.24245321e-01   -7.24245321e-04   -7.24245321e-04   -5.24531286e-04   -5.24531286e-04
20       1.47462000e-02    6.91623699e-01    6.91623699e-01   -6.91623699e-04   -6.91623699e-04   -4.78343341e-04   -4.78343341e-04
21       1.65894000e-02    6.60471427e-01    6.60471427e-01   -6.60471428e-04   -6.60471428e-04   -4.36222507e-04   -4.36222507e-04
22       1.84326000e-02    6.30722323e-01    6.30722323e-01   -6.30722323e-04   -6.30722323e-04   -3.97810649e-04   -3.97810649e-04
23       2.02758000e-02    6.02313185e-01    6.02313185e-01   -6.02313185e-04   -6.02313185e-04   -3.62781173e-04   -3.62781173e-04
24       2.21190000e-02    5.75183658e-01    5.75183658e-01   -5.75183658e-04   -5.75183658e-04   -3.30836241e-04   -3.30836241e-04
25       2.39622000e-02    5.49276105e-01    5.49276105e-01   -5.49276105e-04   -5.49276105e-04   -3.01704240e-04   -3.01704240e-04
26       2.58054000e-02    5.24535486e-01    5.24535486e-01   -5.24535486e-04   -5.24535486e-04   -2.75137476e-04   -2.75137476e-04
27       2.76486000e-02    5.00909240e-01    5.00909240e-01   -5.00909240e-04   -5.00909240e-04   -2.50910066e-04   -2.50910066e-04
28       2.94918000e-02    4.78347172e-01    4.78347172e-01   -4.78347172e-04   -4.78347172e-04   -2.28816017e-04   -2.28816017e-04
29       3.13350000e-02    4.56801350e-01    4.56801350e-01   -4.56801350e-04   -4.56801350e-04   -2.08667473e-04   -2.08667473e-04
30       3.31782000e-02    4.36226000e-01    4.36226000e-01   -4.36226000e-04   -4.36226000e-04   -1.90293123e-04   -1.90293123e-04
31       3.50214000e-02    4.16577409e-01    4.16577409e-01   -4.16577409e-04   -4.16577409e-04   -1.73536738e-04   -1.73536738e-04
32       3.68646000e-02    3.97813835e-01    3.97813835e-01   -3.97813835e-04   -3.97813835e-04   -1.58255847e-04   -1.58255847e-04
33       3.87078000e-02    3.79895414e-01    3.79895414e-01   -3.79895414e-04   -3.79895414e-04   -1.44320525e-04   -1.44320525e-04
34       4.05510000e-02    3.62784078e-01    3.62784078e-01   -3.62784078e-04   -3.62784078e-04   -1.31612288e-04   -1.31612288e-04
35       4.23942000e-02    3.46443476e-01    3.46443476e-01   -3.46443476e-04   -3.46443476e-04   -1.20023082e-04   -1.20023082e-04
36       4.42374000e-02    3.30838890e-01    3.30838890e-01   -3.30838890e-04   -3.30838890e-04   -1.09454371e-04   -1.09454371e-04
37       4.60806000e-02    3.15937169e-01    3.15937169e-01   -3.15937169e-04   -3.15937169e-04   -9.98162950e-05   -9.98162950e-05
38       4.79238000e-02    3.01706656e-01    3.01706656e-01   -3.01706656e-04   -3.01706656e-04   -9.10269061e-05   -9.10269061e-05
39       4.97670000e-02    2.88117116e-01    2.88117116e-01   -2.88117116e-04   -2.88117116e-04   -8.30114725e-05   -8.30114725e-05
40       5.16102000e-02    2.75139679e-01    2.75139679e-01   -2.75139679e-04   -2.75139679e-04   -7.57018432e-05   -7.57018432e-05
41       5.34534000e-02    2.62746776e-01    2.62746776e-01   -2.62746776e-04   -2.62746776e-04   -6.90358680e-05   -6.90358680e-05
42       5.52966000e-02    2.50912076e-01    2.50912076e-01   -2.50912076e-04   -2.50912076e-04   -6.29568697e-05   -6.29568697e-05
43       5.71398000e-02    2.39610437e-01    2.39610437e-01   -2.39610437e-04   -2.39610437e-04   -5.74131615e-05   -5.74131615e-05
44       5.89830000e-02    2.28817849e-01    2.28817849e-01   -2.28817849e-04   -2.28817849e-04   -5.23576081e-05   -5.23576081e-05
45       6.08262000e-02    2.18511384e-01    2.18511384e-01   -2.18511384e-04   -2.18511384e-04   -4.77472248e-05   -4.77472248e-05
46       6.26694000e-02    2.08669144e-01    2.08669144e-01   -2.08669144e-04   -2.08669144e-04   -4.35428118e-05   -4.35428118e-05
47       6.45126000e-02    1.99270221e-01    1.99270221e-01   -1.99270221e-04   -1.99270221e-04   -3.97086211e-05   -3.97086211e-05
48       6.63558000e-02    1.90294647e-01    1.90294647e-01   -1.90294647e-04   -1.90294647e-04   -3.62120526e-05   -3.62120526e-05
49       6.81990000e-02    1.81723352e-01    1.81723352e-01   -1.81723352e-04   -1.81723352e-04   -3.30233767e-05   -3.30233767e-05
50       7.00422000e-02    1.73538128e-01    1.73538128e-01   -1.73538128e-04   -1.73538128e-04   -3.01154817e-05   -3.01154817e-05
51       7.18854000e-02    1.65721584e-01    1.65721584e-01   -1.65721584e-04   -1.65721584e-04   -2.74636433e-05   -2.74636433e-05
52       7.37286000e-02    1.58257115e-01    1.58257115e-01   -1.58257115e-04   -1.58257115e-04   -2.50453143e-05   -2.50453143e-05
53       7.55718000e-02    1.51128862e-01    1.51128862e-01   -1.51128862e-04   -1.51128862e-04   -2.28399328e-05   -2.28399328e-05
54       7.74150000e-02    1.44321681e-01    1.44321681e-01   -1.44321681e-04   -1.44321681e-04   -2.08287477e-05   -2.08287477e-05
55       7.92582000e-02    1.37821111e-01    1.37821111e-01   -1.37821111e-04   -1.37821111e-04   -1.89946587e-05   -1.89946587e-05
56       8.11014000e-02    1.31613341e-01    1.31613341e-01   -1.31613341e-04   -1.31613341e-04   -1.73220717e-05   -1.73220717e-05
57       8.29446000e-02    1.25685183e-01    1.25685183e-01   -1.25685183e-04   -1.25685183e-04   -1.57967653e-05   -1.57967653e-05
58       8.47878000e-02    1.20024043e-01    1.20024043e-01   -1.20024043e-04   -1.20024043e-04   -1.44057709e-05   -1.44057709e-05
59       8.66310000e-02    1.14617893e-01    1.14617893e-01   -1.14617893e-04   -1.14617893e-04   -1.31372613e-05   -1.31372613e-05
60       8.84742000e-02    1.09455248e-01    1.09455248e-01   -1.09455248e-04   -1.09455248e-04   -1.19804512e-05   -1.19804512e-05
61       9.03174000e-02    1.04525139e-01    1.04525139e-01   -1.04525139e-04   -1.04525139e-04   -1.09255048e-05   -1.09255048e-05
62       9.21606000e-02    9.98170944e-02    9.98170944e-02   -9.98170943e-05   -9.98170943e-05   -9.96345233e-06   -9.96345233e-06
63       9.40038000e-02    9.53211101e-02    9.53211101e-02   -9.53211101e-05   -9.53211101e-05   -9.08611404e-06   -9.08611404e-06
64       9.58470000e-02    9.10276350e-02    9.10276350e-02   -9.10276350e-05   -9.10276350e-05   -8.28603034e-06   -8.28603034e-06
65       9.76902000e-02    8.69275476e-02    8.69275476e-02   -8.69275476e-05   -8.69275476e-05   -7.55639854e-06   -7.55639854e-06
66       9.95334000e-02    8.30121373e-02    8.30121373e-02   -8.30121373e-05   -8.30121373e-05   -6.89101494e-06   -6.89101494e-06
67       1.01376600e-01    7.92730857e-02    7.92730857e-02   -7.92730858e-05   -7.92730858e-05   -6.28422213e-06   -6.28422213e-06
68       1.03219800e-01    7.57024494e-02    7.57024494e-02   -7.57024494e-05   -7.57024494e-05   -5.73086085e-06   -5.73086085e-06
69       1.05063000e-01    7.22926425e-02    7.22926425e-02   -7.22926425e-05   -7.22926425e-05   -5.22622616e-06   -5.22622616e-06
70       1.06906200e-01    6.90364209e-02    6.90364209e-02   -6.90364209e-05   -6.90364209e-05   -4.76602741e-06   -4.76602741e-06
71       1.08749400e-01    6.59268667e-02    6.59268667e-02   -6.59268667e-05   -6.59268667e-05   -4.34635176e-06   -4.34635176e-06
72       1.10592600e-01    6.29573738e-02    6.29573738e-02   -6.29573738e-05   -6.29573738e-05   -3.96363092e-06   -3.96363092e-06
73       1.12435800e-01    6.01216335e-02    6.01216335e-02   -6.01216335e-05   -6.01216335e-05   -3.61461082e-06   -3.61461082e-06
74       1.14279000e-01    5.74136212e-02    5.74136212e-02   -5.74136212e-05   -5.74136212e-05   -3.29632390e-06   -3.29632390e-06
75       1.16122200e-01    5.48275839e-02    5.48275839e-02   -5.48275839e-05   -5.48275839e-05   -3.00606395e-06   -3.00606395e-06
76       1.17965400e-01    5.23580274e-02    5.23580274e-02   -5.23580274e-05   -5.23580274e-05   -2.74136303e-06   -2.74136303e-06
77       1.19808600e-01    4.99997052e-02    4.99997052e-02   -4.99997052e-05   -4.99997052e-05   -2.49997052e-06   -2.49997052e-06
78       1.21651800e-01    4.77476071e-02    4.77476071e-02   -4.77476071e-05   -4.77476071e-05   -2.27983399e-06   -2.27983399e-06
79       1.23495000e-01    4.55969486e-02    4.55969486e-02   -4.55969486e-05   -4.55969486e-05   -2.07908172e-06   -2.07908172e-06
80       1.25338200e-01    4.35431605e-02    4.35431605e-02   -4.35431605e-05   -4.35431605e-05   -1.89600682e-06   -1.89600682e-06
81       1.27181400e-01    4.15818795e-02    4.15818795e-02   -4.15818796e-05   -4.15818796e-05   -1.72905271e-06   -1.72905271e-06
82       1.29024600e-01    3.97089391e-02    3.97089391e-02   -3.97089391e-05   -3.97089391e-05   -1.57679984e-06   -1.57679984e-06
83       1.30867800e-01    3.79203600e-02    3.79203600e-02   -3.79203600e-05   -3.79203600e-05   -1.43795371e-06   -1.43795371e-06
84       1.32711000e-01    3.62123426e-02    3.62123426e-02   -3.62123426e-05   -3.62123426e-05   -1.31133375e-06   -1.31133375e-06
85       1.34554200e-01    3.45812580e-02    3.45812580e-02   -3.45812580e-05   -3.45812580e-05   -1.19586341e-06   -1.19586341e-06
86       1.36397400e-01    3.30236411e-02    3.30236411e-02   -3.30236411e-05   -3.30236411e-05   -1.09056087e-06   -1.09056087e-06
87       1.38240600e-01    3.15361828e-02    3.15361828e-02   -3.15361828e-05   -3.15361828e-05   -9.94530825e-07   -9.94530825e-07
88       1.40083800e-01    3.01157229e-02    3.01157229e-02   -3.01157229e-05   -3.01157229e-05   -9.06956765e-07   -9.06956765e-07
89       1.41927000e-01    2.87592437e-02    2.87592437e-02   -2.87592437e-05   -2.87592437e-05   -8.27094096e-07   -8.27094096e-07
90       1.43770200e-01    2.74638633e-02    2.74638633e-02   -2.74638633e-05   -2.74638633e-05   -7.54263786e-07   -7.54263786e-07
91       1.45613400e-01    2.62268297e-02    2.62268297e-02   -2.62268297e-05   -2.62268297e-05   -6.87846597e-07   -6.87846597e-07
92       1.47456600e-01    2.50455149e-02    2.50455149e-02   -2.50455149e-05   -2.50455149e-05   -6.27277816e-07   -6.27277816e-07
93       1.49299800e-01    2.39174091e-02    2.39174091e-02   -2.39174091e-05   -2.39174091e-05   -5.72042459e-07   -5.72042459e-07
94       1.51143000e-01    2.28401157e-02    2.28401157e-02   -2.28401157e-05   -2.28401157e-05   -5.21670887e-07   -5.21670887e-07
95       1.52986200e-01    2.18113461e-02    2.18113461e-02   -2.18113461e-05   -2.18113461e-05   -4.75734817e-07   -4.75734817e-07
96       1.54829400e-01    2.08289145e-02    2.08289145e-02   -2.08289145e-05   -2.08289145e-05   -4.33843677e-07   -4.33843677e-07
97       1.56672600e-01    1.98907338e-02    1.98907338e-02   -1.98907338e-05   -1.98907338e-05   -3.95641290e-07   -3.95641290e-07
98       1.58515800e-01    1.89948108e-02    1.89948108e-02   -1.89948108e-05   -1.89948108e-05   -3.60802838e-07   -3.60802838e-07
99       1.60359000e-01    1.81392422e-02    1.81392422e-02   -1.81392422e-05   -1.81392422e-05   -3.29032109e-07   -3.29032109e-07
100      1.62202200e-01    1.73222104e-02    1.73222104e-02   -1.73222104e-05   -1.73222104e-05   -3.00058972e-07   -3.00058972e-07
101      1.64045400e-01    1.65419794e-02    1.65419794e-02   -1.65419794e-05   -1.65419794e-05   -2.73637084e-07   -2.73637084e-07
102      1.65888600e-01    1.57968918e-02    1.57968918e-02   -1.57968918e-05   -1.57968918e-05   -2.49541792e-07   -2.49541792e-07
103      1.67731800e-01    1.50853647e-02    1.50853647e-02   -1.50853647e-05   -1.50853647e-05   -2.27568227e-07   -2.27568227e-07
104      1.69575000e-01    1.44058862e-02    1.44058862e-02   -1.44058862e-05   -1.44058862e-05   -2.07529558e-07   -2.07529558e-07
105      1.71418200e-01    1.37570130e-02    1.37570130e-02   -1.37570130e-05   -1.37570130e-05   -1.89255408e-07   -1.89255408e-07
106      1.73261400e-01    1.31373665e-02    1.31373665e-02   -1.31373665e-05   -1.31373665e-05   -1.72590399e-07   -1.72590399e-07
107      1.75104600e-01    1.25456303e-02    1.25456303e-02   -1.25456303e-05   -1.25456303e-05   -1.57392839e-07   -1.57392839e-07
108      1.76947800e-01    1.19805472e-02    1.19805472e-02   -1.19805471e-05   -1.19805471e-05   -1.43533510e-07   -1.43533510e-07
109      1.78791000e-01    1.14409166e-02    1.14409166e-02   -1.14409166e-05   -1.14409166e-05   -1.30894573e-07   -1.30894573e-07
110      1.80634200e-01    1.09255923e-02    1.09255923e-02   -1.09255923e-05   -1.09255923e-05   -1.19368566e-07   -1.19368566e-07
111      1.82477400e-01    1.04334793e-02    1.04334793e-02   -1.04334793e-05   -1.04334793e-05   -1.08857489e-07   -1.08857489e-07
112      1.84320600e-01    9.96353211e-03    9.96353211e-03   -9.96353210e-06   -9.96353210e-06   -9.92719721e-08   -9.92719721e-08
113      1.86163800e-01    9.51475244e-03    9.51475244e-03   -9.51475245e-06   -9.51475245e-06   -9.05305140e-08   -9.05305140e-08
114      1.88007000e-01    9.08618680e-03    9.08618680e-03   -9.08618679e-06   -9.08618679e-06   -8.25587904e-08   -8.25587904e-08
115      1.89850200e-01    8.67692471e-03    8.67692471e-03   -8.67692472e-06   -8.67692472e-06   -7.52890225e-08   -7.52890225e-08
116      1.91693400e-01    8.28609669e-03    8.28609669e-03   -8.28609669e-06   -8.28609669e-06   -6.86593984e-08   -6.86593984e-08
117      1.93536600e-01    7.91287245e-03    7.91287245e-03   -7.91287245e-06   -7.91287245e-06   -6.26135504e-08   -6.26135504e-08
118      1.95379800e-01    7.55645905e-03    7.55645905e-03   -7.55645904e-06   -7.55645904e-06   -5.71000733e-08   -5.71000733e-08
119      1.97223000e-01    7.21609930e-03    7.21609930e-03   -7.21609931e-06   -7.21609931e-06   -5.20720892e-08   -5.20720892e-08
120      1.99066200e-01    6.89107012e-03    6.89107012e-03   -6.89107011e-06   -6.89107011e-06   -4.74868473e-08   -4.74868473e-08
121      2.00909400e-01    6.58068098e-03    6.58068098e-03   -6.58068098e-06   -6.58068098e-06   -4.33053622e-08   -4.33053622e-08
122      2.02752600e-01    6.28427245e-03    6.28427245e-03   -6.28427244e-06   -6.28427244e-06   -3.94920801e-08   -3.94920801e-08
123      2.04595800e-01    6.00121482e-03    6.00121482e-03   -6.00121483e-06   -6.00121483e-06   -3.60145794e-08   -3.60145794e-08
124      2.06439000e-01    5.73090674e-03    5.73090674e-03   -5.73090673e-06   -5.73090673e-06   -3.28432920e-08   -3.28432920e-08
125      2.08282200e-01    5.47277394e-03    5.47277394e-03   -5.47277395e-06   -5.47277395e-06   -2.99512546e-08   -2.99512546e-08
126      2.10125400e-01    5.22626801e-03    5.22626801e-03   -5.22626800e-06   -5.22626800e-06   -2.73138773e-08   -2.73138773e-08
127      2.11968600e-01    4.99086526e-03    4.99086526e-03   -4.99086527e-06   -4.99086527e-06   -2.49087361e-08   -2.49087361e-08
128      2.13811800e-01    4.76606557e-03    4.76606557e-03   -4.76606557e-06   -4.76606557e-06   -2.27153810e-08   -2.27153810e-08
129      2.15655000e-01    4.55139137e-03    4.55139137e-03   -4.55139138e-06   -4.55139138e-06   -2.07151634e-08   -2.07151634e-08
130      2.17498200e-01    4.34638656e-03    4.34638656e-03   -4.34638655e-06   -4.34638655e-06   -1.88910761e-08   -1.88910761e-08
131      2.19341400e-01    4.15061563e-03    4.15061563e-03   -4.15061564e-06   -4.15061564e-06   -1.72276102e-08   -1.72276102e-08
132      2.21184600e-01    3.96366266e-03    3.96366266e-03   -3.96366265e-06   -3.96366265e-06   -1.57106217e-08   -1.57106217e-08
133      2.23027800e-01    3.78513047e-03    3.78513047e-03   -3.78513048e-06   -3.78513048e-06   -1.43272127e-08   -1.43272127e-08
134      2.24871000e-01    3.61463976e-03    3.61463976e-03   -3.61463975e-06   -3.61463975e-06   -1.30656206e-08   -1.30656206e-08
135      2.26714200e-01    3.45182834e-03    3.45182834e-03   -3.45182834e-06   -3.45182834e-06   -1.19151189e-08   -1.19151189e-08
136      2.28557400e-01    3.29635030e-03    3.29635030e-03   -3.29635029e-06   -3.29635029e-06   -1.08659253e-08   -1.08659253e-08
137      2.30400600e-01    3.14787534e-03    3.14787534e-03   -3.14787535e-06   -3.14787535e-06   -9.90911919e-09   -9.90911919e-09
138      2.32243800e-01    3.00608803e-03    3.00608803e-03   -3.00608802e-06   -3.00608802e-06   -9.03656519e-09   -9.03656519e-09
139      2.34087000e-01    2.87068713e-03    2.87068713e-03   -2.87068713e-06   -2.87068713e-06   -8.24084460e-09   -8.24084460e-09
140      2.35930200e-01    2.74138498e-03    2.74138498e-03   -2.74138498e-06   -2.74138498e-06   -7.51519161e-09   -7.51519161e-09
141      2.37773400e-01    2.61790690e-03    2.61790690e-03   -2.61790691e-06   -2.61790691e-06   -6.85343656e-09   -6.85343656e-09
142      2.41459800e-01    2.38726842e-03    2.38726842e-03   -2.38726841e-06   -2.38726841e-06   -5.69905049e-09   -5.69905049e-09
143      2.45146200e-01    2.17694927e-03    2.17694927e-03   -2.17694928e-06   -2.17694928e-06   -4.73910814e-09   -4.73910814e-09
144      2.48832600e-01    1.98515931e-03    1.98515931e-03   -1.98515930e-06   -1.98515930e-06   -3.94085745e-09   -3.94085745e-09
145      2.52519000e-01    1.81026610e-03    1.81026610e-03   -1.81026611e-06   -1.81026611e-06   -3.27706338e-09   -3.27706338e-09
146      2.56205400e-01    1.65078105e-03    1.65078105e-03   -1.65078104e-06   -1.65078104e-06   -2.72507806e-09   -2.72507806e-09
147      2.59891800e-01    1.50534668e-03    1.50534668e-03   -1.50534669e-06   -1.50534669e-06   -2.26606865e-09   -2.26606865e-09
148      2.63578200e-01    1.37272514e-03    1.37272514e-03   -1.37272513e-06   -1.37272513e-06   -1.88437428e-09   -1.88437428e-09
149      2.67264600e-01    1.25178759e-03    1.25178759e-03   -1.25178760e-06   -1.25178760e-06   -1.56697218e-09   -1.56697218e-09
