Index       TIME              V(1)              V(1A)             I(L1)             V(2A)             I(L2)             V(3A)             I(L3)             V(4A)             I(L4)      
0        0.00000000e+00    1.00000000e+00    0.00000000e+00    1.00000000e+03    0.00000000e+00    1.00000000e+03   -5.00000000e-01    1.50000000e+03    2.50000000e-01    7.50000000e+02
1        1.00000000e-10    1.00000063e+00    6.28318531e-07    1.00000000e+03    6.28318531e-07    1.00000000e+03   -4.99999372e-01    1.50000000e+03    2.50000628e-01    7.50000000e+02
2        3.00000000e-10    1.00000188e+00    1.88495559e-06    1.00000000e+03    1.88495559e-06    1.00000000e+03   -4.99998115e-01    1.50000000e+03    2.50001885e-01    7.50000000e+02
3        7.00000000e-10    1.00000440e+00    4.39822971e-06    1.00000000e+03    4.39822971e-06    1.00000000e+03   -4.99995602e-01    1.50000000e+03    2.50004398e-01    7.50000000e+02
4        1.50000000e-09    1.00000942e+00    9.42477796e-06    1.00000000e+03    9.42477796e-06    1.00000000e+03   -4.99990575e-01    1.50000000e+03    2.50009425e-01    7.50000000e+02
5        3.10000000e-09    1.00001948e+00    1.94778744e-05    1.00000000e+03    1.94778744e-05    1.00000000e+03   -4.99980522e-01    1.50000000e+03    2.50019478e-01    7.50000000e+02
6        6.30000000e-09    1.00003958e+00    3.95840674e-05    1.00000000e+03    3.95840674e-05    1.00000000e+03   -4.99960416e-01    1.50000000e+03    2.50039584e-01    7.50000000e+02
7        1.27000000e-08    1.00007980e+00    7.97964533e-05    1.00000000e+03    7.97964533e-05    1.00000000e+03   -4.99920203e-01    1.50000000e+03    2.50079796e-01    7.50000000e+02
8        2.55000000e-08    1.00016022e+00    1.60221224e-04    1.00000000e+03    1.60221224e-04    1.00000000e+03   -4.99839778e-01    1.50000000e+03    2.50160221e-01    7.50000001e+02
9        5.11000000e-08    1.00032107e+00    3.21070763e-04    1.00000000e+03    3.21070763e-04    1.00000000e+03   -4.99678927e-01    1.50000000e+03    2.50321069e-01    7.50000001e+02
10       1.02300000e-07    1.00064277e+00    6.42769809e-04    1.00000000e+03    6.42769809e-04    1.00000000e+03   -4.99357225e-01    1.49999999e+03    2.50642767e-01    7.50000003e+02
11       2.04700000e-07    1.00128617e+00    1.28616766e-03    1.00000000e+03    1.28616766e-03    1.00000000e+03   -4.98713822e-01    1.49999999e+03    2.51286163e-01    7.50000005e+02
12       4.09500000e-07    1.00257296e+00    2.57296149e-03    1.00000000e+03    2.57296149e-03    1.00000000e+03   -4.97427018e-01    1.49999998e+03    2.52572951e-01    7.50000010e+02
13       8.19100000e-07    1.00514653e+00    5.14653415e-03    1.00000000e+03    5.14653415e-03    1.00000000e+03   -4.94853425e-01    1.49999996e+03    2.55146514e-01    7.50000021e+02
14       1.63830000e-06    1.01029356e+00    1.02935599e-02    1.00000000e+03    1.02935599e-02    1.00000000e+03   -4.89706358e-01    1.49999992e+03    2.60293519e-01    7.50000042e+02
15       3.27670000e-06    1.02058666e+00    2.05866555e-02    1.00000000e+03    2.05866555e-02    1.00000000e+03   -4.79413181e-01    1.49999984e+03    2.70586574e-01    7.50000085e+02
16       6.55350000e-06    1.04116522e+00    4.11652063e-02    1.00000001e+03    4.11652063e-02    1.00000001e+03   -4.58834466e-01    1.49999969e+03    2.91165042e-01    7.50000177e+02
17       1.31071000e-05    1.08226128e+00    8.22612247e-02    1.00000005e+03    8.22612247e-02    1.00000005e+03   -4.17738120e-01    1.49999940e+03    3.32260897e-01    7.50000382e+02
18       2.62143000e-05    1.16396558e+00    1.63965361e-01    1.00000022e+03    1.63965361e-01    1.00000022e+03   -3.36033328e-01    1.49999890e+03    4.13964706e-01    7.50000871e+02
19       5.24287000e-05    1.32349355e+00    3.23492694e-01    1.00000085e+03    3.23492694e-01    1.00000085e+03   -1.76504685e-01    1.49999823e+03    5.73491383e-01    7.50002165e+02
20       1.04857500e-04    1.61219934e+00    6.12196033e-01    1.00000331e+03    6.12196033e-01    1.00000331e+03    1.12201275e-01    1.49999806e+03    8.62193411e-01    7.50005928e+02
21       2.04857500e-04    1.96004351e+00    9.60032337e-01    1.00001117e+03    9.60032337e-01    1.00001117e+03    4.60042580e-01    1.50000093e+03    1.21002722e+00    7.50016290e+02
22       3.04857500e-04    1.94118368e+00    9.41163008e-01    1.00002067e+03    9.41163008e-01    1.00002067e+03    4.41178251e-01    1.50000543e+03    1.19115539e+00    7.50028296e+02
23       4.04857500e-04    1.56282368e+00    5.62795488e-01    1.00002819e+03    5.62795488e-01    1.00002819e+03    6.28157308e-02    1.50000795e+03    8.12785367e-01    7.50038315e+02
24       5.04857500e-04    9.69484165e-01   -3.05466897e-02    1.00003086e+03   -3.05466897e-02    1.00003086e+03   -5.30521447e-01    1.50000561e+03    2.19440689e-01    7.50043476e+02
25       6.04857500e-04    3.87800660e-01   -6.12226981e-01    1.00002764e+03   -6.12226981e-01    1.00002764e+03   -1.11219674e+00    1.49999740e+03   -3.62242102e-01    7.50042762e+02
26       7.04857500e-04    3.99564950e-02   -9.60063285e-01    1.00001978e+03   -9.60063285e-01    1.00001978e+03   -1.46002804e+00    1.49998454e+03   -7.10080906e-01    7.50037401e+02
27       8.04857500e-04    5.88163179e-02   -9.41193956e-01    1.00001027e+03   -9.41193956e-01    1.00001027e+03   -1.44115371e+00    1.49997003e+03   -6.91214076e-01    7.50030394e+02
28       9.04857500e-04    4.37176318e-01   -5.62826436e-01    1.00000275e+03   -5.62826436e-01    1.00000275e+03   -1.06278119e+00    1.49995751e+03   -3.12849056e-01    7.50025374e+02
29       1.00485750e-03    1.03051583e+00    3.05157425e-02    1.00000009e+03    3.05157425e-02    1.00000009e+03   -4.69434017e-01    1.49994985e+03    2.80490622e-01    7.50025212e+02
30       1.10485750e-03    1.61219934e+00    6.12196034e-01    1.00000331e+03    6.12196034e-01    1.00000331e+03    1.12251274e-01    1.49994807e+03    8.62168414e-01    7.50030925e+02
31       1.20485750e-03    1.96004351e+00    9.60032338e-01    1.00001117e+03    9.60032338e-01    1.00001117e+03    4.60092578e-01    1.49995093e+03    1.21000222e+00    7.50041286e+02
32       1.30485750e-03    1.94118368e+00    9.41163009e-01    1.00002067e+03    9.41163009e-01    1.00002067e+03    4.41228248e-01    1.49995543e+03    1.19113039e+00    7.50053292e+02
33       1.40485750e-03    1.56282368e+00    5.62795490e-01    1.00002819e+03    5.62795490e-01    1.00002819e+03    6.28657278e-02    1.49995795e+03    8.12760371e-01    7.50063311e+02
34       1.50485750e-03    9.69484165e-01   -3.05466882e-02    1.00003085e+03   -3.05466882e-02    1.00003085e+03   -5.30471451e-01    1.49995562e+03    2.19415693e-01    7.50068472e+02
35       1.60485750e-03    3.87800660e-01   -6.12226980e-01    1.00002764e+03   -6.12226980e-01    1.00002764e+03   -1.11214674e+00    1.49994740e+03   -3.62267098e-01    7.50067758e+02
36       1.70485750e-03    3.99564950e-02   -9.60063283e-01    1.00001978e+03   -9.60063283e-01    1.00001978e+03   -1.45997805e+00    1.49993454e+03   -7.10105901e-01    7.50062396e+02
37       1.80485750e-03    5.88163179e-02   -9.41193954e-01    1.00001027e+03   -9.41193954e-01    1.00001027e+03   -1.44110372e+00    1.49992004e+03   -6.91239072e-01    7.50055389e+02
38       1.90485750e-03    4.37176318e-01   -5.62826434e-01    1.00000275e+03   -5.62826434e-01    1.00000275e+03   -1.06273120e+00    1.49990752e+03   -3.12874051e-01    7.50050369e+02
39       2.00485750e-03    1.03051583e+00    3.05157441e-02    1.00000009e+03    3.05157441e-02    1.00000009e+03   -4.69384023e-01    1.49989986e+03    2.80465628e-01    7.50050207e+02
40       2.10485750e-03    1.61219934e+00    6.12196036e-01    1.00000330e+03    6.12196036e-01    1.00000330e+03    1.12301268e-01    1.49989807e+03    8.62143420e-01    7.50055920e+02
41       2.20485750e-03    1.96004351e+00    9.60032340e-01    1.00001117e+03    9.60032340e-01    1.00001117e+03    4.60142571e-01    1.49990093e+03    1.20997722e+00    7.50066280e+02
42       2.30485750e-03    1.94118368e+00    9.41163011e-01    1.00002067e+03    9.41163011e-01    1.00002067e+03    4.41278241e-01    1.49990544e+03    1.19110540e+00    7.50078286e+02
43       2.40485750e-03    1.56282368e+00    5.62795491e-01    1.00002819e+03    5.62795491e-01    1.00002819e+03    6.29157198e-02    1.49990796e+03    8.12735377e-01    7.50088305e+02
44       2.50485750e-03    9.69484165e-01   -3.05466866e-02    1.00003085e+03   -3.05466866e-02    1.00003085e+03   -5.30421459e-01    1.49990562e+03    2.19390700e-01    7.50093466e+02
45       2.60485750e-03    3.87800660e-01   -6.12226978e-01    1.00002764e+03   -6.12226978e-01    1.00002764e+03   -1.11209675e+00    1.49989741e+03   -3.62292091e-01    7.50092751e+02
46       2.70485750e-03    3.99564950e-02   -9.60063282e-01    1.00001978e+03   -9.60063282e-01    1.00001978e+03   -1.45992806e+00    1.49988455e+03   -7.10130894e-01    7.50087389e+02
47       2.80485750e-03    5.88163179e-02   -9.41193953e-01    1.00001027e+03   -9.41193953e-01    1.00001027e+03   -1.44105373e+00    1.49987005e+03   -6.91264064e-01    7.50080382e+02
48       2.90485750e-03    4.37176318e-01   -5.62826433e-01    1.00000275e+03   -5.62826433e-01    1.00000275e+03   -1.06268121e+00    1.49985753e+03   -3.12899044e-01    7.50075361e+02
49       3.00485750e-03    1.03051583e+00    3.05157456e-02    1.00000009e+03    3.05157456e-02    1.00000009e+03   -4.69334034e-01    1.49984987e+03    2.80440635e-01    7.50075199e+02
50       3.10485750e-03    1.61219934e+00    6.12196037e-01    1.00000330e+03    6.12196037e-01    1.00000330e+03    1.12351256e-01    1.49984808e+03    8.62118428e-01    7.50080912e+02
51       3.20485750e-03    1.96004351e+00    9.60032341e-01    1.00001116e+03    9.60032341e-01    1.00001116e+03    4.60192559e-01    1.49985095e+03    1.20995223e+00    7.50091272e+02
52       3.30485750e-03    1.94118368e+00    9.41163013e-01    1.00002067e+03    9.41163013e-01    1.00002067e+03    4.41328228e-01    1.49985545e+03    1.19108040e+00    7.50103277e+02
53       3.40485750e-03    1.56282368e+00    5.62795493e-01    1.00002819e+03    5.62795493e-01    1.00002819e+03    6.29657068e-02    1.49985798e+03    8.12710386e-01    7.50113296e+02
54       3.50485750e-03    9.69484165e-01   -3.05466851e-02    1.00003085e+03   -3.05466851e-02    1.00003085e+03   -5.30371473e-01    1.49985564e+03    2.19365709e-01    7.50118457e+02
55       3.60485750e-03    3.87800660e-01   -6.12226976e-01    1.00002764e+03   -6.12226976e-01    1.00002764e+03   -1.11204677e+00    1.49984743e+03   -3.62317082e-01    7.50117742e+02
56       3.70485750e-03    3.99564950e-02   -9.60063280e-01    1.00001978e+03   -9.60063280e-01    1.00001978e+03   -1.45987807e+00    1.49983457e+03   -7.10155885e-01    7.50112380e+02
57       3.80485750e-03    5.88163179e-02   -9.41193951e-01    1.00001027e+03   -9.41193951e-01    1.00001027e+03   -1.44100374e+00    1.49982006e+03   -6.91289054e-01    7.50105372e+02
58       3.90485750e-03    4.37176318e-01   -5.62826431e-01    1.00000275e+03   -5.62826431e-01    1.00000275e+03   -1.06263123e+00    1.49980754e+03   -3.12924034e-01    7.50100351e+02
59       4.00485750e-03    1.03051583e+00    3.05157472e-02    1.00000009e+03    3.05157472e-02    1.00000009e+03   -4.69284050e-01    1.49979988e+03    2.80415646e-01    7.50100189e+02
60       4.10485750e-03    1.61219934e+00    6.12196039e-01    1.00000330e+03    6.12196039e-01    1.00000330e+03    1.12401240e-01    1.49979810e+03    8.62093438e-01    7.50105901e+02
61       4.20485750e-03    1.96004351e+00    9.60032343e-01    1.00001116e+03    9.60032343e-01    1.00001116e+03    4.60242542e-01    1.49980096e+03    1.20992724e+00    7.50116261e+02
62       4.30485750e-03    1.94118368e+00    9.41163014e-01    1.00002067e+03    9.41163014e-01    1.00002067e+03    4.41378211e-01    1.49980547e+03    1.19105542e+00    7.50128266e+02
63       4.40485750e-03    1.56282368e+00    5.62795494e-01    1.00002819e+03    5.62795494e-01    1.00002819e+03    6.30156889e-02    1.49980799e+03    8.12685397e-01    7.50138285e+02
64       4.50485750e-03    9.69484165e-01   -3.05466835e-02    1.00003085e+03   -3.05466835e-02    1.00003085e+03   -5.30321491e-01    1.49980566e+03    2.19340720e-01    7.50143445e+02
65       4.60485750e-03    3.87800660e-01   -6.12226975e-01    1.00002764e+03   -6.12226975e-01    1.00002764e+03   -1.11199679e+00    1.49979745e+03   -3.62342070e-01    7.50142730e+02
66       4.70485750e-03    3.99564950e-02   -9.60063279e-01    1.00001977e+03   -9.60063279e-01    1.00001977e+03   -1.45982809e+00    1.49978459e+03   -7.10180873e-01    7.50137367e+02
67       4.80485750e-03    5.88163179e-02   -9.41193950e-01    1.00001027e+03   -9.41193950e-01    1.00001027e+03   -1.44095376e+00    1.49977008e+03   -6.91314042e-01    7.50130360e+02
68       4.90485750e-03    4.37176318e-01   -5.62826430e-01    1.00000275e+03   -5.62826430e-01    1.00000275e+03   -1.06258125e+00    1.49975756e+03   -3.12949021e-01    7.50125339e+02
69       5.00000000e-03    1.00000000e+00   -6.98977203e-08    1.00000007e+03   -6.98977203e-08    1.00000007e+03   -4.99750132e-01    1.49975013e+03    2.49874961e-01    7.50125039e+02
End of Xyce(TM) Simulation
