Index       TIME              V(1A)             V(2A)             V(3A)        {I(C1A)+I(C1B)}        I(C2)             I(C3)        {P(C1A)+P(C1B)}        P(C2)             P(C3)      
0        0.00000000e+00    0.00000000e+00    0.00000000e+00    0.00000000e+00    0.00000000e+00    0.00000000e+00    0.00000000e+00    0.00000000e+00    0.00000000e+00    0.00000000e+00
1        5.00000000e-08    0.00000000e+00    0.00000000e+00    0.00000000e+00    0.00000000e+00    0.00000000e+00    0.00000000e+00    0.00000000e+00    0.00000000e+00    0.00000000e+00
2        1.50000000e-07    0.00000000e+00    0.00000000e+00    0.00000000e+00    0.00000000e+00    0.00000000e+00    0.00000000e+00    0.00000000e+00    0.00000000e+00    0.00000000e+00
3        3.50000000e-07    0.00000000e+00    0.00000000e+00    0.00000000e+00    0.00000000e+00    0.00000000e+00    0.00000000e+00    0.00000000e+00    0.00000000e+00    0.00000000e+00
4        7.50000000e-07    0.00000000e+00    0.00000000e+00    0.00000000e+00    0.00000000e+00    0.00000000e+00    0.00000000e+00    0.00000000e+00    0.00000000e+00    0.00000000e+00
5        1.55000000e-06    0.00000000e+00    0.00000000e+00    0.00000000e+00    0.00000000e+00    0.00000000e+00    0.00000000e+00    0.00000000e+00    0.00000000e+00    0.00000000e+00
6        2.55000000e-06    0.00000000e+00    0.00000000e+00    0.00000000e+00    0.00000000e+00    0.00000000e+00    0.00000000e+00    0.00000000e+00    0.00000000e+00    0.00000000e+00
7        3.55000000e-06    0.00000000e+00    0.00000000e+00    0.00000000e+00    0.00000000e+00    0.00000000e+00    0.00000000e+00    0.00000000e+00    0.00000000e+00    0.00000000e+00
8        4.55000000e-06    0.00000000e+00    0.00000000e+00    0.00000000e+00    0.00000000e+00    0.00000000e+00    0.00000000e+00    0.00000000e+00    0.00000000e+00    0.00000000e+00
9        5.55000000e-06    0.00000000e+00    0.00000000e+00    0.00000000e+00    0.00000000e+00    0.00000000e+00    0.00000000e+00    0.00000000e+00    0.00000000e+00    0.00000000e+00
10       6.55000000e-06    0.00000000e+00    0.00000000e+00    0.00000000e+00    0.00000000e+00    0.00000000e+00    0.00000000e+00    0.00000000e+00    0.00000000e+00    0.00000000e+00
11       7.55000000e-06    0.00000000e+00    0.00000000e+00    0.00000000e+00    0.00000000e+00    0.00000000e+00    0.00000000e+00    0.00000000e+00    0.00000000e+00    0.00000000e+00
12       8.55000000e-06    0.00000000e+00    0.00000000e+00    0.00000000e+00    0.00000000e+00    0.00000000e+00    0.00000000e+00    0.00000000e+00    0.00000000e+00    0.00000000e+00
13       9.55000000e-06    0.00000000e+00    0.00000000e+00    0.00000000e+00    0.00000000e+00    0.00000000e+00    0.00000000e+00    0.00000000e+00    0.00000000e+00    0.00000000e+00
14       1.00000000e-05    0.00000000e+00    0.00000000e+00    0.00000000e+00    0.00000000e+00    0.00000000e+00    0.00000000e+00    0.00000000e+00    0.00000000e+00    0.00000000e+00
15       1.00003906e-05    1.90734862e-12    3.81469723e-12    3.81469723e-12    3.90624998e-07    3.90624996e-07    3.90624996e-07    7.45058052e-19    1.49011609e-18    1.49011609e-18
16       1.00007006e-05    4.62236254e-12    9.24472503e-12    9.24472503e-12    7.00632283e-07    7.00632278e-07    7.00632278e-07    3.23857642e-18    6.47715276e-18    6.47715276e-18
17       1.00013206e-05    1.24550033e-11    2.49100064e-11    2.49100064e-11    1.32064685e-06    1.32064684e-06    1.32064684e-06    1.64486609e-17    3.28973212e-17    3.28973212e-17
18       1.00025607e-05    4.25359623e-11    8.50719235e-11    8.50719235e-11    2.56067597e-06    2.56067593e-06    2.56067593e-06    1.08920816e-16    2.17841626e-16    2.17841626e-16
19       1.00050407e-05    1.60360589e-10    3.20721170e-10    3.20721170e-10    5.04073415e-06    5.04073399e-06    5.04073399e-06    8.08335096e-16    1.61667010e-15    1.61667010e-15
20       1.00100009e-05    6.26660667e-10    1.25332128e-09    1.25332128e-09    1.00008503e-05    1.00008497e-05    1.00008497e-05    6.26713951e-15    1.25342777e-14    1.25342777e-14
21       1.00199211e-05    2.48186406e-09    4.96372767e-09    4.96372767e-09    1.99210816e-05    1.99210791e-05    1.99210791e-05    4.94414164e-14    9.88828117e-14    9.88828117e-14
22       1.00397616e-05    9.88268318e-09    1.97653629e-08    1.97653629e-08    3.97615406e-05    3.97615307e-05    3.97615307e-05    3.92950709e-13    7.85901083e-13    7.85901083e-13
23       1.00794425e-05    3.94459663e-08    7.88919046e-08    7.88919046e-08    7.94424438e-05    7.94424044e-05    7.94424044e-05    3.13368396e-12    6.26736258e-12    6.26736258e-12
24       1.01588043e-05    1.57619075e-07    3.15237927e-07    3.15237927e-07    1.58804191e-04    1.58804034e-04    1.58804034e-04    2.50305697e-11    5.00610543e-11    5.00610543e-11
25       1.03175281e-05    6.30151171e-07    1.26030056e-06    1.26030056e-06    3.17527450e-04    3.17526820e-04    3.17526820e-04    2.00090294e-10    4.00179227e-10    4.00179227e-10
26       1.06349755e-05    2.51995653e-06    5.03989878e-06    5.03989878e-06    6.34973022e-04    6.34970502e-04    6.34970502e-04    1.60010441e-09    3.20018706e-09    3.20018706e-09
27       1.10000000e-05    6.24997440e-06    1.24998945e-05    1.24998945e-05    9.99993750e-04    9.99987500e-04    9.99987500e-04    6.24993534e-09    1.24997383e-08    1.24997383e-08
28       1.10634895e-05    7.04358747e-06    1.40871095e-05    1.40871095e-05    9.99992956e-04    9.99985913e-04    9.99985913e-04    7.04353786e-09    1.40869110e-08    1.40869110e-08
29       1.11904685e-05    8.63081108e-06    1.72615293e-05    1.72615293e-05    9.99991369e-04    9.99982738e-04    9.99982738e-04    8.63073659e-09    1.72612313e-08    1.72612313e-08
30       1.14444264e-05    1.18052533e-05    2.36103488e-05    2.36103488e-05    9.99988195e-04    9.99976390e-04    9.99976390e-04    1.18051139e-08    2.36097913e-08    2.36097913e-08
31       1.19523424e-05    1.81541074e-05    3.63078669e-05    3.63078669e-05    9.99981846e-04    9.99963692e-04    9.99963692e-04    1.81537778e-08    3.63065486e-08    3.63065486e-08
32       1.29681743e-05    3.08516948e-05    6.17024193e-05    6.17024193e-05    9.99969148e-04    9.99938298e-04    9.99938298e-04    3.08507429e-08    6.16986121e-08    6.16986121e-08
33       1.49998380e-05    5.62463858e-05    1.12489590e-04    1.12489590e-04    9.99943754e-04    9.99887510e-04    9.99887510e-04    5.62432221e-08    1.12476936e-07    1.12476936e-07
34       1.90631655e-05    1.07033833e-04    2.14056192e-04    2.14056192e-04    9.99892966e-04    9.99785944e-04    9.99785944e-04    1.07022377e-07    2.14010372e-07    2.14010372e-07
35       2.71898206e-05    2.08600989e-04    4.17158447e-04    4.17158447e-04    9.99791399e-04    9.99582842e-04    9.99582842e-04    2.08557475e-07    4.16984426e-07    4.16984426e-07
36       4.34431306e-05    4.11704353e-04    8.23239191e-04    8.23239191e-04    9.99588296e-04    9.99176761e-04    9.99176761e-04    4.11534852e-07    8.22561468e-07    8.22561468e-07
37       7.59497508e-05    8.17787313e-04    1.63490587e-03    1.63490587e-03    9.99182213e-04    9.98365094e-04    9.98365094e-04    8.17118537e-07    1.63223295e-06    1.63223295e-06
38       1.40962991e-04    1.62945842e-03    3.25626199e-03    3.25626199e-03    9.98370542e-04    9.96743738e-04    9.96743738e-04    1.62680329e-06    3.24565875e-06    3.24565875e-06
39       2.70989472e-04    3.25082339e-03    6.49108135e-03    6.49108135e-03    9.96749177e-04    9.93508919e-04    9.93508919e-04    3.24025554e-06    6.44894721e-06    6.44894721e-06
40       5.31042433e-04    6.48566039e-03    1.29292764e-02    1.29292764e-02    9.93514340e-04    9.87070724e-04    9.87070724e-04    6.44359660e-06    1.27621102e-05    1.27621102e-05
41       1.05114835e-03    1.29238905e-02    2.56809071e-02    2.56809071e-02    9.87076109e-04    9.74319093e-04    9.74319093e-04    1.27568636e-05    2.50213981e-05    2.50213981e-05
42       2.09136020e-03    2.56755908e-02    5.06931384e-02    5.06931384e-02    9.74324409e-04    9.49306862e-04    9.49306862e-04    2.50163549e-05    4.81233441e-05    4.81233441e-05
43       4.17178389e-03    5.06879586e-02    9.88157087e-02    9.88157087e-02    9.49312041e-04    9.01184291e-04    9.01184291e-04    4.81186895e-05    8.90511644e-05    8.90511644e-05
44       6.25220758e-03    7.50582214e-02    1.44498834e-01    1.44498834e-01    9.24941779e-04    8.55501166e-04    8.55501166e-04    6.94244848e-05    1.23618921e-04    1.23618921e-04
45       8.33263126e-03    9.88028630e-02    1.87866176e-01    1.87866176e-01    9.01197137e-04    8.12133824e-04    8.12133824e-04    8.90408573e-05    1.52572476e-04    1.52572476e-04
46       1.04130550e-02    1.21937944e-01    2.29035126e-01    2.29035126e-01    8.78062056e-04    7.70964874e-04    7.70964874e-04    1.07069082e-04    1.76578037e-04    1.76578037e-04
47       1.24934786e-02    1.44479113e-01    2.68117127e-01    2.68117127e-01    8.55520887e-04    7.31882873e-04    7.31882873e-04    1.23604899e-04    1.96230333e-04    1.96230333e-04
48       1.45739023e-02    1.66441616e-01    3.05217970e-01    3.05217970e-01    8.33558384e-04    6.94782030e-04    6.94782030e-04    1.38738805e-04    2.12059961e-04    2.12059961e-04
49       1.66543260e-02    1.87840309e-01    3.40438086e-01    3.40438086e-01    8.12159691e-04    6.59561914e-04    6.59561914e-04    1.52556327e-04    2.24539995e-04    2.24539995e-04
50       1.87347497e-02    2.08689666e-01    3.73872811e-01    3.73872811e-01    7.91310334e-04    6.26127189e-04    6.26127189e-04    1.65138289e-04    2.34091932e-04    2.34091932e-04
51       2.28955971e-02    2.48803025e-01    4.35783302e-01    4.35783302e-01    7.51196975e-04    5.64216698e-04    5.64216698e-04    1.86900080e-04    2.45876216e-04    2.45876216e-04
52       2.70564445e-02    2.86882945e-01    4.91572179e-01    4.91572179e-01    7.13117055e-04    5.08427821e-04    5.08427821e-04    2.04581121e-04    2.49928972e-04    2.49928972e-04
53       3.12172918e-02    3.23032505e-01    5.41844737e-01    5.41844737e-01    6.76967495e-04    4.58155263e-04    4.58155263e-04    2.18682506e-04    2.48249018e-04    2.48249018e-04
54       3.53781392e-02    3.57349560e-01    5.87146423e-01    5.87146423e-01    6.42650440e-04    4.12853577e-04    4.12853577e-04    2.29650852e-04    2.42405501e-04    2.42405501e-04
55       3.95389866e-02    3.89927004e-01    6.27968748e-01    6.27968748e-01    6.10072996e-04    3.72031252e-04    3.72031252e-04    2.37883936e-04    2.33624000e-04    2.33624000e-04
56       4.36998340e-02    4.20853022e-01    6.64754624e-01    6.64754624e-01    5.79146978e-04    3.35245376e-04    3.35245376e-04    2.43735756e-04    2.22855914e-04    2.22855914e-04
57       4.78606813e-02    4.50211328e-01    6.97903169e-01    6.97903169e-01    5.49788672e-04    3.02096831e-04    3.02096831e-04    2.47521088e-04    2.10834336e-04    2.10834336e-04
58       5.20215287e-02    4.78081393e-01    7.27774038e-01    7.27774038e-01    5.21918607e-04    2.72225962e-04    2.72225962e-04    2.49519575e-04    1.98118988e-04    1.98118988e-04
59       5.61823761e-02    5.04538660e-01    7.54691321e-01    7.54691321e-01    4.95461340e-04    2.45308679e-04    2.45308679e-04    2.49979401e-04    1.85132331e-04    1.85132331e-04
60       6.03432235e-02    5.29654746e-01    7.78947065e-01    7.78947065e-01    4.70345254e-04    2.21052935e-04    2.21052935e-04    2.49120596e-04    1.72188535e-04    1.72188535e-04
61       6.45040709e-02    5.53497640e-01    8.00804438e-01    8.00804438e-01    4.46502360e-04    1.99195562e-04    1.99195562e-04    2.47138003e-04    1.59516690e-04    1.59516690e-04
62       6.86649182e-02    5.76131882e-01    8.20500588e-01    8.20500588e-01    4.23868118e-04    1.79499412e-04    1.79499412e-04    2.44203937e-04    1.47279373e-04    1.47279373e-04
63       7.28257656e-02    5.97618741e-01    8.38249213e-01    8.38249213e-01    4.02381259e-04    1.61750787e-04    1.61750787e-04    2.40470581e-04    1.35587470e-04    1.35587470e-04
64       7.69866130e-02    6.18016382e-01    8.54242881e-01    8.54242881e-01    3.81983618e-04    1.45757119e-04    1.45757119e-04    2.36072134e-04    1.24511981e-04    1.24511981e-04
65       8.53083077e-02    6.55786333e-01    8.81709434e-01    8.81709434e-01    3.44213667e-04    1.18290566e-04    1.18290566e-04    2.25730618e-04    1.04297908e-04    1.04297908e-04
66       9.36300025e-02    6.89821650e-01    9.04000174e-01    9.04000174e-01    3.10178350e-04    9.59998255e-05    9.59998255e-05    2.13967741e-04    8.67838590e-05    8.67838590e-05
67       1.00011000e-01    7.13613396e-01    9.18183263e-01    9.18183263e-01    2.86386604e-04    8.18167375e-05    8.18167375e-05    2.04369317e-04    7.51227589e-05    7.51227589e-05
68       1.00011006e-01    7.13613418e-01    9.18183274e-01    9.18183274e-01    2.80136582e-04    7.55667252e-05    7.55667252e-05    1.99909224e-04    6.93841032e-05    6.93841032e-05
69       1.00011013e-01    7.13613440e-01    9.18183285e-01    9.18183285e-01    2.73886560e-04    6.93167149e-05    6.93167149e-05    1.95449130e-04    6.36454490e-05    6.36454490e-05
70       1.00011025e-01    7.13613481e-01    9.18183305e-01    9.18183305e-01    2.61386518e-04    5.68166944e-05    5.68166944e-05    1.86528943e-04    5.21681402e-05    5.21681402e-05
71       1.00011050e-01    7.13613559e-01    9.18183333e-01    9.18183333e-01    2.36386441e-04    3.18166684e-05    3.18166684e-05    1.68688570e-04    2.92135347e-05    2.92135347e-05
72       1.00011100e-01    7.13613691e-01    9.18183341e-01    9.18183341e-01    1.86386308e-04   -1.81833422e-05   -1.81833422e-05    1.33007822e-04   -1.66956419e-05   -1.66956419e-05
73       1.00011200e-01    7.13613862e-01    9.18183171e-01    9.18183171e-01    8.63861386e-05   -1.18183170e-04   -1.18183170e-04    6.16463460e-05   -1.08513797e-04   -1.08513797e-04
74       1.00011400e-01    7.13613828e-01    9.18182080e-01    9.18182080e-01   -1.13613828e-04   -3.18182081e-04   -3.18182081e-04   -8.10763987e-05   -2.92149085e-04   -2.92149085e-04
75       1.00011800e-01    7.13612260e-01    9.18176898e-01    9.18176898e-01   -5.13612259e-04   -7.18176897e-04   -7.18176897e-04   -3.66520005e-04   -6.59413435e-04   -6.59413435e-04
76       1.00012000e-01    7.13610726e-01    9.18172807e-01    9.18172807e-01   -7.13610726e-04   -9.18172808e-04   -9.18172808e-04   -5.09240268e-04   -8.43041305e-04   -8.43041305e-04
77       1.00012080e-01    7.13610012e-01    9.18170971e-01    9.18170971e-01   -7.13610012e-04   -9.18170971e-04   -9.18170971e-04   -5.09239249e-04   -8.43037931e-04   -8.43037931e-04
78       1.00012240e-01    7.13608585e-01    9.18167298e-01    9.18167298e-01   -7.13608585e-04   -9.18167298e-04   -9.18167298e-04   -5.09237212e-04   -8.43031187e-04   -8.43031187e-04
79       1.00012560e-01    7.13605730e-01    9.18159953e-01    9.18159953e-01   -7.13605730e-04   -9.18159953e-04   -9.18159953e-04   -5.09233138e-04   -8.43017699e-04   -8.43017699e-04
80       1.00013200e-01    7.13600022e-01    9.18145262e-01    9.18145262e-01   -7.13600022e-04   -9.18145262e-04   -9.18145262e-04   -5.09224991e-04   -8.42990723e-04   -8.42990723e-04
81       1.00014480e-01    7.13588604e-01    9.18115882e-01    9.18115882e-01   -7.13588604e-04   -9.18115882e-04   -9.18115882e-04   -5.09208696e-04   -8.42936773e-04   -8.42936773e-04
82       1.00017040e-01    7.13565770e-01    9.18057125e-01    9.18057125e-01   -7.13565770e-04   -9.18057125e-04   -9.18057125e-04   -5.09176108e-04   -8.42828884e-04   -8.42828884e-04
83       1.00022160e-01    7.13520103e-01    9.17939621e-01    9.17939621e-01   -7.13520103e-04   -9.17939621e-04   -9.17939621e-04   -5.09110937e-04   -8.42613147e-04   -8.42613147e-04
84       1.00032400e-01    7.13428778e-01    9.17704658e-01    9.17704658e-01   -7.13428778e-04   -9.17704658e-04   -9.17704658e-04   -5.08980621e-04   -8.42181840e-04   -8.42181840e-04
85       1.00052880e-01    7.13246164e-01    9.17234914e-01    9.17234914e-01   -7.13246164e-04   -9.17234914e-04   -9.17234914e-04   -5.08720090e-04   -8.41319887e-04   -8.41319887e-04
86       1.00093840e-01    7.12881075e-01    9.16296146e-01    9.16296146e-01   -7.12881075e-04   -9.16296146e-04   -9.16296146e-04   -5.08199427e-04   -8.39598627e-04   -8.39598627e-04
87       1.00175760e-01    7.12151458e-01    9.14421491e-01    9.14421491e-01   -7.12151459e-04   -9.14421491e-04   -9.14421491e-04   -5.07159700e-04   -8.36166663e-04   -8.36166663e-04
88       1.00339600e-01    7.10694464e-01    9.10683676e-01    9.10683676e-01   -7.10694464e-04   -9.10683676e-04   -9.10683676e-04   -5.05086622e-04   -8.29344757e-04   -8.29344757e-04
89       1.00667280e-01    7.07789409e-01    9.03253788e-01    9.03253788e-01   -7.07789409e-04   -9.03253788e-04   -9.03253788e-04   -5.00965848e-04   -8.15867405e-04   -8.15867405e-04
90       1.01322640e-01    7.02014851e-01    8.88575125e-01    8.88575125e-01   -7.02014851e-04   -8.88575125e-04   -8.88575125e-04   -4.92824851e-04   -7.89565753e-04   -7.89565753e-04
91       1.02633360e-01    6.90606497e-01    8.59927656e-01    8.59927656e-01   -6.90606497e-04   -8.59927656e-04   -8.59927656e-04   -4.76937334e-04   -7.39475573e-04   -7.39475573e-04
92       1.05254800e-01    6.68341493e-01    8.05359525e-01    8.05359525e-01   -6.68341493e-04   -8.05359525e-04   -8.05359525e-04   -4.46680351e-04   -6.48603965e-04   -6.48603965e-04
93       1.07876240e-01    6.46794308e-01    7.54254106e-01    7.54254106e-01   -6.46794308e-04   -7.54254106e-04   -7.54254106e-04   -4.18342877e-04   -5.68899256e-04   -5.68899256e-04
94       1.10497680e-01    6.25941800e-01    7.06391665e-01    7.06391665e-01   -6.25941800e-04   -7.06391665e-04   -7.06391665e-04   -3.91803137e-04   -4.98989185e-04   -4.98989185e-04
95       1.13119120e-01    6.05761572e-01    6.61566415e-01    6.61566415e-01   -6.05761572e-04   -6.61566415e-04   -6.61566415e-04   -3.66947082e-04   -4.37670121e-04   -4.37670121e-04
96       1.15740560e-01    5.86231950e-01    6.19585625e-01    6.19585625e-01   -5.86231950e-04   -6.19585625e-04   -6.19585625e-04   -3.43667899e-04   -3.83886347e-04   -3.83886347e-04
97       1.18362000e-01    5.67331959e-01    5.80268795e-01    5.80268795e-01   -5.67331959e-04   -5.80268795e-04   -5.80268795e-04   -3.21865551e-04   -3.36711875e-04   -3.36711875e-04
98       1.20983440e-01    5.49041299e-01    5.43446880e-01    5.43446880e-01   -5.49041299e-04   -5.43446880e-04   -5.43446880e-04   -3.01446348e-04   -2.95334511e-04   -2.95334511e-04
99       1.23604880e-01    5.31340327e-01    5.08961560e-01    5.08961560e-01   -5.31340327e-04   -5.08961560e-04   -5.08961560e-04   -2.82322543e-04   -2.59041870e-04   -2.59041870e-04
100      1.26226320e-01    5.14210030e-01    4.76664563e-01    4.76664563e-01   -5.14210030e-04   -4.76664563e-04   -4.76664563e-04   -2.64411955e-04   -2.27209106e-04   -2.27209106e-04
101      1.28847760e-01    4.97632010e-01    4.46417026e-01    4.46417026e-01   -4.97632010e-04   -4.46417026e-04   -4.46417026e-04   -2.47637617e-04   -1.99288161e-04   -1.99288161e-04
102      1.31469200e-01    4.81588462e-01    4.18088896e-01    4.18088896e-01   -4.81588461e-04   -4.18088896e-04   -4.18088896e-04   -2.31927446e-04   -1.74798325e-04   -1.74798325e-04
103      1.34090640e-01    4.66062154e-01    3.91558374e-01    3.91558374e-01   -4.66062154e-04   -3.91558374e-04   -3.91558374e-04   -2.17213931e-04   -1.53317960e-04   -1.53317960e-04
104      1.36712080e-01    4.51036411e-01    3.66711390e-01    3.66711390e-01   -4.51036411e-04   -3.66711391e-04   -3.66711391e-04   -2.03433844e-04   -1.34477244e-04   -1.34477244e-04
105      1.39333520e-01    4.36495095e-01    3.43441113e-01    3.43441113e-01   -4.36495095e-04   -3.43441113e-04   -3.43441113e-04   -1.90527968e-04   -1.17951798e-04   -1.17951798e-04
