Index              V(2)           V(1)           I(VDS)
0       0.00000000e+00   0.00000000e+00   0.00000000e+00   
1       5.00000000e-02   0.00000000e+00   -3.05537186e-09  
2       1.00000000e-01   0.00000000e+00   -3.55018913e-09  
3       1.50000000e-01   0.00000000e+00   -3.81943855e-09  
4       2.00000000e-01   0.00000000e+00   -4.04386005e-09  
5       2.50000000e-01   0.00000000e+00   -4.24963716e-09  
6       3.00000000e-01   0.00000000e+00   -4.44576149e-09  
7       3.50000000e-01   0.00000000e+00   -4.63675053e-09  
8       4.00000000e-01   0.00000000e+00   -4.82530799e-09  
9       4.50000000e-01   0.00000000e+00   -5.01321665e-09  
10      5.00000000e-01   0.00000000e+00   -5.20173001e-09  
11      5.50000000e-01   0.00000000e+00   -5.39177323e-09  
12      6.00000000e-01   0.00000000e+00   -5.58405705e-09  
13      6.50000000e-01   0.00000000e+00   -5.77914669e-09  
14      7.00000000e-01   0.00000000e+00   -5.97750578e-09  
15      7.50000000e-01   0.00000000e+00   -6.17952544e-09  
16      8.00000000e-01   0.00000000e+00   -6.38554400e-09  
17      8.50000000e-01   0.00000000e+00   -6.59586098e-09  
18      9.00000000e-01   0.00000000e+00   -6.81074692e-09  
19      9.50000000e-01   0.00000000e+00   -7.03045073e-09  
20      1.00000000e+00   0.00000000e+00   -7.25520504e-09  
21      1.05000000e+00   0.00000000e+00   -7.48523028e-09  
22      1.10000000e+00   0.00000000e+00   -7.72073782e-09  
23      1.15000000e+00   0.00000000e+00   -7.96193240e-09  
24      1.20000000e+00   0.00000000e+00   -8.20901404e-09  
25      1.25000000e+00   0.00000000e+00   -8.46217956e-09  
26      1.30000000e+00   0.00000000e+00   -8.72162383e-09  
27      1.35000000e+00   0.00000000e+00   -8.98754077e-09  
28      1.40000000e+00   0.00000000e+00   -9.26012415e-09  
29      1.45000000e+00   0.00000000e+00   -9.53956835e-09  
30      1.50000000e+00   0.00000000e+00   -9.82606888e-09  
31      1.55000000e+00   0.00000000e+00   -1.01198229e-08  
32      1.60000000e+00   0.00000000e+00   -1.04210298e-08  
33      1.65000000e+00   0.00000000e+00   -1.07298911e-08  
34      1.70000000e+00   0.00000000e+00   -1.10466115e-08  
35      1.75000000e+00   0.00000000e+00   -1.13713987e-08  
36      1.80000000e+00   0.00000000e+00   -1.17044636e-08  
37      1.85000000e+00   0.00000000e+00   -1.20460210e-08  
38      1.90000000e+00   0.00000000e+00   -1.23962893e-08  
39      1.95000000e+00   0.00000000e+00   -1.27554911e-08  
40      2.00000000e+00   0.00000000e+00   -1.31238533e-08  
41      2.05000000e+00   0.00000000e+00   -1.35016072e-08  
42      2.10000000e+00   0.00000000e+00   -1.38889887e-08  
43      2.15000000e+00   0.00000000e+00   -1.42862386e-08  
44      2.20000000e+00   0.00000000e+00   -1.46936026e-08  
45      2.25000000e+00   0.00000000e+00   -1.51113317e-08  
46      2.30000000e+00   0.00000000e+00   -1.55396820e-08  
47      2.35000000e+00   0.00000000e+00   -1.59789152e-08  
48      2.40000000e+00   0.00000000e+00   -1.64292987e-08  
49      2.45000000e+00   0.00000000e+00   -1.68911055e-08  
50      2.50000000e+00   0.00000000e+00   -1.73646148e-08  
51      2.55000000e+00   0.00000000e+00   -1.78501117e-08  
52      2.60000000e+00   0.00000000e+00   -1.83478876e-08  
53      2.65000000e+00   0.00000000e+00   -1.88582405e-08  
54      2.70000000e+00   0.00000000e+00   -1.93814748e-08  
55      2.75000000e+00   0.00000000e+00   -1.99179017e-08  
56      2.80000000e+00   0.00000000e+00   -2.04678393e-08  
57      2.85000000e+00   0.00000000e+00   -2.10316129e-08  
58      2.90000000e+00   0.00000000e+00   -2.16095548e-08  
59      2.95000000e+00   0.00000000e+00   -2.22020050e-08  
60      3.00000000e+00   0.00000000e+00   -2.28093108e-08  
61      3.05000000e+00   0.00000000e+00   -2.34318276e-08  
62      3.10000000e+00   0.00000000e+00   -2.40699184e-08  
63      3.15000000e+00   0.00000000e+00   -2.47239545e-08  
64      3.20000000e+00   0.00000000e+00   -2.53943155e-08  
65      3.25000000e+00   0.00000000e+00   -2.60813894e-08  
66      3.30000000e+00   0.00000000e+00   -2.67855731e-08  
67      3.35000000e+00   0.00000000e+00   -2.75072720e-08  
68      3.40000000e+00   0.00000000e+00   -2.82469010e-08  
69      3.45000000e+00   0.00000000e+00   -2.90048839e-08  
70      3.50000000e+00   0.00000000e+00   -2.97816542e-08  
71      0.00000000e+00   5.00000000e-01   3.38813179e-21   
72      5.00000000e-02   5.00000000e-01   -4.45812867e-05  
73      1.00000000e-01   5.00000000e-01   -7.27489371e-05  
74      1.50000000e-01   5.00000000e-01   -8.80062452e-05  
75      2.00000000e-01   5.00000000e-01   -9.60418682e-05  
76      2.50000000e-01   5.00000000e-01   -1.01326382e-04  
77      3.00000000e-01   5.00000000e-01   -1.05464344e-04  
78      3.50000000e-01   5.00000000e-01   -1.08964816e-04  
79      4.00000000e-01   5.00000000e-01   -1.12048391e-04  
80      4.50000000e-01   5.00000000e-01   -1.14837182e-04  
81      5.00000000e-01   5.00000000e-01   -1.17408159e-04  
82      5.50000000e-01   5.00000000e-01   -1.19813460e-04  
83      6.00000000e-01   5.00000000e-01   -1.22090061e-04  
84      6.50000000e-01   5.00000000e-01   -1.24265058e-04  
85      7.00000000e-01   5.00000000e-01   -1.26358818e-04  
86      7.50000000e-01   5.00000000e-01   -1.28386971e-04  
87      8.00000000e-01   5.00000000e-01   -1.30361724e-04  
88      8.50000000e-01   5.00000000e-01   -1.32292756e-04  
89      9.00000000e-01   5.00000000e-01   -1.34187839e-04  
90      9.50000000e-01   5.00000000e-01   -1.36053295e-04  
91      1.00000000e+00   5.00000000e-01   -1.37894313e-04  
92      1.05000000e+00   5.00000000e-01   -1.39715200e-04  
93      1.10000000e+00   5.00000000e-01   -1.41519553e-04  
94      1.15000000e+00   5.00000000e-01   -1.43310409e-04  
95      1.20000000e+00   5.00000000e-01   -1.45090343e-04  
96      1.25000000e+00   5.00000000e-01   -1.46861558e-04  
97      1.30000000e+00   5.00000000e-01   -1.48625946e-04  
98      1.35000000e+00   5.00000000e-01   -1.50385145e-04  
99      1.40000000e+00   5.00000000e-01   -1.52140578e-04  
100     1.45000000e+00   5.00000000e-01   -1.53893489e-04  
101     1.50000000e+00   5.00000000e-01   -1.55644968e-04  
102     1.55000000e+00   5.00000000e-01   -1.57395979e-04  
103     1.60000000e+00   5.00000000e-01   -1.59147371e-04  
104     1.65000000e+00   5.00000000e-01   -1.60899902e-04  
105     1.70000000e+00   5.00000000e-01   -1.62654245e-04  
106     1.75000000e+00   5.00000000e-01   -1.64411005e-04  
107     1.80000000e+00   5.00000000e-01   -1.66170723e-04  
108     1.85000000e+00   5.00000000e-01   -1.67933887e-04  
109     1.90000000e+00   5.00000000e-01   -1.69700937e-04  
110     1.95000000e+00   5.00000000e-01   -1.71472271e-04  
111     2.00000000e+00   5.00000000e-01   -1.73248253e-04  
112     2.05000000e+00   5.00000000e-01   -1.75029212e-04  
113     2.10000000e+00   5.00000000e-01   -1.76815449e-04  
114     2.15000000e+00   5.00000000e-01   -1.78607239e-04  
115     2.20000000e+00   5.00000000e-01   -1.80404834e-04  
116     2.25000000e+00   5.00000000e-01   -1.82208467e-04  
117     2.30000000e+00   5.00000000e-01   -1.84018351e-04  
118     2.35000000e+00   5.00000000e-01   -1.85834682e-04  
119     2.40000000e+00   5.00000000e-01   -1.87657644e-04  
120     2.45000000e+00   5.00000000e-01   -1.89487404e-04  
121     2.50000000e+00   5.00000000e-01   -1.91324120e-04  
122     2.55000000e+00   5.00000000e-01   -1.93167936e-04  
123     2.60000000e+00   5.00000000e-01   -1.95018987e-04  
124     2.65000000e+00   5.00000000e-01   -1.96877402e-04  
125     2.70000000e+00   5.00000000e-01   -1.98743296e-04  
126     2.75000000e+00   5.00000000e-01   -2.00616782e-04  
127     2.80000000e+00   5.00000000e-01   -2.02497961e-04  
128     2.85000000e+00   5.00000000e-01   -2.04386932e-04  
129     2.90000000e+00   5.00000000e-01   -2.06283785e-04  
130     2.95000000e+00   5.00000000e-01   -2.08188606e-04  
131     3.00000000e+00   5.00000000e-01   -2.10101476e-04  
132     3.05000000e+00   5.00000000e-01   -2.12022472e-04  
133     3.10000000e+00   5.00000000e-01   -2.13951665e-04  
134     3.15000000e+00   5.00000000e-01   -2.15889124e-04  
135     3.20000000e+00   5.00000000e-01   -2.17834913e-04  
136     3.25000000e+00   5.00000000e-01   -2.19789094e-04  
137     3.30000000e+00   5.00000000e-01   -2.21751725e-04  
138     3.35000000e+00   5.00000000e-01   -2.23722861e-04  
139     3.40000000e+00   5.00000000e-01   -2.25702555e-04  
140     3.45000000e+00   5.00000000e-01   -2.27690857e-04  
141     3.50000000e+00   5.00000000e-01   -2.29687815e-04  
142     -5.55111512e-17  1.00000000e+00   0.00000000e+00   
143     5.00000000e-02   1.00000000e+00   -1.36123138e-04  
144     1.00000000e-01   1.00000000e+00   -2.54113549e-04  
145     1.50000000e-01   1.00000000e+00   -3.55231416e-04  
146     2.00000000e-01   1.00000000e+00   -4.40644630e-04  
147     2.50000000e-01   1.00000000e+00   -5.11465323e-04  
148     3.00000000e-01   1.00000000e+00   -5.68825500e-04  
149     3.50000000e-01   1.00000000e+00   -6.14053549e-04  
150     4.00000000e-01   1.00000000e+00   -6.48993181e-04  
151     4.50000000e-01   1.00000000e+00   -6.76118837e-04  
152     5.00000000e-01   1.00000000e+00   -6.97868737e-04  
153     5.50000000e-01   1.00000000e+00   -7.15959721e-04  
154     6.00000000e-01   1.00000000e+00   -7.31445869e-04  
155     6.50000000e-01   1.00000000e+00   -7.44993294e-04  
156     7.00000000e-01   1.00000000e+00   -7.57050837e-04  
157     7.50000000e-01   1.00000000e+00   -7.67936331e-04  
158     8.00000000e-01   1.00000000e+00   -7.77882783e-04  
159     8.50000000e-01   1.00000000e+00   -7.87065449e-04  
160     9.00000000e-01   1.00000000e+00   -7.95618864e-04  
161     9.50000000e-01   1.00000000e+00   -8.03648072e-04  
162     1.00000000e+00   1.00000000e+00   -8.11236302e-04  
163     1.05000000e+00   1.00000000e+00   -8.18450353e-04  
164     1.10000000e+00   1.00000000e+00   -8.25344457e-04  
165     1.15000000e+00   1.00000000e+00   -8.31963095e-04  
166     1.20000000e+00   1.00000000e+00   -8.38343097e-04  
167     1.25000000e+00   1.00000000e+00   -8.44515213e-04  
168     1.30000000e+00   1.00000000e+00   -8.50505321e-04  
169     1.35000000e+00   1.00000000e+00   -8.56335349e-04  
170     1.40000000e+00   1.00000000e+00   -8.62024005e-04  
171     1.45000000e+00   1.00000000e+00   -8.67587345e-04  
172     1.50000000e+00   1.00000000e+00   -8.73039224e-04  
173     1.55000000e+00   1.00000000e+00   -8.78391665e-04  
174     1.60000000e+00   1.00000000e+00   -8.83655149e-04  
175     1.65000000e+00   1.00000000e+00   -8.88838855e-04  
176     1.70000000e+00   1.00000000e+00   -8.93950856e-04  
177     1.75000000e+00   1.00000000e+00   -8.98998282e-04  
178     1.80000000e+00   1.00000000e+00   -9.03987452e-04  
179     1.85000000e+00   1.00000000e+00   -9.08923986e-04  
180     1.90000000e+00   1.00000000e+00   -9.13812903e-04  
181     1.95000000e+00   1.00000000e+00   -9.18658692e-04  
182     2.00000000e+00   1.00000000e+00   -9.23465388e-04  
183     2.05000000e+00   1.00000000e+00   -9.28236623e-04  
184     2.10000000e+00   1.00000000e+00   -9.32975677e-04  
185     2.15000000e+00   1.00000000e+00   -9.37685519e-04  
186     2.20000000e+00   1.00000000e+00   -9.42368843e-04  
187     2.25000000e+00   1.00000000e+00   -9.47028101e-04  
188     2.30000000e+00   1.00000000e+00   -9.51665528e-04  
189     2.35000000e+00   1.00000000e+00   -9.56283164e-04  
190     2.40000000e+00   1.00000000e+00   -9.60882878e-04  
191     2.45000000e+00   1.00000000e+00   -9.65466384e-04  
192     2.50000000e+00   1.00000000e+00   -9.70035257e-04  
193     2.55000000e+00   1.00000000e+00   -9.74590946e-04  
194     2.60000000e+00   1.00000000e+00   -9.79134789e-04  
195     2.65000000e+00   1.00000000e+00   -9.83668021e-04  
196     2.70000000e+00   1.00000000e+00   -9.88191782e-04  
197     2.75000000e+00   1.00000000e+00   -9.92707133e-04  
198     2.80000000e+00   1.00000000e+00   -9.97215054e-04  
199     2.85000000e+00   1.00000000e+00   -1.00171646e-03  
200     2.90000000e+00   1.00000000e+00   -1.00621220e-03  
201     2.95000000e+00   1.00000000e+00   -1.01070306e-03  
202     3.00000000e+00   1.00000000e+00   -1.01518978e-03  
203     3.05000000e+00   1.00000000e+00   -1.01967305e-03  
204     3.10000000e+00   1.00000000e+00   -1.02415352e-03  
205     3.15000000e+00   1.00000000e+00   -1.02863178e-03  
206     3.20000000e+00   1.00000000e+00   -1.03310841e-03  
207     3.25000000e+00   1.00000000e+00   -1.03758393e-03  
208     3.30000000e+00   1.00000000e+00   -1.04205885e-03  
209     3.35000000e+00   1.00000000e+00   -1.04653363e-03  
210     3.40000000e+00   1.00000000e+00   -1.05100871e-03  
211     3.45000000e+00   1.00000000e+00   -1.05548451e-03  
212     3.50000000e+00   1.00000000e+00   -1.05996142e-03  
213     0.00000000e+00   1.50000000e+00   0.00000000e+00   
214     5.00000000e-02   1.50000000e+00   -1.83563939e-04  
215     1.00000000e-01   1.50000000e+00   -3.51241016e-04  
216     1.50000000e-01   1.50000000e+00   -5.03864970e-04  
217     2.00000000e-01   1.50000000e+00   -6.42213794e-04  
218     2.50000000e-01   1.50000000e+00   -7.67015305e-04  
219     3.00000000e-01   1.50000000e+00   -8.78952842e-04  
220     3.50000000e-01   1.50000000e+00   -9.78671787e-04  
221     4.00000000e-01   1.50000000e+00   -1.06678835e-03  
222     4.50000000e-01   1.50000000e+00   -1.14390398e-03  
223     5.00000000e-01   1.50000000e+00   -1.21063318e-03  
224     5.50000000e-01   1.50000000e+00   -1.26766378e-03  
225     6.00000000e-01   1.50000000e+00   -1.31588142e-03  
226     6.50000000e-01   1.50000000e+00   -1.35651142e-03  
227     7.00000000e-01   1.50000000e+00   -1.39102195e-03  
228     7.50000000e-01   1.50000000e+00   -1.42077426e-03  
229     8.00000000e-01   1.50000000e+00   -1.44682442e-03  
230     8.50000000e-01   1.50000000e+00   -1.46994925e-03  
231     9.00000000e-01   1.50000000e+00   -1.49072530e-03  
232     9.50000000e-01   1.50000000e+00   -1.50958919e-03  
233     1.00000000e+00   1.50000000e+00   -1.52687767e-03  
234     1.05000000e+00   1.50000000e+00   -1.54285432e-03  
235     1.10000000e+00   1.50000000e+00   -1.55772818e-03  
236     1.15000000e+00   1.50000000e+00   -1.57166694e-03  
237     1.20000000e+00   1.50000000e+00   -1.58480654e-03  
238     1.25000000e+00   1.50000000e+00   -1.59725829e-03  
239     1.30000000e+00   1.50000000e+00   -1.60911412e-03  
240     1.35000000e+00   1.50000000e+00   -1.62045060e-03  
241     1.40000000e+00   1.50000000e+00   -1.63133198e-03  
242     1.45000000e+00   1.50000000e+00   -1.64181259e-03  
243     1.50000000e+00   1.50000000e+00   -1.65193862e-03  
244     1.55000000e+00   1.50000000e+00   -1.66174962e-03  
245     1.60000000e+00   1.50000000e+00   -1.67127965e-03  
246     1.65000000e+00   1.50000000e+00   -1.68055816e-03  
247     1.70000000e+00   1.50000000e+00   -1.68961080e-03  
248     1.75000000e+00   1.50000000e+00   -1.69845993e-03  
249     1.80000000e+00   1.50000000e+00   -1.70712522e-03  
250     1.85000000e+00   1.50000000e+00   -1.71562398e-03  
251     1.90000000e+00   1.50000000e+00   -1.72397151e-03  
252     1.95000000e+00   1.50000000e+00   -1.73218143e-03  
253     2.00000000e+00   1.50000000e+00   -1.74026583e-03  
254     2.05000000e+00   1.50000000e+00   -1.74823554e-03  
255     2.10000000e+00   1.50000000e+00   -1.75610026e-03  
256     2.15000000e+00   1.50000000e+00   -1.76386871e-03  
257     2.20000000e+00   1.50000000e+00   -1.77154876e-03  
258     2.25000000e+00   1.50000000e+00   -1.77914750e-03  
259     2.30000000e+00   1.50000000e+00   -1.78667137e-03  
260     2.35000000e+00   1.50000000e+00   -1.79412623e-03  
261     2.40000000e+00   1.50000000e+00   -1.80151739e-03  
262     2.45000000e+00   1.50000000e+00   -1.80884971e-03  
263     2.50000000e+00   1.50000000e+00   -1.81612763e-03  
264     2.55000000e+00   1.50000000e+00   -1.82335521e-03  
265     2.60000000e+00   1.50000000e+00   -1.83053618e-03  
266     2.65000000e+00   1.50000000e+00   -1.83767398e-03  
267     2.70000000e+00   1.50000000e+00   -1.84477176e-03  
268     2.75000000e+00   1.50000000e+00   -1.85183243e-03  
269     2.80000000e+00   1.50000000e+00   -1.85885869e-03  
270     2.85000000e+00   1.50000000e+00   -1.86585303e-03  
271     2.90000000e+00   1.50000000e+00   -1.87281775e-03  
272     2.95000000e+00   1.50000000e+00   -1.87975500e-03  
273     3.00000000e+00   1.50000000e+00   -1.88666676e-03  
274     3.05000000e+00   1.50000000e+00   -1.89355490e-03  
275     3.10000000e+00   1.50000000e+00   -1.90042113e-03  
276     3.15000000e+00   1.50000000e+00   -1.90726707e-03  
277     3.20000000e+00   1.50000000e+00   -1.91409423e-03  
278     3.25000000e+00   1.50000000e+00   -1.92090400e-03  
279     3.30000000e+00   1.50000000e+00   -1.92769770e-03  
280     3.35000000e+00   1.50000000e+00   -1.93447658e-03  
281     3.40000000e+00   1.50000000e+00   -1.94124178e-03  
282     3.45000000e+00   1.50000000e+00   -1.94799440e-03  
283     3.50000000e+00   1.50000000e+00   -1.95473546e-03  
284     0.00000000e+00   2.00000000e+00   0.00000000e+00   
285     5.00000000e-02   2.00000000e+00   -2.11787465e-04  
286     1.00000000e-01   2.00000000e+00   -4.09864702e-04  
287     1.50000000e-01   2.00000000e+00   -5.94810266e-04  
288     2.00000000e-01   2.00000000e+00   -7.67170897e-04  
289     2.50000000e-01   2.00000000e+00   -9.27463790e-04  
290     3.00000000e-01   2.00000000e+00   -1.07617872e-03  
291     3.50000000e-01   2.00000000e+00   -1.21378007e-03  
292     4.00000000e-01   2.00000000e+00   -1.34070880e-03  
293     4.50000000e-01   2.00000000e+00   -1.45738447e-03  
294     5.00000000e-01   2.00000000e+00   -1.56420739e-03  
295     5.50000000e-01   2.00000000e+00   -1.66156120e-03  
296     6.00000000e-01   2.00000000e+00   -1.74981629e-03  
297     6.50000000e-01   2.00000000e+00   -1.82933533e-03  
298     7.00000000e-01   2.00000000e+00   -1.90048481e-03  
299     7.50000000e-01   2.00000000e+00   -1.96366583e-03  
300     8.00000000e-01   2.00000000e+00   -2.01938907e-03  
301     8.50000000e-01   2.00000000e+00   -2.06837620e-03  
302     9.00000000e-01   2.00000000e+00   -2.11155479e-03  
303     9.50000000e-01   2.00000000e+00   -2.14988805e-03  
304     1.00000000e+00   2.00000000e+00   -2.18421786e-03  
305     1.05000000e+00   2.00000000e+00   -2.21522768e-03  
306     1.10000000e+00   2.00000000e+00   -2.24346545e-03  
307     1.15000000e+00   2.00000000e+00   -2.26937266e-03  
308     1.20000000e+00   2.00000000e+00   -2.29330732e-03  
309     1.25000000e+00   2.00000000e+00   -2.31556149e-03  
310     1.30000000e+00   2.00000000e+00   -2.33637483e-03  
311     1.35000000e+00   2.00000000e+00   -2.35594524e-03  
312     1.40000000e+00   2.00000000e+00   -2.37443711e-03  
313     1.45000000e+00   2.00000000e+00   -2.39198794e-03  
314     1.50000000e+00   2.00000000e+00   -2.40871341e-03  
315     1.55000000e+00   2.00000000e+00   -2.42471146e-03  
316     1.60000000e+00   2.00000000e+00   -2.44006547e-03  
317     1.65000000e+00   2.00000000e+00   -2.45484689e-03  
318     1.70000000e+00   2.00000000e+00   -2.46911718e-03  
319     1.75000000e+00   2.00000000e+00   -2.48292954e-03  
320     1.80000000e+00   2.00000000e+00   -2.49633023e-03  
321     1.85000000e+00   2.00000000e+00   -2.50935962e-03  
322     1.90000000e+00   2.00000000e+00   -2.52205315e-03  
323     1.95000000e+00   2.00000000e+00   -2.53444199e-03  
324     2.00000000e+00   2.00000000e+00   -2.54655371e-03  
325     2.05000000e+00   2.00000000e+00   -2.55841277e-03  
326     2.10000000e+00   2.00000000e+00   -2.57004093e-03  
327     2.15000000e+00   2.00000000e+00   -2.58145761e-03  
328     2.20000000e+00   2.00000000e+00   -2.59268024e-03  
329     2.25000000e+00   2.00000000e+00   -2.60372443e-03  
330     2.30000000e+00   2.00000000e+00   -2.61460428e-03  
331     2.35000000e+00   2.00000000e+00   -2.62533250e-03  
