Index         V(c)         V(B)             I(v_c)      I(v_b)         I(v_s)
  0      0.000000e+00   7.00000000e-01  -9.59413e-06 2.463095e-04 -2.35735e-04
  1      5.000000e-02   7.00000000e-01  3.225028e-05 6.415398e-05 -6.18874e-05
  2      1.000000e-01   7.00000000e-01  4.087358e-05 1.218731e-05 -1.13587e-05
  3      1.500000e-01   7.00000000e-01  4.248389e-05 2.336290e-06 -1.72966e-06
  4      2.000000e-01   7.00000000e-01  4.292394e-05 8.262679e-07 -2.52313e-07
  5      2.500000e-01   7.00000000e-01  4.317855e-05 6.057273e-07 -3.65549e-08
  6      3.000000e-01   7.00000000e-01  4.339787e-05 5.737487e-07 -5.29071e-09
  7      3.500000e-01   7.00000000e-01  4.360545e-05 5.691063e-07 -7.65627e-10
  8      4.000000e-01   7.00000000e-01  4.380588e-05 5.684238e-07 -1.10793e-10
  9      4.500000e-01   7.00000000e-01  4.400068e-05 5.683156e-07 -1.60325e-11
 10      5.000000e-01   7.00000000e-01  4.419072e-05 5.682912e-07 -2.32002e-12
 11      5.500000e-01   7.00000000e-01  4.437666e-05 5.682792e-07 -3.35723e-13
 12      6.000000e-01   7.00000000e-01  4.455900e-05 5.682691e-07 -4.85814e-14
 13      6.500000e-01   7.00000000e-01  4.473817e-05 5.682594e-07 -7.03005e-15
 14      7.000000e-01   7.00000000e-01  4.491451e-05 5.682496e-07 -1.01729e-15
 15      7.500000e-01   7.00000000e-01  4.508833e-05 5.682393e-07 -1.47209e-16
 16      8.000000e-01   7.00000000e-01  4.525988e-05 5.682281e-07 -2.13020e-17
 17      8.500000e-01   7.00000000e-01  4.542936e-05 5.682150e-07 -3.08253e-18
 18      9.000000e-01   7.00000000e-01  4.559697e-05 5.681989e-07 -4.46060e-19
 19      9.500000e-01   7.00000000e-01  4.576288e-05 5.681779e-07 -6.45475e-20
 20      1.000000e+00   7.00000000e-01  4.592724e-05 5.681496e-07 -9.34039e-21
 21      1.050000e+00   7.00000000e-01  4.609017e-05 5.681106e-07 -1.35161e-21
 22      1.100000e+00   7.00000000e-01  4.625180e-05 5.680565e-07 -1.95585e-22
 23      1.150000e+00   7.00000000e-01  4.641224e-05 5.679819e-07 -2.83023e-23
 24      1.200000e+00   7.00000000e-01  4.657158e-05 5.678796e-07 -4.09549e-24
 25      1.250000e+00   7.00000000e-01  4.672992e-05 5.677413e-07 -5.92640e-25
 26      1.300000e+00   7.00000000e-01  4.688735e-05 5.675567e-07 -8.57582e-26
 27      1.350000e+00   7.00000000e-01  4.704395e-05 5.673139e-07 -1.24096e-26
 28      1.400000e+00   7.00000000e-01  4.719980e-05 5.669987e-07 -1.79584e-27
 29      1.450000e+00   7.00000000e-01  4.735498e-05 5.665951e-07 -2.59930e-28
 30      1.500000e+00   7.00000000e-01  4.750956e-05 5.660846e-07 -3.76681e-29
 31      1.550000e+00   7.00000000e-01  4.766361e-05 5.654466e-07 -5.52203e-30
 32      1.600000e+00   7.00000000e-01  4.781721e-05 5.646578e-07 -7.88861e-31
 33      1.650000e+00   7.00000000e-01  4.797042e-05 5.636927e-07 -1.97215e-31
 34      1.700000e+00   7.00000000e-01  4.812332e-05 5.625231e-07 6.878325e-40
 35      1.750000e+00   7.00000000e-01  4.827598e-05 5.611184e-07 5.596633e-42
 36      1.800000e+00   7.00000000e-01  4.842847e-05 5.594452e-07 -1.31861e-41
 37      1.850000e+00   7.00000000e-01  4.858087e-05 5.574676e-07 -3.99645e-42
 38      1.900000e+00   7.00000000e-01  4.873323e-05 5.551471e-07 -8.90174e-43
 39      1.950000e+00   7.00000000e-01  4.888565e-05 5.524427e-07 -1.75401e-43
 40      2.000000e+00   7.00000000e-01  4.903820e-05 5.493108e-07 -3.23407e-44
 41      2.050000e+00   7.00000000e-01  4.919094e-05 5.457051e-07 -5.71902e-45
 42      2.100000e+00   7.00000000e-01  4.934397e-05 5.415771e-07 -9.82638e-46
 43      2.150000e+00   7.00000000e-01  4.949735e-05 5.368757e-07 -1.65314e-46
 44      2.200000e+00   7.00000000e-01  4.965117e-05 5.315475e-07 -2.73659e-47
 45      2.250000e+00   7.00000000e-01  4.980552e-05 5.255368e-07 -4.47249e-48
 46      2.300000e+00   7.00000000e-01  4.996047e-05 5.187856e-07 -7.23372e-49
 47      2.350000e+00   7.00000000e-01  5.011611e-05 5.112338e-07 -1.15986e-49
 48      2.400000e+00   7.00000000e-01  5.027253e-05 5.028191e-07 -1.84610e-50
 49      2.450000e+00   7.00000000e-01  5.042982e-05 4.934774e-07 -2.91984e-51
 50      2.500000e+00   7.00000000e-01  5.058806e-05 4.831422e-07 -4.59273e-52
 51      2.550000e+00   7.00000000e-01  5.074735e-05 4.717457e-07 -7.18911e-53
 52      2.600000e+00   7.00000000e-01  5.090778e-05 4.592179e-07 -1.12049e-53
 53      2.650000e+00   7.00000000e-01  5.106944e-05 4.454873e-07 -1.73964e-54
 54      2.700000e+00   7.00000000e-01  5.123243e-05 4.304806e-07 -2.69151e-55
 55      2.750000e+00   7.00000000e-01  5.139685e-05 4.141230e-07 -4.15105e-56
 56      2.800000e+00   7.00000000e-01  5.156279e-05 3.963384e-07 -6.38358e-57
 57      2.850000e+00   7.00000000e-01  5.173036e-05 3.770490e-07 -9.79080e-58
 58      2.900000e+00   7.00000000e-01  5.189964e-05 3.561758e-07 -1.49799e-58
 59      2.950000e+00   7.00000000e-01  5.207076e-05 3.336386e-07 -2.28676e-59
 60      3.000000e+00   7.00000000e-01  5.224379e-05 3.093559e-07 -3.48352e-60
 61      3.050000e+00   7.00000000e-01  5.241886e-05 2.832452e-07 -5.29626e-61
 62      3.100000e+00   7.00000000e-01  5.259607e-05 2.552228e-07 -8.03764e-62
 63      3.150000e+00   7.00000000e-01  5.277551e-05 2.252040e-07 -1.21772e-62
 64      3.200000e+00   7.00000000e-01  5.295730e-05 1.931033e-07 -1.84192e-63
 65      3.250000e+00   7.00000000e-01  5.314154e-05 1.588341e-07 -2.78191e-64
 66      3.300000e+00   7.00000000e-01  5.332835e-05 1.223093e-07 -4.19567e-65
 67      3.350000e+00   7.00000000e-01  5.351782e-05 8.344063e-08 -6.31947e-66
 68      3.400000e+00   7.00000000e-01  5.371007e-05 4.213935e-08 -9.50634e-67
 69      3.450000e+00   7.00000000e-01  5.390521e-05 -1.68406e-09 -1.42833e-67
 70      3.500000e+00   7.00000000e-01  5.410335e-05 -4.81197e-08 -2.14367e-68
 71      3.550000e+00   7.00000000e-01  5.430461e-05 -9.72584e-08 -3.21382e-69
 72      3.600000e+00   7.00000000e-01  5.450908e-05 -1.49191e-07 -4.81334e-70
 73      3.650000e+00   7.00000000e-01  5.471689e-05 -2.04011e-07 -7.20202e-71
 74      3.700000e+00   7.00000000e-01  5.492815e-05 -2.61808e-07 -1.07663e-71
 75      3.750000e+00   7.00000000e-01  5.514297e-05 -3.22677e-07 -1.60805e-72
 76      3.800000e+00   7.00000000e-01  5.536147e-05 -3.86710e-07 -2.39980e-73
 77      3.850000e+00   7.00000000e-01  5.558376e-05 -4.54002e-07 -3.57857e-74
 78      3.900000e+00   7.00000000e-01  5.580996e-05 -5.24646e-07 -5.33235e-75
 79      3.950000e+00   7.00000000e-01  5.604018e-05 -5.98736e-07 -7.93995e-76
 80      4.000000e+00   7.00000000e-01  5.627453e-05 -6.76368e-07 -1.18146e-76
 81      4.050000e+00   7.00000000e-01  5.651315e-05 -7.57636e-07 -1.75688e-77
 82      4.100000e+00   7.00000000e-01  5.675613e-05 -8.42635e-07 -2.61092e-78
 83      4.150000e+00   7.00000000e-01  5.700360e-05 -9.31463e-07 -3.87783e-79
 84      4.200000e+00   7.00000000e-01  5.725568e-05 -1.02421e-06 -5.75622e-80
 85      4.250000e+00   7.00000000e-01  5.751249e-05 -1.12098e-06 -8.53990e-81
 86      4.300000e+00   7.00000000e-01  5.777414e-05 -1.22187e-06 -1.26632e-81
 87      4.350000e+00   7.00000000e-01  5.804075e-05 -1.32697e-06 -1.87681e-82
 88      4.400000e+00   7.00000000e-01  5.831245e-05 -1.43638e-06 -2.78032e-83
 89      4.450000e+00   7.00000000e-01  5.858935e-05 -1.55020e-06 -4.11692e-84
 90      4.500000e+00   7.00000000e-01  5.887158e-05 -1.66853e-06 -6.09345e-85
 91      4.550000e+00   7.00000000e-01  5.915925e-05 -1.79146e-06 -9.01522e-86
 92      4.600000e+00   7.00000000e-01  5.945249e-05 -1.91909e-06 -1.33327e-86
 93      4.650000e+00   7.00000000e-01  5.975143e-05 -2.05152e-06 -1.97106e-87
 94      4.700000e+00   7.00000000e-01  6.005617e-05 -2.18885e-06 -2.91289e-88
 95      4.750000e+00   7.00000000e-01  6.036686e-05 -2.33119e-06 -4.30330e-89
 96      4.800000e+00   7.00000000e-01  6.068360e-05 -2.47862e-06 -6.35532e-90
 97      4.850000e+00   7.00000000e-01  6.100653e-05 -2.63124e-06 -9.38292e-91
 98      4.900000e+00   7.00000000e-01  6.133577e-05 -2.78917e-06 -1.38487e-91
 99      4.950000e+00   7.00000000e-01  6.167145e-05 -2.95250e-06 -2.04343e-92
100      5.000000e+00   7.00000000e-01  6.201370e-05 -3.12133e-06 -3.01434e-93
  0      0.000000e+0    7.50000000e-01  -4.83286e-05 7.258447e-04 -6.68758e-04
  1      5.000000e-02   7.50000000e-01  1.575417e-04 2.609579e-04 -2.44900e-04
  2      1.000000e-01   7.50000000e-01  2.341276e-04 7.203906e-05 -6.57404e-05
  3      1.500000e-01   7.50000000e-01  2.549434e-04 1.652363e-05 -1.22655e-05
  4      2.000000e-01   7.50000000e-01  2.599277e-04 5.771192e-06 -1.87749e-06
  5      2.500000e-01   7.50000000e-01  2.617242e-04 4.111375e-06 -2.74207e-07
  6      3.000000e-01   7.50000000e-01  2.629601e-04 3.868237e-06 -3.97460e-08
  7      3.500000e-01   7.50000000e-01  2.640671e-04 3.832639e-06 -5.75463e-09
  8      4.000000e-01   7.50000000e-01  2.651181e-04 3.827163e-06 -8.33036e-10
  9      4.500000e-01   7.50000000e-01  2.661304e-04 3.826063e-06 -1.20585e-10
 10      5.000000e-01   7.50000000e-01  2.671112e-04 3.825608e-06 -1.74549e-11
 11      5.500000e-01   7.50000000e-01  2.680652e-04 3.825254e-06 -2.52659e-12
 12      6.000000e-01   7.50000000e-01  2.689960e-04 3.824922e-06 -3.65721e-13
 13      6.500000e-01   7.50000000e-01  2.699066e-04 3.824599e-06 -5.29372e-14
 14      7.000000e-01   7.50000000e-01  2.707990e-04 3.824282e-06 -7.66248e-15
 15      7.500000e-01   7.50000000e-01  2.716754e-04 3.823969e-06 -1.10911e-15
 16      8.000000e-01   7.50000000e-01  2.725373e-04 3.823659e-06 -1.60538e-16
 17      8.500000e-01   7.50000000e-01  2.733860e-04 3.823347e-06 -2.32369e-17
 18      9.000000e-01   7.50000000e-01  2.742228e-04 3.823031e-06 -3.36339e-18
 19      9.500000e-01   7.50000000e-01  2.750487e-04 3.822702e-06 -4.86826e-19
 20      1.000000e+00   7.50000000e-01  2.758645e-04 3.822351e-06 -7.04643e-20
 21      1.050000e+00   7.50000000e-01  2.766711e-04 3.821964e-06 -1.01991e-20
 22      1.100000e+00   7.50000000e-01  2.774692e-04 3.821522e-06 -1.47623e-21
 23      1.150000e+00   7.50000000e-01  2.782595e-04 3.821003e-06 -2.13671e-22
 24      1.200000e+00   7.50000000e-01  2.790425e-04 3.820374e-06 -3.09268e-23
 25      1.250000e+00   7.50000000e-01  2.798188e-04 3.819597e-06 -4.47635e-24
 26      1.300000e+00   7.50000000e-01  2.805889e-04 3.818626e-06 -6.47906e-25
 27      1.350000e+00   7.50000000e-01  2.813533e-04 3.817401e-06 -9.37774e-26
 28      1.400000e+00   7.50000000e-01  2.821125e-04 3.815857e-06 -1.35733e-26
 29      1.450000e+00   7.50000000e-01  2.828669e-04 3.813914e-06 -1.96446e-27
 30      1.500000e+00   7.50000000e-01  2.836169e-04 3.811480e-06 -2.84384e-28
 31      1.550000e+00   7.50000000e-01  2.843631e-04 3.808452e-06 -4.12179e-29
 32      1.600000e+00   7.50000000e-01  2.851057e-04 3.804712e-06 -5.91645e-30
 33      1.650000e+00   7.50000000e-01  2.858454e-04 3.800129e-06 -9.86075e-31
 34      1.700000e+00   7.50000000e-01  2.865824e-04 3.794557e-06 -1.97215e-31
 35      1.750000e+00   7.50000000e-01  2.873172e-04 3.787835e-06 7.131713e-39
 36      1.800000e+00   7.50000000e-01  2.880503e-04 3.779789e-06 4.041276e-40
 37      1.850000e+00   7.50000000e-01  2.887822e-04 3.770229e-06 -3.58669e-41
 38      1.900000e+00   7.50000000e-01  2.895132e-04 3.758951e-06 -1.93776e-41
 39      1.950000e+00   7.50000000e-01  2.902440e-04 3.745734e-06 -4.93784e-42
 40      2.000000e+00   7.50000000e-01  2.909748e-04 3.730344e-06 -1.03536e-42
 41      2.050000e+00   7.50000000e-01  2.917064e-04 3.712532e-06 -1.98030e-43
 42      2.100000e+00   7.50000000e-01  2.924391e-04 3.692035e-06 -3.58928e-44
 43      2.150000e+00   7.50000000e-01  2.931735e-04 3.668576e-06 -6.27909e-45
 44      2.200000e+00   7.50000000e-01  2.939102e-04 3.641863e-06 -1.07115e-45
 45      2.250000e+00   7.50000000e-01  2.946497e-04 3.611590e-06 -1.79310e-46
 46      2.300000e+00   7.50000000e-01  2.953925e-04 3.577442e-06 -2.95782e-47
 47      2.350000e+00   7.50000000e-01  2.961394e-04 3.539086e-06 -4.82171e-48
 48      2.400000e+00   7.50000000e-01  2.968907e-04 3.496181e-06 -7.78397e-49
 49      2.450000e+00   7.50000000e-01  2.976473e-04 3.448371e-06 -1.24637e-49
 50      2.500000e+00   7.50000000e-01  2.984096e-04 3.395290e-06 -1.98182e-50
 51      2.550000e+00   7.50000000e-01  2.991784e-04 3.336562e-06 -3.13222e-51
 52      2.600000e+00   7.50000000e-01  2.999543e-04 3.271799e-06 -4.92430e-52
 53      2.650000e+00   7.50000000e-01  3.007380e-04 3.200603e-06 -7.70557e-53
 54      2.700000e+00   7.50000000e-01  3.015301e-04 3.122567e-06 -1.20075e-53
 55      2.750000e+00   7.50000000e-01  3.023313e-04 3.037275e-06 -1.86413e-54
 56      2.800000e+00   7.50000000e-01  3.031424e-04 2.944301e-06 -2.88421e-55
 57      2.850000e+00   7.50000000e-01  3.039640e-04 2.843211e-06 -4.44878e-56
 58      2.900000e+00   7.50000000e-01  3.047969e-04 2.733565e-06 -6.84283e-57
 59      2.950000e+00   7.50000000e-01  3.056418e-04 2.614912e-06 -1.04981e-57
 60      3.000000e+00   7.50000000e-01  3.064995e-04 2.486797e-06 -1.60678e-58
 61      3.050000e+00   7.50000000e-01  3.073708e-04 2.348755e-06 -2.45386e-59
 62      3.100000e+00   7.50000000e-01  3.082563e-04 2.200317e-06 -3.73992e-60
 63      3.150000e+00   7.50000000e-01  3.091569e-04 2.041006e-06 -5.68929e-61
 64      3.200000e+00   7.50000000e-01  3.100734e-04 1.870339e-06 -8.63957e-62
 65      3.250000e+00   7.50000000e-01  3.110065e-04 1.687829e-06 -1.30984e-62
 66      3.300000e+00   7.50000000e-01  3.119572e-04 1.492982e-06 -1.98281e-63
 67      3.350000e+00   7.50000000e-01  3.129261e-04 1.285297e-06 -2.99726e-64
 68      3.400000e+00   7.50000000e-01  3.139142e-04 1.064272e-06 -4.52468e-65
 69      3.450000e+00   7.50000000e-01  3.149222e-04 8.293959e-07 -6.82194e-66
 70      3.500000e+00   7.50000000e-01  3.159511e-04 5.801550e-07 -1.02735e-66
 71      3.550000e+00   7.50000000e-01  3.170016e-04 3.160300e-07 -1.54544e-67
 72      3.600000e+00   7.50000000e-01  3.180746e-04 3.649701e-08 -2.32238e-68
 73      3.650000e+00   7.50000000e-01  3.191711e-04 -2.58972e-07 -3.48654e-69
 74      3.700000e+00   7.50000000e-01  3.202919e-04 -5.70911e-07 -5.22947e-70
 75      3.750000e+00   7.50000000e-01  3.214378e-04 -8.99858e-07 -7.83697e-71
 76      3.800000e+00   7.50000000e-01  3.226099e-04 -1.24635e-06 -1.17351e-71
 77      3.850000e+00   7.50000000e-01  3.238089e-04 -1.61095e-06 -1.75589e-72
 78      3.900000e+00   7.50000000e-01  3.250359e-04 -1.99419e-06 -2.62541e-73
 79      3.950000e+00   7.50000000e-01  3.262917e-04 -2.39663e-06 -3.92289e-74
 80      4.000000e+00   7.50000000e-01  3.275773e-04 -2.81885e-06 -5.85790e-75
 81      4.050000e+00   7.50000000e-01  3.288937e-04 -3.26139e-06 -8.74221e-76
 82      4.100000e+00   7.50000000e-01  3.302418e-04 -3.72484e-06 -1.30395e-76
 83      4.150000e+00   7.50000000e-01  3.316226e-04 -4.20977e-06 -1.94390e-77
 84      4.200000e+00   7.50000000e-01  3.330371e-04 -4.71677e-06 -2.89654e-78
 85      4.250000e+00   7.50000000e-01  3.344863e-04 -5.24642e-06 -4.31407e-79
 86      4.300000e+00   7.50000000e-01  3.359712e-04 -5.79932e-06 -6.42261e-80
 87      4.350000e+00   7.50000000e-01  3.374928e-04 -6.37606e-06 -9.55798e-81
 88      4.400000e+00   7.50000000e-01  3.390522e-04 -6.97726e-06 -1.42188e-81
 89      4.450000e+00   7.50000000e-01  3.406504e-04 -7.60353e-06 -2.11453e-82
 90      4.500000e+00   7.50000000e-01  3.422886e-04 -8.25549e-06 -3.14362e-83
 91      4.550000e+00   7.50000000e-01  3.439678e-04 -8.93378e-06 -4.67220e-84
 92      4.600000e+00   7.50000000e-01  3.456890e-04 -9.63902e-06 -6.94225e-85
 93      4.650000e+00   7.50000000e-01  3.474535e-04 -1.03719e-05 -1.03128e-85
 94      4.700000e+00   7.50000000e-01  3.492624e-04 -1.11330e-05 -1.53165e-86
 95      4.750000e+00   7.50000000e-01  3.511169e-04 -1.19230e-05 -2.27435e-87
 96      4.800000e+00   7.50000000e-01  3.530180e-04 -1.27426e-05 -3.37660e-88
 97      4.850000e+00   7.50000000e-01  3.549671e-04 -1.35926e-05 -5.01231e-89
 98      4.900000e+00   7.50000000e-01  3.569654e-04 -1.44735e-05 -7.43941e-90
 99      4.950000e+00   7.50000000e-01  3.590140e-04 -1.53860e-05 -1.10405e-90
100      5.000000e+00   7.50000000e-01  3.611144e-04 -1.63310e-05 -1.63833e-91
  0      0.000000e+00   8.00000000e-01  -1.78156e-04 1.740943e-03 -1.50907e-03
  1      5.000000e-02   8.00000000e-01  4.603451e-04 8.284247e-04 -7.30516e-04
  2      1.000000e-01   8.00000000e-01  8.779868e-04 3.365808e-04 -2.87046e-04
  3      1.500000e-01   8.00000000e-01  1.083307e-03 1.170882e-04 -8.39571e-05
  4      2.000000e-01   8.00000000e-01  1.167765e-03 4.387159e-05 -1.69035e-05
  5      2.500000e-01   8.00000000e-01  1.198463e-03 2.733916e-05 -2.66594e-06
  6      3.000000e-01   8.00000000e-01  1.208511e-03 2.447382e-05 -3.92082e-07
  7      3.500000e-01   8.00000000e-01  1.212986e-03 2.402963e-05 -5.69362e-08
  8      4.000000e-01   8.00000000e-01  1.216303e-03 2.395863e-05 -8.25128e-09
  9      4.500000e-01   8.00000000e-01  1.219301e-03 2.394277e-05 -1.19537e-09
 10      5.000000e-01   8.00000000e-01  1.222137e-03 2.393518e-05 -1.73157e-10
 11      5.500000e-01   8.00000000e-01  1.224856e-03 2.392901e-05 -2.50816e-11
 12      6.000000e-01   8.00000000e-01  1.227478e-03 2.392323e-05 -3.63291e-12
 13      6.500000e-01   8.00000000e-01  1.230017e-03 2.391765e-05 -5.26186e-13
 14      7.000000e-01   8.00000000e-01  1.232484e-03 2.391224e-05 -7.62102e-14
 15      7.500000e-01   8.00000000e-01  1.234887e-03 2.390696e-05 -1.10376e-14
 16      8.000000e-01   8.00000000e-01  1.237235e-03 2.390181e-05 -1.59856e-15
 17      8.500000e-01   8.00000000e-01  1.239532e-03 2.389677e-05 -2.31512e-16
 18      9.000000e-01   8.00000000e-01  1.241783e-03 2.389182e-05 -3.35282e-17
 19      9.500000e-01   8.00000000e-01  1.243992e-03 2.388694e-05 -4.85557e-18
 20      1.000000e+00   8.00000000e-01  1.246163e-03 2.388210e-05 -7.03176e-19
 21      1.050000e+00   8.00000000e-01  1.248300e-03 2.387729e-05 -1.01831e-19
 22      1.100000e+00   8.00000000e-01  1.250404e-03 2.387245e-05 -1.47467e-20
 23      1.150000e+00   8.00000000e-01  1.252478e-03 2.386753e-05 -2.13551e-21
 24      1.200000e+00   8.00000000e-01  1.254524e-03 2.386245e-05 -3.09246e-22
 25      1.250000e+00   8.00000000e-01  1.256545e-03 2.385712e-05 -4.47819e-23
 26      1.300000e+00   8.00000000e-01  1.258542e-03 2.385139e-05 -6.48480e-24
 27      1.350000e+00   8.00000000e-01  1.260517e-03 2.384513e-05 -9.39047e-25
 28      1.400000e+00   8.00000000e-01  1.262472e-03 2.383814e-05 -1.35980e-25
 29      1.450000e+00   8.00000000e-01  1.264409e-03 2.383017e-05 -1.96906e-26
 30      1.500000e+00   8.00000000e-01  1.266328e-03 2.382096e-05 -2.85132e-27
 31      1.550000e+00   8.00000000e-01  1.268233e-03 2.381017e-05 -4.12967e-28
 32      1.600000e+00   8.00000000e-01  1.270124e-03 2.379745e-05 -5.97559e-29
 33      1.650000e+00   8.00000000e-01  1.272003e-03 2.378235e-05 -8.67744e-30
 34      1.700000e+00   8.00000000e-01  1.273873e-03 2.376439e-05 -1.18329e-30
 35      1.750000e+00   8.00000000e-01  1.275735e-03 2.374303e-05 -1.97215e-31
 36      1.800000e+00   8.00000000e-01  1.277590e-03 2.371768e-05 2.083825e-38
 37      1.850000e+00   8.00000000e-01  1.279442e-03 2.368767e-05 -9.34874e-40
 38      1.900000e+00   8.00000000e-01  1.281291e-03 2.365228e-05 -7.39620e-40
 39      1.950000e+00   8.00000000e-01  1.283141e-03 2.361073e-05 -1.99395e-40
 40      2.000000e+00   8.00000000e-01  1.284994e-03 2.356217e-05 -4.29507e-41
 41      2.050000e+00   8.00000000e-01  1.286851e-03 2.350571e-05 -8.36289e-42
 42      2.100000e+00   8.00000000e-01  1.288716e-03 2.344038e-05 -1.53670e-42
 43      2.150000e+00   8.00000000e-01  1.290592e-03 2.336516e-05 -2.71911e-43
 44      2.200000e+00   8.00000000e-01  1.292480e-03 2.327896e-05 -4.68469e-44
 45      2.250000e+00   8.00000000e-01  1.294384e-03 2.318064e-05 -7.91187e-45
 46      2.300000e+00   8.00000000e-01  1.296306e-03 2.306902e-05 -1.31564e-45
 47      2.350000e+00   8.00000000e-01  1.298250e-03 2.294283e-05 -2.16059e-46
 48      2.400000e+00   8.00000000e-01  1.300219e-03 2.280079e-05 -3.51192e-47
 49      2.450000e+00   8.00000000e-01  1.302216e-03 2.264155e-05 -5.65928e-48
