Index       V(E)              V(B)             I(V_E)            I(V_B)      
0        0.00000000e+00    7.00000000e-01   -1.09910958e-06    1.15583376e-05
1        5.00000000e-02    7.00000000e-01    3.00226524e-05    1.06226896e-05
2        1.00000000e-01    7.00000000e-01    3.50739083e-05    1.04781848e-05
3        1.50000000e-01    7.00000000e-01    3.61734891e-05    1.04504603e-05
4        2.00000000e-01    7.00000000e-01    3.66711235e-05    1.04402507e-05
5        2.50000000e-01    7.00000000e-01    3.70658004e-05    1.04329076e-05
6        3.00000000e-01    7.00000000e-01    3.74341770e-05    1.04262054e-05
7        3.50000000e-01    7.00000000e-01    3.77898599e-05    1.04197659e-05
8        4.00000000e-01    7.00000000e-01    3.81365500e-05    1.04134984e-05
9        4.50000000e-01    7.00000000e-01    3.84760662e-05    1.04073652e-05
10       5.00000000e-01    7.00000000e-01    3.88096592e-05    1.04013420e-05
11       5.50000000e-01    7.00000000e-01    3.91382913e-05    1.03954110e-05
12       6.00000000e-01    7.00000000e-01    3.94627326e-05    1.03895580e-05
13       6.50000000e-01    7.00000000e-01    3.97836133e-05    1.03837715e-05
14       7.00000000e-01    7.00000000e-01    4.01014577e-05    1.03780419e-05
15       7.50000000e-01    7.00000000e-01    4.04167082e-05    1.03723613e-05
16       8.00000000e-01    7.00000000e-01    4.07297420e-05    1.03667228e-05
17       8.50000000e-01    7.00000000e-01    4.10408844e-05    1.03611204e-05
18       9.00000000e-01    7.00000000e-01    4.13504187e-05    1.03555490e-05
19       9.50000000e-01    7.00000000e-01    4.16585933e-05    1.03500042e-05
20       1.00000000e+00    7.00000000e-01    4.19656277e-05    1.03444820e-05
21       1.05000000e+00    7.00000000e-01    4.22717172e-05    1.03389787e-05
22       1.10000000e+00    7.00000000e-01    4.25770368e-05    1.03334913e-05
23       1.15000000e+00    7.00000000e-01    4.28817440e-05    1.03280170e-05
24       1.20000000e+00    7.00000000e-01    4.31859811e-05    1.03225530e-05
25       1.25000000e+00    7.00000000e-01    4.34898777e-05    1.03170972e-05
26       1.30000000e+00    7.00000000e-01    4.37935522e-05    1.03116474e-05
27       1.35000000e+00    7.00000000e-01    4.40971129e-05    1.03062016e-05
28       1.40000000e+00    7.00000000e-01    4.44006598e-05    1.03007580e-05
29       1.45000000e+00    7.00000000e-01    4.47042850e-05    1.02953150e-05
30       1.50000000e+00    7.00000000e-01    4.50080741e-05    1.02898711e-05
31       1.55000000e+00    7.00000000e-01    4.53121065e-05    1.02844248e-05
32       1.60000000e+00    7.00000000e-01    4.56164563e-05    1.02789748e-05
33       1.65000000e+00    7.00000000e-01    4.59211929e-05    1.02735199e-05
34       1.70000000e+00    7.00000000e-01    4.62263813e-05    1.02680589e-05
35       1.75000000e+00    7.00000000e-01    4.65320825e-05    1.02625907e-05
36       1.80000000e+00    7.00000000e-01    4.68383542e-05    1.02571143e-05
37       1.85000000e+00    7.00000000e-01    4.71452507e-05    1.02516289e-05
38       1.90000000e+00    7.00000000e-01    4.74528234e-05    1.02461333e-05
39       1.95000000e+00    7.00000000e-01    4.77611212e-05    1.02406268e-05
40       2.00000000e+00    7.00000000e-01    4.80701903e-05    1.02351087e-05
41       2.05000000e+00    7.00000000e-01    4.83800751e-05    1.02295780e-05
42       2.10000000e+00    7.00000000e-01    4.86908174e-05    1.02240341e-05
43       2.15000000e+00    7.00000000e-01    4.90024576e-05    1.02184762e-05
44       2.20000000e+00    7.00000000e-01    4.93150340e-05    1.02129038e-05
45       2.25000000e+00    7.00000000e-01    4.96285836e-05    1.02073161e-05
46       2.30000000e+00    7.00000000e-01    4.99431417e-05    1.02017126e-05
47       2.35000000e+00    7.00000000e-01    5.02587421e-05    1.01960927e-05
48       2.40000000e+00    7.00000000e-01    5.05754177e-05    1.01904557e-05
49       2.45000000e+00    7.00000000e-01    5.08931999e-05    1.01848012e-05
50       2.50000000e+00    7.00000000e-01    5.12121190e-05    1.01791287e-05
51       2.55000000e+00    7.00000000e-01    5.15322043e-05    1.01734376e-05
52       2.60000000e+00    7.00000000e-01    5.18534842e-05    1.01677276e-05
53       2.65000000e+00    7.00000000e-01    5.21759860e-05    1.01619980e-05
54       2.70000000e+00    7.00000000e-01    5.24997363e-05    1.01562485e-05
55       2.75000000e+00    7.00000000e-01    5.28247608e-05    1.01504786e-05
56       2.80000000e+00    7.00000000e-01    5.31510844e-05    1.01446879e-05
57       2.85000000e+00    7.00000000e-01    5.34787312e-05    1.01388761e-05
58       2.90000000e+00    7.00000000e-01    5.38077250e-05    1.01330427e-05
59       2.95000000e+00    7.00000000e-01    5.41380884e-05    1.01271873e-05
60       3.00000000e+00    7.00000000e-01    5.44698438e-05    1.01213096e-05
61       3.05000000e+00    7.00000000e-01    5.48030127e-05    1.01154093e-05
62       3.10000000e+00    7.00000000e-01    5.51376164e-05    1.01094859e-05
63       3.15000000e+00    7.00000000e-01    5.54736753e-05    1.01035392e-05
64       3.20000000e+00    7.00000000e-01    5.58112094e-05    1.00975689e-05
65       3.25000000e+00    7.00000000e-01    5.61502384e-05    1.00915745e-05
66       3.30000000e+00    7.00000000e-01    5.64907813e-05    1.00855559e-05
67       3.35000000e+00    7.00000000e-01    5.68328568e-05    1.00795127e-05
68       3.40000000e+00    7.00000000e-01    5.71764829e-05    1.00734446e-05
69       3.45000000e+00    7.00000000e-01    5.75216776e-05    1.00673513e-05
70       3.50000000e+00    7.00000000e-01    5.78684582e-05    1.00612327e-05
71       3.55000000e+00    7.00000000e-01    5.82168416e-05    1.00550883e-05
72       3.60000000e+00    7.00000000e-01    5.85668444e-05    1.00489180e-05
73       3.65000000e+00    7.00000000e-01    5.89184830e-05    1.00427215e-05
74       3.70000000e+00    7.00000000e-01    5.92717731e-05    1.00364986e-05
75       3.75000000e+00    7.00000000e-01    5.96267303e-05    1.00302490e-05
76       3.80000000e+00    7.00000000e-01    5.99833699e-05    1.00239724e-05
77       3.85000000e+00    7.00000000e-01    6.03417066e-05    1.00176688e-05
78       3.90000000e+00    7.00000000e-01    6.07017552e-05    1.00113378e-05
79       3.95000000e+00    7.00000000e-01    6.10635297e-05    1.00049793e-05
80       4.00000000e+00    7.00000000e-01    6.14270441e-05    9.99859295e-06
81       4.05000000e+00    7.00000000e-01    6.17923122e-05    9.99217867e-06
82       4.10000000e+00    7.00000000e-01    6.21593472e-05    9.98573624e-06
83       4.15000000e+00    7.00000000e-01    6.25281621e-05    9.97926546e-06
84       4.20000000e+00    7.00000000e-01    6.28987699e-05    9.97276616e-06
85       4.25000000e+00    7.00000000e-01    6.32711829e-05    9.96623815e-06
86       4.30000000e+00    7.00000000e-01    6.36454134e-05    9.95968126e-06
87       4.35000000e+00    7.00000000e-01    6.40214734e-05    9.95309534e-06
88       4.40000000e+00    7.00000000e-01    6.43993745e-05    9.94648021e-06
89       4.45000000e+00    7.00000000e-01    6.47791282e-05    9.93983572e-06
90       4.50000000e+00    7.00000000e-01    6.51607456e-05    9.93316172e-06
91       4.55000000e+00    7.00000000e-01    6.55442377e-05    9.92645806e-06
92       4.60000000e+00    7.00000000e-01    6.59296150e-05    9.91972461e-06
93       4.65000000e+00    7.00000000e-01    6.63168879e-05    9.91296122e-06
94       4.70000000e+00    7.00000000e-01    6.67060667e-05    9.90616778e-06
95       4.75000000e+00    7.00000000e-01    6.70971612e-05    9.89934414e-06
96       4.80000000e+00    7.00000000e-01    6.74901809e-05    9.89249020e-06
97       4.85000000e+00    7.00000000e-01    6.78851354e-05    9.88560583e-06
98       4.90000000e+00    7.00000000e-01    6.82820338e-05    9.87869092e-06
99       4.95000000e+00    7.00000000e-01    6.86808849e-05    9.87174537e-06
100      5.00000000e+00    7.00000000e-01    6.90816974e-05    9.86476908e-06
0        0.00000000e+00    7.50000000e-01   -1.19134161e-05    7.23573805e-05
1        5.00000000e-02    7.50000000e-01    1.22010988e-04    6.24706414e-05
2        1.00000000e-01    7.50000000e-01    1.44216257e-04    6.09009061e-05
3        1.50000000e-01    7.50000000e-01    1.48385887e-04    6.06082192e-05
4        2.00000000e-01    7.50000000e-01    1.49804980e-04    6.05085258e-05
5        2.50000000e-01    7.50000000e-01    1.50768410e-04    6.04408424e-05
6        3.00000000e-01    7.50000000e-01    1.51625350e-04    6.03806998e-05
7        3.50000000e-01    7.50000000e-01    1.52435373e-04    6.03239023e-05
8        4.00000000e-01    7.50000000e-01    1.53213086e-04    6.02694111e-05
9        4.50000000e-01    7.50000000e-01    1.53964890e-04    6.02167690e-05
10       5.00000000e-01    7.50000000e-01    1.54694920e-04    6.01656815e-05
11       5.50000000e-01    7.50000000e-01    1.55406257e-04    6.01159297e-05
12       6.00000000e-01    7.50000000e-01    1.56101314e-04    6.00673428e-05
13       6.50000000e-01    7.50000000e-01    1.56782032e-04    6.00197831e-05
14       7.00000000e-01    7.50000000e-01    1.57450000e-04    5.99731381e-05
15       7.50000000e-01    7.50000000e-01    1.58106545e-04    5.99273138e-05
16       8.00000000e-01    7.50000000e-01    1.58752782e-04    5.98822313e-05
17       8.50000000e-01    7.50000000e-01    1.59389666e-04    5.98378228e-05
18       9.00000000e-01    7.50000000e-01    1.60018017e-04    5.97940305e-05
19       9.50000000e-01    7.50000000e-01    1.60638549e-04    5.97508035e-05
20       1.00000000e+00    7.50000000e-01    1.61251886e-04    5.97080978e-05
21       1.05000000e+00    7.50000000e-01    1.61858579e-04    5.96658743e-05
22       1.10000000e+00    7.50000000e-01    1.62459117e-04    5.96240983e-05
23       1.15000000e+00    7.50000000e-01    1.63053936e-04    5.95827390e-05
24       1.20000000e+00    7.50000000e-01    1.63643428e-04    5.95417685e-05
25       1.25000000e+00    7.50000000e-01    1.64227944e-04    5.95011620e-05
26       1.30000000e+00    7.50000000e-01    1.64807804e-04    5.94608968e-05
27       1.35000000e+00    7.50000000e-01    1.65383297e-04    5.94209524e-05
28       1.40000000e+00    7.50000000e-01    1.65954687e-04    5.93813101e-05
29       1.45000000e+00    7.50000000e-01    1.66522215e-04    5.93419527e-05
30       1.50000000e+00    7.50000000e-01    1.67086104e-04    5.93028646e-05
31       1.55000000e+00    7.50000000e-01    1.67646558e-04    5.92640313e-05
32       1.60000000e+00    7.50000000e-01    1.68203764e-04    5.92254395e-05
33       1.65000000e+00    7.50000000e-01    1.68757896e-04    5.91870767e-05
34       1.70000000e+00    7.50000000e-01    1.69309116e-04    5.91489316e-05
35       1.75000000e+00    7.50000000e-01    1.69857575e-04    5.91109936e-05
36       1.80000000e+00    7.50000000e-01    1.70403411e-04    5.90732527e-05
37       1.85000000e+00    7.50000000e-01    1.70946756e-04    5.90356997e-05
38       1.90000000e+00    7.50000000e-01    1.71487730e-04    5.89983260e-05
39       1.95000000e+00    7.50000000e-01    1.72026449e-04    5.89611235e-05
40       2.00000000e+00    7.50000000e-01    1.72563018e-04    5.89240845e-05
41       2.05000000e+00    7.50000000e-01    1.73097540e-04    5.88872020e-05
42       2.10000000e+00    7.50000000e-01    1.73630108e-04    5.88504693e-05
43       2.15000000e+00    7.50000000e-01    1.74160812e-04    5.88138801e-05
44       2.20000000e+00    7.50000000e-01    1.74689735e-04    5.87774283e-05
45       2.25000000e+00    7.50000000e-01    1.75216958e-04    5.87411084e-05
46       2.30000000e+00    7.50000000e-01    1.75742555e-04    5.87049151e-05
47       2.35000000e+00    7.50000000e-01    1.76266598e-04    5.86688433e-05
48       2.40000000e+00    7.50000000e-01    1.76789154e-04    5.86328882e-05
49       2.45000000e+00    7.50000000e-01    1.77310287e-04    5.85970453e-05
50       2.50000000e+00    7.50000000e-01    1.77830059e-04    5.85613103e-05
51       2.55000000e+00    7.50000000e-01    1.78348527e-04    5.85256791e-05
52       2.60000000e+00    7.50000000e-01    1.78865746e-04    5.84901477e-05
53       2.65000000e+00    7.50000000e-01    1.79381769e-04    5.84547126e-05
54       2.70000000e+00    7.50000000e-01    1.79896646e-04    5.84193702e-05
55       2.75000000e+00    7.50000000e-01    1.80410424e-04    5.83841170e-05
56       2.80000000e+00    7.50000000e-01    1.80923150e-04    5.83489499e-05
57       2.85000000e+00    7.50000000e-01    1.81434867e-04    5.83138657e-05
58       2.90000000e+00    7.50000000e-01    1.81945617e-04    5.82788616e-05
59       2.95000000e+00    7.50000000e-01    1.82455440e-04    5.82439347e-05
60       3.00000000e+00    7.50000000e-01    1.82964374e-04    5.82090823e-05
61       3.05000000e+00    7.50000000e-01    1.83472456e-04    5.81743018e-05
62       3.10000000e+00    7.50000000e-01    1.83979721e-04    5.81395907e-05
63       3.15000000e+00    7.50000000e-01    1.84486203e-04    5.81049467e-05
64       3.20000000e+00    7.50000000e-01    1.84991934e-04    5.80703675e-05
65       3.25000000e+00    7.50000000e-01    1.85496946e-04    5.80358509e-05
66       3.30000000e+00    7.50000000e-01    1.86001268e-04    5.80013947e-05
67       3.35000000e+00    7.50000000e-01    1.86504931e-04    5.79669970e-05
68       3.40000000e+00    7.50000000e-01    1.87007960e-04    5.79326557e-05
69       3.45000000e+00    7.50000000e-01    1.87510383e-04    5.78983691e-05
70       3.50000000e+00    7.50000000e-01    1.88012227e-04    5.78641353e-05
71       3.55000000e+00    7.50000000e-01    1.88513515e-04    5.78299525e-05
72       3.60000000e+00    7.50000000e-01    1.89014272e-04    5.77958191e-05
73       3.65000000e+00    7.50000000e-01    1.89514520e-04    5.77617335e-05
74       3.70000000e+00    7.50000000e-01    1.90014283e-04    5.77276941e-05
75       3.75000000e+00    7.50000000e-01    1.90513581e-04    5.76936993e-05
76       3.80000000e+00    7.50000000e-01    1.91012436e-04    5.76597478e-05
77       3.85000000e+00    7.50000000e-01    1.91510868e-04    5.76258381e-05
78       3.90000000e+00    7.50000000e-01    1.92008896e-04    5.75919689e-05
79       3.95000000e+00    7.50000000e-01    1.92506539e-04    5.75581388e-05
80       4.00000000e+00    7.50000000e-01    1.93003815e-04    5.75243466e-05
81       4.05000000e+00    7.50000000e-01    1.93500742e-04    5.74905911e-05
82       4.10000000e+00    7.50000000e-01    1.93997336e-04    5.74568710e-05
83       4.15000000e+00    7.50000000e-01    1.94493616e-04    5.74231853e-05
84       4.20000000e+00    7.50000000e-01    1.94989595e-04    5.73895327e-05
85       4.25000000e+00    7.50000000e-01    1.95485290e-04    5.73559123e-05
86       4.30000000e+00    7.50000000e-01    1.95980717e-04    5.73223230e-05
87       4.35000000e+00    7.50000000e-01    1.96475889e-04    5.72887637e-05
88       4.40000000e+00    7.50000000e-01    1.96970820e-04    5.72552335e-05
89       4.45000000e+00    7.50000000e-01    1.97465525e-04    5.72217315e-05
90       4.50000000e+00    7.50000000e-01    1.97960017e-04    5.71882567e-05
91       4.55000000e+00    7.50000000e-01    1.98454308e-04    5.71548082e-05
92       4.60000000e+00    7.50000000e-01    1.98948412e-04    5.71213852e-05
93       4.65000000e+00    7.50000000e-01    1.99442340e-04    5.70879869e-05
94       4.70000000e+00    7.50000000e-01    1.99936104e-04    5.70546123e-05
95       4.75000000e+00    7.50000000e-01    2.00429716e-04    5.70212607e-05
96       4.80000000e+00    7.50000000e-01    2.00923186e-04    5.69879314e-05
97       4.85000000e+00    7.50000000e-01    2.01416527e-04    5.69546236e-05
98       4.90000000e+00    7.50000000e-01    2.01909748e-04    5.69213366e-05
99       4.95000000e+00    7.50000000e-01    2.02402859e-04    5.68880696e-05
100      5.00000000e+00    7.50000000e-01    2.02895871e-04    5.68548220e-05
0        0.00000000e+00    8.00000000e-01   -9.64651326e-05    3.64774432e-04
1        5.00000000e-02    8.00000000e-01    3.19644271e-04    2.91602101e-04
2        1.00000000e-01    8.00000000e-01    3.95358296e-04    2.79002308e-04
3        1.50000000e-01    8.00000000e-01    4.08147415e-04    2.76829940e-04
4        2.00000000e-01    8.00000000e-01    4.11189798e-04    2.76260021e-04
5        2.50000000e-01    8.00000000e-01    4.12700509e-04    2.75946844e-04
6        3.00000000e-01    8.00000000e-01    4.13913940e-04    2.75687203e-04
7        3.50000000e-01    8.00000000e-01    4.15027786e-04    2.75447612e-04
8        4.00000000e-01    8.00000000e-01    4.16082490e-04    2.75220656e-04
9        4.50000000e-01    8.00000000e-01    4.17092009e-04    2.75003499e-04
10       5.00000000e-01    8.00000000e-01    4.18064235e-04    2.74794458e-04
11       5.50000000e-01    8.00000000e-01    4.19004730e-04    2.74592328e-04
12       6.00000000e-01    8.00000000e-01    4.19917733e-04    2.74396190e-04
13       6.50000000e-01    8.00000000e-01    4.20806588e-04    2.74205319e-04
14       7.00000000e-01    8.00000000e-01    4.21673998e-04    2.74019129e-04
15       7.50000000e-01    8.00000000e-01    4.22522186e-04    2.73837136e-04
16       8.00000000e-01    8.00000000e-01    4.23353006e-04    2.73658939e-04
17       8.50000000e-01    8.00000000e-01    4.24168029e-04    2.73484196e-04
18       9.00000000e-01    8.00000000e-01    4.24968597e-04    2.73312615e-04
19       9.50000000e-01    8.00000000e-01    4.25755871e-04    2.73143946e-04
20       1.00000000e+00    8.00000000e-01    4.26530859e-04    2.72977969e-04
21       1.05000000e+00    8.00000000e-01    4.27294449e-04    2.72814491e-04
22       1.10000000e+00    8.00000000e-01    4.28047424e-04    2.72653342e-04
23       1.15000000e+00    8.00000000e-01    4.28790481e-04    2.72494370e-04
24       1.20000000e+00    8.00000000e-01    4.29524242e-04    2.72337440e-04
25       1.25000000e+00    8.00000000e-01    4.30249267e-04    2.72182431e-04
26       1.30000000e+00    8.00000000e-01    4.30966061e-04    2.72029233e-04
27       1.35000000e+00    8.00000000e-01    4.31675084e-04    2.71877745e-04
28       1.40000000e+00    8.00000000e-01    4.32376750e-04    2.71727878e-04
29       1.45000000e+00    8.00000000e-01    4.33071442e-04    2.71579548e-04
30       1.50000000e+00    8.00000000e-01    4.33759509e-04    2.71432680e-04
31       1.55000000e+00    8.00000000e-01    4.34441270e-04    2.71287204e-04
32       1.60000000e+00    8.00000000e-01    4.35117022e-04    2.71143056e-04
33       1.65000000e+00    8.00000000e-01    4.35787039e-04    2.71000175e-04
34       1.70000000e+00    8.00000000e-01    4.36451573e-04    2.70858507e-04
35       1.75000000e+00    8.00000000e-01    4.37110860e-04    2.70718001e-04
36       1.80000000e+00    8.00000000e-01    4.37765119e-04    2.70578609e-04
37       1.85000000e+00    8.00000000e-01    4.38414554e-04    2.70440286e-04
38       1.90000000e+00    8.00000000e-01    4.39059357e-04    2.70302991e-04
39       1.95000000e+00    8.00000000e-01    4.39699705e-04    2.70166685e-04
40       2.00000000e+00    8.00000000e-01    4.40335768e-04    2.70031331e-04
41       2.05000000e+00    8.00000000e-01    4.40967703e-04    2.69896895e-04
42       2.10000000e+00    8.00000000e-01    4.41595657e-04    2.69763345e-04
43       2.15000000e+00    8.00000000e-01    4.42219771e-04    2.69630650e-04
44       2.20000000e+00    8.00000000e-01    4.42840177e-04    2.69498781e-04
45       2.25000000e+00    8.00000000e-01    4.43457000e-04    2.69367712e-04
46       2.30000000e+00    8.00000000e-01    4.44070357e-04    2.69237417e-04
47       2.35000000e+00    8.00000000e-01    4.44680361e-04    2.69107870e-04
48       2.40000000e+00    8.00000000e-01    4.45287117e-04    2.68979050e-04
49       2.45000000e+00    8.00000000e-01    4.45890727e-04    2.68850933e-04
50       2.50000000e+00    8.00000000e-01    4.46491286e-04    2.68723500e-04
51       2.55000000e+00    8.00000000e-01    4.47088885e-04    2.68596730e-04
52       2.60000000e+00    8.00000000e-01    4.47683611e-04    2.68470604e-04
