Index       V(B)              TEMP             I(V_C)            I(V_B)      
0        2.00000000e-01   -5.00000000e+01    4.16415061e-19    3.29140390e-16
1        2.10000000e-01   -5.00000000e+01    6.98636532e-19    4.27422435e-16
2        2.20000000e-01   -5.00000000e+01    1.17211764e-18    5.54890522e-16
3        2.30000000e-01   -5.00000000e+01    1.96646832e-18    7.20212242e-16
4        2.40000000e-01   -5.00000000e+01    3.29912657e-18    9.34629567e-16
5        2.50000000e-01   -5.00000000e+01    5.53487081e-18    1.21272368e-15
6        2.60000000e-01   -5.00000000e+01    9.28565564e-18    1.57340715e-15
7        2.70000000e-01   -5.00000000e+01    1.55780911e-17    2.04121122e-15
8        2.80000000e-01   -5.00000000e+01    2.61343947e-17    2.64795596e-15
9        2.90000000e-01   -5.00000000e+01    4.38436921e-17    3.43491763e-15
10       3.00000000e-01   -5.00000000e+01    7.35526234e-17    4.45564163e-15
11       3.10000000e-01   -5.00000000e+01    1.23391568e-16    5.77959408e-15
12       3.20000000e-01   -5.00000000e+01    2.06999335e-16    7.49690342e-15
13       3.30000000e-01   -5.00000000e+01    3.47254946e-16    9.72451947e-15
14       3.40000000e-01   -5.00000000e+01    5.82537411e-16    1.26142174e-14
15       3.50000000e-01   -5.00000000e+01    9.77225863e-16    1.63630056e-14
16       3.60000000e-01   -5.00000000e+01    1.63931225e-15    2.12266686e-14
17       3.70000000e-01   -5.00000000e+01    2.74994408e-15    2.75374084e-14
18       3.80000000e-01   -5.00000000e+01    4.61297734e-15    3.57268520e-14
19       3.90000000e-01   -5.00000000e+01    7.73809205e-15    4.63561055e-14
20       4.00000000e-01   -5.00000000e+01    1.29802002e-14    6.01550949e-14
21       4.10000000e-01   -5.00000000e+01    2.17732687e-14    7.80741972e-14
22       4.20000000e-01   -5.00000000e+01    3.65224930e-14    1.01352227e-13
23       4.30000000e-01   -5.00000000e+01    6.12620505e-14    1.31606332e-13
24       4.40000000e-01   -5.00000000e+01    1.02758263e-13    1.70951478e-13
25       4.50000000e-01   -5.00000000e+01    1.72359749e-13    2.22160285e-13
26       4.60000000e-01   -5.00000000e+01    2.89100327e-13    2.88878520e-13
27       4.70000000e-01   -5.00000000e+01    4.84902786e-13    3.75918350e-13
28       4.80000000e-01   -5.00000000e+01    8.13305793e-13    4.89661861e-13
29       4.90000000e-01   -5.00000000e+01    1.36409887e-12    6.38623381e-13
30       5.00000000e-01   -5.00000000e+01    2.28786456e-12    8.34244356e-13
31       5.10000000e-01   -5.00000000e+01    3.83713362e-12    1.09203456e-12
32       5.20000000e-01   -5.00000000e+01    6.43539672e-12    1.43323772e-12
33       5.30000000e-01   -5.00000000e+01    1.07928251e-11    1.88730382e-12
34       5.40000000e-01   -5.00000000e+01    1.81003074e-11    2.49562048e-12
35       5.50000000e-01   -5.00000000e+01    3.03547967e-11    3.31723538e-12
36       5.60000000e-01   -5.00000000e+01    5.09048070e-11    4.43776314e-12
37       5.70000000e-01   -5.00000000e+01    8.53649997e-11    5.98343543e-12
38       5.80000000e-01   -5.00000000e+01    1.43149527e-10    8.14352563e-12
39       5.90000000e-01   -5.00000000e+01    2.40042655e-10    1.12065010e-11
40       6.00000000e-01   -5.00000000e+01    4.02508168e-10    1.56188006e-11
41       6.10000000e-01   -5.00000000e+01    6.74913365e-10    2.20810667e-11
42       6.20000000e-01   -5.00000000e+01    1.13163826e-09    3.17065942e-11
43       6.30000000e-01   -5.00000000e+01    1.89737249e-09    4.62834190e-11
44       6.40000000e-01   -5.00000000e+01    3.18113407e-09    6.87094173e-11
45       6.50000000e-01   -5.00000000e+01    5.33328290e-09    1.03716715e-10
46       6.60000000e-01   -5.00000000e+01    8.94106495e-09    1.59080521e-10
47       6.70000000e-01   -5.00000000e+01    1.49887127e-08    2.47639905e-10
48       6.80000000e-01   -5.00000000e+01    2.51256923e-08    3.90680601e-10
49       6.90000000e-01   -5.00000000e+01    4.21160916e-08    6.23603891e-10
50       7.00000000e-01   -5.00000000e+01    7.05913444e-08    1.00543438e-09
51       7.10000000e-01   -5.00000000e+01    1.18310761e-07    1.63477629e-09
52       7.20000000e-01   -5.00000000e+01    1.98271790e-07    2.67660423e-09
53       7.30000000e-01   -5.00000000e+01    3.32241228e-07    4.40725948e-09
54       7.40000000e-01   -5.00000000e+01    5.56660170e-07    7.29003684e-09
55       7.50000000e-01   -5.00000000e+01    9.32508065e-07    1.21021624e-08
56       7.60000000e-01   -5.00000000e+01    1.56175315e-06    2.01480683e-08
57       7.70000000e-01   -5.00000000e+01    2.61471461e-06    3.36174579e-08
58       7.80000000e-01   -5.00000000e+01    4.37538044e-06    5.61859510e-08
59       7.90000000e-01   -5.00000000e+01    7.31602154e-06    9.40211375e-08
60       8.00000000e-01   -5.00000000e+01    1.22187222e-05    1.57463363e-07
61       8.10000000e-01   -5.00000000e+01    2.03695542e-05    2.63821819e-07
62       8.20000000e-01   -5.00000000e+01    3.38595495e-05    4.41993727e-07
63       8.30000000e-01   -5.00000000e+01    5.60274972e-05    7.40010732e-07
64       8.40000000e-01   -5.00000000e+01    9.20552101e-05    1.23715637e-06
65       8.50000000e-01   -5.00000000e+01    1.49645816e-04    2.06293153e-06
66       8.60000000e-01   -5.00000000e+01    2.39561078e-04    3.42569826e-06
67       8.70000000e-01   -5.00000000e+01    3.75634656e-04    5.65399596e-06
68       8.80000000e-01   -5.00000000e+01    5.73935600e-04    9.25290522e-06
69       8.90000000e-01   -5.00000000e+01    8.51195674e-04    1.49758624e-05
70       9.00000000e-01   -5.00000000e+01    1.22310553e-03    2.39078889e-05
71       9.10000000e-01   -5.00000000e+01    1.70302152e-03    3.75480702e-05
72       9.20000000e-01   -5.00000000e+01    2.30109113e-03    5.78682222e-05
73       9.30000000e-01   -5.00000000e+01    3.02351219e-03    8.73161420e-05
74       9.40000000e-01   -5.00000000e+01    3.87183523e-03    1.28733861e-04
75       9.50000000e-01   -5.00000000e+01    4.84252534e-03    1.85180245e-04
76       9.60000000e-01   -5.00000000e+01    5.92708063e-03    2.59680260e-04
77       9.70000000e-01   -5.00000000e+01    7.11282566e-03    3.54955169e-04
78       9.80000000e-01   -5.00000000e+01    8.38421477e-03    4.73200111e-04
79       9.90000000e-01   -5.00000000e+01    9.72424551e-03    6.15966830e-04
80       1.00000000e+00   -5.00000000e+01    1.11051340e-02    7.85794427e-04
81       1.01000000e+00   -5.00000000e+01    1.24057454e-02    9.99975105e-04
82       1.02000000e+00   -5.00000000e+01    1.35592657e-02    1.26777021e-03
83       1.03000000e+00   -5.00000000e+01    1.45958012e-02    1.58273962e-03
84       1.04000000e+00   -5.00000000e+01    1.55415317e-02    1.93833388e-03
85       1.05000000e+00   -5.00000000e+01    1.64130371e-02    2.32926393e-03
86       1.06000000e+00   -5.00000000e+01    1.72213497e-02    2.75119508e-03
87       1.07000000e+00   -5.00000000e+01    1.79744044e-02    3.20050639e-03
88       1.08000000e+00   -5.00000000e+01    1.86783085e-02    3.67413443e-03
89       1.09000000e+00   -5.00000000e+01    1.93380046e-02    4.16946555e-03
90       1.10000000e+00   -5.00000000e+01    1.99576358e-02    4.68425538e-03
91       1.11000000e+00   -5.00000000e+01    2.05407597e-02    5.21656588e-03
92       1.12000000e+00   -5.00000000e+01    2.10904826e-02    5.76471498e-03
93       1.13000000e+00   -5.00000000e+01    2.16095484e-02    6.32723563e-03
94       1.14000000e+00   -5.00000000e+01    2.21004261e-02    6.90283555e-03
95       1.15000000e+00   -5.00000000e+01    2.25652529e-02    7.49039853e-03
96       1.16000000e+00   -5.00000000e+01    2.30060340e-02    8.08891618e-03
97       1.17000000e+00   -5.00000000e+01    2.34245541e-02    8.69750139e-03
98       1.18000000e+00   -5.00000000e+01    2.38224329e-02    9.31536399e-03
99       1.19000000e+00   -5.00000000e+01    2.42011438e-02    9.94179763e-03
100      1.20000000e+00   -5.00000000e+01    2.45620301e-02    1.05761687e-02
0        2.00000000e-01    5.00000000e+01    3.39798913e-12    9.55681707e-13
1        2.10000000e-01    5.00000000e+01    4.85431284e-12    1.15720725e-12
2        2.20000000e-01    5.00000000e+01    6.93424197e-12    1.40200934e-12
3        2.30000000e-01    5.00000000e+01    9.90477466e-12    1.70017239e-12
4        2.40000000e-01    5.00000000e+01    1.41472086e-11    2.06444373e-12
5        2.50000000e-01    5.00000000e+01    2.02060634e-11    2.51105086e-12
6        2.60000000e-01    5.00000000e+01    2.88589399e-11    3.06080645e-12
7        2.70000000e-01    5.00000000e+01    4.12162716e-11    3.74061207e-12
8        2.80000000e-01    5.00000000e+01    5.88637606e-11    4.58551803e-12
9        2.90000000e-01    5.00000000e+01    8.40657545e-11    5.64156062e-12
10       3.00000000e-01    5.00000000e+01    1.20055633e-10    6.96969099e-12
11       3.10000000e-01    5.00000000e+01    1.71450423e-10    8.65124053e-12
12       3.20000000e-01    5.00000000e+01    2.44842764e-10    1.07955552e-11
13       3.30000000e-01    5.00000000e+01    3.49646079e-10    1.35506977e-11
14       3.40000000e-01    5.00000000e+01    4.99301206e-10    1.71184984e-11
15       3.50000000e-01    5.00000000e+01    7.12999045e-10    2.17757788e-11
16       3.60000000e-01    5.00000000e+01    1.01813981e-09    2.79043495e-11
17       3.70000000e-01    5.00000000e+01    1.45384376e-09    3.60334974e-11
18       3.80000000e-01    5.00000000e+01    2.07596278e-09    4.69002631e-11
19       3.90000000e-01    5.00000000e+01    2.96423422e-09    6.15350856e-11
20       4.00000000e-01    5.00000000e+01    4.23249227e-09    8.13836388e-11
21       4.10000000e-01    5.00000000e+01    6.04324300e-09    1.08480339e-10
22       4.20000000e-01    5.00000000e+01    8.62846692e-09    1.45695657e-10
23       4.30000000e-01    5.00000000e+01    1.23193082e-08    1.97088890e-10
24       4.40000000e-01    5.00000000e+01    1.75884445e-08    2.68411685e-10
25       4.50000000e-01    5.00000000e+01    2.51105486e-08    3.67827118e-10
26       4.60000000e-01    5.00000000e+01    3.58485616e-08    5.06937053e-10
27       4.70000000e-01    5.00000000e+01    5.11767835e-08    7.02250504e-10
28       4.80000000e-01    5.00000000e+01    7.30564731e-08    9.77282928e-10
29       4.90000000e-01    5.00000000e+01    1.04286323e-07    1.36555833e-09
30       5.00000000e-01    5.00000000e+01    1.48859673e-07    1.91490328e-09
31       5.10000000e-01    5.00000000e+01    2.12473825e-07    2.69358985e-09
32       5.20000000e-01    5.00000000e+01    3.03256024e-07    3.79912458e-09
33       5.30000000e-01    5.00000000e+01    4.32797847e-07    5.37082427e-09
34       5.40000000e-01    5.00000000e+01    6.17628258e-07    7.60781083e-09
35       5.50000000e-01    5.00000000e+01    8.81309862e-07    1.07947603e-08
36       5.60000000e-01    5.00000000e+01    1.25741907e-06    1.53387447e-08
37       5.70000000e-01    5.00000000e+01    1.79377719e-06    2.18219381e-08
38       5.80000000e-01    5.00000000e+01    2.55844628e-06    3.10770014e-08
39       5.90000000e-01    5.00000000e+01    3.64820350e-06    4.42948629e-08
40       6.00000000e-01    5.00000000e+01    5.20047472e-06    6.31787351e-08
41       6.10000000e-01    5.00000000e+01    7.41005252e-06    9.01640278e-08
42       6.20000000e-01    5.00000000e+01    1.05523458e-05    1.28731997e-07
43       6.30000000e-01    5.00000000e+01    1.50153779e-05    1.83856373e-07
44       6.40000000e-01    5.00000000e+01    2.13431762e-05    2.62637925e-07
45       6.50000000e-01    5.00000000e+01    3.02934023e-05    3.75203270e-07
46       6.60000000e-01    5.00000000e+01    4.29124387e-05    5.35972579e-07
47       6.70000000e-01    5.00000000e+01    6.06286786e-05    7.65437436e-07
48       6.80000000e-01    5.00000000e+01    8.53608224e-05    1.09263566e-06
49       6.90000000e-01    5.00000000e+01    1.19632835e-04    1.55856364e-06
50       7.00000000e-01    5.00000000e+01    1.66677334e-04    2.22082639e-06
51       7.10000000e-01    5.00000000e+01    2.30500384e-04    3.15988658e-06
52       7.20000000e-01    5.00000000e+01    3.15877834e-04    4.48732931e-06
53       7.30000000e-01    5.00000000e+01    4.28264002e-04    6.35659720e-06
54       7.40000000e-01    5.00000000e+01    5.73619269e-04    8.97664772e-06
55       7.50000000e-01    5.00000000e+01    7.58192624e-04    1.26288949e-05
56       7.60000000e-01    5.00000000e+01    9.88307852e-04    1.76875502e-05
57       7.70000000e-01    5.00000000e+01    1.27018579e-03    2.46429909e-05
58       7.80000000e-01    5.00000000e+01    1.60980073e-03    3.41269949e-05
59       7.90000000e-01    5.00000000e+01    2.01274082e-03    4.69375976e-05
60       8.00000000e-01    5.00000000e+01    2.48403719e-03    6.40600546e-05
61       8.10000000e-01    5.00000000e+01    3.02794198e-03    8.66792124e-05
62       8.20000000e-01    5.00000000e+01    3.64766199e-03    1.16177950e-04
63       8.30000000e-01    5.00000000e+01    4.34507848e-03    1.54116827e-04
64       8.40000000e-01    5.00000000e+01    5.12049913e-03    2.02192184e-04
65       8.50000000e-01    5.00000000e+01    5.97248476e-03    2.62174335e-04
66       8.60000000e-01    5.00000000e+01    6.89772035e-03    3.35841221e-04
67       8.70000000e-01    5.00000000e+01    7.89012649e-03    4.25048690e-04
68       8.80000000e-01    5.00000000e+01    8.93329398e-03    5.32953570e-04
69       8.90000000e-01    5.00000000e+01    9.99232472e-03    6.65511764e-04
70       9.00000000e-01    5.00000000e+01    1.10406965e-02    8.27256640e-04
71       9.10000000e-01    5.00000000e+01    1.20679508e-02    1.01983359e-03
72       9.20000000e-01    5.00000000e+01    1.30693748e-02    1.24346388e-03
73       9.30000000e-01    5.00000000e+01    1.40418884e-02    1.49765236e-03
74       9.40000000e-01    5.00000000e+01    1.49830515e-02    1.78147616e-03
75       9.50000000e-01    5.00000000e+01    1.58909129e-02    2.09374141e-03
76       9.60000000e-01    5.00000000e+01    1.67640159e-02    2.43309014e-03
77       9.70000000e-01    5.00000000e+01    1.76014037e-02    2.79807833e-03
78       9.80000000e-01    5.00000000e+01    1.84025937e-02    3.18723257e-03
79       9.90000000e-01    5.00000000e+01    1.91675308e-02    3.59909020e-03
80       1.00000000e+00    5.00000000e+01    1.98965292e-02    4.03222637e-03
81       1.01000000e+00    5.00000000e+01    2.05902107e-02    4.48527154e-03
82       1.02000000e+00    5.00000000e+01    2.12494457e-02    4.95692174e-03
83       1.03000000e+00    5.00000000e+01    2.18752988e-02    5.44594409e-03
84       1.04000000e+00    5.00000000e+01    2.24689813e-02    5.95117871e-03
85       1.05000000e+00    5.00000000e+01    2.30318089e-02    6.47153860e-03
86       1.06000000e+00    5.00000000e+01    2.35651819e-02    7.00600269e-03
87       1.07000000e+00    5.00000000e+01    2.40704899e-02    7.55363486e-03
88       1.08000000e+00    5.00000000e+01    2.45491890e-02    8.11354726e-03
89       1.09000000e+00    5.00000000e+01    2.50027107e-02    8.68492022e-03
90       1.10000000e+00    5.00000000e+01    2.54324638e-02    9.26699267e-03
91       1.11000000e+00    5.00000000e+01    2.58398223e-02    9.85905862e-03
92       1.12000000e+00    5.00000000e+01    2.62261151e-02    1.04604636e-02
93       1.13000000e+00    5.00000000e+01    2.65926194e-02    1.10706013e-02
94       1.14000000e+00    5.00000000e+01    2.69405557e-02    1.16889103e-02
95       1.15000000e+00    5.00000000e+01    2.72710845e-02    1.23148709e-02
96       1.16000000e+00    5.00000000e+01    2.75853049e-02    1.29480021e-02
97       1.17000000e+00    5.00000000e+01    2.78842545e-02    1.35878588e-02
98       1.18000000e+00    5.00000000e+01    2.81689094e-02    1.42340289e-02
99       1.19000000e+00    5.00000000e+01    2.84401861e-02    1.48861313e-02
100      1.20000000e+00    5.00000000e+01    2.86989431e-02    1.55438130e-02
0        2.00000000e-01    1.50000000e+02    1.86822938e-08    2.62592418e-10
1        2.10000000e-01    1.50000000e+02    2.45339781e-08    3.35286927e-10
2        2.20000000e-01    1.50000000e+02    3.22101696e-08    4.29177352e-10
3        2.30000000e-01    1.50000000e+02    4.22795116e-08    5.50695688e-10
4        2.40000000e-01    1.50000000e+02    5.54877769e-08    7.08265767e-10
5        2.50000000e-01    1.50000000e+02    7.28129990e-08    9.12926197e-10
6        2.60000000e-01    1.50000000e+02    9.55377415e-08    1.17914901e-09
7        2.70000000e-01    1.50000000e+02    1.25343824e-07    1.52591565e-09
8        2.80000000e-01    1.50000000e+02    1.64436464e-07    1.97813135e-09
9        2.90000000e-01    1.50000000e+02    2.15706935e-07    2.56848443e-09
10       3.00000000e-01    1.50000000e+02    2.82945669e-07    3.33989071e-09
11       3.10000000e-01    1.50000000e+02    3.71121339e-07    4.34870720e-09
12       3.20000000e-01    1.50000000e+02    4.86746270e-07    5.66895747e-09
13       3.30000000e-01    1.50000000e+02    6.38354662e-07    7.39788714e-09
14       3.40000000e-01    1.50000000e+02    8.37128143e-07    9.66326814e-09
15       3.50000000e-01    1.50000000e+02    1.09771352e-06    1.26330022e-08
16       3.60000000e-01    1.50000000e+02    1.43929085e-06    1.65277460e-08
17       3.70000000e-01    1.50000000e+02    1.88696710e-06    2.16375084e-08
18       3.80000000e-01    1.50000000e+02    2.47359190e-06    2.83434651e-08
19       3.90000000e-01    1.50000000e+02    3.24211946e-06    3.71466270e-08
20       4.00000000e-01    1.50000000e+02    4.24867352e-06    4.87055049e-08
21       4.10000000e-01    1.50000000e+02    5.56651319e-06    6.38855791e-08
22       4.20000000e-01    1.50000000e+02    7.29114462e-06    8.38242434e-08
23       4.30000000e-01    1.50000000e+02    9.54687682e-06    1.10016016e-07
24       4.40000000e-01    1.50000000e+02    1.24951747e-05    1.44424257e-07
25       4.50000000e-01    1.50000000e+02    1.63452112e-05    1.89627503e-07
26       4.60000000e-01    1.50000000e+02    2.13670484e-05    2.49010894e-07
27       4.70000000e-01    1.50000000e+02    2.79078572e-05    3.27016214e-07
28       4.80000000e-01    1.50000000e+02    3.64114808e-05    4.29467832e-07
29       4.90000000e-01    1.50000000e+02    4.74413994e-05    5.63996545e-07
30       5.00000000e-01    1.50000000e+02    6.17066804e-05    7.40589099e-07
31       5.10000000e-01    1.50000000e+02    8.00898202e-05    9.72298073e-07
32       5.20000000e-01    1.50000000e+02    1.03677292e-04    1.27615487e-06
33       5.30000000e-01    1.50000000e+02    1.33789040e-04    1.67433794e-06
34       5.40000000e-01    1.50000000e+02    1.71999940e-04    2.19565944e-06
35       5.50000000e-01    1.50000000e+02    2.20152755e-04    2.87744482e-06
36       5.60000000e-01    1.50000000e+02    2.80358077e-04    3.76789258e-06
37       5.70000000e-01    1.50000000e+02    3.54979278e-04    4.92901416e-06
38       5.80000000e-01    1.50000000e+02    4.46603490e-04    6.44026465e-06
39       5.90000000e-01    1.50000000e+02    5.58002806e-04    8.40298196e-06
40       6.00000000e-01    1.50000000e+02    6.92092068e-04    1.09457497e-05
41       6.10000000e-01    1.50000000e+02    8.51889499e-04    1.42307817e-05
42       6.20000000e-01    1.50000000e+02    1.04048393e-03    1.84613864e-05
43       6.30000000e-01    1.50000000e+02    1.26100831e-03    2.38904981e-05
44       6.40000000e-01    1.50000000e+02    1.51661546e-03    3.08301527e-05
45       6.50000000e-01    1.50000000e+02    1.81044954e-03    3.96616339e-05
46       6.60000000e-01    1.50000000e+02    2.14560647e-03    5.08458218e-05
47       6.70000000e-01    1.50000000e+02    2.52507755e-03    6.49330695e-05
48       6.80000000e-01    1.50000000e+02    2.95167239e-03    8.25717898e-05
49       6.90000000e-01    1.50000000e+02    3.42791725e-03    1.04515106e-04
50       7.00000000e-01    1.50000000e+02    3.95591811e-03    1.31626289e-04
51       7.10000000e-01    1.50000000e+02    4.53714470e-03    1.64889407e-04
52       7.20000000e-01    1.50000000e+02    5.17198292e-03    2.05450692e-04
