Index        TIME         {V(VOUT)+2.0}     {V(IN)+2.0}      {V(1)+2.0}
0       0.00000000e+00   2.00000001e+00   7.00000000e+00   7.00000000e+00   
1       7.50000000e-09   2.00000001e+00   7.00000000e+00   7.00000000e+00   
2       2.25000000e-08   2.00000001e+00   7.00000000e+00   7.00000000e+00   
3       5.25000000e-08   2.00000001e+00   7.00000000e+00   7.00000000e+00   
4       1.12500000e-07   2.00000001e+00   7.00000000e+00   7.00000000e+00   
5       2.32500000e-07   2.00000001e+00   7.00000000e+00   7.00000000e+00   
6       3.82500000e-07   2.00000001e+00   7.00000000e+00   7.00000000e+00   
7       5.32500000e-07   2.00000001e+00   7.00000000e+00   7.00000000e+00   
8       6.82500000e-07   2.00000001e+00   7.00000000e+00   7.00000000e+00   
9       8.32500000e-07   2.00000001e+00   7.00000000e+00   7.00000000e+00   
10      9.82500000e-07   2.00000001e+00   7.00000000e+00   7.00000000e+00   
11      1.13250000e-06   2.00000001e+00   7.00000000e+00   7.00000000e+00   
12      1.28250000e-06   2.00000001e+00   7.00000000e+00   7.00000000e+00   
13      1.43250000e-06   2.00000001e+00   7.00000000e+00   7.00000000e+00   
14      1.50000000e-06   2.00000001e+00   7.00000000e+00   7.00000000e+00   
15      1.50002500e-06   1.99999470e+00   6.99937047e+00   6.97500000e+00   
16      1.50003750e-06   1.99999065e+00   6.99890304e+00   6.96250000e+00   
17      1.50005000e-06   1.99998526e+00   6.99828544e+00   6.95000000e+00   
18      1.50006250e-06   1.99997858e+00   6.99751969e+00   6.93750000e+00   
19      1.50008750e-06   1.99996238e+00   6.99564830e+00   6.91250000e+00   
20      1.50010408e-06   1.99994835e+00   6.99399561e+00   6.89592133e+00   
21      1.50012066e-06   1.99993249e+00   6.99209715e+00   6.87934265e+00   
22      1.50013724e-06   1.99991495e+00   6.98995699e+00   6.86276398e+00   
23      1.50017039e-06   1.99987623e+00   6.98512498e+00   6.82960663e+00   
24      1.50019437e-06   1.99984352e+00   6.98086721e+00   6.80563308e+00   
25      1.50021834e-06   1.99980829e+00   6.97614345e+00   6.78165953e+00   
26      1.50024231e-06   1.99977081e+00   6.97096470e+00   6.75768598e+00   
27      1.50029026e-06   1.99969129e+00   6.95957878e+00   6.70973888e+00   
28      1.50033109e-06   1.99961647e+00   6.94804513e+00   6.66891402e+00   
29      1.50037191e-06   1.99953828e+00   6.93535178e+00   6.62808916e+00   
30      1.50041274e-06   1.99945749e+00   6.92154467e+00   6.58726430e+00   
31      1.50049439e-06   1.99929177e+00   6.89146703e+00   6.50561458e+00   
32      1.50057604e-06   1.99912094e+00   6.85580893e+00   6.42396486e+00   
33      1.50065768e-06   1.99895104e+00   6.81664777e+00   6.34231514e+00   
34      1.50073933e-06   1.99878404e+00   6.77425037e+00   6.26066542e+00   
35      1.50090263e-06   1.99846086e+00   6.68265226e+00   6.09736598e+00   
36      1.50104200e-06   1.99820996e+00   6.59317349e+00   5.95799880e+00   
37      1.50107336e-06   1.99815448e+00   6.57269625e+00   5.92664119e+00   
38      1.50113607e-06   1.99804752e+00   6.53044580e+00   5.86392596e+00   
39      1.50113999e-06   1.99804085e+00   6.52780011e+00   5.86000625e+00   
40      1.50114195e-06   1.99803751e+00   6.52647600e+00   5.85804640e+00   
41      1.50114293e-06   1.99803585e+00   6.52581364e+00   5.85706648e+00   
42      1.50114342e-06   1.99803502e+00   6.52548237e+00   5.85657651e+00   
43      1.50114372e-06   1.99803451e+00   6.52528167e+00   5.85627970e+00   
44      1.50114395e-06   1.99802240e+00   6.52512951e+00   5.85605477e+00   
45      1.50114397e-06   1.99802093e+00   6.52511109e+00   5.85603152e+00   
46      1.50114398e-06   1.99802010e+00   6.52510133e+00   5.85601920e+00   
47      1.50114399e-06   1.99801930e+00   6.52509255e+00   5.85600811e+00   
48      1.50114401e-06   1.99801752e+00   6.52507501e+00   5.85598594e+00   
49      1.50114406e-06   1.99801328e+00   6.52503998e+00   5.85594160e+00   
50      1.50114415e-06   1.99800231e+00   6.52497014e+00   5.85585290e+00   
51      1.50114432e-06   1.99797236e+00   6.52483116e+00   5.85567552e+00   
52      1.50114450e-06   1.99793588e+00   6.52469276e+00   5.85549814e+00   
53      1.50114468e-06   1.99789410e+00   6.52455485e+00   5.85532076e+00   
54      1.50114503e-06   1.99780109e+00   6.52427994e+00   5.85496599e+00   
55      1.50114530e-06   1.99772182e+00   6.52407873e+00   5.85470492e+00   
56      1.50114553e-06   1.99764714e+00   6.52389802e+00   5.85446996e+00   
57      1.50114577e-06   1.99756992e+00   6.52371762e+00   5.85423500e+00   
58      1.50114600e-06   1.99749076e+00   6.52353748e+00   5.85400003e+00   
59      1.50114647e-06   1.99732928e+00   6.52317768e+00   5.85353011e+00   
60      1.50114676e-06   1.99722744e+00   6.52295713e+00   5.85324148e+00   
61      1.50114702e-06   1.99713513e+00   6.52275880e+00   5.85298171e+00   
62      1.50114728e-06   1.99704236e+00   6.52256059e+00   5.85272195e+00   
63      1.50114754e-06   1.99694925e+00   6.52236250e+00   5.85246218e+00   
64      1.50114806e-06   1.99676255e+00   6.52196654e+00   5.85194265e+00   
65      1.50114841e-06   1.99663603e+00   6.52169935e+00   5.85159176e+00   
66      1.50114872e-06   1.99652210e+00   6.52145898e+00   5.85127596e+00   
67      1.50114904e-06   1.99640816e+00   6.52121869e+00   5.85096016e+00   
68      1.50114936e-06   1.99629423e+00   6.52097848e+00   5.85064436e+00   
69      1.50114999e-06   1.99606643e+00   6.52049820e+00   5.85001276e+00   
70      1.50115052e-06   1.99587326e+00   6.52009076e+00   5.84947666e+00   
71      1.50115106e-06   1.99568025e+00   6.51968344e+00   5.84894055e+00   
72      1.50115160e-06   1.99548740e+00   6.51927620e+00   5.84840445e+00   
73      1.50115267e-06   1.99510207e+00   6.51846188e+00   5.84733224e+00   
74      1.50115374e-06   1.99471761e+00   6.51764780e+00   5.84626004e+00   
75      1.50115481e-06   1.99433371e+00   6.51683376e+00   5.84518783e+00   
76      1.50115696e-06   1.99356799e+00   6.51520554e+00   5.84304342e+00   
77      1.50115910e-06   1.99280427e+00   6.51357696e+00   5.84089901e+00   
78      1.50116339e-06   1.99128430e+00   6.51031756e+00   5.83661018e+00   
79      1.50117197e-06   1.98827306e+00   6.50378806e+00   5.82803253e+00   
80      1.50118055e-06   1.98529022e+00   6.49724744e+00   5.81945488e+00   
81      1.50119770e-06   1.97943382e+00   6.48412086e+00   5.80229959e+00   
82      1.50121486e-06   1.97368497e+00   6.47094927e+00   5.78514429e+00   
83      1.50123201e-06   1.96804090e+00   6.45773279e+00   5.76798899e+00   
84      1.50126632e-06   1.95699147e+00   6.43119623e+00   5.73367839e+00   
85      1.50130063e-06   1.94648335e+00   6.40440696e+00   5.69936780e+00   
86      1.50133494e-06   1.93633477e+00   6.37744331e+00   5.66505720e+00   
87      1.50136925e-06   1.92652788e+00   6.35030719e+00   5.63074660e+00   
88      1.50143787e-06   1.90766633e+00   6.29564072e+00   5.56212541e+00   
89      1.50149963e-06   1.89207708e+00   6.24565071e+00   5.50036634e+00   
90      1.50156139e-06   1.87732796e+00   6.19514602e+00   5.43860727e+00   
91      1.50162315e-06   1.86334795e+00   6.14414182e+00   5.37684819e+00   
92      1.50174667e-06   1.83673864e+00   6.04041842e+00   5.25333005e+00   
93      1.50185693e-06   1.81310379e+00   5.93919844e+00   5.14307494e+00   
94      1.50196718e-06   1.78489265e+00   5.82123395e+00   5.03281984e+00   
95      1.50204725e-06   1.75931707e+00   5.72006924e+00   4.95275074e+00   
96      1.50211700e-06   1.73714336e+00   5.62898122e+00   4.88299653e+00   
97      1.50218676e-06   1.71949351e+00   5.54539836e+00   4.81324233e+00   
98      1.50224095e-06   1.70807526e+00   5.48431232e+00   4.75904773e+00   
99      1.50229515e-06   1.69836510e+00   5.42606828e+00   4.70485313e+00   
100     1.50234934e-06   1.69138480e+00   5.37013707e+00   4.65065853e+00   
101     1.50240354e-06   1.68700849e+00   5.31548052e+00   4.59646393e+00   
102     1.50251193e-06   1.68742554e+00   5.20896097e+00   4.48807473e+00   
103     1.50257151e-06   1.69391661e+00   5.15203292e+00   4.42848773e+00   
104     1.50263110e-06   1.70328222e+00   5.09568779e+00   4.36890073e+00   
105     1.50269069e-06   1.71532815e+00   5.03984395e+00   4.30931372e+00   
106     1.50280986e-06   1.74519704e+00   4.92908405e+00   4.19013972e+00   
107     1.50289037e-06   1.77218276e+00   4.85520029e+00   4.10962849e+00   
108     1.50296283e-06   1.79954049e+00   4.78901055e+00   4.03716838e+00   
109     1.50303529e-06   1.82983278e+00   4.72306148e+00   3.96470827e+00   
110     1.50310775e-06   1.86296608e+00   4.65730628e+00   3.89224817e+00   
111     1.50325267e-06   1.93593455e+00   4.52621861e+00   3.74732795e+00   
112     1.50329648e-06   1.96042805e+00   4.48672971e+00   3.70352328e+00   
113     1.50329921e-06   1.96196542e+00   4.48426360e+00   3.70078549e+00   
114     1.50330469e-06   1.96505673e+00   4.47933061e+00   3.69530991e+00   
115     1.50331017e-06   1.96816429e+00   4.47439837e+00   3.68983433e+00   
116     1.50332112e-06   1.97444292e+00   4.46453661e+00   3.67888316e+00   
117     1.50333207e-06   1.98078667e+00   4.45467833e+00   3.66793199e+00   
118     1.50335397e-06   1.99372878e+00   4.43497276e+00   3.64602966e+00   
119     1.50335890e-06   1.99665613e+00   4.43054084e+00   3.64110163e+00   
120     1.50336875e-06   2.00256337e+00   4.42167859e+00   3.63124558e+00   
121     1.50337122e-06   2.00404394e+00   4.41946352e+00   3.62878157e+00   
122     1.50337153e-06   2.00422908e+00   4.41918666e+00   3.62847357e+00   
123     1.50337168e-06   2.00432166e+00   4.41904823e+00   3.62831957e+00   
124     1.50337199e-06   2.00450689e+00   4.41877135e+00   3.62801156e+00   
125     1.50337200e-06   2.00451267e+00   4.41876270e+00   3.62800194e+00   
126     1.50337200e-06   2.00451656e+00   4.41875587e+00   3.62799552e+00   
127     1.50337201e-06   2.00451693e+00   4.41875427e+00   3.62799491e+00   
128     1.50337201e-06   2.00451714e+00   4.41875337e+00   3.62799457e+00   
129     1.50337201e-06   2.00451732e+00   4.41875257e+00   3.62799426e+00   
130     1.50337201e-06   2.00451770e+00   4.41875096e+00   3.62799365e+00   
131     1.50337201e-06   2.00451845e+00   4.41874774e+00   3.62799243e+00   
132     1.50337201e-06   2.00451996e+00   4.41874133e+00   3.62798999e+00   
133     1.50337201e-06   2.00452306e+00   4.41872854e+00   3.62798510e+00   
134     1.50337202e-06   2.00452952e+00   4.41870317e+00   3.62797532e+00   
135     1.50337204e-06   2.00454344e+00   4.41865320e+00   3.62795578e+00   
136     1.50337206e-06   2.00455833e+00   4.41860396e+00   3.62793623e+00   
137     1.50337210e-06   2.00459172e+00   4.41850832e+00   3.62789713e+00   
138     1.50337214e-06   2.00462848e+00   4.41841536e+00   3.62785804e+00   
139     1.50337218e-06   2.00466839e+00   4.41832495e+00   3.62781894e+00   
140     1.50337226e-06   2.00475490e+00   4.41814966e+00   3.62774075e+00   
141     1.50337234e-06   2.00485586e+00   4.41798667e+00   3.62766255e+00   
142     1.50337242e-06   2.00496513e+00   4.41783115e+00   3.62758436e+00   
143     1.50337249e-06   2.00508165e+00   4.41768236e+00   3.62750617e+00   
144     1.50337265e-06   2.00532884e+00   4.41739855e+00   3.62734978e+00   
145     1.50337279e-06   2.00557478e+00   4.41716715e+00   3.62720904e+00   
146     1.50337293e-06   2.00583157e+00   4.41694817e+00   3.62706829e+00   
147     1.50337307e-06   2.00609686e+00   4.41673962e+00   3.62692754e+00   
148     1.50337335e-06   2.00664178e+00   4.41634189e+00   3.62664605e+00   
149     1.50337364e-06   2.00720987e+00   4.41597975e+00   3.62636456e+00   
150     1.50337392e-06   2.00778484e+00   4.41563264e+00   3.62608306e+00   
151     1.50337420e-06   2.00836352e+00   4.41529647e+00   3.62580157e+00   
152     1.50337476e-06   2.00952393e+00   4.41464125e+00   3.62523858e+00   
153     1.50337532e-06   2.01068348e+00   4.41401231e+00   3.62467559e+00   
154     1.50337589e-06   2.01183783e+00   4.41339076e+00   3.62411261e+00   
155     1.50337645e-06   2.01298698e+00   4.41277382e+00   3.62354962e+00   
156     1.50337758e-06   2.01527467e+00   4.41154627e+00   3.62242364e+00   
157     1.50337870e-06   2.01754119e+00   4.41032791e+00   3.62129767e+00   
158     1.50337983e-06   2.01979824e+00   4.40911221e+00   3.62017169e+00   
159     1.50338095e-06   2.02204850e+00   4.40789851e+00   3.61904572e+00   
160     1.50338321e-06   2.02653935e+00   4.40547444e+00   3.61679377e+00   
161     1.50338546e-06   2.03101358e+00   4.40305606e+00   3.61454182e+00   
162     1.50338771e-06   2.03548437e+00   4.40063980e+00   3.61228987e+00   
163     1.50339221e-06   2.04441983e+00   4.39581223e+00   3.60778597e+00   
164     1.50339672e-06   2.05335798e+00   4.39098798e+00   3.60328207e+00   
165     1.50340573e-06   2.07123875e+00   4.38134868e+00   3.59427427e+00   
166     1.50341473e-06   2.08914526e+00   4.37171721e+00   3.58526648e+00   
167     1.50343275e-06   2.12501031e+00   4.35248333e+00   3.56725088e+00   
168     1.50346878e-06   2.19707682e+00   4.31412523e+00   3.53121969e+00   
169     1.50350481e-06   2.26989677e+00   4.27587056e+00   3.49518849e+00   
170     1.50354084e-06   2.34364510e+00   4.23771437e+00   3.45915730e+00   
171     1.50361291e-06   2.49474154e+00   4.16161399e+00   3.38709491e+00   
172     1.50368497e-06   2.65201614e+00   4.08584232e+00   3.31503252e+00   
173     1.50375703e-06   2.81786195e+00   4.01038296e+00   3.24297014e+00   
174     1.50382909e-06   2.99549679e+00   3.93520735e+00   3.17090775e+00   
175     1.50389456e-06   3.16927990e+00   3.86715078e+00   3.10544031e+00   
176     1.50396003e-06   3.35541867e+00   3.79932852e+00   3.03997288e+00   
177     1.50402549e-06   3.55879544e+00   3.73181954e+00   2.97450544e+00   
178     1.50409096e-06   3.77263443e+00   3.66443343e+00   2.90903800e+00   
179     1.50411995e-06   3.86844081e+00   3.63454813e+00   2.88004735e+00   
180     1.50414894e-06   3.96513030e+00   3.60450875e+00   2.85105670e+00   
181     1.50417503e-06   4.05286447e+00   3.57732692e+00   2.82496512e+00   
182     1.50420113e-06   4.14127993e+00   3.55000552e+00   2.79887353e+00   
183     1.50423155e-06   4.24521391e+00   3.51797677e+00   2.76844591e+00   
184     1.50426198e-06   4.34948222e+00   3.48578124e+00   2.73801829e+00   
185     1.50429241e-06   4.45347164e+00   3.45342080e+00   2.70759066e+00   
186     1.50431672e-06   4.53604028e+00   3.42744236e+00   2.68328026e+00   
187     1.50434103e-06   4.61778858e+00   3.40135906e+00   2.65896986e+00   
188     1.50436534e-06   4.69844637e+00   3.37517271e+00   2.63465946e+00   
189     1.50436838e-06   4.70851578e+00   3.37188585e+00   2.63162066e+00   
190     1.50436982e-06   4.71327634e+00   3.37032984e+00   2.63018256e+00   
191     1.50437126e-06   4.71803161e+00   3.36877387e+00   2.62874446e+00   
192     1.50437255e-06   4.72230711e+00   3.36737338e+00   2.62745017e+00   
193     1.50437384e-06   4.72657843e+00   3.36597275e+00   2.62615588e+00   
194     1.50437514e-06   4.73084563e+00   3.36457192e+00   2.62486159e+00   
195     1.50437773e-06   4.73937076e+00   3.36176917e+00   2.62227301e+00   
196     1.50438032e-06   4.74787231e+00   3.35896627e+00   2.61968443e+00   
197     1.50438215e-06   4.75389284e+00   3.35697767e+00   2.61784886e+00   
198     1.50438399e-06   4.75990521e+00   3.35498850e+00   2.61601329e+00   
199     1.50438535e-06   4.76435779e+00   3.35351401e+00   2.61465256e+00   
200     1.50438635e-06   4.76761980e+00   3.35243426e+00   2.61365493e+00   
201     1.50438734e-06   4.77087934e+00   3.35135625e+00   2.61265730e+00   
202     1.50438834e-06   4.77413637e+00   3.35027964e+00   2.61165968e+00   
203     1.50438934e-06   4.77739180e+00   3.34920447e+00   2.61066205e+00   
204     1.50439133e-06   4.78389048e+00   3.34705630e+00   2.60866680e+00   
205     1.50439305e-06   4.78948962e+00   3.34520668e+00   2.60694540e+00   
206     1.50439650e-06   4.80065655e+00   3.34151550e+00   2.60350261e+00   
207     1.50439994e-06   4.81179215e+00   3.33783650e+00   2.60005983e+00   
208     1.50440683e-06   4.83393227e+00   3.33051090e+00   2.59317425e+00   
209     1.50442060e-06   4.87766293e+00   3.31599135e+00   2.57940310e+00   
210     1.50444814e-06   4.96272745e+00   3.28744262e+00   2.55186079e+00   
211     1.50450322e-06   5.12208579e+00   3.23204208e+00   2.49677618e+00   
212     1.50455831e-06   5.26935136e+00   3.17856858e+00   2.44169157e+00   
213     1.50461339e-06   5.40386359e+00   3.12669022e+00   2.38660696e+00   
214     1.50472356e-06   5.64163538e+00   3.02688399e+00   2.27643773e+00   
215     1.50482271e-06   5.80088275e+00   2.93784606e+00   2.17728543e+00   
216     1.50490936e-06   5.91598151e+00   2.85918544e+00   2.09064037e+00   
217     1.50499600e-06   6.01049743e+00   2.77974729e+00   2.00399530e+00   
218     1.50500000e-06   6.01480793e+00   2.77608281e+00   2.00000000e+00   
219     1.50500400e-06   6.01907045e+00   2.77244112e+00   2.00000000e+00   
220     1.50501199e-06   6.02741692e+00   2.76522936e+00   2.00000000e+00   
221     1.50502797e-06   6.04343988e+00   2.75107336e+00   2.00000000e+00   
222     1.50505993e-06   6.07300699e+00   2.72378757e+00   2.00000000e+00   
223     1.50512385e-06   6.12354325e+00   2.67303349e+00   2.00000000e+00   
224     1.50518778e-06   6.16657532e+00   2.62583103e+00   2.00000000e+00   
225     1.50525170e-06   6.20314194e+00   2.58193214e+00   2.00000000e+00   
226     1.50537955e-06   6.26378564e+00   2.50114232e+00   2.00000000e+00   
227     1.50549462e-06   6.29880610e+00   2.44119708e+00   2.00000000e+00   
228     1.50559818e-06   6.32333419e+00   2.39311643e+00   2.00000000e+00   
229     1.50570174e-06   6.34248502e+00   2.35026891e+00   2.00000000e+00   
230     1.50580529e-06   6.35750751e+00   2.31208641e+00   2.00000000e+00   
231     1.50601241e-06   6.38062202e+00   2.24508504e+00   2.00000000e+00   
232     1.50615203e-06   6.38959399e+00   2.21037109e+00   2.00000000e+00   
233     1.50627768e-06   6.39591626e+00   2.18316660e+00   2.00000000e+00   
234     1.50640334e-06   6.40092217e+00   2.15947879e+00   2.00000000e+00   
235     1.50652900e-06   6.40493030e+00   2.13885345e+00   2.00000000e+00   
236     1.50678031e-06   6.41127797e+00   2.10356839e+00   2.00000000e+00   
237     1.50693007e-06   6.41368698e+00   2.08798877e+00   2.00000000e+00   
238     1.50706486e-06   6.41548263e+00   2.07589424e+00   2.00000000e+00   
239     1.50719965e-06   6.41697992e+00   2.06546204e+00   2.00000000e+00   
240     1.50733444e-06   6.41823569e+00   2.05646372e+00   2.00000000e+00   
241     1.50760402e-06   6.42031064e+00   2.04122661e+00   2.00000000e+00   
242     1.50776174e-06   6.42115444e+00   2.03474702e+00   2.00000000e+00   
243     1.50790369e-06   6.42179766e+00   2.02975344e+00   2.00000000e+00   
244     1.50804564e-06   6.42234350e+00   2.02547749e+00   2.00000000e+00   
245     1.50818758e-06   6.42280745e+00   2.02181604e+00   2.00000000e+00   
246     1.50847148e-06   6.42358174e+00   2.01566480e+00   2.00000000e+00   
247     1.50863390e-06   6.42389569e+00   2.01314105e+00   2.00000000e+00   
248     1.50878009e-06   6.42413590e+00   2.01120441e+00   2.00000000e+00   
249     1.50892628e-06   6.42434021e+00   2.00955318e+00   2.00000000e+00   
250     1.50907246e-06   6.42451405e+00   2.00814530e+00   2.00000000e+00   
251     1.50936483e-06   6.42480418e+00   2.00579099e+00   2.00000000e+00   
252     1.50952941e-06   6.42492004e+00   2.00484765e+00   2.00000000e+00   
253     1.50967754e-06   6.42500869e+00   2.00412518e+00   2.00000000e+00   
254     1.50982566e-06   6.42508407e+00   2.00351038e+00   2.00000000e+00   
255     1.50997378e-06   6.42514818e+00   2.00298721e+00   2.00000000e+00   
256     1.51027003e-06   6.42525508e+00   2.00211419e+00   2.00000000e+00   
257     1.51043674e-06   6.42529767e+00   2.00176608e+00   2.00000000e+00   
