Index  TIME                   V(1)             V(2)             V(3)            I(VIN)           I(VCC)
0      0.00000000e+00      0.00000000e+00   5.00010100e-08   4.99999999e+00   5.00010100e-12  -1.00001710e-11
1      1.00000000e-11      0.00000000e+00   5.00010100e-08   4.99999999e+00   5.00010100e-12  -1.00001710e-11
2      3.00000000e-11      0.00000000e+00   5.00010100e-08   4.99999999e+00   5.00010100e-12  -1.00001710e-11
3      7.00000000e-11      0.00000000e+00   5.00009838e-08   4.99999999e+00   5.00009838e-12  -1.00001984e-11
4      1.50000000e-10      0.00000000e+00   5.00009849e-08   4.99999999e+00   5.00009849e-12  -1.00001985e-11
5      3.10000000e-10      0.00000000e+00   5.00009852e-08   4.99999999e+00   5.00009852e-12  -1.00001985e-11
6      5.10000000e-10      0.00000000e+00   5.00009867e-08   4.99999999e+00   5.00009867e-12  -1.00001987e-11
7      7.10000000e-10      0.00000000e+00   5.00009871e-08   4.99999999e+00   5.00009871e-12  -1.00001987e-11
8      9.10000000e-10      0.00000000e+00   5.00009864e-08   4.99999999e+00   5.00009864e-12  -1.00001986e-11
9      1.11000000e-09      0.00000000e+00   5.00009845e-08   4.99999999e+00   5.00009845e-12  -1.00001984e-11
10     1.31000000e-09      0.00000000e+00   5.00009816e-08   4.99999999e+00   5.00009816e-12  -1.00001981e-11
11     1.51000000e-09      0.00000000e+00   5.00009775e-08   4.99999999e+00   5.00009775e-12  -1.00001977e-11
12     1.71000000e-09      0.00000000e+00   5.00009723e-08   4.99999999e+00   5.00009723e-12  -1.00001972e-11
13     1.91000000e-09      0.00000000e+00   5.00009660e-08   4.99999999e+00   5.00009660e-12  -1.00001966e-11
14     2.00000000e-09      0.00000000e+00   5.00009699e-08   4.99999999e+00   5.00009699e-12  -1.00001970e-11
15     2.02000000e-09      5.00000000e-02   5.03434225e-03   5.00449656e+00  -4.49656577e-06   4.49656075e-06
16     2.03694842e-09      9.23710577e-02   9.35739608e-03   5.00830136e+00  -8.30136616e-06   8.30136113e-06
17     2.07084527e-09      1.77113173e-01   1.81397854e-02   5.01589733e+00  -1.58973388e-05   1.58973337e-05
18     2.13863896e-09      3.46597404e-01   3.63563151e-02   5.03102410e+00  -3.10241089e-05   3.10241038e-05
19     2.27422635e-09      6.85565866e-01   7.54615063e-02   5.06101043e+00  -6.10104360e-05   6.10104309e-05
20     2.54540112e-09      1.36350279e+00   1.64245417e-01   5.11992573e+00  -1.19925737e-04   1.19925732e-04
21     3.08775065e-09      2.71937664e+00   3.82610705e-01   5.23367644e+00  -2.33676593e-04   2.33676442e-04
22     3.63010019e-09      4.07525048e+00   6.49932202e-01   5.33964245e+00  -3.42531828e-04   3.39642452e-04
23     3.82717494e-09      4.56793736e+00   7.20050405e-01   5.33919069e+00  -3.84788695e-04   3.39190687e-04
24     4.00000000e-09      5.00000000e+00   7.51068196e-01   5.30447370e+00  -4.24893180e-04   3.04473700e-04
25     4.01739313e-09      5.00000000e+00   7.52980400e-01   5.30000145e+00  -4.24701960e-04   3.00001453e-04
26     4.03478626e-09      5.00000000e+00   7.54681868e-01   5.29529982e+00  -4.24531813e-04   2.95299819e-04
27     4.06957251e-09      5.00000000e+00   7.57661952e-01   5.28544950e+00  -4.24233805e-04   2.85449503e-04
28     4.13914503e-09      5.00000000e+00   7.62505244e-01   5.26461236e+00  -4.23749476e-04   2.64612361e-04
29     4.27829005e-09      5.00000000e+00   7.69884085e-01   5.22089160e+00  -4.23011592e-04   2.20891597e-04
30     4.41743508e-09      5.00000000e+00   7.75622864e-01   5.17605106e+00  -4.22437714e-04   1.76051059e-04
31     4.55658011e-09      5.00000000e+00   7.80382226e-01   5.13078893e+00  -4.21961777e-04   1.30788927e-04
32     4.83487016e-09      5.00000000e+00   7.87944571e-01   5.03987328e+00  -4.21205543e-04   3.98732778e-05
33     5.39145027e-09      5.00000000e+00   7.98548252e-01   4.85918642e+00  -4.20145175e-04  -1.40813583e-04
34     5.94803038e-09      5.00000000e+00   8.05925063e-01   4.68222052e+00  -4.19407494e-04  -3.17779476e-04
35     6.50461049e-09      5.00000000e+00   8.11557656e-01   4.50999277e+00  -4.18844234e-04  -4.90007232e-04
36     7.61777071e-09      5.00000000e+00   8.19780131e-01   4.18034532e+00  -4.18021987e-04  -8.19654676e-04
37     8.73093092e-09      5.00000000e+00   8.25604258e-01   3.87039792e+00  -4.17439574e-04  -1.12960208e-03
38     9.84409114e-09      5.00000000e+00   8.30061975e-01   3.57974948e+00  -4.16993802e-04  -1.42025052e-03
39     1.20704116e-08      5.00000000e+00   8.36667938e-01   3.05162031e+00  -4.16333206e-04  -1.94837969e-03
40     1.42967320e-08      5.00000000e+00   8.41290437e-01   2.58639976e+00  -4.15870956e-04  -2.41360024e-03
41     1.65230524e-08      5.00000000e+00   8.44775786e-01   2.17698491e+00  -4.15522421e-04  -2.82301509e-03
42     1.87493729e-08      5.00000000e+00   8.47492718e-01   1.81641793e+00  -4.15250728e-04  -3.18358207e-03
43     2.09756933e-08      5.00000000e+00   8.49673961e-01   1.49889458e+00  -4.15032604e-04  -3.50110542e-03
44     2.32020138e-08      5.00000000e+00   8.51451809e-01   1.21945428e+00  -4.14854819e-04  -3.78054572e-03
45     2.54283342e-08      5.00000000e+00   8.52918336e-01   9.74059961e-01  -4.14708166e-04  -4.02594004e-03
46     2.76546546e-08      5.00000000e+00   8.54135767e-01   7.59459628e-01  -4.14586423e-04  -4.24054037e-03
47     2.98809751e-08      5.00000000e+00   8.55148135e-01   5.73152972e-01  -4.14485187e-04  -4.42684703e-03
48     3.21072955e-08      5.00000000e+00   8.55985915e-01   4.13407582e-01  -4.14401409e-04  -4.58659242e-03
49     3.40000000e-08      5.00000000e+00   8.56583335e-01   2.96312080e-01  -4.14341666e-04  -4.70368792e-03
50     3.40744134e-08      4.81396661e+00   8.54722169e-01   2.92161000e-01  -3.95924445e-04  -4.70783900e-03
51     3.41413854e-08      4.64653657e+00   8.53027203e-01   2.88665028e-01  -3.79350936e-04  -4.71133497e-03
52     3.42753294e-08      4.31167647e+00   8.49609440e-01   2.82393545e-01  -3.46206703e-04  -4.71760645e-03
53     3.45432175e-08      3.64195629e+00   8.42710318e-01   2.73740241e-01  -2.79924597e-04  -4.72625976e-03
54     3.50789936e-08      2.30251591e+00   8.28786900e-01   2.73151750e-01  -1.47372901e-04  -4.72684825e-03
55     3.60000000e-08     -1.15463195e-14   8.04516603e-01   3.25500668e-01   8.04516603e-05  -4.67449933e-03
56     3.60521548e-08      0.00000000e+00   8.04444087e-01   3.30654466e-01   8.04444087e-05  -4.66934553e-03
57     3.60990941e-08      0.00000000e+00   8.04391569e-01   3.35397493e-01   8.04391569e-05  -4.66460251e-03
58     3.61929727e-08      0.00000000e+00   8.04305386e-01   3.45063551e-01   8.04305386e-05  -4.65493645e-03
59     3.63807300e-08      0.00000000e+00   8.04173107e-01   3.64871140e-01   8.04173107e-05  -4.63512886e-03
60     3.67562445e-08      0.00000000e+00   8.03942914e-01   4.05554840e-01   8.03942914e-05  -4.59444516e-03
61     3.75072734e-08      0.00000000e+00   8.03466475e-01   4.90445243e-01   8.03466475e-05  -4.50955476e-03
62     3.90093314e-08      0.00000000e+00   8.02401780e-01   6.72620829e-01   8.02401780e-05  -4.32737917e-03
63     4.05113893e-08      0.00000000e+00   8.01208422e-01   8.67313818e-01   8.01208422e-05  -4.13268618e-03
64     4.20134473e-08      0.00000000e+00   7.99898200e-01   1.07063537e+00   7.99898200e-05  -3.92936463e-03
65     4.35155052e-08      0.00000000e+00   7.98477634e-01   1.27946789e+00   7.98477634e-05  -3.72053211e-03
66     4.50175632e-08      0.00000000e+00   7.96950534e-01   1.49127155e+00   7.96950534e-05  -3.50872845e-03
67     4.65196211e-08      0.00000000e+00   7.95318719e-01   1.70395492e+00   7.95318719e-05  -3.29604508e-03
68     4.95237370e-08      0.00000000e+00   7.91739639e-01   2.12539550e+00   7.91739639e-05  -2.87460450e-03
69     5.25278529e-08      0.00000000e+00   7.87718258e-01   2.53343206e+00   7.87718258e-05  -2.46656794e-03
70     5.55319688e-08      0.00000000e+00   7.83204293e-01   2.92108037e+00   7.83204293e-05  -2.07891963e-03
71     5.85360847e-08      0.00000000e+00   7.78108832e-01   3.28387203e+00   7.78108832e-05  -1.71612797e-03
72     6.15402006e-08      0.00000000e+00   7.72282886e-01   3.61918357e+00   7.72282886e-05  -1.38081643e-03
73     6.45443165e-08      0.00000000e+00   7.65474153e-01   3.92569169e+00   7.65474153e-05  -1.07430831e-03
74     7.05525482e-08      0.00000000e+00   7.46619323e-01   4.45253887e+00   7.46619323e-05  -5.47461134e-04
75     7.65607800e-08      0.00000000e+00   7.02350876e-01   4.84942988e+00   7.02350876e-05  -1.50570119e-04
76     7.88618198e-08      0.00000000e+00   6.41731846e-01   4.93016200e+00   6.41731846e-05  -6.98380033e-05
77     8.08465506e-08      0.00000000e+00   5.46689358e-01   4.94419745e+00   5.46689358e-05  -5.58025462e-05
78     8.20547769e-08      0.00000000e+00   4.93944195e-01   4.95045699e+00   4.93944195e-05  -4.95430059e-05
79     8.31383431e-08      0.00000000e+00   4.50257579e-01   4.95496597e+00   4.50257579e-05  -4.50340335e-05
80     8.53054753e-08      0.00000000e+00   3.73388663e-01   4.96266002e+00   3.73388663e-05  -3.73399803e-05
81     8.74726075e-08      0.00000000e+00   3.09117104e-01   4.96908819e+00   3.09117104e-05  -3.09118149e-05
82     9.18068720e-08      0.00000000e+00   2.10038308e-01   4.97899616e+00   2.10038308e-05  -2.10038416e-05
83     9.61411364e-08      0.00000000e+00   1.41232647e-01   4.98587673e+00   1.41232647e-05  -1.41232699e-05
84     1.00000000e-07      0.00000000e+00   9.88471192e-02   4.99011528e+00   9.88471192e-06  -9.88471692e-06
End of Xyce(TM) Simulation
