[Version] 2.0
# Hz Y RI R 50
[Number of Ports] 2
[Two-Port Data Order] 12_21
[Number of Frequencies] 121
[Reference] 50 50
[Network Data]
!        Freq                  ReY11                 ImY11                 ReY12                 ImY12                 ReY21                 ImY21                 ReY22                 ImY22        
   1.000000000000e+01    4.999999999986e-01   -1.433372821461e-06   -4.999999999933e-01    1.434519273443e-06   -4.999999999932e-01    1.434519273443e-06    1.500000000002e+00   -1.433372362788e-06
   1.122018454302e+01    4.999999999986e-01   -1.608270757570e-06   -4.999999999910e-01    1.609557097851e-06   -4.999999999910e-01    1.609557097851e-06    1.499999999999e+00   -1.608270242930e-06
   1.258925411794e+01    4.999999999986e-01   -1.804509469503e-06   -4.999999999887e-01    1.805952767037e-06   -4.999999999887e-01    1.805952767037e-06    1.499999999999e+00   -1.804508892067e-06
   1.412537544623e+01    4.999999999986e-01   -2.024692925738e-06   -4.999999999859e-01    2.026312332206e-06   -4.999999999859e-01    2.026312332206e-06    1.499999999997e+00   -2.024692277846e-06
   1.584893192461e+01    4.999999999986e-01   -2.271742826963e-06   -4.999999999825e-01    2.273559830906e-06   -4.999999999825e-01    2.273559830906e-06    1.499999999992e+00   -2.271742100016e-06
   1.778279410039e+01    4.999999999918e-01   -2.548937375268e-06   -4.999999999826e-01    2.550976087222e-06   -4.999999999826e-01    2.550976087222e-06    1.499999999982e+00   -2.548936559620e-06
   1.995262314969e+01    4.999999999918e-01   -2.859954773891e-06   -4.999999999773e-01    2.862242246327e-06   -4.999999999772e-01    2.862242246326e-06    1.499999999979e+00   -2.859953858719e-06
   2.238721138568e+01    4.999999999918e-01   -3.208922034748e-06   -4.999999999694e-01    3.211488621034e-06   -4.999999999694e-01    3.211488621034e-06    1.499999999982e+00   -3.208921007908e-06
   2.511886431510e+01    4.999999999918e-01   -3.600469741364e-06   -4.999999999656e-01    3.603349498543e-06   -4.999999999656e-01    3.603349498543e-06    1.499999999965e+00   -3.600468589232e-06
   2.818382931264e+01    4.999999999918e-01   -4.039793493912e-06   -4.999999999591e-01    4.043024634611e-06   -4.999999999591e-01    4.043024634611e-06    1.499999999954e+00   -4.039792201194e-06
   3.162277660168e+01    4.999999999750e-01   -4.532722851661e-06   -4.999999999536e-01    4.536348251154e-06   -4.999999999535e-01    4.536348251153e-06    1.499999999941e+00   -4.532721401212e-06
   3.548133892336e+01    4.999999999750e-01   -5.085798687692e-06   -4.999999999406e-01    5.089866452826e-06   -4.999999999405e-01    5.089866452826e-06    1.499999999936e+00   -5.085797060257e-06
   3.981071705535e+01    4.999999999750e-01   -5.706359982301e-06   -4.999999999259e-01    5.710924089850e-06   -4.999999999259e-01    5.710924089850e-06    1.499999999928e+00   -5.706358156293e-06
   4.466835921510e+01    4.999999999572e-01   -6.402641206818e-06   -4.999999999150e-01    6.407762219714e-06   -4.999999999150e-01    6.407762219713e-06    1.499999999899e+00   -6.402639158008e-06
   5.011872336273e+01    4.999999999286e-01   -7.183881590016e-06   -4.999999999008e-01    7.189627460991e-06   -4.999999999008e-01    7.189627460991e-06    1.499999999878e+00   -7.183879291205e-06
   5.623413251903e+01    4.999999998972e-01   -8.060447717088e-06   -4.999999998805e-01    8.066894690358e-06   -4.999999998805e-01    8.066894690358e-06    1.499999999842e+00   -8.060445137790e-06
   6.309573444802e+01    4.999999998708e-01   -9.043971087899e-06   -4.999999998483e-01    9.051204710882e-06   -4.999999998483e-01    9.051204710881e-06    1.499999999816e+00   -9.043968193876e-06
   7.079457843841e+01    4.999999998207e-01   -1.014750245994e-05   -4.999999998118e-01    1.015561871841e-05   -4.999999998117e-01    1.015561871841e-05    1.499999999787e+00   -1.014749921279e-05
   7.943282347243e+01    4.999999997466e-01   -1.138568502391e-05   -4.999999997665e-01    1.139479161570e-05   -4.999999997665e-01    1.139479161570e-05    1.499999999723e+00   -1.138568138054e-05
   8.912509381337e+01    4.999999996452e-01   -1.277494870997e-05   -4.999999997037e-01    1.278516647402e-05   -4.999999997037e-01    1.278516647402e-05    1.499999999671e+00   -1.277494462205e-05
   1.000000000000e+02    4.999999994928e-01   -1.433372820292e-05   -4.999999996239e-01    1.434519272275e-05   -4.999999996239e-01    1.434519272275e-05    1.499999999585e+00   -1.433372361619e-05
   1.122018454302e+02    4.999999992840e-01   -1.608270755920e-05   -4.999999995080e-01    1.609557096202e-05   -4.999999995081e-01    1.609557096202e-05    1.499999999482e+00   -1.608270241281e-05
   1.258925411794e+02    4.999999991616e-01   -1.804509467173e-05   -4.999999993478e-01    1.805952764707e-05   -4.999999993478e-01    1.805952764707e-05    1.499999999358e+00   -1.804508889738e-05
   1.412537544623e+02    4.999999991302e-01   -2.024692922446e-05   -4.999999991652e-01    2.026312328914e-05   -4.999999991652e-01    2.026312328915e-05    1.499999999178e+00   -2.024692274555e-05
   1.584893192461e+02    4.999999990728e-01   -2.271742822313e-05   -4.999999989501e-01    2.273559826255e-05   -4.999999989501e-01    2.273559826255e-05    1.499999998964e+00   -2.271742095362e-05
   1.778279410039e+02    4.999999988258e-01   -2.548937368699e-05   -4.999999986976e-01    2.550976080654e-05   -4.999999986976e-01    2.550976080654e-05    1.499999998696e+00   -2.548936553049e-05
   1.995262314969e+02    4.999999983491e-01   -2.859954764613e-05   -4.999999983717e-01    2.862242237048e-05   -4.999999983717e-01    2.862242237049e-05    1.499999998357e+00   -2.859953849443e-05
   2.238721138568e+02    4.999999979201e-01   -3.208922021641e-05   -4.999999979396e-01    3.211488607928e-05   -4.999999979396e-01    3.211488607928e-05    1.499999997940e+00   -3.208920994804e-05
   2.511886431510e+02    4.999999973751e-01   -3.600469722851e-05   -4.999999974051e-01    3.603349480030e-05   -4.999999974051e-01    3.603349480030e-05    1.499999997404e+00   -3.600468570719e-05
   2.818382931264e+02    4.999999967818e-01   -4.039793467762e-05   -4.999999967287e-01    4.043024608461e-05   -4.999999967287e-01    4.043024608461e-05    1.499999996738e+00   -4.039792175050e-05
   3.162277660168e+02    4.999999958652e-01   -4.532722814725e-05   -4.999999958892e-01    4.536348214216e-05   -4.999999958892e-01    4.536348214216e-05    1.499999995885e+00   -4.532721364269e-05
   3.548133892336e+02    4.999999948065e-01   -5.085798635517e-05   -4.999999948194e-01    5.089866400651e-05   -4.999999948194e-01    5.089866400651e-05    1.499999994832e+00   -5.085797008085e-05
   3.981071705535e+02    4.999999934663e-01   -5.706359908602e-05   -4.999999934836e-01    5.710924016150e-05   -4.999999934836e-01    5.710924016150e-05    1.499999993475e+00   -5.706358082597e-05
   4.466835921510e+02    4.999999918017e-01   -6.402641102711e-05   -4.999999917963e-01    6.407762115609e-05   -4.999999917963e-01    6.407762115609e-05    1.499999991783e+00   -6.402639053894e-05
   5.011872336273e+02    4.999999896763e-01   -7.183881442966e-05   -4.999999896713e-01    7.189627313941e-05   -4.999999896713e-01    7.189627313941e-05    1.499999989669e+00   -7.183879144157e-05
   5.623413251903e+02    4.999999869908e-01   -8.060447509372e-05   -4.999999869899e-01    8.066894482643e-05   -4.999999869899e-01    8.066894482643e-05    1.499999987003e+00   -8.060444930072e-05
   6.309573444802e+02    4.999999836244e-01   -9.043970794492e-05   -4.999999836213e-01    9.051204417477e-05   -4.999999836213e-01    9.051204417477e-05    1.499999983634e+00   -9.043967900468e-05
   7.079457843841e+02    4.999999793817e-01   -1.014750204549e-04   -4.999999793845e-01    1.015561830397e-04   -4.999999793845e-01    1.015561830397e-04    1.499999979371e+00   -1.014749879835e-04
   7.943282347243e+02    4.999999740467e-01   -1.138568443849e-04   -4.999999740439e-01    1.139479103028e-04   -4.999999740439e-01    1.139479103028e-04    1.499999974051e+00   -1.138568079512e-04
   8.912509381337e+02    4.999999673274e-01   -1.277494788304e-04   -4.999999673220e-01    1.278516564709e-04   -4.999999673220e-01    1.278516564709e-04    1.499999967333e+00   -1.277494379512e-04
   1.000000000000e+03    4.999999588662e-01   -1.433372703486e-04   -4.999999588630e-01    1.434519155468e-04   -4.999999588630e-01    1.434519155468e-04    1.499999958874e+00   -1.433372244814e-04
   1.122018454302e+03    4.999999482072e-01   -1.608270590927e-04   -4.999999482126e-01    1.609556931208e-04   -4.999999482126e-01    1.609556931208e-04    1.499999948227e+00   -1.608270076289e-04
   1.258925411794e+03    4.999999348050e-01   -1.804509234113e-04   -4.999999348065e-01    1.805952531647e-04   -4.999999348065e-01    1.805952531647e-04    1.499999934803e+00   -1.804508656678e-04
   1.412537544623e+03    4.999999179299e-01   -2.024692593240e-04   -4.999999179211e-01    2.026311999709e-04   -4.999999179211e-01    2.026311999709e-04    1.499999917937e+00   -2.024691945348e-04
   1.584893192461e+03    4.999998966792e-01   -2.271742357298e-04   -4.999998966717e-01    2.273559361240e-04   -4.999998966717e-01    2.273559361240e-04    1.499999896679e+00   -2.271741630350e-04
   1.778279410039e+03    4.999998699230e-01   -2.548936711847e-04   -4.999998699173e-01    2.550975423802e-04   -4.999998699173e-01    2.550975423802e-04    1.499999869922e+00   -2.548935896201e-04
   1.995262314969e+03    4.999998362423e-01   -2.859953836785e-04   -4.999998362355e-01    2.862241309222e-04   -4.999998362355e-01    2.862241309222e-04    1.499999836234e+00   -2.859952921614e-04
   2.238721138568e+03    4.999997938361e-01   -3.208920711051e-04   -4.999997938398e-01    3.211487297338e-04   -4.999997938398e-01    3.211487297338e-04    1.499999793827e+00   -3.208919684210e-04
   2.511886431510e+03    4.999997404570e-01   -3.600467871594e-04   -4.999997404543e-01    3.603347628772e-04   -4.999997404543e-01    3.603347628772e-04    1.499999740465e+00   -3.600466719459e-04
   2.818382931264e+03    4.999996732544e-01   -4.039790852791e-04   -4.999996732509e-01    4.043021993489e-04   -4.999996732509e-01    4.043021993489e-04    1.499999673257e+00   -4.039789560075e-04
   3.162277660168e+03    4.999995886530e-01   -4.532719120980e-04   -4.999995886477e-01    4.536344520473e-04   -4.999995886477e-01    4.536344520473e-04    1.499999588652e+00   -4.532717670532e-04
   3.548133892336e+03    4.999994821386e-01   -5.085793417965e-04   -4.999994821454e-01    5.089861183100e-04   -4.999994821454e-01    5.089861183100e-04    1.499999482133e+00   -5.085791790534e-04
   3.981071705535e+03    4.999993480432e-01   -5.706352538618e-04   -4.999993480580e-01    5.710916646166e-04   -4.999993480580e-01    5.710916646166e-04    1.499999348049e+00   -5.706350712607e-04
   4.466835921510e+03    4.999991792463e-01   -6.402630692336e-04   -4.999991792528e-01    6.407751705234e-04   -4.999991792528e-01    6.407751705233e-04    1.499999179245e+00   -6.402628643526e-04
   5.011872336273e+03    4.999989667525e-01   -7.183866737925e-04   -4.999989667347e-01    7.189612608901e-04   -4.999989667347e-01    7.189612608901e-04    1.499998966738e+00   -7.183864439116e-04
   5.623413251903e+03    4.999986992073e-01   -8.060426737960e-04   -4.999986992008e-01    8.066873711234e-04   -4.999986992008e-01    8.066873711234e-04    1.499998699197e+00   -8.060424158648e-04
   6.309573444802e+03    4.999983623891e-01   -9.043941454115e-04   -4.999983623975e-01    9.051175077102e-04   -4.999983623975e-01    9.051175077101e-04    1.499998362391e+00   -9.043938560092e-04
   7.079457843841e+03    4.999979383673e-01   -1.014746060114e-03   -4.999979383783e-01    1.015557685962e-03   -4.999979383783e-01    1.015557685962e-03    1.499997938376e+00   -1.014745735398e-03
   7.943282347243e+03    4.999974045661e-01   -1.138562589684e-03   -4.999974045713e-01    1.139473248864e-03   -4.999974045714e-01    1.139473248864e-03    1.499997404572e+00   -1.138562225348e-03
   8.912509381337e+03    4.999967325397e-01   -1.277486519089e-03   -4.999967325587e-01    1.278508295495e-03   -4.999967325587e-01    1.278508295495e-03    1.499996732552e+00   -1.277486110299e-03
   1.000000000000e+04    4.999958865283e-01   -1.433361022929e-03   -4.999958865408e-01    1.434507474912e-03   -4.999958865408e-01    1.434507474912e-03    1.499995886522e+00   -1.433360564257e-03
   1.122018454302e+04    4.999948214799e-01   -1.608254091736e-03   -4.999948214639e-01    1.609540432019e-03   -4.999948214640e-01    1.609540432019e-03    1.499994821472e+00   -1.608253577097e-03
   1.258925411794e+04    4.999934806325e-01   -1.804485928450e-03   -4.999934806274e-01    1.805929225987e-03   -4.999934806274e-01    1.805929225987e-03    1.499993480637e+00   -1.804485351015e-03
   1.412537544623e+04    4.999917926286e-01   -2.024659673229e-03   -4.999917926260e-01    2.026279079701e-03   -4.999917926260e-01    2.026279079701e-03    1.499991792630e+00   -2.024659025338e-03
   1.584893192461e+04    4.999896675751e-01   -2.271695856746e-03   -4.999896675744e-01    2.273512860693e-03   -4.999896675744e-01    2.273512860693e-03    1.499989667565e+00   -2.271695129800e-03
   1.778279410039e+04    4.999869923194e-01   -2.548871028426e-03   -4.999869923134e-01    2.550909740388e-03   -4.999869923134e-01    2.550909740388e-03    1.499986992305e+00   -2.548870212777e-03
   1.995262314969e+04    4.999836244126e-01   -2.859861057119e-03   -4.999836244043e-01    2.862148529565e-03   -4.999836244043e-01    2.862148529565e-03    1.499983624411e+00   -2.859860141949e-03
   2.238721138568e+04    4.999793845294e-01   -3.208789657410e-03   -4.999793845171e-01    3.211356243711e-03   -4.999793845171e-01    3.211356243711e-03    1.499979384534e+00   -3.208788630573e-03
   2.511886431510e+04    4.999740469184e-01   -3.600282755402e-03   -4.999740469262e-01    3.603162512601e-03   -4.999740469262e-01    3.603162512601e-03    1.499974046935e+00   -3.600281603266e-03
   2.818382931264e+04    4.999673274556e-01   -4.039529372770e-03   -4.999673274511e-01    4.042760513497e-03   -4.999673274511e-01    4.042760513497e-03    1.499967327477e+00   -4.039528080058e-03
   3.162277660168e+04    4.999588684000e-01   -4.532349776945e-03   -4.999588683992e-01    4.535975176477e-03   -4.999588683992e-01    4.535975176477e-03    1.499958868418e+00   -4.532348326498e-03
   3.548133892336e+04    4.999482194921e-01   -5.085271716873e-03   -4.999482194891e-01    5.089339482064e-03   -4.999482194891e-01    5.089339482064e-03    1.499948219494e+00   -5.085270089442e-03
   3.981071705535e+04    4.999348139656e-01   -5.705615636194e-03   -4.999348139395e-01    5.710179743822e-03   -4.999348139395e-01    5.710179743822e-03    1.499934813956e+00   -5.705613810189e-03
   4.466835921510e+04    4.999179383860e-01   -6.401589825485e-03   -4.999179383925e-01    6.406710838494e-03   -4.999179383925e-01    6.406710838494e-03    1.499917938384e+00   -6.401587776666e-03
   5.011872336273e+04    4.998966949503e-01   -7.182396537522e-03   -4.998966949424e-01    7.188142408653e-03   -4.998966949424e-01    7.188142408653e-03    1.499896694941e+00   -7.182394238709e-03
   5.623413251903e+04    4.998699536000e-01   -8.058350136893e-03   -4.998699535994e-01    8.064797110387e-03   -4.998699535994e-01    8.064797110386e-03    1.499869953605e+00   -8.058347557589e-03
   6.309573444802e+04    4.998362923063e-01   -9.041008376644e-03   -4.998362923036e-01    9.048241999943e-03   -4.998362923036e-01    9.048241999943e-03    1.499836292313e+00   -9.041005482610e-03
   7.079457843841e+04    4.997939217033e-01   -1.014331787381e-02   -4.997939216841e-01    1.015143413273e-02   -4.997939216841e-01    1.015143413273e-02    1.499793921714e+00   -1.014331462666e-02
   7.943282347243e+04    4.997405904781e-01   -1.137977476962e-02   -4.997405904555e-01    1.138888136204e-02   -4.997405904555e-01    1.138888136204e-02    1.499740590499e+00   -1.137977112626e-02
   8.912509381337e+04    4.996734666199e-01   -1.276660137524e-02   -4.996734666052e-01    1.277681914018e-02   -4.996734666052e-01    1.277681914018e-02    1.499673466633e+00   -1.276659728732e-02
   1.000000000000e+05    4.995889883554e-01   -1.432193927268e-02   -4.995889883051e-01    1.433340379376e-02   -4.995889883051e-01    1.433340379376e-02    1.499588988347e+00   -1.432193468595e-02
   1.122018454302e+05    4.994826770846e-01   -1.606605879619e-02   -4.994826770496e-01    1.607892220078e-02   -4.994826770496e-01    1.607892220078e-02    1.499482677082e+00   -1.606605364980e-02
   1.258925411794e+05    4.993489034806e-01   -1.802158396733e-02   -4.993489034051e-01    1.803601694517e-02   -4.993489034051e-01    1.803601694518e-02    1.499348903470e+00   -1.802157819300e-02
   1.412537544623e+05    4.991805943377e-01   -2.021373066540e-02   -4.991805942278e-01    2.022992473363e-02   -4.991805942278e-01    2.022992473363e-02    1.499180594325e+00   -2.021372418648e-02
   1.584893192461e+05    4.989688669112e-01   -2.267055390223e-02   -4.989688667979e-01    2.268872394665e-02   -4.989688667979e-01    2.268872394665e-02    1.498968866905e+00   -2.267054663276e-02
   1.778279410039e+05    4.987025731263e-01   -2.542319728529e-02   -4.987025730020e-01    2.544358441190e-02   -4.987025730020e-01    2.544358441190e-02    1.498702573144e+00   -2.542318912882e-02
   1.995262314969e+05    4.983677330211e-01   -2.850613375654e-02   -4.983677328615e-01    2.852900849089e-02   -4.983677328615e-01    2.852900849089e-02    1.498367733034e+00   -2.850612460485e-02
   2.238721138568e+05    4.979468331073e-01   -3.195738103012e-02   -4.979468329005e-01    3.198304690709e-02   -4.979468329006e-01    3.198304690709e-02    1.497946833135e+00   -3.195737076171e-02
   2.511886431510e+05    4.974179613490e-01   -3.581866722167e-02   -4.974179610758e-01    3.584746481338e-02   -4.974179610758e-01    3.584746481339e-02    1.497417961354e+00   -3.581865570034e-02
   2.818382931264e+05    4.967537465236e-01   -4.013551119816e-02   -4.967537461852e-01    4.016782263329e-02   -4.967537461852e-01    4.016782263328e-02    1.496753746533e+00   -4.013549827103e-02
   3.162277660168e+05    4.959200676830e-01   -4.495716723070e-02   -4.959200672522e-01    4.499342126537e-02   -4.959200672522e-01    4.499342126537e-02    1.495920067678e+00   -4.495715272621e-02
   3.548133892336e+05    4.948744986707e-01   -5.033636350071e-02   -4.948744981250e-01    5.037704120820e-02   -4.948744981250e-01    5.037704120820e-02    1.494874498668e+00   -5.033634722639e-02
   3.981071705535e+05    4.935644576410e-01   -5.632873772411e-02   -4.935644569460e-01    5.637437887890e-02   -4.935644569460e-01    5.637437887891e-02    1.493564457644e+00   -5.632871946401e-02
   4.466835921510e+05    4.919250432058e-01   -6.299183963215e-02   -4.919250423273e-01    6.304304987314e-02   -4.919250423273e-01    6.304304987314e-02    1.491925043208e+00   -6.299181914404e-02
   5.011872336273e+05    4.898765640813e-01   -7.038352895312e-02   -4.898765629872e-01    7.044098782112e-02   -4.898765629872e-01    7.044098782112e-02    1.489876564074e+00   -7.038350596500e-02
   5.623413251903e+05    4.873218137858e-01   -7.855955010631e-02   -4.873218123978e-01    7.862402006254e-02   -4.873218123978e-01    7.862402006254e-02    1.487321813783e+00   -7.855952431339e-02
   6.309573444802e+05    4.841432154770e-01   -8.757001534982e-02   -4.841432137410e-01    8.764235189538e-02   -4.841432137410e-01    8.764235189537e-02    1.484143215481e+00   -8.756998640953e-02
   7.079457843841e+05    4.802000771011e-01   -9.745448636742e-02   -4.802000749048e-01    9.753564939819e-02   -4.802000749048e-01    9.753564939819e-02    1.480200077099e+00   -9.745445389586e-02
   7.943282347243e+05    4.753263627551e-01   -1.082353287814e-01   -4.753263600091e-01    1.083263953293e-01   -4.753263600091e-01    1.083263953293e-01    1.475326362753e+00   -1.082352923477e-01
