Index       TIME            V(NODE1)          V(NODE2)     
0        0.00000000e+00    0.00000000e+00    0.00000000e+00
1        1.00000000e-10    4.71238867e-04   -1.41371660e-03
2        3.00000000e-10    1.41371586e-03   -4.24114757e-03
3        7.00000000e-10    3.29866165e-03   -9.89598495e-03
4        1.50000000e-09    7.06847882e-03   -2.12054365e-02
5        3.10000000e-09    1.46074821e-02   -4.38224464e-02
6        6.30000000e-09    2.96802982e-02   -8.90408945e-02
7        1.27000000e-08    5.97838475e-02   -1.79351543e-01
8        1.91000000e-08    8.97907373e-02   -2.69372212e-01
9        2.55000000e-08    1.19652452e-01   -3.58957355e-01
10       3.19000000e-08    1.49320710e-01   -4.47962130e-01
11       3.83000000e-08    1.78747544e-01   -5.36242632e-01
12       4.47000000e-08    2.07885375e-01   -6.23656126e-01
13       5.11000000e-08    2.36687094e-01   -7.10061282e-01
14       5.75000000e-08    2.65106133e-01   -7.95318399e-01
15       6.39000000e-08    2.93096543e-01   -8.79289630e-01
16       7.03000000e-08    3.20613070e-01   -9.61839209e-01
17       7.67000000e-08    3.47611223e-01   -1.04283367e+00
18       8.31000000e-08    3.74047353e-01   -1.12214206e+00
19       8.95000000e-08    3.99878716e-01   -1.19963615e+00
20       9.59000000e-08    4.25063547e-01   -1.27519064e+00
21       1.02300000e-07    4.49561129e-01   -1.34868339e+00
22       1.08700000e-07    4.73331851e-01   -1.41999555e+00
23       1.15100000e-07    4.96337283e-01   -1.48901185e+00
24       1.21500000e-07    5.18540227e-01   -1.55562068e+00
25       1.27900000e-07    5.39904786e-01   -1.61971436e+00
26       1.34300000e-07    5.60396417e-01   -1.68118925e+00
27       1.40700000e-07    5.79981989e-01   -1.73994597e+00
28       1.47100000e-07    5.98629835e-01   -1.79588951e+00
29       1.53500000e-07    6.16309806e-01   -1.84892942e+00
30       1.59900000e-07    6.32993317e-01   -1.89897995e+00
31       1.66300000e-07    6.48653392e-01   -1.94596018e+00
32       1.72700000e-07    6.63264713e-01   -1.98979414e+00
33       1.79100000e-07    6.76803655e-01   -2.03041096e+00
34       1.85500000e-07    6.89248329e-01   -2.06774499e+00
35       1.91900000e-07    7.00578613e-01   -2.10173584e+00
36       1.98300000e-07    7.10776190e-01   -2.13232857e+00
37       2.04700000e-07    7.19824571e-01   -2.15947371e+00
38       2.11100000e-07    7.27709126e-01   -2.18312738e+00
39       2.17500000e-07    7.34417108e-01   -2.20325132e+00
40       2.23900000e-07    7.39937671e-01   -2.21981301e+00
41       2.30300000e-07    7.44261890e-01   -2.23278567e+00
42       2.36700000e-07    7.47382772e-01   -2.24214832e+00
43       2.43100000e-07    7.49295273e-01   -2.24788582e+00
44       2.49500000e-07    7.49996299e-01   -2.24998890e+00
45       2.55900000e-07    7.49484718e-01   -2.24845415e+00
46       2.62300000e-07    7.47761356e-01   -2.24328407e+00
47       2.68700000e-07    7.44829000e-01   -2.23448700e+00
48       2.75100000e-07    7.40692391e-01   -2.22207717e+00
49       2.81500000e-07    7.35358218e-01   -2.20607465e+00
50       2.87900000e-07    7.28835103e-01   -2.18650531e+00
51       2.94300000e-07    7.21133595e-01   -2.16340079e+00
52       3.00700000e-07    7.12266146e-01   -2.13679844e+00
53       3.07100000e-07    7.02247091e-01   -2.10674127e+00
54       3.13500000e-07    6.91092631e-01   -2.07327789e+00
55       3.19900000e-07    6.78820799e-01   -2.03646240e+00
56       3.26300000e-07    6.65451438e-01   -1.99635431e+00
57       3.32700000e-07    6.51006163e-01   -1.95301849e+00
58       3.39100000e-07    6.35508329e-01   -1.90652499e+00
59       3.45500000e-07    6.18982994e-01   -1.85694898e+00
60       3.51900000e-07    6.01456876e-01   -1.80437063e+00
61       3.58300000e-07    5.82958312e-01   -1.74887494e+00
62       3.64700000e-07    5.63517210e-01   -1.69055163e+00
63       3.71100000e-07    5.43165003e-01   -1.62949501e+00
64       3.77500000e-07    5.21934597e-01   -1.56580379e+00
65       3.83900000e-07    4.99860318e-01   -1.49958096e+00
66       3.90300000e-07    4.76977856e-01   -1.43093357e+00
67       3.96700000e-07    4.53324208e-01   -1.35997262e+00
68       4.03100000e-07    4.28937616e-01   -1.28681285e+00
69       4.09500000e-07    4.03857511e-01   -1.21157253e+00
70       4.15900000e-07    3.78124441e-01   -1.13437332e+00
71       4.22300000e-07    3.51780013e-01   -1.05534004e+00
72       4.28700000e-07    3.24866820e-01   -9.74600461e-01
73       4.35100000e-07    2.97428378e-01   -8.92285133e-01
74       4.41500000e-07    2.69509047e-01   -8.08527141e-01
75       4.47900000e-07    2.41153969e-01   -7.23461908e-01
76       4.54300000e-07    2.12408990e-01   -6.37226969e-01
77       4.60700000e-07    1.83320583e-01   -5.49961750e-01
78       4.67100000e-07    1.53935781e-01   -4.61807342e-01
79       4.73500000e-07    1.24302092e-01   -3.72906276e-01
80       4.79900000e-07    9.44674296e-02   -2.83402289e-01
81       4.92700000e-07    3.43883789e-02   -1.03165137e-01
82       4.95813593e-07    1.97257020e-02   -5.91771059e-02
83       4.98927187e-07    5.05547588e-03   -1.51664276e-02
84       5.02040780e-07   -9.61668500e-03    2.88500550e-02
85       5.08267966e-07   -3.89443518e-02    1.16833055e-01
86       5.14495153e-07   -6.82124067e-02    2.04637220e-01
87       5.20722340e-07   -9.73760494e-02    2.92128148e-01
88       5.26949526e-07   -1.26390639e-01    3.79171918e-01
89       5.33176713e-07   -1.55211764e-01    4.65635292e-01
90       5.39403899e-07   -1.83795307e-01    5.51385921e-01
91       5.45631086e-07   -2.12097516e-01    6.36292547e-01
92       5.51858272e-07   -2.40075068e-01    7.20225205e-01
93       5.58085459e-07   -2.67685140e-01    8.03055420e-01
94       5.64312646e-07   -2.94885468e-01    8.84656403e-01
95       5.70539832e-07   -3.21634416e-01    9.64903249e-01
96       5.76767019e-07   -3.47891041e-01    1.04367312e+00
97       5.82994205e-07   -3.73615152e-01    1.12084546e+00
98       5.89221392e-07   -3.98767372e-01    1.19630212e+00
99       5.95448578e-07   -4.23309203e-01    1.26992761e+00
100      6.01675765e-07   -4.47203076e-01    1.34160923e+00
101      6.07902952e-07   -4.70412420e-01    1.41123726e+00
102      6.14130138e-07   -4.92901706e-01    1.47870512e+00
103      6.20357325e-07   -5.14636511e-01    1.54390953e+00
104      6.26584511e-07   -5.35583565e-01    1.60675070e+00
105      6.32811698e-07   -5.55710806e-01    1.66713242e+00
106      6.39038885e-07   -5.74987424e-01    1.72496227e+00
107      6.45266071e-07   -5.93383912e-01    1.78015174e+00
108      6.51493258e-07   -6.10872112e-01    1.83261634e+00
109      6.57720444e-07   -6.27425255e-01    1.88227576e+00
110      6.63947631e-07   -6.43018002e-01    1.92905401e+00
111      6.70174817e-07   -6.57626486e-01    1.97287946e+00
112      6.76402004e-07   -6.71228345e-01    2.01368504e+00
113      6.82629191e-07   -6.83802761e-01    2.05140828e+00
114      6.88856377e-07   -6.95330484e-01    2.08599145e+00
115      6.95083564e-07   -7.05793869e-01    2.11738161e+00
116      7.01310750e-07   -7.15176901e-01    2.14553070e+00
117      7.07537937e-07   -7.23465217e-01    2.17039565e+00
118      7.13765123e-07   -7.30646129e-01    2.19193839e+00
119      7.19992310e-07   -7.36708647e-01    2.21012594e+00
120      7.26219497e-07   -7.41643490e-01    2.22493047e+00
121      7.32446683e-07   -7.45443104e-01    2.23632931e+00
122      7.38673870e-07   -7.48101674e-01    2.24430502e+00
123      7.44901056e-07   -7.49615130e-01    2.24884539e+00
124      7.51128243e-07   -7.49981155e-01    2.24994347e+00
125      7.57355429e-07   -7.49199189e-01    2.24759757e+00
126      7.63582616e-07   -7.47270430e-01    2.24181129e+00
127      7.69809803e-07   -7.44197829e-01    2.23259349e+00
128      7.76036989e-07   -7.39986089e-01    2.21995827e+00
129      7.82264176e-07   -7.34641658e-01    2.20392497e+00
130      7.88491362e-07   -7.28172716e-01    2.18451815e+00
131      7.94718549e-07   -7.20589166e-01    2.16176750e+00
132      8.00945735e-07   -7.11902614e-01    2.13570784e+00
133      8.07172922e-07   -7.02126359e-01    2.10637908e+00
134      8.13400109e-07   -6.91275363e-01    2.07382609e+00
135      8.19627295e-07   -6.79366237e-01    2.03809871e+00
136      8.25854482e-07   -6.66417210e-01    1.99925163e+00
137      8.32081668e-07   -6.52448103e-01    1.95734431e+00
138      8.38308855e-07   -6.37480298e-01    1.91244089e+00
139      8.44536041e-07   -6.21536706e-01    1.86461012e+00
140      8.50763228e-07   -6.04641732e-01    1.81392520e+00
141      8.56990415e-07   -5.86821238e-01    1.76046371e+00
142      8.63217601e-07   -5.68102501e-01    1.70430750e+00
143      8.69444788e-07   -5.48514173e-01    1.64554252e+00
144      8.75671974e-07   -5.28086238e-01    1.58425871e+00
145      8.81899161e-07   -5.06849965e-01    1.52054990e+00
146      8.88126348e-07   -4.84837861e-01    1.45451358e+00
147      8.94353534e-07   -4.62083619e-01    1.38625086e+00
148      9.00580721e-07   -4.38622069e-01    1.31586621e+00
149      9.06807907e-07   -4.14489122e-01    1.24346737e+00
150      9.13035094e-07   -3.89721721e-01    1.16916516e+00
151      9.19262280e-07   -3.64357775e-01    1.09307332e+00
152      9.25489467e-07   -3.38436109e-01    1.01530833e+00
153      9.31716654e-07   -3.11996401e-01    9.35989204e-01
154      9.37943840e-07   -2.85079123e-01    8.55237369e-01
155      9.44171027e-07   -2.57725476e-01    7.73176428e-01
156      9.50398213e-07   -2.29977331e-01    6.89931992e-01
157      9.56625400e-07   -2.01877160e-01    6.05631481e-01
158      9.62852586e-07   -1.73467978e-01    5.20403935e-01
159      9.69079773e-07   -1.44793270e-01    4.34379810e-01
160      9.75306960e-07   -1.15896928e-01    3.47690783e-01
161      9.87761333e-07   -5.76165380e-02    1.72849614e-01
162      1.00000000e-06   -1.83690953e-16   -2.49160501e-15
End of Xyce(TM) Simulation
