Index          TIME                V(BAT)              V(RESET)
0       0.000000000000e+00   0.000000000000e+00   9.999999810294e+00   
1       1.000000000000e-10   0.000000000000e+00   9.999999810294e+00   
2       3.000000000000e-10   0.000000000000e+00   9.999999810294e+00   
3       7.000000000000e-10   0.000000000000e+00   9.999999810294e+00   
4       1.500000000000e-09   0.000000000000e+00   9.999999810294e+00   
5       3.100000000000e-09   0.000000000000e+00   9.999999810294e+00   
6       6.300000000000e-09   0.000000000000e+00   9.999999810294e+00   
7       1.270000000000e-08   0.000000000000e+00   9.999999810294e+00   
8       2.550000000000e-08   0.000000000000e+00   9.999999810294e+00   
9       5.110000000000e-08   0.000000000000e+00   9.999999810294e+00   
10      1.023000000000e-07   0.000000000000e+00   9.999999810294e+00   
11      2.047000000000e-07   0.000000000000e+00   9.999999810294e+00   
12      4.095000000000e-07   0.000000000000e+00   9.999999810294e+00   
13      8.191000000000e-07   0.000000000000e+00   9.999999810294e+00   
14      1.638300000000e-06   0.000000000000e+00   9.999999810294e+00   
15      3.276700000000e-06   0.000000000000e+00   9.999999810294e+00   
16      6.553500000000e-06   0.000000000000e+00   9.999999810294e+00   
17      1.310710000000e-05   0.000000000000e+00   9.999999810294e+00   
18      2.621430000000e-05   0.000000000000e+00   9.999999810294e+00   
19      5.242870000000e-05   0.000000000000e+00   9.999999810294e+00   
20      1.048575000000e-04   0.000000000000e+00   9.999999810294e+00   
21      2.048575000000e-04   0.000000000000e+00   9.999999810294e+00   
22      3.048575000000e-04   0.000000000000e+00   9.999999810294e+00   
23      4.048575000000e-04   0.000000000000e+00   9.999999810294e+00   
24      5.048575000000e-04   0.000000000000e+00   9.999999810294e+00   
25      6.048575000000e-04   0.000000000000e+00   9.999999810294e+00   
26      7.048575000000e-04   0.000000000000e+00   9.999999810294e+00   
27      8.048575000000e-04   0.000000000000e+00   9.999999810294e+00   
28      9.048575000000e-04   0.000000000000e+00   9.999999810294e+00   
29      1.000000000000e-03   0.000000000000e+00   9.999999810294e+00   
30      1.000000005000e-03   2.499999990010e-02   9.999999810295e+00   
31      1.000000015000e-03   7.499999970031e-02   9.999999810302e+00   
32      1.000000035000e-03   1.749999993007e-01   9.999999810371e+00   
33      1.000000075000e-03   3.749999995858e-01   9.999999810954e+00   
34      1.000000155000e-03   7.749999990717e-01   9.999999815466e+00   
35      1.000000315000e-03   1.574999999128e+00   9.999999847319e+00   
36      1.000000635000e-03   3.174999999240e+00   1.000000004789e+01   
37      1.000001000000e-03   4.999999999537e+00   1.000000049281e+01   
38      1.000001100000e-03   5.000000000000e+00   1.000000062816e+01   
39      1.000001300000e-03   5.000000000000e+00   1.000000093676e+01   
40      1.000001700000e-03   5.000000000000e+00   1.000000163454e+01   
41      1.000002500000e-03   5.000000000000e+00   1.000000313251e+01   
42      1.000004100000e-03   5.000000000000e+00   1.000000611995e+01   
43      1.000007300000e-03   5.000000000000e+00   1.000001164534e+01   
44      1.000013700000e-03   5.000000000000e+00   1.000002095782e+01   
45      1.000026500000e-03   5.000000000000e+00   1.000003447709e+01   
46      1.000052100000e-03   5.000000000000e+00   1.000004987663e+01   
47      1.000103300000e-03   5.000000000000e+00   1.000006213872e+01   
48      1.000205700000e-03   5.000000000000e+00   1.000006823249e+01   
49      1.000410500000e-03   5.000000000000e+00   1.000006995755e+01   
50      1.000820100000e-03   5.000000000000e+00   1.000007021117e+01   
51      1.001639300000e-03   5.000000000000e+00   1.000007021075e+01   
52      1.002458500000e-03   5.000000000000e+00   1.000007019099e+01   
53      1.003277700000e-03   5.000000000000e+00   1.000007017048e+01   
54      1.004916100000e-03   5.000000000000e+00   1.000007013110e+01   
55      1.006390660000e-03   5.000000000000e+00   1.000007009118e+01   
56      1.007717764000e-03   5.000000000000e+00   1.000007005816e+01   
57      1.009044868000e-03   5.000000000000e+00   1.000007002494e+01   
58      1.010371972000e-03   5.000000000000e+00   1.000006999173e+01   
59      1.013026180000e-03   5.000000000000e+00   1.000006992806e+01   
60      1.014722763325e-03   5.000000000000e+00   1.000006988221e+01   
61      1.016419346650e-03   5.000000000000e+00   1.000006983973e+01   
62      1.018115929975e-03   5.000000000000e+00   1.000006979733e+01   
63      1.021509096624e-03   5.000000000000e+00   1.000006971607e+01   
64      1.023317243476e-03   5.000000000000e+00   1.000006966726e+01   
65      1.025125390329e-03   5.000000000000e+00   1.000006962204e+01   
66      1.026933537181e-03   5.000000000000e+00   1.000006957689e+01   
67      1.030549830885e-03   5.000000000000e+00   1.000006949029e+01   
68      1.032477408339e-03   5.000000000000e+00   1.000006943826e+01   
69      1.034404985792e-03   5.000000000000e+00   1.000006939001e+01   
70      1.036332563246e-03   5.000000000000e+00   1.000006934181e+01   
71      1.040187718153e-03   5.000000000000e+00   1.000006924922e+01   
72      1.042235398379e-03   5.000000000000e+00   1.000006919375e+01   
73      1.044283078605e-03   5.000000000000e+00   1.000006914221e+01   
74      1.046330758830e-03   5.000000000000e+00   1.000006909064e+01   
75      1.050426119282e-03   5.000000000000e+00   1.000006899122e+01   
76      1.052594750872e-03   5.000000000000e+00   1.000006893173e+01   
77      1.054763382462e-03   5.000000000000e+00   1.000006887621e+01   
78      1.056932014052e-03   5.000000000000e+00   1.000006882043e+01   
79      1.061269277232e-03   5.000000000000e+00   1.000006871195e+01   
80      1.063559704262e-03   5.000000000000e+00   1.000006864689e+01   
81      1.065850131292e-03   5.000000000000e+00   1.000006858551e+01   
82      1.068140558321e-03   5.000000000000e+00   1.000006852325e+01   
83      1.072721412380e-03   5.000000000000e+00   1.000006839958e+01   
84      1.075134484159e-03   5.000000000000e+00   1.000006832467e+01   
85      1.077547555937e-03   5.000000000000e+00   1.000006825218e+01   
86      1.079960627715e-03   5.000000000000e+00   1.000006817702e+01   
87      1.084786771271e-03   5.000000000000e+00   1.000006802077e+01   
88      1.087323346706e-03   5.000000000000e+00   1.000006792367e+01   
89      1.089859922141e-03   5.000000000000e+00   1.000006782489e+01   
90      1.092396497575e-03   5.000000000000e+00   1.000006771811e+01   
91      1.097469648445e-03   5.000000000000e+00   1.000006747783e+01   
92      1.100130599875e-03   5.000000000000e+00   1.000006732177e+01   
93      1.102791551306e-03   5.000000000000e+00   1.000006715101e+01   
94      1.105452502737e-03   5.000000000000e+00   1.000006695589e+01   
95      1.110774405599e-03   5.000000000000e+00   1.000006647372e+01   
96      1.113560622081e-03   5.000000000000e+00   1.000006614470e+01   
97      1.116346838564e-03   5.000000000000e+00   1.000006575929e+01   
98      1.119133055046e-03   5.000000000000e+00   1.000006529723e+01   
99      1.124705488011e-03   5.000000000000e+00   1.000006407005e+01   
100     1.127617877907e-03   5.000000000000e+00   1.000006320109e+01   
101     1.130530267803e-03   5.000000000000e+00   1.000006213809e+01   
102     1.133442657699e-03   5.000000000000e+00   1.000006082494e+01   
103     1.139267437491e-03   5.000000000000e+00   1.000005718694e+01   
104     1.142306927962e-03   5.000000000000e+00   1.000005455081e+01   
105     1.145346418434e-03   5.000000000000e+00   1.000005124981e+01   
106     1.148385908905e-03   5.000000000000e+00   1.000004710127e+01   
107     1.154464889848e-03   5.000000000000e+00   1.000003532390e+01   
108     1.157632393311e-03   5.000000000000e+00   1.000002665827e+01   
109     1.160799896773e-03   5.000000000000e+00   1.000001565737e+01   
110     1.163967400235e-03   5.000000000000e+00   1.000000167345e+01   
111     1.170302407159e-03   5.000000000000e+00   9.999961301794e+00   
112     1.173598351162e-03   5.000000000000e+00   9.999931241015e+00   
113     1.176894295165e-03   5.000000000000e+00   9.999892698715e+00   
114     1.180190239169e-03   5.000000000000e+00   9.999843255976e+00   
115     1.186782127175e-03   5.000000000000e+00   9.999698517767e+00   
116     1.190199719222e-03   5.000000000000e+00   9.999589852221e+00   
117     1.193617311269e-03   5.000000000000e+00   9.999449409336e+00   
118     1.197034903316e-03   5.000000000000e+00   9.999267851465e+00   
119     1.203870087410e-03   5.000000000000e+00   9.998729983670e+00   
120     1.207302120934e-03   5.000000000000e+00   9.998336361487e+00   
121     1.210734154458e-03   5.000000000000e+00   9.997827922168e+00   
122     1.213822984630e-03   5.000000000000e+00   9.997244611875e+00   
123     1.216911814802e-03   5.000000000000e+00   9.996510217963e+00   
124     1.220000644974e-03   5.000000000000e+00   9.995585979703e+00   
125     1.226178305318e-03   5.000000000000e+00   9.992960259643e+00   
126     1.228511234196e-03   5.000000000000e+00   9.991609979314e+00   
127     1.230844163075e-03   5.000000000000e+00   9.990005608684e+00   
128     1.232937350565e-03   5.000000000000e+00   9.988310482673e+00   
129     1.234821219306e-03   5.000000000000e+00   9.986543477122e+00   
130     1.236516701173e-03   5.000000000000e+00   9.984728562094e+00   
131     1.238212183041e-03   5.000000000000e+00   9.982671355775e+00   
132     1.239738116721e-03   5.000000000000e+00   9.980586680341e+00   
133     1.241264050401e-03   5.000000000000e+00   9.978253466948e+00   
134     1.242637390714e-03   5.000000000000e+00   9.975917317503e+00   
135     1.244010731026e-03   5.000000000000e+00   9.973332234300e+00   
136     1.245246737307e-03   5.000000000000e+00   9.970771657707e+00   
137     1.246482743589e-03   5.000000000000e+00   9.967967040190e+00   
138     1.247595149242e-03   5.000000000000e+00   9.965215787231e+00   
139     1.248707554895e-03   5.000000000000e+00   9.962229853087e+00   
140     1.249708719982e-03   5.000000000000e+00   9.959326110090e+00   
141     1.250709885070e-03   5.000000000000e+00   9.956200556666e+00   
142     1.251610933649e-03   5.000000000000e+00   9.953184708634e+00   
143     1.252511982228e-03   5.000000000000e+00   9.949962447287e+00   
144     1.253413030807e-03   5.000000000000e+00   9.946520150164e+00   
145     1.255215127965e-03   5.000000000000e+00   9.938917936839e+00   
146     1.257017225123e-03   5.000000000000e+00   9.930239165187e+00   
147     1.258819322281e-03   5.000000000000e+00   9.920337190462e+00   
148     1.260621419439e-03   5.000000000000e+00   9.909041378834e+00   
149     1.261822817544e-03   5.000000000000e+00   9.900637177701e+00   
150     1.263024215649e-03   5.000000000000e+00   9.891464534180e+00   
151     1.264225613755e-03   5.000000000000e+00   9.881463864542e+00   
152     1.265163371946e-03   5.000000000000e+00   9.873013115151e+00   
153     1.266101130138e-03   5.000000000000e+00   9.863969466779e+00   
154     1.267038888329e-03   5.000000000000e+00   9.854298927367e+00   
155     1.267976646520e-03   5.000000000000e+00   9.843928565568e+00   
156     1.268914404712e-03   5.000000000000e+00   9.832831447509e+00   
157     1.269852162903e-03   5.000000000000e+00   9.820966134257e+00   
158     1.270789921095e-03   5.000000000000e+00   9.808245365197e+00   
159     1.271727679286e-03   5.000000000000e+00   9.794634247349e+00   
160     1.272665437478e-03   5.000000000000e+00   9.780081522849e+00   
161     1.273603195669e-03   5.000000000000e+00   9.764483032038e+00   
162     1.274540953861e-03   5.000000000000e+00   9.747795074449e+00   
163     1.275478712052e-03   5.000000000000e+00   9.729955056120e+00   
164     1.276416470244e-03   5.000000000000e+00   9.710836239816e+00   
165     1.277354228435e-03   5.000000000000e+00   9.690385194900e+00   
166     1.278291986627e-03   5.000000000000e+00   9.668525582420e+00   
167     1.278995305270e-03   5.000000000000e+00   9.651117903081e+00   
168     1.279698623914e-03   5.000000000000e+00   9.632805554604e+00   
169     1.280401942558e-03   5.000000000000e+00   9.613543200765e+00   
170     1.281105261201e-03   5.000000000000e+00   9.593283754580e+00   
171     1.281808579845e-03   5.000000000000e+00   9.571968899238e+00   
172     1.282511898488e-03   5.000000000000e+00   9.549549261490e+00   
173     1.283215217132e-03   5.000000000000e+00   9.525969585426e+00   
174     1.283918535776e-03   5.000000000000e+00   9.501172475485e+00   
175     1.284621854419e-03   5.000000000000e+00   9.475088462606e+00   
176     1.285325173063e-03   5.000000000000e+00   9.447657145506e+00   
177     1.286028491706e-03   5.000000000000e+00   9.418811653110e+00   
178     1.286731810350e-03   5.000000000000e+00   9.388482567154e+00   
179     1.287435128994e-03   5.000000000000e+00   9.356584910785e+00   
180     1.288138447637e-03   5.000000000000e+00   9.323045839485e+00   
181     1.288841766281e-03   5.000000000000e+00   9.287784289910e+00   
182     1.289545084924e-03   5.000000000000e+00   9.250716117724e+00   
183     1.290248403568e-03   5.000000000000e+00   9.211739397417e+00   
184     1.290951722212e-03   5.000000000000e+00   9.170765707307e+00   
185     1.291655040855e-03   5.000000000000e+00   9.127697136951e+00   
186     1.292358359499e-03   5.000000000000e+00   9.082432091828e+00   
187     1.293061678142e-03   5.000000000000e+00   9.034848215461e+00   
188     1.293764996786e-03   5.000000000000e+00   8.984838734648e+00   
189     1.294468315430e-03   5.000000000000e+00   8.932285747909e+00   
190     1.295171634073e-03   5.000000000000e+00   8.877066969054e+00   
191     1.296296943903e-03   5.000000000000e+00   8.782819060835e+00   
192     1.297422253733e-03   5.000000000000e+00   8.680820439710e+00   
193     1.298547563563e-03   5.000000000000e+00   8.570457822723e+00   
194     1.299672873392e-03   5.000000000000e+00   8.451074131509e+00   
195     1.300798183222e-03   5.000000000000e+00   8.321966340901e+00   
196     1.301507231625e-03   5.000000000000e+00   8.235277631362e+00   
197     1.302216280028e-03   5.000000000000e+00   8.144227093888e+00   
198     1.302925328431e-03   5.000000000000e+00   8.048606565148e+00   
199     1.303634376833e-03   5.000000000000e+00   7.948199184679e+00   
200     1.304343425236e-03   5.000000000000e+00   7.842779154567e+00   
201     1.305052473639e-03   5.000000000000e+00   7.732103717823e+00   
202     1.305761522042e-03   5.000000000000e+00   7.615930338942e+00   
203     1.306470570445e-03   5.000000000000e+00   7.494002891933e+00   
204     1.307179618848e-03   5.000000000000e+00   7.366054977253e+00   
205     1.307888667250e-03   5.000000000000e+00   7.231809652959e+00   
206     1.308597715653e-03   5.000000000000e+00   7.090981767813e+00   
207     1.309306764056e-03   5.000000000000e+00   6.943271960082e+00   
208     1.310015812459e-03   5.000000000000e+00   6.788370808160e+00   
209     1.310724860862e-03   5.000000000000e+00   6.625957414135e+00   
210     1.311433909265e-03   5.000000000000e+00   6.455699145862e+00   
211     1.312142957667e-03   5.000000000000e+00   6.277260043813e+00   
212     1.312852006070e-03   5.000000000000e+00   6.090281652591e+00   
213     1.313561054473e-03   5.000000000000e+00   5.894397275341e+00   
214     1.314270102876e-03   5.000000000000e+00   5.689227967040e+00   
215     1.314979151279e-03   5.000000000000e+00   5.474382317702e+00   
216     1.315688199681e-03   5.000000000000e+00   5.249486872920e+00   
217     1.316397248084e-03   5.000000000000e+00   5.014119536176e+00   
218     1.317106296487e-03   5.000000000000e+00   4.767860149011e+00   
219     1.317815344890e-03   5.000000000000e+00   4.510277210262e+00   
220     1.318524393293e-03   5.000000000000e+00   4.240927825049e+00   
221     1.318566989571e-03   5.000000000000e+00   4.224370261012e+00   
222     1.318614661390e-03   5.000000000000e+00   4.205782597877e+00   
223     1.318662333208e-03   5.000000000000e+00   4.187139275981e+00   
224     1.318710005026e-03   5.000000000000e+00   4.168440321346e+00   
225     1.318805348663e-03   5.000000000000e+00   4.130901556735e+00   
226     1.318900692300e-03   5.000000000000e+00   4.093130085261e+00   
227     1.318996035937e-03   5.000000000000e+00   4.055124058620e+00   
228     1.319186723211e-03   5.000000000000e+00   3.978422497871e+00   
229     1.319377410484e-03   5.000000000000e+00   3.900807340950e+00   
230     1.319758785031e-03   5.000000000000e+00   3.742804382867e+00   
231     1.320102022124e-03   5.000000000000e+00   3.597412926547e+00   
232     1.320445259217e-03   5.000000000000e+00   3.448941197498e+00   
233     1.320788496309e-03   5.000000000000e+00   3.297340135887e+00   
234     1.321131733402e-03   5.000000000000e+00   3.142562682797e+00   
235     1.321360558130e-03   5.000000000000e+00   3.037591960737e+00   
236     1.321589382858e-03   5.000000000000e+00   2.931177872032e+00   
237     1.321818207587e-03   5.000000000000e+00   2.823307761842e+00   
238     1.322024149842e-03   5.000000000000e+00   2.724967519982e+00   
239     1.322230092098e-03   5.000000000000e+00   2.625426868685e+00   
240     1.322436034353e-03   5.000000000000e+00   2.524676170628e+00   
241     1.322641976609e-03   5.000000000000e+00   2.422714604176e+00   
242     1.322847918864e-03   5.000000000000e+00   2.319531129512e+00   
243     1.323053861120e-03   5.000000000000e+00   2.215117912521e+00   
244     1.323259803376e-03   5.000000000000e+00   2.109481408785e+00   
245     1.323465745631e-03   5.000000000000e+00   2.002611742806e+00   
246     1.323671687887e-03   5.000000000000e+00   1.894504142546e+00   
247     1.323877630142e-03   5.000000000000e+00   1.785179423993e+00   
248     1.324083572398e-03   5.000000000000e+00   1.674629159679e+00   
249     1.324289514653e-03   5.000000000000e+00   1.562854060715e+00   
250     1.324315283022e-03   5.000000000000e+00   1.548783276263e+00   
251     1.324338690351e-03   5.000000000000e+00   1.535988434988e+00   
252     1.324362097680e-03   5.000000000000e+00   1.523178370046e+00   
253     1.324385505009e-03   5.000000000000e+00   1.510353108810e+00   
254     1.324432319667e-03   5.000000000000e+00   1.484684226790e+00   
255     1.324455733684e-03   5.000000000000e+00   1.471804351129e+00   
256     1.324479147700e-03   5.000000000000e+00   1.458910566969e+00   
257     1.324502561716e-03   5.000000000000e+00   1.446002680314e+00   
258     1.324549389749e-03   5.000000000000e+00   1.420172115967e+00   
259     1.324572316013e-03   5.000000000000e+00   1.407486108077e+00   
260     1.324595242277e-03   5.000000000000e+00   1.394787288049e+00   
261     1.324618168541e-03   5.000000000000e+00   1.382075435560e+00   
262     1.324664021069e-03   5.000000000000e+00   1.356640364991e+00   
263     1.324686269205e-03   5.000000000000e+00   1.344261298573e+00   
264     1.324708517340e-03   5.000000000000e+00   1.331870521482e+00   
265     1.324730765476e-03   5.000000000000e+00   1.319467838318e+00   
266     1.324775261748e-03   5.000000000000e+00   1.294654528326e+00   
267     1.324796792834e-03   5.000000000000e+00   1.282612129232e+00   
268     1.324818323921e-03   5.000000000000e+00   1.270559114940e+00   
269     1.324839855007e-03   5.000000000000e+00   1.258495324280e+00   
270     1.324882917180e-03   5.000000000000e+00   1.234363170203e+00   
271     1.324903736768e-03   5.000000000000e+00   1.222662270377e+00   
272     1.324924556356e-03   5.000000000000e+00   1.210951834507e+00   
273     1.324945375945e-03   5.000000000000e+00   1.199231735969e+00   
274     1.324987015121e-03   5.000000000000e+00   1.175790280908e+00   
275     1.325007834709e-03   5.000000000000e+00   1.164036004028e+00   
