#H
SOURCE='Xyce' VERSION='7.0'
TITLE='* bug_903.cir'
SUBTITLE='Xyce data' 
TIME='10:09:49 AM' DATE='Jun 15, 2017' TEMPERATURE='2.70000000e+01'
ANALYSIS='Transient Analysis' SERIALNO='12345'
ALLVALUES='NO' COMPLEXVALUES='NO' NODES='16'
SWEEPVAR='Time' SWEEPMODE='VAR_STEP'
XBEGIN='0.00000000e+00' XEND='1.00000000e+00'
FORMAT='0 VOLTSorAMPS;EFLOAT : NODEorBRANCH;NODE  '  
DGTLDATA='NO'
#N
'V(NAME_IS_122_CHARACTERS_ITS_REALLY_REALLY_REALLY_REALLY_REALLY_REALLY_REALLY_REALLY_REALLY_REALLY_REALLY_REALLY_REALLY_LONG)' 
'V(NAME_IS_121_CHARACTERS_ITS_LESS_REALLY_REALLY_REALLY_REALLY_REALLY_REALLY_REALLY_REALLY_REALLY_REALLY_REALLY_REALLY_LONGG)' 
'V(1)' 'V(2)' 'V(3)' 'V(4)' 'V(5)' 'V(6)' 'V(7)' 'V(8)' 'V(9)' 'V(10)' 'V(11)' 'V(12)' 
'V(13)' 'V(14)' 
#C 0.00000000e+00 16
0.00000000e+00:1   0.00000000e+00:2   0.00000000e+00:3   0.00000000e+00:4
0.00000000e+00:5   0.00000000e+00:6   0.00000000e+00:7   0.00000000e+00:8
0.00000000e+00:9   0.00000000e+00:10   0.00000000e+00:11   0.00000000e+00:12
0.00000000e+00:13   0.00000000e+00:14   0.00000000e+00:15   0.00000000e+00:16
#C 2.00000000e-01 16
4.00000000e-01:1   2.00000000e-01:2   2.00000000e+00:3   1.80000000e+00:4
1.60000000e+00:5   1.40000000e+00:6   1.20000000e+00:7   1.00000000e+00:8
8.00000000e-01:9   6.00000000e-01:10   4.00000000e-01:11   2.00000000e-01:12
1.20000000e+00:13   1.00000000e+00:14   8.00000000e-01:15   6.00000000e-01:16
#C 4.00000000e-01 16
8.00000000e-01:1   4.00000000e-01:2   4.00000000e+00:3   3.60000000e+00:4
3.20000000e+00:5   2.80000000e+00:6   2.40000000e+00:7   2.00000000e+00:8
1.60000000e+00:9   1.20000000e+00:10   8.00000000e-01:11   4.00000000e-01:12
2.40000000e+00:13   2.00000000e+00:14   1.60000000e+00:15   1.20000000e+00:16
#C 6.00000000e-01 16
1.20000000e+00:1   6.00000000e-01:2   6.00000000e+00:3   5.40000000e+00:4
4.80000000e+00:5   4.20000000e+00:6   3.60000000e+00:7   3.00000000e+00:8
2.40000000e+00:9   1.80000000e+00:10   1.20000000e+00:11   6.00000000e-01:12
3.60000000e+00:13   3.00000000e+00:14   2.40000000e+00:15   1.80000000e+00:16
#C 8.00000000e-01 16
1.60000000e+00:1   8.00000000e-01:2   8.00000000e+00:3   7.20000000e+00:4
6.40000000e+00:5   5.60000000e+00:6   4.80000000e+00:7   4.00000000e+00:8
3.20000000e+00:9   2.40000000e+00:10   1.60000000e+00:11   8.00000000e-01:12
4.80000000e+00:13   4.00000000e+00:14   3.20000000e+00:15   2.40000000e+00:16
#C 1.00000000e+00 16
2.00000000e+00:1   1.00000000e+00:2   1.00000000e+01:3   9.00000000e+00:4
8.00000000e+00:5   7.00000000e+00:6   6.00000000e+00:7   5.00000000e+00:8
4.00000000e+00:9   3.00000000e+00:10   2.00000000e+00:11   1.00000000e+00:12
6.00000000e+00:13   5.00000000e+00:14   4.00000000e+00:15   3.00000000e+00:16
#;
