#H
SOURCE='Xyce' VERSION='7.0'
TITLE='* bug_903_ac.cir'
SUBTITLE='Xyce data' 
TIME='10:33:17 AM' DATE='Jun 15, 2017' TEMPERATURE='2.70000000e+01'
ANALYSIS='AC Sweep' SERIALNO='12345'
ALLVALUES='NO' COMPLEXVALUES='YES' NODES='16'
SWEEPVAR='FREQ' SWEEPMODE='VAR_STEP'
XBEGIN='1.00000000e+02' XEND='1.00000000e+06'
FORMAT='0 VOLTSorAMPS;EFLOAT : NODEorBRANCH;NODE  '  
DGTLDATA='NO'
#N
'V(NAME_IS_122_CHARACTERS_ITS_REALLY_REALLY_REALLY_REALLY_REALLY_REALLY_REALLY_REALLY_REALLY_REALLY_REALLY_REALLY_REALLY_LONG)' 
'V(NAME_IS_121_CHARACTERS_ITS_LESS_REALLY_REALLY_REALLY_REALLY_REALLY_REALLY_REALLY_REALLY_REALLY_REALLY_REALLY_REALLY_LONGG)' 
'V(1)' 'V(1A)' 'V(2)' 'V(3)' 'V(4)' 'V(5)' 'V(6)' 'V(7)' 'V(8)' 'V(9)' 'V(11)' 'V(11A)' 
'V(12)' 'V(13)' 
#C 1.00000000e+02 16
3.94780280e-06/1.25662466e-03:1   1.97390140e-06/6.28312330e-04:2   1.00000000e+00/0.00000000e+00:3   3.19764957e-05/5.65468595e-03:4
2.84235518e-05/5.02638751e-03:5   2.48706078e-05/4.39808908e-03:6   2.13176638e-05/3.76979064e-03:7   1.77647199e-05/3.14149220e-03:8
1.42117759e-05/2.51319376e-03:9   1.06588319e-05/1.88489532e-03:10   7.10588794e-06/1.25659688e-03:11   3.55294397e-06/6.28298439e-04:12
1.00000000e+00/0.00000000e+00:13   9.86950699e-06/3.14156165e-03:14   7.89560559e-06/2.51324932e-03:15   5.92170420e-06/1.88493699e-03:16
#C 1.77827941e+02 16
1.24837822e-05/2.23458207e-03:1   6.24189109e-06/1.11729103e-03:2   1.00000000e+00/0.00000000e+00:3   1.01111567e-04/1.00549164e-02:4
8.98769485e-05/8.93770345e-03:5   7.86423299e-05/7.82049052e-03:6   6.74077114e-05/6.70327759e-03:7   5.61730928e-05/5.58606466e-03:8
4.49384742e-05/4.46885173e-03:9   3.37038557e-05/3.35163879e-03:10   2.24692371e-05/2.23442586e-03:11   1.12346186e-05/1.11721293e-03:12
1.00000000e+00/0.00000000e+00:13   3.12094555e-05/5.58645517e-03:14   2.49675644e-05/4.46916414e-03:15   1.87256733e-05/3.35187310e-03:16
#C 3.16227766e+02 16
3.94745216e-05/3.97344314e-03:1   1.97372608e-05/1.98672157e-03:2   1.00000000e+00/0.00000000e+00:3   3.19672959e-04/1.78765424e-02:4
2.84153741e-04/1.58902599e-02:5   2.48634524e-04/1.39039774e-02:6   2.13115306e-04/1.19176949e-02:7   1.77596088e-04/9.93141245e-03:8
1.42076871e-04/7.94512996e-03:9   1.06557653e-04/5.95884747e-03:10   7.10384354e-05/3.97256498e-03:11   3.55192177e-05/1.98628249e-03:12
1.00000000e+00/0.00000000e+00:13   9.86863041e-05/9.93360786e-03:14   7.89490433e-05/7.94688629e-03:15   5.92117824e-05/5.96016471e-03:16
#C 5.62341325e+02 16
1.24802767e-04/7.06438468e-03:1   6.24013833e-05/3.53219234e-03:2   1.00000000e+00/0.00000000e+00:3   1.01019639e-03/3.17675289e-02:4
8.97952344e-04/2.82378034e-02:5   7.85708301e-04/2.47080780e-02:6   6.73464258e-04/2.11783526e-02:7   5.61220215e-04/1.76486272e-02:8
4.48976172e-04/1.41189017e-02:9   3.36732129e-04/1.05891763e-02:10   2.24488086e-04/7.05945086e-03:11   1.12244043e-04/3.52972543e-03:12
1.00000000e+00/0.00000000e+00:13   3.12006916e-04/1.76609617e-02:14   2.49605533e-04/1.41287694e-02:15   1.87204150e-04/1.05965770e-02:16
#C 1.00000000e+03 16
3.94394924e-04/1.25539803e-02:1   1.97197462e-04/6.27699017e-03:2   1.00000000e+00/0.00000000e+00:3   3.18755880e-03/5.63684156e-02:4
2.83338560e-03/5.01052583e-02:5   2.47921240e-03/4.38421010e-02:6   2.12503920e-03/3.75789437e-02:7   1.77086600e-03/3.13157864e-02:8
1.41669280e-03/2.50526291e-02:9   1.06251960e-03/1.87894719e-02:10   7.08346401e-04/1.25263146e-02:11   3.54173200e-04/6.26315728e-03:12
1.00000000e+00/0.00000000e+00:13   9.85987310e-04/3.13849508e-02:14   7.88789848e-04/2.51079607e-02:15   5.91592386e-04/1.88309705e-02:16
#C 1.77827941e+03 16
1.24453294e-03/2.22769907e-02:1   6.22266470e-04/1.11384953e-02:2   1.00000000e+00/0.00000000e+00:3   1.00109467e-02/9.95526374e-02:4
8.89861927e-03/8.84912333e-02:5   7.78629186e-03/7.74298291e-02:6   6.67396445e-03/6.63684250e-02:7   5.56163704e-03/5.53070208e-02:8
4.44930963e-03/4.42456166e-02:9   3.33698223e-03/3.31842125e-02:10   2.22465482e-03/2.21228083e-02:11   1.11232741e-03/1.10614042e-02:12
1.00000000e+00/0.00000000e+00:13   3.11133235e-03/5.56924767e-02:14   2.48906588e-03/4.45539814e-02:15   1.86679941e-03/3.34154860e-02:16
#C 3.16227766e+03 16
3.90925892e-03/3.93499843e-02:1   1.95462946e-03/1.96749921e-02:2   1.00000000e+00/0.00000000e+00:3   3.09866423e-02/1.73281477e-01:4
2.75436821e-02/1.54027980e-01:5   2.41007218e-02/1.34774482e-01:6   2.06577616e-02/1.15520985e-01:7   1.72148013e-02/9.62674873e-02:8
1.37718410e-02/7.70139899e-02:9   1.03288808e-02/5.77604924e-02:10   6.88592052e-03/3.85069949e-02:11   3.44296026e-03/1.92534975e-02:12
1.00000000e+00/0.00000000e+00:13   9.77314730e-03/9.83749607e-02:14   7.81851784e-03/7.86999686e-02:15   5.86388838e-03/5.90249764e-02:16
#C 5.62341325e+03 16
1.21063281e-02/6.85271338e-02:1   6.05316405e-03/3.42635669e-02:2   1.00000000e+00/0.00000000e+00:3   9.18352469e-02/2.88793238e-01:4
8.16313306e-02/2.56705100e-01:5   7.14274143e-02/2.24616963e-01:6   6.12234979e-02/1.92528825e-01:7   5.10195816e-02/1.60440688e-01:8
4.08156653e-02/1.28352550e-01:9   3.06117490e-02/9.62644127e-02:10   2.04078326e-02/6.41762751e-02:11   1.02039163e-02/3.20881376e-02:12
1.00000000e+00/0.00000000e+00:13   3.02658203e-02/1.71317834e-01:14   2.42126562e-02/1.37054268e-01:15   1.81594922e-02/1.02790701e-01:16
#C 1.00000000e+04 16
3.59320649e-02/1.14375315e-01:1   1.79660325e-02/5.71876575e-02:2   1.00000000e+00/0.00000000e+00:3   2.42295193e-01/4.28471974e-01:4
2.15373505e-01/3.80863977e-01:5   1.88451817e-01/3.33255980e-01:6   1.61530129e-01/2.85647983e-01:7   1.34608441e-01/2.38039986e-01:8
1.07686752e-01/1.90431988e-01:9   8.07650643e-02/1.42823991e-01:10   5.38433762e-02/9.52159942e-02:11   2.69216881e-02/4.76079971e-02:12
1.00000000e+00/0.00000000e+00:13   8.98301624e-02/2.85938288e-01:14   7.18641299e-02/2.28750630e-01:15   5.38980974e-02/1.71562973e-01:16
#C 1.77827941e+04 16
9.51461850e-02/1.70310533e-01:1   4.75730925e-02/8.51552663e-02:2   1.00000000e+00/0.00000000e+00:3   5.02788837e-01/4.99992222e-01:4
4.46923410e-01/4.44437531e-01:5   3.91057984e-01/3.88882840e-01:6   3.35192558e-01/3.33328148e-01:7   2.79327131e-01/2.77773457e-01:8
2.23461705e-01/2.22218765e-01:9   1.67596279e-01/1.66664074e-01:10   1.11730853e-01/1.11109383e-01:11   5.58654263e-02/5.55546914e-02:12
1.00000000e+00/0.00000000e+00:13   2.37865463e-01/4.25776331e-01:14   1.90292370e-01/3.40621065e-01:15   1.42719278e-01/2.55465799e-01:16
#C 3.16227766e+04 16
1.98687487e-01/1.99995693e-01:1   9.93437434e-02/9.99978466e-02:2   1.00000000e+00/0.00000000e+00:3   7.61777246e-01/4.25996096e-01:4
6.77135330e-01/3.78663196e-01:5   5.92493414e-01/3.31330297e-01:6   5.07851497e-01/2.83997397e-01:7   4.23209581e-01/2.36664498e-01:8
3.38567665e-01/1.89331598e-01:9   2.53925749e-01/1.41998699e-01:10   1.69283832e-01/9.46657990e-02:11   8.46419162e-02/4.73328995e-02:12
1.00000000e+00/0.00000000e+00:13   4.96718717e-01/4.99989233e-01:14   3.97374973e-01/3.99991386e-01:15   2.98031230e-01/2.99993540e-01:16
#C 5.62341325e+04 16
3.02937192e-01/1.71475755e-01:1   1.51468596e-01/8.57378774e-02:2   1.00000000e+00/0.00000000e+00:3   9.10008650e-01/2.86169367e-01:4
8.08896578e-01/2.54372771e-01:5   7.07784506e-01/2.22576174e-01:6   6.06672434e-01/1.90779578e-01:7   5.05560361e-01/1.58982982e-01:8
4.04448289e-01/1.27186385e-01:9   3.03336217e-01/9.53897890e-02:10   2.02224145e-01/6.35931927e-02:11   1.01112072e-01/3.17965963e-02:12
1.00000000e+00/0.00000000e+00:13   7.57342980e-01/4.28689387e-01:14   6.05874384e-01/3.42951509e-01:15   4.54405788e-01/2.57213632e-01:16
#C 1.00000000e+05 16
3.63200133e-01/1.15610193e-01:1   1.81600066e-01/5.78050964e-02:2   1.00000000e+00/0.00000000e+00:3   9.69676311e-01/1.71476420e-01:4
8.61934499e-01/1.52423485e-01:5   7.54192687e-01/1.33370549e-01:6   6.46450874e-01/1.14317613e-01:7   5.38709062e-01/9.52646779e-02:8
4.30967249e-01/7.62117423e-02:9   3.23225437e-01/5.71588067e-02:10   2.15483625e-01/3.81058711e-02:11   1.07741812e-01/1.90529356e-02:12
1.00000000e+00/0.00000000e+00:13   9.08000332e-01/2.89025482e-01:14   7.26400265e-01/2.31220386e-01:15   5.44800199e-01/1.73415289e-01:16
#C 1.77827941e+05 16
3.87581662e-01/6.93766537e-02:1   1.93790831e-01/3.46883268e-02:2   1.00000000e+00/0.00000000e+00:3   9.90207771e-01/9.84700033e-02:4
8.80184685e-01/8.75288918e-02:5   7.70161599e-01/7.65877803e-02:6   6.60138514e-01/6.56466688e-02:7   5.50115428e-01/5.47055574e-02:8
4.40092343e-01/4.37644459e-02:9   3.30069257e-01/3.28233344e-02:10   2.20046171e-01/2.18822229e-02:11   1.10023086e-01/1.09411115e-02:12
1.00000000e+00/0.00000000e+00:13   9.68954155e-01/1.73441634e-01:14   7.75163324e-01/1.38753307e-01:15   5.81372493e-01/1.04064980e-01:16
#C 3.16227766e+05 16
3.95987805e-01/3.98595084e-02:1   1.97993902e-01/1.99297542e-02:2   1.00000000e+00/0.00000000e+00:3   9.96882552e-01/5.57470149e-02:4
8.86117824e-01/4.95529021e-02:5   7.75353096e-01/4.33587894e-02:6   6.64588368e-01/3.71646766e-02:7   5.53823640e-01/3.09705638e-02:8
4.43058912e-01/2.47764511e-02:9   3.32294184e-01/1.85823383e-02:10   2.21529456e-01/1.23882255e-02:11   1.10764728e-01/6.19411276e-03:12
1.00000000e+00/0.00000000e+00:13   9.89969512e-01/9.96487711e-02:14   7.91975609e-01/7.97190169e-02:15   5.93981707e-01/5.97892626e-02:16
#C 5.62341325e+05 16
3.98722470e-01/2.25694429e-02:1   1.99361235e-01/1.12847214e-02:2   1.00000000e+00/0.00000000e+00:3   9.99012070e-01/3.14158169e-02:4
8.88010729e-01/2.79251706e-02:5   7.77009388e-01/2.44345243e-02:6   6.66008047e-01/2.09438780e-02:7   5.55006706e-01/1.74532316e-02:8
4.44005365e-01/1.39625853e-02:9   3.33004023e-01/1.04719390e-02:10   2.22002682e-01/6.98129266e-03:11   1.11001341e-01/3.49064633e-03:12
1.00000000e+00/0.00000000e+00:13   9.96806176e-01/5.64236072e-02:14   7.97444941e-01/4.51388858e-02:15   5.98083706e-01/3.38541643e-02:16
#C 1.00000000e+06 16
3.99595125e-01/1.27195079e-02:1   1.99797563e-01/6.35975395e-03:2   1.00000000e+00/0.00000000e+00:3   9.99687378e-01/1.76783542e-02:4
8.88611003e-01/1.57140926e-02:5   7.77534627e-01/1.37498310e-02:6   6.66458252e-01/1.17855695e-02:7   5.55381877e-01/9.82130789e-03:8
4.44305501e-01/7.85704631e-03:9   3.33229126e-01/5.89278473e-03:10   2.22152751e-01/3.92852315e-03:11   1.11076375e-01/1.96426158e-03:12
1.00000000e+00/0.00000000e+00:13   9.98987814e-01/3.17987697e-02:14   7.99190251e-01/2.54390158e-02:15   5.99392688e-01/1.90792618e-02:16
#;
