#H
SOURCE='Xyce' VERSION='7.0'
TITLE='* bug_903.cir'
SUBTITLE='Xyce data' 
TIME='10:09:49 AM' DATE='Jun 15, 2017' TEMPERATURE='2.70000000e+01'
ANALYSIS='Transient Analysis' SERIALNO='12345'
ALLVALUES='NO' COMPLEXVALUES='NO' NODES='16'
SWEEPVAR='Time' SWEEPMODE='VAR_STEP'
XBEGIN='0.00000000e+00' XEND='1.00000000e+00'
FORMAT='0 VOLTSorAMPS;EFLOAT : NODEorBRANCH;NODE  '  
DGTLDATA='NO'
#N
'V(2)' 'V(3)' 
'V(NAME_IS_122_CHARACTERS_ITS_REALLY_REALLY_REALLY_REALLY_REALLY_REALLY_REALLY_REALLY_REALLY_REALLY_REALLY_REALLY_REALLY_LONG)' 
'V(4)' 'V(5)' 'V(10)' 'V(6)' 
'V(NAME_IS_121_CHARACTERS_ITS_LESS_REALLY_REALLY_REALLY_REALLY_REALLY_REALLY_REALLY_REALLY_REALLY_REALLY_REALLY_REALLY_LONGG)' 
'V(7)' 'V(8)' 'V(13)' 'V(9)' 'V(14)' 'V(11)' 'V(12)' 'V(1)' 
#C 0.00000000e+00 16
0.00000000e+00:1   0.00000000e+00:2   0.00000000e+00:3   0.00000000e+00:4
0.00000000e+00:5   0.00000000e+00:6   0.00000000e+00:7   0.00000000e+00:8
0.00000000e+00:9   0.00000000e+00:10   0.00000000e+00:11   0.00000000e+00:12
0.00000000e+00:13   0.00000000e+00:14   0.00000000e+00:15   0.00000000e+00:16
#C 2.00000000e-01 16
1.80000000e+00:1   1.60000000e+00:2   4.00000000e-01:3   1.40000000e+00:4
1.20000000e+00:5   2.00000000e-01:6   1.00000000e+00:7   2.00000000e-01:8
8.00000000e-01:9   6.00000000e-01:10   8.00000000e-01:11   4.00000000e-01:12
6.00000000e-01:13   1.20000000e+00:14   1.00000000e+00:15   2.00000000e+00:16
#C 4.00000000e-01 16
3.60000000e+00:1   3.20000000e+00:2   8.00000000e-01:3   2.80000000e+00:4
2.40000000e+00:5   4.00000000e-01:6   2.00000000e+00:7   4.00000000e-01:8
1.60000000e+00:9   1.20000000e+00:10   1.60000000e+00:11   8.00000000e-01:12
1.20000000e+00:13   2.40000000e+00:14   2.00000000e+00:15   4.00000000e+00:16
#C 6.00000000e-01 16
5.40000000e+00:1   4.80000000e+00:2   1.20000000e+00:3   4.20000000e+00:4
3.60000000e+00:5   6.00000000e-01:6   3.00000000e+00:7   6.00000000e-01:8
2.40000000e+00:9   1.80000000e+00:10   2.40000000e+00:11   1.20000000e+00:12
1.80000000e+00:13   3.60000000e+00:14   3.00000000e+00:15   6.00000000e+00:16
#C 8.00000000e-01 16
7.20000000e+00:1   6.40000000e+00:2   1.60000000e+00:3   5.60000000e+00:4
4.80000000e+00:5   8.00000000e-01:6   4.00000000e+00:7   8.00000000e-01:8
3.20000000e+00:9   2.40000000e+00:10   3.20000000e+00:11   1.60000000e+00:12
2.40000000e+00:13   4.80000000e+00:14   4.00000000e+00:15   8.00000000e+00:16
#C 1.00000000e+00 16
9.00000000e+00:1   8.00000000e+00:2   2.00000000e+00:3   7.00000000e+00:4
6.00000000e+00:5   1.00000000e+00:6   5.00000000e+00:7   1.00000000e+00:8
4.00000000e+00:9   3.00000000e+00:10   4.00000000e+00:11   2.00000000e+00:12
3.00000000e+00:13   6.00000000e+00:14   5.00000000e+00:15   1.00000000e+01:16
#;
