#H
SOURCE='Xyce' VERSION='7.0'
TITLE='* bug_903_homotopy.cir'
SUBTITLE='Xyce data'
TIME='01:50:58 PM' DATE='Sep 08, 2017' TEMPERATURE='2.70000000e+01'
ANALYSIS='Transient Analysis' SERIALNO='12345'
ALLVALUES='NO' COMPLEXVALUES='NO' NODES='5'
SWEEPVAR='GSTEPPING' SWEEPMODE='VAR_STEP'
XBEGIN='0.0'  XEND='1.0'
FORMAT='0 VOLTSorAMPS;EFLOAT : NODEorBRANCH;NODE  '  
DGTLDATA='NO'
#N
'TIME' 
'V(NAME_IS_122_CHARACTERS_ITS_REALLY_REALLY_REALLY_REALLY_REALLY_REALLY_REALLY_REALLY_REALLY_REALLY_REALLY_REALLY_REALLY_LONG)' 
'I(VB)' 'I(VIC)' 
'V(NAME_IS_121_CHARACTERS_ITS_LESS_REALLY_REALLY_REALLY_REALLY_REALLY_REALLY_REALLY_REALLY_REALLY_REALLY_REALLY_REALLY_LONGG)' 
#C 4.00000000e+00 5
0.00000000e+00:1   1.00000000e+00:2   -1.74346509e-24:3   -7.49999963e-03:4
9.99800050e-05:5   
#C 2.00000000e+00 5
0.00000000e+00:1   1.00000000e+00:2   -1.74170065e-20:3   -7.49996250e-03:4
9.80393118e-03:5   
#C -1.62000000e-02 5
0.00000000e+00:1   1.00000000e+00:2   -1.69396091e-16:3   -7.49610909e-03:4
3.37463292e-01:5   
#C -2.04873122e+00 5
0.00000000e+00:1   1.00000000e+00:2   -1.62639377e-13:3   -7.09844024e-03:4
4.97800076e-01:5   
#C -4.00000000e+00 5
0.00000000e+00:1   1.00000000e+00:2   -4.05443082e-12:3   -1.65219830e-11:4
5.00000000e-01:5   
#;
