Index        TIME             V(1S)            V(1)             V(2S)            V(2)             V(3S)            V(3)             V(4S)            V(4)
0       0.00000000e+00   1.10000000e+00   1.00000000e-03   -5.00000000e-01  2.00000000e-03   1.10000000e+00   3.00000000e-03   -5.00000000e-01  4.00000000e-03   
1       2.50000000e-12   1.10000000e+00   1.00000000e-03   -5.00000000e-01  2.00000000e-03   1.10000000e+00   3.00000000e-03   -4.96838617e-01  4.00000000e-03   
2       7.50000000e-12   1.10000000e+00   1.00000000e-03   -5.00000000e-01  2.00000000e-03   1.10000000e+00   3.00000000e-03   -4.90515881e-01  4.00000000e-03   
3       1.75000000e-11   1.10000000e+00   1.00000000e-03   -5.00000000e-01  2.00000000e-03   1.10000000e+00   3.00000000e-03   -4.77870759e-01  4.00000000e-03   
4       3.75000000e-11   1.10000000e+00   1.00000000e-03   -5.00000000e-01  2.00000000e-03   1.10000000e+00   3.00000000e-03   -4.52583673e-01  4.00000000e-03   
5       7.75000000e-11   1.10000000e+00   1.00000000e-03   -5.00000000e-01  2.00000000e-03   1.10000000e+00   3.00000000e-03   -4.02036290e-01  4.00000000e-03   
6       1.27500000e-10   1.10000000e+00   1.00000000e-03   -5.00000000e-01  2.00000000e-03   1.10000000e+00   3.00000000e-03   -3.38943960e-01  4.00000000e-03   
7       1.77500000e-10   1.10000000e+00   1.00000000e-03   -5.00000000e-01  2.00000000e-03   1.10000000e+00   3.00000000e-03   -2.76012582e-01  4.00000000e-03   
8       2.27500000e-10   1.10000000e+00   1.00000000e-03   -5.00000000e-01  2.00000000e-03   1.10000000e+00   3.00000000e-03   -2.13305046e-01  4.00000000e-03   
9       2.77500000e-10   1.10000000e+00   1.00000000e-03   -5.00000000e-01  2.00000000e-03   1.10000000e+00   3.00000000e-03   -1.50884021e-01  4.00000000e-03   
10      3.27500000e-10   1.10000000e+00   1.00000000e-03   -5.00000000e-01  2.00000000e-03   1.10000000e+00   3.00000000e-03   -8.88118865e-02  4.00000000e-03   
11      3.77500000e-10   1.10000000e+00   1.00000000e-03   -5.00000000e-01  2.00000000e-03   1.10000000e+00   3.00000000e-03   -2.71506747e-02  4.00000000e-03   
12      4.01906914e-10   1.10000000e+00   1.00000000e-03   -5.00000000e-01  2.00000000e-03   1.10000000e+00   3.00000000e-03   2.78069173e-03   4.00000000e-03   
13      4.10580871e-10   1.10000000e+00   1.00000000e-03   -5.00000000e-01  2.00000000e-03   1.10000000e+00   3.00000000e-03   1.33895117e-02   4.00000000e-03   
14      4.19254828e-10   1.10000000e+00   1.00000000e-03   -5.00000000e-01  2.00000000e-03   1.10000000e+00   3.00000000e-03   2.39828900e-02   4.00000000e-03   
15      4.27928785e-10   1.10000000e+00   1.00000000e-03   -5.00000000e-01  2.00000000e-03   1.10000000e+00   3.00000000e-03   3.45605079e-02   4.00000000e-03   
16      4.45276700e-10   1.10000000e+00   1.00000000e-03   -5.00000000e-01  2.00000000e-03   1.10000000e+00   3.00000000e-03   5.56671904e-02   4.00000000e-03   
17      4.62624614e-10   1.10000000e+00   1.00000000e-03   -5.00000000e-01  2.00000000e-03   1.10000000e+00   3.00000000e-03   7.67070200e-02   4.00000000e-03   
18      4.79972528e-10   1.10000000e+00   1.00000000e-03   -5.00000000e-01  2.00000000e-03   1.10000000e+00   3.00000000e-03   9.76774652e-02   4.00000000e-03   
19      5.00000000e-10   1.10000000e+00   1.00000000e-03   -5.00000000e-01  2.00000000e-03   1.10000000e+00   3.00000000e-03   1.21797417e-01   4.00000000e-03   
20      5.07500000e-10   1.10225000e+00   1.00000000e-03   -4.96795577e-01  2.00000000e-03   1.10000000e+00   3.00000000e-03   1.30804539e-01   4.00000000e-03   
21      5.22500000e-10   1.10675000e+00   1.00000000e-03   -4.90386763e-01  2.00000000e-03   1.10000000e+00   3.00000000e-03   1.48776026e-01   4.00000000e-03   
22      5.52500000e-10   1.11575000e+00   1.00000000e-03   -4.77569499e-01  2.00000000e-03   1.10000000e+00   3.00000000e-03   1.84542318e-01   4.00000000e-03   
23      5.82500000e-10   1.12475000e+00   1.00000000e-03   -4.64753155e-01  2.00000000e-03   1.10000000e+00   3.00000000e-03   2.20062321e-01   4.00000000e-03   
24      6.12500000e-10   1.13375000e+00   1.00000000e-03   -4.51938259e-01  2.00000000e-03   1.10000000e+00   3.00000000e-03   2.55323255e-01   4.00000000e-03   
25      6.42500000e-10   1.14275000e+00   1.00000000e-03   -4.39125338e-01  2.00000000e-03   1.10000000e+00   3.00000000e-03   2.90312433e-01   4.00000000e-03   
26      6.72500000e-10   1.15175000e+00   1.00000000e-03   -4.26314916e-01  2.00000000e-03   1.10000000e+00   3.00000000e-03   3.25017268e-01   4.00000000e-03   
27      7.32500000e-10   1.16975000e+00   1.00000000e-03   -4.00703679e-01  2.00000000e-03   1.10000000e+00   3.00000000e-03   3.93524068e-01   4.00000000e-03   
28      7.92500000e-10   1.18775000e+00   1.00000000e-03   -3.75108755e-01  2.00000000e-03   1.10000000e+00   3.00000000e-03   4.60745071e-01   4.00000000e-03   
29      8.52500000e-10   1.20575000e+00   1.00000000e-03   -3.49534350e-01  2.00000000e-03   1.10000000e+00   3.00000000e-03   5.26583546e-01   4.00000000e-03   
30      9.12500000e-10   1.22375000e+00   1.00000000e-03   -3.23984664e-01  2.00000000e-03   1.10000000e+00   3.00000000e-03   5.90944750e-01   4.00000000e-03   
31      9.72500000e-10   1.24175000e+00   1.00000000e-03   -2.98463897e-01  2.00000000e-03   1.10000000e+00   3.00000000e-03   6.53736067e-01   4.00000000e-03   
32      1.03250000e-09   1.25975000e+00   1.00000000e-03   -2.72976240e-01  2.00000000e-03   1.10000000e+00   3.00000000e-03   7.14867138e-01   4.00000000e-03   
33      1.09250000e-09   1.27775000e+00   1.00000000e-03   -2.47525881e-01  2.00000000e-03   1.10000000e+00   3.00000000e-03   7.74249997e-01   4.00000000e-03   
34      1.15250000e-09   1.29575000e+00   1.00000000e-03   -2.22117002e-01  2.00000000e-03   1.10000000e+00   3.00000000e-03   8.31799190e-01   4.00000000e-03   
35      1.21250000e-09   1.31375000e+00   1.00000000e-03   -1.96753776e-01  2.00000000e-03   1.10000000e+00   3.00000000e-03   8.87431903e-01   4.00000000e-03   
36      1.27250000e-09   1.33175000e+00   1.00000000e-03   -1.71440371e-01  2.00000000e-03   1.10000000e+00   3.00000000e-03   9.41068081e-01   4.00000000e-03   
37      1.33250000e-09   1.34975000e+00   1.00000000e-03   -1.46180945e-01  2.00000000e-03   1.10000000e+00   3.00000000e-03   9.92630541e-01   4.00000000e-03   
38      1.39250000e-09   1.36775000e+00   1.00000000e-03   -1.20979649e-01  2.00000000e-03   1.10000000e+00   3.00000000e-03   1.04204508e+00   4.00000000e-03   
39      1.45250000e-09   1.38575000e+00   1.00000000e-03   -9.58406219e-02  2.00000000e-03   1.10000000e+00   3.00000000e-03   1.08924060e+00   4.00000000e-03   
40      1.51250000e-09   1.40375000e+00   1.00000000e-03   -7.07679950e-02  2.00000000e-03   1.10000000e+00   3.00000000e-03   1.13414918e+00   4.00000000e-03   
41      1.57250000e-09   1.42175000e+00   1.00000000e-03   -4.57658871e-02  2.00000000e-03   1.10000000e+00   3.00000000e-03   1.17670620e+00   4.00000000e-03   
42      1.63250000e-09   1.43975000e+00   1.00000000e-03   -2.08384058e-02  2.00000000e-03   1.10000000e+00   3.00000000e-03   1.21685041e+00   4.00000000e-03   
43      1.69250000e-09   1.45775000e+00   1.00000000e-03   4.01035351e-03   2.00000000e-03   1.10000000e+00   3.00000000e-03   1.25452406e+00   4.00000000e-03   
44      1.72190915e-09   1.46657275e+00   1.00000000e-03   1.61600480e-02   2.00000000e-03   1.10000000e+00   3.00000000e-03   1.27207106e+00   4.00000000e-03   
45      1.75131830e-09   1.47539549e+00   1.00000000e-03   2.82893690e-02   2.00000000e-03   1.10000000e+00   3.00000000e-03   1.28900537e+00   4.00000000e-03   
46      1.78072745e-09   1.48421824e+00   1.00000000e-03   4.03978377e-02   2.00000000e-03   1.10000000e+00   3.00000000e-03   1.30532112e+00   4.00000000e-03   
47      1.83954575e-09   1.50186373e+00   1.00000000e-03   6.45503075e-02   2.00000000e-03   1.10000000e+00   3.00000000e-03   1.33607461e+00   4.00000000e-03   
48      1.89836406e-09   1.51950922e+00   1.00000000e-03   8.86136441e-02   2.00000000e-03   1.10000000e+00   3.00000000e-03   1.36428900e+00   4.00000000e-03   
49      1.95718236e-09   1.53715471e+00   1.00000000e-03   1.12584048e-01   2.00000000e-03   1.10000000e+00   3.00000000e-03   1.38992529e+00   4.00000000e-03   
50      2.00000000e-09   1.55000000e+00   1.00000000e-03   1.29973039e-01   2.00000000e-03   1.10000000e+00   3.00000000e-03   1.40694568e+00   4.00000000e-03   
51      2.00750000e-09   1.55225000e+00   1.00000000e-03   1.33013536e-01   2.00000000e-03   1.10044989e+00   3.00000000e-03   1.40978349e+00   4.00000000e-03   
52      2.01500000e-09   1.55450000e+00   1.00000000e-03   1.36052408e-01   2.00000000e-03   1.10089955e+00   3.00000000e-03   1.41257836e+00   4.00000000e-03   
53      2.03000000e-09   1.55900000e+00   1.00000000e-03   1.42125246e-01   2.00000000e-03   1.10179820e+00   3.00000000e-03   1.41803901e+00   4.00000000e-03   
54      2.06000000e-09   1.56800000e+00   1.00000000e-03   1.54251079e-01   2.00000000e-03   1.10359281e+00   3.00000000e-03   1.42844227e+00   4.00000000e-03   
55      2.12000000e-09   1.58600000e+00   1.00000000e-03   1.78421631e-01   2.00000000e-03   1.10717128e+00   3.00000000e-03   1.44716381e+00   4.00000000e-03   
56      2.18000000e-09   1.60400000e+00   1.00000000e-03   2.02480725e-01   2.00000000e-03   1.11073546e+00   3.00000000e-03   1.46308337e+00   4.00000000e-03   
57      2.24000000e-09   1.62200000e+00   1.00000000e-03   2.26424407e-01   2.00000000e-03   1.11428541e+00   3.00000000e-03   1.47617803e+00   4.00000000e-03   
58      2.30000000e-09   1.64000000e+00   1.00000000e-03   2.50248744e-01   2.00000000e-03   1.11782119e+00   3.00000000e-03   1.48642896e+00   4.00000000e-03   
59      2.36000000e-09   1.65800000e+00   1.00000000e-03   2.73949822e-01   2.00000000e-03   1.12134286e+00   3.00000000e-03   1.49382141e+00   4.00000000e-03   
60      2.42000000e-09   1.67600000e+00   1.00000000e-03   2.97523747e-01   2.00000000e-03   1.12485047e+00   3.00000000e-03   1.49834473e+00   4.00000000e-03   
61      2.48000000e-09   1.69400000e+00   1.00000000e-03   3.20966645e-01   2.00000000e-03   1.12834408e+00   3.00000000e-03   1.49999243e+00   4.00000000e-03   
62      2.54000000e-09   1.71200000e+00   1.00000000e-03   3.44274667e-01   2.00000000e-03   1.13182374e+00   3.00000000e-03   1.49876213e+00   4.00000000e-03   
63      2.60000000e-09   1.73000000e+00   1.00000000e-03   3.67443981e-01   2.00000000e-03   1.13528950e+00   3.00000000e-03   1.49465560e+00   4.00000000e-03   
64      2.66000000e-09   1.74800000e+00   1.00000000e-03   3.90470782e-01   2.00000000e-03   1.13874144e+00   3.00000000e-03   1.48767876e+00   4.00000000e-03   
65      2.72000000e-09   1.76600000e+00   1.00000000e-03   4.13351286e-01   2.00000000e-03   1.14217959e+00   3.00000000e-03   1.47784164e+00   4.00000000e-03   
66      2.78000000e-09   1.78400000e+00   1.00000000e-03   4.36081735e-01   2.00000000e-03   1.14560402e+00   3.00000000e-03   1.46515840e+00   4.00000000e-03   
67      2.84000000e-09   1.80200000e+00   1.00000000e-03   4.58658395e-01   2.00000000e-03   1.14901478e+00   3.00000000e-03   1.44964730e+00   4.00000000e-03   
68      2.90000000e-09   1.82000000e+00   1.00000000e-03   4.81077555e-01   2.00000000e-03   1.15241192e+00   3.00000000e-03   1.43133066e+00   4.00000000e-03   
69      2.96000000e-09   1.83800000e+00   1.00000000e-03   5.03335532e-01   2.00000000e-03   1.15579550e+00   3.00000000e-03   1.41023483e+00   4.00000000e-03   
70      3.02000000e-09   1.85600000e+00   1.00000000e-03   5.25428671e-01   2.00000000e-03   1.15916557e+00   3.00000000e-03   1.38639018e+00   4.00000000e-03   
71      3.08000000e-09   1.87400000e+00   1.00000000e-03   5.47353340e-01   2.00000000e-03   1.16252219e+00   3.00000000e-03   1.35983102e+00   4.00000000e-03   
72      3.14000000e-09   1.89200000e+00   1.00000000e-03   5.69105939e-01   2.00000000e-03   1.16586541e+00   3.00000000e-03   1.33059557e+00   4.00000000e-03   
73      3.20000000e-09   1.91000000e+00   1.00000000e-03   5.90682893e-01   2.00000000e-03   1.16919529e+00   3.00000000e-03   1.29872590e+00   4.00000000e-03   
74      3.26000000e-09   1.92800000e+00   1.00000000e-03   6.12080658e-01   2.00000000e-03   1.17251187e+00   3.00000000e-03   1.26426787e+00   4.00000000e-03   
75      3.32000000e-09   1.94600000e+00   1.00000000e-03   6.33295718e-01   2.00000000e-03   1.17581521e+00   3.00000000e-03   1.22727108e+00   4.00000000e-03   
76      3.38000000e-09   1.96400000e+00   1.00000000e-03   6.54324587e-01   2.00000000e-03   1.17910537e+00   3.00000000e-03   1.18778875e+00   4.00000000e-03   
77      3.44000000e-09   1.98200000e+00   1.00000000e-03   6.75163811e-01   2.00000000e-03   1.18238239e+00   3.00000000e-03   1.14587771e+00   4.00000000e-03   
78      3.50000000e-09   2.00000000e+00   1.00000000e-03   6.95809966e-01   2.00000000e-03   1.18564632e+00   3.00000000e-03   1.10159827e+00   4.00000000e-03   
79      3.50750000e-09   2.00000000e+00   1.00000000e-03   6.98376991e-01   2.00000000e-03   1.18605340e+00   3.00000000e-03   1.09589995e+00   4.00000000e-03   
80      3.51500000e-09   2.00000000e+00   1.00000000e-03   7.00940939e-01   2.00000000e-03   1.18646027e+00   3.00000000e-03   1.09016574e+00   4.00000000e-03   
81      3.53000000e-09   2.00000000e+00   1.00000000e-03   7.06059581e-01   2.00000000e-03   1.18727340e+00   3.00000000e-03   1.07859018e+00   4.00000000e-03   
82      3.56000000e-09   2.00000000e+00   1.00000000e-03   7.16259660e-01   2.00000000e-03   1.18889723e+00   3.00000000e-03   1.05501415e+00   4.00000000e-03   
83      3.62000000e-09   2.00000000e+00   1.00000000e-03   7.36509533e-01   2.00000000e-03   1.19213516e+00   3.00000000e-03   1.00619238e+00   4.00000000e-03   
84      3.68000000e-09   2.00000000e+00   1.00000000e-03   7.56556259e-01   2.00000000e-03   1.19536017e+00   3.00000000e-03   9.55203228e-01   4.00000000e-03   
85      3.74000000e-09   2.00000000e+00   1.00000000e-03   7.76396543e-01   2.00000000e-03   1.19857230e+00   3.00000000e-03   9.02120057e-01   4.00000000e-03   
86      3.80000000e-09   2.00000000e+00   1.00000000e-03   7.96027127e-01   2.00000000e-03   1.20177161e+00   3.00000000e-03   8.47019259e-01   4.00000000e-03   
87      3.86000000e-09   2.00000000e+00   1.00000000e-03   8.15444786e-01   2.00000000e-03   1.20495814e+00   3.00000000e-03   7.89980126e-01   4.00000000e-03   
88      3.92000000e-09   2.00000000e+00   1.00000000e-03   8.34646328e-01   2.00000000e-03   1.20813196e+00   3.00000000e-03   7.31084738e-01   4.00000000e-03   
89      3.98000000e-09   2.00000000e+00   1.00000000e-03   8.53628600e-01   2.00000000e-03   1.21129310e+00   3.00000000e-03   6.70417846e-01   4.00000000e-03   
90      4.04000000e-09   2.00000000e+00   1.00000000e-03   8.72388483e-01   2.00000000e-03   1.21444163e+00   3.00000000e-03   6.08066751e-01   4.00000000e-03   
91      4.10000000e-09   2.00000000e+00   1.00000000e-03   8.90922894e-01   2.00000000e-03   1.21757759e+00   3.00000000e-03   5.44121178e-01   4.00000000e-03   
92      4.16000000e-09   2.00000000e+00   1.00000000e-03   9.09228789e-01   2.00000000e-03   1.22070103e+00   3.00000000e-03   4.78673144e-01   4.00000000e-03   
93      4.22000000e-09   2.00000000e+00   1.00000000e-03   9.27303160e-01   2.00000000e-03   1.22381200e+00   3.00000000e-03   4.11816830e-01   4.00000000e-03   
94      4.28000000e-09   2.00000000e+00   1.00000000e-03   9.45143038e-01   2.00000000e-03   1.22691055e+00   3.00000000e-03   3.43648443e-01   4.00000000e-03   
95      4.34000000e-09   2.00000000e+00   1.00000000e-03   9.62745492e-01   2.00000000e-03   1.22999673e+00   3.00000000e-03   2.74266077e-01   4.00000000e-03   
96      4.40000000e-09   2.00000000e+00   1.00000000e-03   9.80107630e-01   2.00000000e-03   1.23307059e+00   3.00000000e-03   2.03769573e-01   4.00000000e-03   
97      4.46000000e-09   2.00000000e+00   1.00000000e-03   9.97226599e-01   2.00000000e-03   1.23613218e+00   3.00000000e-03   1.32260378e-01   4.00000000e-03   
98      4.51392216e-09   2.00000000e+00   1.00000000e-03   1.01240167e+00   2.00000000e-03   1.23887321e+00   3.00000000e-03   6.72156648e-02   4.00000000e-03   
99      4.55974201e-09   2.00000000e+00   1.00000000e-03   1.02513891e+00   2.00000000e-03   1.24119464e+00   3.00000000e-03   1.14234421e-02   4.00000000e-03   
100     4.57526342e-09   2.00000000e+00   1.00000000e-03   1.02942056e+00   2.00000000e-03   1.24197942e+00   3.00000000e-03   -7.57577358e-03  4.00000000e-03   
101     4.59078484e-09   2.00000000e+00   1.00000000e-03   1.03368540e+00   2.00000000e-03   1.24276339e+00   3.00000000e-03   -2.66224123e-02  4.00000000e-03   
102     4.60398474e-09   2.00000000e+00   1.00000000e-03   1.03729908e+00   2.00000000e-03   1.24342946e+00   3.00000000e-03   -4.28562154e-02  4.00000000e-03   
103     4.61718464e-09   2.00000000e+00   1.00000000e-03   1.04090054e+00   2.00000000e-03   1.24409494e+00   3.00000000e-03   -5.91218592e-02  4.00000000e-03   
104     4.64358445e-09   2.00000000e+00   1.00000000e-03   1.04806667e+00   2.00000000e-03   1.24542415e+00   3.00000000e-03   -9.17441345e-02  4.00000000e-03   
105     4.66998425e-09   2.00000000e+00   1.00000000e-03   1.05518357e+00   2.00000000e-03   1.24675103e+00   3.00000000e-03   -1.24480149e-01  4.00000000e-03   
106     4.69638405e-09   2.00000000e+00   1.00000000e-03   1.06225100e+00   2.00000000e-03   1.24807557e+00   3.00000000e-03   -1.57320783e-01  4.00000000e-03   
107     4.74918365e-09   2.00000000e+00   1.00000000e-03   1.07623656e+00   2.00000000e-03   1.25071767e+00   3.00000000e-03   -2.23279282e-01  4.00000000e-03   
108     4.80198326e-09   2.00000000e+00   1.00000000e-03   1.09002159e+00   2.00000000e-03   1.25335049e+00   3.00000000e-03   -2.89546129e-01  4.00000000e-03   
109     4.85478286e-09   2.00000000e+00   1.00000000e-03   1.10360432e+00   2.00000000e-03   1.25597406e+00   3.00000000e-03   -3.56047478e-01  4.00000000e-03   
110     4.96038207e-09   2.00000000e+00   1.00000000e-03   1.13015603e+00   2.00000000e-03   1.26119356e+00   3.00000000e-03   -4.89457080e-01  4.00000000e-03   
111     5.00000000e-09   2.00000000e+00   1.00000000e-03   1.13990422e+00   2.00000000e-03   1.26314232e+00   3.00000000e-03   -5.39552780e-01  4.00000000e-03   
112     5.04250000e-09   2.00000000e+00   1.00000000e-03   1.15023094e+00   2.00000000e-03   1.26395303e+00   3.00000000e-03   -5.93264326e-01  4.00000000e-03   
113     5.12750000e-09   2.00000000e+00   1.00000000e-03   1.17047545e+00   2.00000000e-03   1.26556219e+00   3.00000000e-03   -7.00446628e-01  4.00000000e-03   
114     5.29750000e-09   2.00000000e+00   1.00000000e-03   1.20930562e+00   2.00000000e-03   1.26873180e+00   3.00000000e-03   -9.12766831e-01  4.00000000e-03   
115     5.46750000e-09   2.00000000e+00   1.00000000e-03   1.24588162e+00   2.00000000e-03   1.27183724e+00   3.00000000e-03   -1.12032267e+00  4.00000000e-03   
116     5.61198251e-09   2.00000000e+00   1.00000000e-03   1.27515931e+00   2.00000000e-03   1.27442676e+00   3.00000000e-03   -1.29118734e+00  4.00000000e-03   
117     5.75646501e-09   2.00000000e+00   1.00000000e-03   1.30274598e+00   2.00000000e-03   1.27697111e+00   3.00000000e-03   -1.45545394e+00  4.00000000e-03   
118     5.88226635e-09   2.00000000e+00   1.00000000e-03   1.32536806e+00   2.00000000e-03   1.27915009e+00   3.00000000e-03   -1.59203863e+00  4.00000000e-03   
119     6.00806769e-09   2.00000000e+00   1.00000000e-03   1.34667184e+00   2.00000000e-03   1.28129558e+00   3.00000000e-03   -1.72171799e+00  4.00000000e-03   
120     6.13386903e-09   2.00000000e+00   1.00000000e-03   1.36664194e+00   2.00000000e-03   1.28340791e+00   3.00000000e-03   -1.84367204e+00  4.00000000e-03   
121     6.25967037e-09   2.00000000e+00   1.00000000e-03   1.38526393e+00   2.00000000e-03   1.28548742e+00   3.00000000e-03   -1.95712966e+00  4.00000000e-03   
