Index        TIME               V(VOUT)              V(IN)       
0        0.0000000000e+00    1.6509606609e-15    2.0000000000e+00
1        5.0000000000e-13    6.1887507581e-04    2.0056244737e+00
2        1.5000000000e-12    1.7753479847e-03    2.0164870930e+00
3        2.5000000000e-12    2.8893785913e-03    2.0271589852e+00
4        4.5000000000e-12    4.8858907189e-03    2.0474032435e+00
5        8.5000000000e-12    8.0554388985e-03    2.0838684946e+00
6        1.2500000000e-11    1.0282359251e-02    2.1155197009e+00
7        1.6500000000e-11    1.1754852601e-02    2.1430160806e+00
8        2.4500000000e-11    1.3107653988e-02    2.1879359043e+00
9        3.2500000000e-11    1.3030373849e-02    2.2219906286e+00
10       4.0500000000e-11    1.2201776522e-02    2.2478612732e+00
11       4.8500000000e-11    1.1040577900e-02    2.2674352905e+00
12       5.6500000000e-11    9.7819797558e-03    2.2819488005e+00
13       7.2500000000e-11    7.3386058359e-03    2.2979293362e+00
14       8.8500000000e-11    5.0070344160e-03    2.2955617648e+00
15       1.0000000000e-10    3.6073209489e-03    2.2854452763e+00
16       1.0092644372e-10    2.6552780307e-03    2.2755661372e+00
17       1.0173891986e-10    1.8753113946e-03    2.2671709308e+00
18       1.0336387215e-10    4.1818547074e-04    2.2508943520e+00
19       1.0661377674e-10   -1.9865845505e-03    2.2217558709e+00
20       1.0986368132e-10   -3.7667548149e-03    2.1960848745e+00
21       1.1636349048e-10   -5.9865590821e-03    2.1531675188e+00
22       1.2936310881e-10   -7.2771188432e-03    2.0927837696e+00
23       1.4236272714e-10   -6.4932424302e-03    2.0563345430e+00
24       1.5536234547e-10   -5.1551679720e-03    2.0343049095e+00
25       1.6836196380e-10   -3.8451055985e-03    2.0209588344e+00
26       1.9436120045e-10   -1.9054518764e-03    2.0073829063e+00
27       2.2036043711e-10   -8.4127452918e-04    2.0026534195e+00
28       2.4635967377e-10   -3.5000747371e-04    2.0009691059e+00
29       2.9835814708e-10   -2.7243849918e-05    2.0000406297e+00
30       3.5035662039e-10   -6.6221617790e-07    2.0000031246e+00
31       4.5435356702e-10    1.2632469352e-07    1.9999990315e+00
32       5.5835051365e-10   -8.7805204536e-09    2.0000002971e+00
33       7.6634440691e-10   -2.4062402292e-09    1.9999998231e+00
34       1.1823321934e-09    4.7607807003e-09    2.0000001375e+00
35       2.0143077664e-09   -5.4747722437e-09    1.9999998786e+00
36       3.6782589125e-09    5.7418643266e-09    2.0000001140e+00
37       7.0061612046e-09   -5.8560132444e-09    1.9999998894e+00
38       1.3661965789e-08    5.9085191250e-09    2.0000001089e+00
39       2.6973574957e-08   -5.9336572748e-09    1.9999998920e+00
40       5.3596793294e-08    5.9459725957e-09    2.0000001076e+00
41       1.0684322997e-07   -5.9520446459e-09    1.9999998926e+00
42       2.1333610331e-07    5.9550826143e-09    2.0000001073e+00
43       3.6333610331e-07   -5.9572112870e-09    1.9999998928e+00
44       5.1333610331e-07    5.9593594597e-09    2.0000001071e+00
45       6.6333610331e-07   -5.9614769797e-09    1.9999998929e+00
46       8.1333610331e-07    5.9636138790e-09    2.0000001070e+00
47       9.6333610331e-07   -5.9657202423e-09    1.9999998931e+00
48       1.1133361033e-06    5.9678461160e-09    2.0000001069e+00
49       1.2633361033e-06   -5.9699412984e-09    1.9999998932e+00
50       1.4133361033e-06    5.9720560018e-09    2.0000001067e+00
51       1.5000000000e-06   -5.9756688235e-09    1.9999998934e+00
52       1.5000312500e-06   -2.6223765969e-04    1.9931845735e+00
53       1.5000625000e-06   -4.9944960495e-04    1.9832807207e+00
54       1.5000937500e-06   -7.0038610651e-04    1.9724072207e+00
55       1.5001562500e-06   -8.8885008128e-04    1.9480122176e+00
56       1.5002812500e-06   -9.5552433965e-04    1.8979174133e+00
57       1.5004062500e-06   -1.0155298557e-03    1.8478976384e+00
58       1.5006562500e-06   -1.1899157801e-03    1.7478076770e+00
59       1.5011562500e-06   -1.8500500962e-03    1.5476738413e+00
60       1.5021562500e-06   -1.2011535345e-02    1.1468257283e+00
61       1.5024062500e-06   -1.5255452616e-02    1.0464557038e+00
62       1.5026730453e-06   -1.3009831018e-02    9.3985644876e-01
63       1.5027703370e-06   -9.1317354359e-03    9.0126754191e-01
64       1.5028676287e-06   -1.9660522982e-03    8.6309164051e-01
65       1.5028971743e-06    2.1067148210e-03    8.5153457596e-01
66       1.5029267200e-06    6.7209218031e-03    8.4005797102e-01
67       1.5029858113e-06    1.9721707956e-02    8.1717717062e-01
68       1.5030449025e-06    3.8838046298e-02    7.9443096802e-01
69       1.5031039938e-06    6.5422951737e-02    7.7182388594e-01
70       1.5031630851e-06    1.0056771884e-01    7.4932937265e-01
71       1.5032221764e-06    1.4498648702e-01    7.2690723327e-01
72       1.5032812677e-06    1.9897771956e-01    7.0451023733e-01
73       1.5033403589e-06    2.6245142788e-01    6.8209287690e-01
74       1.5033994502e-06    3.3499438923e-01    6.5961673218e-01
75       1.5034585415e-06    4.1594924546e-01    6.3705266217e-01
76       1.5035176328e-06    5.0449164991e-01    6.1438081952e-01
77       1.5035767240e-06    5.9969733466e-01    5.9158953048e-01
78       1.5036358153e-06    7.0059614638e-01    5.6867374459e-01
79       1.5036949066e-06    8.0621292182e-01    5.4563344122e-01
80       1.5037539979e-06    9.1559643960e-01    5.2247218888e-01
81       1.5038721804e-06    1.1417214510e+00    4.7581752343e-01
82       1.5041085456e-06    1.5991361968e+00    3.8133005991e-01
83       1.5041786625e-06    1.7249227419e+00    3.5274179665e-01
84       1.5042063576e-06    1.7700565042e+00    3.4130418058e-01
85       1.5042340526e-06    1.8113193152e+00    3.3003651169e-01
86       1.5042894426e-06    1.8700430621e+00    3.0642152279e-01
87       1.5043382443e-06    1.8990565876e+00    2.8410700199e-01
88       1.5043870461e-06    1.9149411981e+00    2.6164800138e-01
89       1.5044358478e-06    1.9238821537e+00    2.4012834136e-01
90       1.5045334512e-06    1.9335044491e+00    1.9930845478e-01
91       1.5046310547e-06    1.9388187696e+00    1.5989024247e-01
92       1.5048262616e-06    1.9466470291e+00    8.1646134866e-02
93       1.5050000000e-06    1.9518116280e+00    1.2045918128e-02
94       1.5050195207e-06    1.9524433649e+00    7.4333370272e-03
95       1.5050390414e-06    1.9530141119e+00    4.6585618410e-03
96       1.5050585621e-06    1.9535320374e+00    2.5594596802e-03
97       1.5050976035e-06    1.9542122916e+00    7.6224145622e-04
98       1.5051756862e-06    1.9546531874e+00    9.6037498653e-06
99       1.5052537690e-06    1.9546631305e+00    1.3529433718e-06
100      1.5054099345e-06    1.9546625705e+00   -7.2215108827e-07
101      1.5055661000e-06    1.9546629421e+00    3.9839752919e-07
102      1.5058784311e-06    1.9546626866e+00   -3.0035622027e-07
103      1.5065030932e-06    1.9546628975e+00    2.6129518631e-07
104      1.5077524174e-06    1.9546627058e+00   -2.4379346823e-07
105      1.5102510659e-06    1.9546628886e+00    2.3550282348e-07
106      1.5152483627e-06    1.9546627101e+00   -2.3146718310e-07
107      1.5252429565e-06    1.9546628865e+00    2.2947617516e-07
108      1.5452321440e-06    1.9546627112e+00   -2.2848726704e-07
109      1.5852105189e-06    1.9546628860e+00    2.2799448163e-07
110      1.6651672689e-06    1.9546627114e+00   -2.2774847558e-07
111      1.8250807688e-06    1.9546628859e+00    2.2762559838e-07
112      2.1260807688e-06    1.9546627115e+00   -2.2756032071e-07
113      2.4270807688e-06    1.9546628858e+00    2.2749509355e-07
114      2.7280807688e-06    1.9546627115e+00   -2.2742985435e-07
115      3.0050000000e-06    1.9546628858e+00    2.2735899643e-07
116      3.0050312500e-06    1.9548042936e+00    6.5417910665e-03
117      3.0050625000e-06    1.9547497866e+00    1.6119636561e-02
118      3.0050937500e-06    1.9545717142e+00    2.6673792966e-02
119      3.0051562500e-06    1.9535753378e+00    5.0624479529e-02
120      3.0052812500e-06    1.9503301970e+00    1.0045409338e-01
121      3.0054062500e-06    1.9463174165e+00    1.5041428543e-01
122      3.0056562500e-06    1.9356223237e+00    2.5025684333e-01
123      3.0057400206e-06    1.9307724311e+00    2.8370224775e-01
124      3.0058237913e-06    1.9252962135e+00    3.1715147731e-01
125      3.0059913325e-06    1.9102081621e+00    3.8396360359e-01
126      3.0061588738e-06    1.8860312410e+00    4.5091442353e-01
127      3.0063264150e-06    1.8413617037e+00    5.1757236064e-01
128      3.0064772022e-06    1.7670068385e+00    5.7634715982e-01
129      3.0066043637e-06    1.6733168782e+00    6.2559317397e-01
130      3.0067188090e-06    1.5703474194e+00    6.7044474226e-01
131      3.0068332543e-06    1.4570969376e+00    7.1574402493e-01
132      3.0070621450e-06    1.2275842175e+00    8.0775180997e-01
133      3.0072581595e-06    1.0456125069e+00    8.8741490672e-01
134      3.0074541740e-06    8.8746534404e-01    9.6681685354e-01
135      3.0076305871e-06    7.6541077182e-01    1.0382167066e+00
136      3.0078070001e-06    6.5985040736e-01    1.1094066668e+00
137      3.0079834132e-06    5.6636426768e-01    1.1803454818e+00
138      3.0081598263e-06    4.7610394176e-01    1.2506771381e+00
139      3.0083362393e-06    3.7382045832e-01    1.3202900451e+00
140      3.0085126524e-06    2.4511847442e-01    1.3894538905e+00
141      3.0086708005e-06    1.1211021065e-01    1.4518793937e+00
142      3.0086918281e-06    9.4999189394e-02    1.4602470086e+00
143      3.0087338834e-06    6.4130541831e-02    1.4770718479e+00
144      3.0087759387e-06    4.0444869400e-02    1.4945956497e+00
145      3.0088179939e-06    2.4129580615e-02    1.5126987369e+00
146      3.0088600492e-06    1.3914587117e-02    1.5309287123e+00
147      3.0089021045e-06    8.0181867940e-03    1.5488968080e+00
148      3.0089862150e-06    2.9299961954e-03    1.5838230313e+00
149      3.0090703256e-06    1.8352674403e-03    1.6178329941e+00
150      3.0092385467e-06    1.3982752998e-03    1.6851545970e+00
151      3.0094067678e-06    1.2507124509e-03    1.7523872422e+00
152      3.0097432100e-06    9.9017377162e-04    1.8868701395e+00
153      3.0100000000e-06    8.7575024332e-04    1.9894974781e+00
154      3.0100672884e-06    4.1309668611e-04    1.9969883536e+00
155      3.0101216627e-06    1.8485588920e-04    1.9989829368e+00
156      3.0101760370e-06    3.4209764980e-05    1.9999816234e+00
157      3.0102847856e-06   -1.2104777151e-05    2.0000002104e+00
158      3.0105022828e-06    7.6360652212e-06    2.0000010933e+00
159      3.0107197800e-06   -4.8278716498e-06    1.9999984178e+00
160      3.0111547744e-06    3.8679864032e-06    2.0000015532e+00
161      3.0120247632e-06   -3.4639186002e-06    1.9999984756e+00
162      3.0137647408e-06    3.2789557741e-06    2.0000015030e+00
163      3.0172446960e-06   -3.1902459308e-06    1.9999985081e+00
164      3.0242046064e-06    3.1468528096e-06    2.0000014859e+00
165      3.0381244272e-06   -3.1253715466e-06    1.9999985170e+00
166      3.0659640688e-06    3.1146970976e-06    2.0000014815e+00
167      3.1216433519e-06   -3.1093655190e-06    1.9999985193e+00
168      3.2330019181e-06    3.1067114283e-06    2.0000014803e+00
169      3.4557190506e-06   -3.1053771632e-06    1.9999985199e+00
170      3.7567190506e-06    3.1043996514e-06    2.0000014800e+00
171      4.0577190506e-06   -3.1034117077e-06    1.9999985201e+00
172      4.3587190506e-06    3.1024348251e-06    2.0000014797e+00
173      4.5100000000e-06   -3.1004760484e-06    1.9999985206e+00
174      4.5100312500e-06   -2.6356179758e-04    1.9931841213e+00
175      4.5100625000e-06   -5.0002274413e-04    1.9832805885e+00
176      4.5100937500e-06   -7.0050788547e-04    1.9724072486e+00
177      4.5101562500e-06   -8.8883720660e-04    1.9480122285e+00
178      4.5102812500e-06   -9.5553037007e-04    1.8979174076e+00
179      4.5104062500e-06   -1.0155271590e-03    1.8478976413e+00
180      4.5106562500e-06   -1.1899177697e-03    1.7478076749e+00
181      4.5111562500e-06   -1.8500477815e-03    1.5476738431e+00
182      4.5121562500e-06   -1.2011547409e-02    1.1468257265e+00
183      4.5124062500e-06   -1.5255462371e-02    1.0464557037e+00
184      4.5126730454e-06   -1.3009836287e-02    9.3985643079e-01
185      4.5127703370e-06   -9.1317398948e-03    9.0126753240e-01
186      4.5128676287e-06   -1.9660570729e-03    8.6309163933e-01
187      4.5128971743e-06    2.1067104816e-03    8.5153457437e-01
188      4.5129267200e-06    6.7209179520e-03    8.4005796908e-01
189      4.5129858113e-06    1.9721705433e-02    8.1717716794e-01
190      4.5130449025e-06    3.8838045683e-02    7.9443096459e-01
191      4.5131039938e-06    6.5422953720e-02    7.7182388178e-01
192      4.5131630851e-06    1.0056772416e-01    7.4932936776e-01
193      4.5132221764e-06    1.4498649639e-01    7.2690722765e-01
194      4.5132812677e-06    1.9897773363e-01    7.0451023095e-01
195      4.5133403589e-06    2.6245144718e-01    6.8209286976e-01
196      4.5133994502e-06    3.3499441417e-01    6.5961672426e-01
197      4.5134585415e-06    4.1594927633e-01    6.3705265346e-01
198      4.5135176328e-06    5.0449168683e-01    6.1438081000e-01
199      4.5135767241e-06    5.9969737767e-01    5.9158952014e-01
200      4.5136358154e-06    7.0059619539e-01    5.6867373342e-01
201      4.5136949066e-06    8.0621297665e-01    5.4563342923e-01
202      4.5137539979e-06    9.1559650001e-01    5.2247217604e-01
203      4.5138721805e-06    1.1417215216e+00    4.7581750891e-01
204      4.5141085456e-06    1.5991362802e+00    3.8133004193e-01
205      4.5141786626e-06    1.7249227979e+00    3.5274178246e-01
206      4.5142063576e-06    1.7700565468e+00    3.4130416825e-01
207      4.5142340526e-06    1.8113193448e+00    3.3003650141e-01
208      4.5142894426e-06    1.8700430722e+00    3.0642151634e-01
209      4.5143382443e-06    1.8990565921e+00    2.8410699634e-01
210      4.5143870461e-06    1.9149412001e+00    2.6164799697e-01
211      4.5144358478e-06    1.9238821546e+00    2.4012833816e-01
212      4.5145334512e-06    1.9335044492e+00    1.9930845372e-01
213      4.5146310547e-06    1.9388187695e+00    1.5989024337e-01
214      4.5148262616e-06    1.9466470287e+00    8.1646139689e-02
215      4.5150000000e-06    1.9518116280e+00    1.2045918131e-02
216      4.5150195207e-06    1.9524433648e+00    7.4333371679e-03
217      4.5150390414e-06    1.9530141118e+00    4.6585620126e-03
218      4.5150585621e-06    1.9535320373e+00    2.5594598512e-03
219      4.5150976034e-06    1.9542122915e+00    7.6224155929e-04
220      4.5151756862e-06    1.9546531874e+00    9.6037670930e-06
221      4.5152537690e-06    1.9546631305e+00    1.3529449909e-06
222      4.5154099345e-06    1.9546625705e+00   -7.2215182033e-07
223      4.5155661000e-06    1.9546629421e+00    3.9839788412e-07
224      4.5158784310e-06    1.9546626866e+00   -3.0035647551e-07
225      4.5165030931e-06    1.9546628975e+00    2.6129540368e-07
226      4.5177524173e-06    1.9546627058e+00   -2.4379366901e-07
227      4.5202510656e-06    1.9546628886e+00    2.3550301648e-07
228      4.5252483622e-06    1.9546627101e+00   -2.3146737233e-07
229      4.5352429555e-06    1.9546628865e+00    2.2947636253e-07
230      4.5552321419e-06    1.9546627112e+00   -2.2848745349e-07
231      4.5952105149e-06    1.9546628860e+00    2.2799466762e-07
232      4.6751672608e-06    1.9546627114e+00   -2.2774866134e-07
233      4.8350807527e-06    1.9546628859e+00    2.2762578403e-07
234      5.1360807527e-06    1.9546627115e+00   -2.2756050630e-07
235      5.4370807527e-06    1.9546628858e+00    2.2749527908e-07
236      5.7380807527e-06    1.9546627115e+00   -2.2743003983e-07
237      6.0150000000e-06    1.9546628858e+00    2.2735918185e-07
238      6.0150312500e-06    1.9548042936e+00    6.5417910664e-03
239      6.0150625000e-06    1.9547497866e+00    1.6119636560e-02
240      6.0150937500e-06    1.9545717142e+00    2.6673792965e-02
241      6.0151562500e-06    1.9535753378e+00    5.0624479528e-02
242      6.0152812500e-06    1.9503301970e+00    1.0045409338e-01
243      6.0154062500e-06    1.9463174165e+00    1.5041428543e-01
244      6.0156562500e-06    1.9356223237e+00    2.5025684333e-01
245      6.0157400206e-06    1.9307724311e+00    2.8370224775e-01
246      6.0158237913e-06    1.9252962135e+00    3.1715147731e-01
247      6.0159913325e-06    1.9102081621e+00    3.8396360359e-01
248      6.0161588738e-06    1.8860312410e+00    4.5091442352e-01
249      6.0163264150e-06    1.8413617037e+00    5.1757236064e-01
250      6.0164772022e-06    1.7670068385e+00    5.7634715982e-01
251      6.0166043637e-06    1.6733168782e+00    6.2559317397e-01
252      6.0167188090e-06    1.5703474194e+00    6.7044474226e-01
253      6.0168332543e-06    1.4570969376e+00    7.1574402493e-01
254      6.0170621450e-06    1.2275842175e+00    8.0775180997e-01
255      6.0172581595e-06    1.0456125069e+00    8.8741490672e-01
256      6.0174541740e-06    8.8746534404e-01    9.6681685354e-01
257      6.0176305871e-06    7.6541077182e-01    1.0382167066e+00
258      6.0178070001e-06    6.5985040736e-01    1.1094066668e+00
259      6.0179834132e-06    5.6636426768e-01    1.1803454818e+00
260      6.0181598263e-06    4.7610394176e-01    1.2506771381e+00
261      6.0183362393e-06    3.7382045831e-01    1.3202900451e+00
262      6.0185126524e-06    2.4511847442e-01    1.3894538905e+00
263      6.0186708005e-06    1.1211021065e-01    1.4518793937e+00
264      6.0186918281e-06    9.4999189392e-02    1.4602470086e+00
265      6.0187338834e-06    6.4130541829e-02    1.4770718479e+00
266      6.0187759387e-06    4.0444869399e-02    1.4945956497e+00
267      6.0188179939e-06    2.4129580615e-02    1.5126987369e+00
268      6.0188600492e-06    1.3914587116e-02    1.5309287123e+00
269      6.0189021045e-06    8.0181867940e-03    1.5488968080e+00
270      6.0189862150e-06    2.9299961954e-03    1.5838230313e+00
271      6.0190703256e-06    1.8352674403e-03    1.6178329941e+00
272      6.0192385467e-06    1.3982752998e-03    1.6851545970e+00
273      6.0194067678e-06    1.2507124509e-03    1.7523872422e+00
274      6.0197432100e-06    9.9017377163e-04    1.8868701395e+00
275      6.0200000000e-06    8.7575024332e-04    1.9894974781e+00
276      6.0200672884e-06    4.1309668611e-04    1.9969883536e+00
277      6.0201216627e-06    1.8485588921e-04    1.9989829368e+00
278      6.0201760370e-06    3.4209764983e-05    1.9999816234e+00
279      6.0202847856e-06   -1.2104777152e-05    2.0000002104e+00
280      6.0205022828e-06    7.6360652214e-06    2.0000010933e+00
281      6.0207197800e-06   -4.8278716498e-06    1.9999984178e+00
282      6.0211547744e-06    3.8679864032e-06    2.0000015532e+00
283      6.0220247632e-06   -3.4639186002e-06    1.9999984756e+00
284      6.0237647408e-06    3.2789557741e-06    2.0000015030e+00
285      6.0272446960e-06   -3.1902459308e-06    1.9999985081e+00
286      6.0342046064e-06    3.1468528097e-06    2.0000014859e+00
287      6.0481244272e-06   -3.1253715466e-06    1.9999985170e+00
288      6.0759640688e-06    3.1146970977e-06    2.0000014815e+00
289      6.1316433519e-06   -3.1093655191e-06    1.9999985193e+00
290      6.2430019181e-06    3.1067114283e-06    2.0000014803e+00
291      6.4657190506e-06   -3.1053771632e-06    1.9999985199e+00
292      6.7667190506e-06    3.1043996515e-06    2.0000014800e+00
293      7.0677190506e-06   -3.1034117077e-06    1.9999985201e+00
294      7.3687190506e-06    3.1024348252e-06    2.0000014797e+00
295      7.5200000000e-06   -3.1004760486e-06    1.9999985206e+00
296      7.5200312500e-06   -2.6356179758e-04    1.9931841213e+00
297      7.5200625000e-06   -5.0002274413e-04    1.9832805885e+00
298      7.5200937500e-06   -7.0050788547e-04    1.9724072486e+00
299      7.5201562500e-06   -8.8883720660e-04    1.9480122285e+00
300      7.5202812500e-06   -9.5553037007e-04    1.8979174076e+00
301      7.5204062500e-06   -1.0155271590e-03    1.8478976413e+00
