Index       V(2)              V(1)             I(VDS)      
0        0.00000000e+00    2.00000000e-01    0.00000000e+00
1        2.00000000e-02    2.00000000e-01   -1.05689650e-07
2        4.00000000e-02    2.00000000e-01   -1.62541682e-07
3        6.00000000e-02    2.00000000e-01   -1.94988776e-07
4        8.00000000e-02    2.00000000e-01   -2.18845696e-07
5        1.00000000e-01    2.00000000e-01   -2.39978688e-07
6        1.20000000e-01    2.00000000e-01   -2.60166382e-07
7        1.40000000e-01    2.00000000e-01   -2.80009217e-07
8        1.60000000e-01    2.00000000e-01   -2.99755666e-07
9        1.80000000e-01    2.00000000e-01   -3.19530404e-07
10       2.00000000e-01    2.00000000e-01   -3.39406290e-07
11       2.20000000e-01    2.00000000e-01   -3.59430941e-07
12       2.40000000e-01    2.00000000e-01   -3.79638058e-07
13       2.60000000e-01    2.00000000e-01   -4.00052898e-07
14       2.80000000e-01    2.00000000e-01   -4.20695211e-07
15       3.00000000e-01    2.00000000e-01   -4.41580953e-07
16       3.20000000e-01    2.00000000e-01   -4.62723359e-07
17       3.40000000e-01    2.00000000e-01   -4.84133649e-07
18       3.60000000e-01    2.00000000e-01   -5.05821513e-07
19       3.80000000e-01    2.00000000e-01   -5.27795466e-07
20       4.00000000e-01    2.00000000e-01   -5.50063095e-07
21       4.20000000e-01    2.00000000e-01   -5.72631256e-07
22       4.40000000e-01    2.00000000e-01   -5.95506213e-07
23       4.60000000e-01    2.00000000e-01   -6.18693761e-07
24       4.80000000e-01    2.00000000e-01   -6.42199305e-07
25       5.00000000e-01    2.00000000e-01   -6.66027937e-07
26       5.20000000e-01    2.00000000e-01   -6.90184492e-07
27       5.40000000e-01    2.00000000e-01   -7.14673591e-07
28       5.60000000e-01    2.00000000e-01   -7.39499685e-07
29       5.80000000e-01    2.00000000e-01   -7.64667077e-07
30       6.00000000e-01    2.00000000e-01   -7.90179957e-07
31       6.20000000e-01    2.00000000e-01   -8.16042418e-07
32       6.40000000e-01    2.00000000e-01   -8.42258473e-07
33       6.60000000e-01    2.00000000e-01   -8.68832076e-07
34       6.80000000e-01    2.00000000e-01   -8.95767129e-07
35       7.00000000e-01    2.00000000e-01   -9.23067496e-07
36       7.20000000e-01    2.00000000e-01   -9.50737013e-07
37       7.40000000e-01    2.00000000e-01   -9.78779493e-07
38       7.60000000e-01    2.00000000e-01   -1.00719874e-06
39       7.80000000e-01    2.00000000e-01   -1.03599854e-06
40       8.00000000e-01    2.00000000e-01   -1.06518270e-06
41       8.20000000e-01    2.00000000e-01   -1.09475500e-06
42       8.40000000e-01    2.00000000e-01   -1.12471927e-06
43       8.60000000e-01    2.00000000e-01   -1.15507932e-06
44       8.80000000e-01    2.00000000e-01   -1.18583901e-06
45       9.00000000e-01    2.00000000e-01   -1.21700223e-06
46       9.20000000e-01    2.00000000e-01   -1.24857289e-06
47       9.40000000e-01    2.00000000e-01   -1.28055497e-06
48       9.60000000e-01    2.00000000e-01   -1.31295252e-06
49       9.80000000e-01    2.00000000e-01   -1.34576965e-06
50       1.00000000e+00    2.00000000e-01   -1.37901056e-06
51       1.02000000e+00    2.00000000e-01   -1.41267958e-06
52       1.04000000e+00    2.00000000e-01   -1.44678117e-06
53       1.06000000e+00    2.00000000e-01   -1.48131995e-06
54       1.08000000e+00    2.00000000e-01   -1.51630075e-06
55       1.10000000e+00    2.00000000e-01   -1.55172862e-06
56       1.12000000e+00    2.00000000e-01   -1.58760888e-06
57       1.14000000e+00    2.00000000e-01   -1.62394717e-06
58       1.16000000e+00    2.00000000e-01   -1.66074951e-06
59       1.18000000e+00    2.00000000e-01   -1.69802233e-06
60       1.20000000e+00    2.00000000e-01   -1.73577256e-06
61       0.00000000e+00    4.00000000e-01    0.00000000e+00
62       2.00000000e-02    4.00000000e-01   -2.82626107e-05
63       4.00000000e-02    4.00000000e-01   -4.74347741e-05
64       6.00000000e-02    4.00000000e-01   -5.99161140e-05
65       8.00000000e-02    4.00000000e-01   -6.83361503e-05
66       1.00000000e-01    4.00000000e-01   -7.47834226e-05
67       1.20000000e-01    4.00000000e-01   -8.03570605e-05
68       1.40000000e-01    4.00000000e-01   -8.55105759e-05
69       1.60000000e-01    4.00000000e-01   -9.04296425e-05
70       1.80000000e-01    4.00000000e-01   -9.52005642e-05
71       2.00000000e-01    4.00000000e-01   -9.98701332e-05
72       2.20000000e-01    4.00000000e-01   -1.04467228e-04
73       2.40000000e-01    4.00000000e-01   -1.09011438e-04
74       2.60000000e-01    4.00000000e-01   -1.13516944e-04
75       2.80000000e-01    4.00000000e-01   -1.17994488e-04
76       3.00000000e-01    4.00000000e-01   -1.22452466e-04
77       3.20000000e-01    4.00000000e-01   -1.26897601e-04
78       3.40000000e-01    4.00000000e-01   -1.31335373e-04
79       3.60000000e-01    4.00000000e-01   -1.35770308e-04
80       3.80000000e-01    4.00000000e-01   -1.40206197e-04
81       4.00000000e-01    4.00000000e-01   -1.44646238e-04
82       4.20000000e-01    4.00000000e-01   -1.49093157e-04
83       4.40000000e-01    4.00000000e-01   -1.53549295e-04
84       4.60000000e-01    4.00000000e-01   -1.58016671e-04
85       4.80000000e-01    4.00000000e-01   -1.62497043e-04
86       5.00000000e-01    4.00000000e-01   -1.66991945e-04
87       5.20000000e-01    4.00000000e-01   -1.71502724e-04
88       5.40000000e-01    4.00000000e-01   -1.76030569e-04
89       5.60000000e-01    4.00000000e-01   -1.80576532e-04
90       5.80000000e-01    4.00000000e-01   -1.85141547e-04
91       6.00000000e-01    4.00000000e-01   -1.89726450e-04
92       6.20000000e-01    4.00000000e-01   -1.94331987e-04
93       6.40000000e-01    4.00000000e-01   -1.98958829e-04
94       6.60000000e-01    4.00000000e-01   -2.03607580e-04
95       6.80000000e-01    4.00000000e-01   -2.08278785e-04
96       7.00000000e-01    4.00000000e-01   -2.12972938e-04
97       7.20000000e-01    4.00000000e-01   -2.17690488e-04
98       7.40000000e-01    4.00000000e-01   -2.22431842e-04
99       7.60000000e-01    4.00000000e-01   -2.27197374e-04
100      7.80000000e-01    4.00000000e-01   -2.31987422e-04
101      8.00000000e-01    4.00000000e-01   -2.36802300e-04
102      8.20000000e-01    4.00000000e-01   -2.41642295e-04
103      8.40000000e-01    4.00000000e-01   -2.46507670e-04
104      8.60000000e-01    4.00000000e-01   -2.51398672e-04
105      8.80000000e-01    4.00000000e-01   -2.56315527e-04
106      9.00000000e-01    4.00000000e-01   -2.61258449e-04
107      9.20000000e-01    4.00000000e-01   -2.66227639e-04
108      9.40000000e-01    4.00000000e-01   -2.71223288e-04
109      9.60000000e-01    4.00000000e-01   -2.76245581e-04
110      9.80000000e-01    4.00000000e-01   -2.81294697e-04
111      1.00000000e+00    4.00000000e-01   -2.86370816e-04
112      1.02000000e+00    4.00000000e-01   -2.91474120e-04
113      1.04000000e+00    4.00000000e-01   -2.96604796e-04
114      1.06000000e+00    4.00000000e-01   -3.01763043e-04
115      1.08000000e+00    4.00000000e-01   -3.06949076e-04
116      1.10000000e+00    4.00000000e-01   -3.12163132e-04
117      1.12000000e+00    4.00000000e-01   -3.17405475e-04
118      1.14000000e+00    4.00000000e-01   -3.22676402e-04
119      1.16000000e+00    4.00000000e-01   -3.27976254e-04
120      1.18000000e+00    4.00000000e-01   -3.33305422e-04
121      1.20000000e+00    4.00000000e-01   -3.38664358e-04
122      0.00000000e+00    6.00000000e-01    0.00000000e+00
123      2.00000000e-02    6.00000000e-01   -1.71406828e-04
124      4.00000000e-02    6.00000000e-01   -3.17476283e-04
125      6.00000000e-02    6.00000000e-01   -4.41194494e-04
126      8.00000000e-02    6.00000000e-01   -5.45227302e-04
127      1.00000000e-01    6.00000000e-01   -6.32053155e-04
128      1.20000000e-01    6.00000000e-01   -7.04111228e-04
129      1.40000000e-01    6.00000000e-01   -7.63935206e-04
130      1.60000000e-01    6.00000000e-01   -8.14162710e-04
131      1.80000000e-01    6.00000000e-01   -8.57305220e-04
132      2.00000000e-01    6.00000000e-01   -8.95406842e-04
133      2.20000000e-01    6.00000000e-01   -9.29900079e-04
134      2.40000000e-01    6.00000000e-01   -9.61712920e-04
135      2.60000000e-01    6.00000000e-01   -9.91447014e-04
136      2.80000000e-01    6.00000000e-01   -1.01951060e-03
137      3.00000000e-01    6.00000000e-01   -1.04619610e-03
138      3.20000000e-01    6.00000000e-01   -1.07172274e-03
139      3.40000000e-01    6.00000000e-01   -1.09626066e-03
140      3.60000000e-01    6.00000000e-01   -1.11994533e-03
141      3.80000000e-01    6.00000000e-01   -1.14288673e-03
142      4.00000000e-01    6.00000000e-01   -1.16517554e-03
143      4.20000000e-01    6.00000000e-01   -1.18688745e-03
144      4.40000000e-01    6.00000000e-01   -1.20808634e-03
145      4.60000000e-01    6.00000000e-01   -1.22882659e-03
146      4.80000000e-01    6.00000000e-01   -1.24915488e-03
147      5.00000000e-01    6.00000000e-01   -1.26911157e-03
148      5.20000000e-01    6.00000000e-01   -1.28873176e-03
149      5.40000000e-01    6.00000000e-01   -1.30804619e-03
150      5.60000000e-01    6.00000000e-01   -1.32708189e-03
151      5.80000000e-01    6.00000000e-01   -1.34586276e-03
152      6.00000000e-01    6.00000000e-01   -1.36441003e-03
153      6.20000000e-01    6.00000000e-01   -1.38274264e-03
154      6.40000000e-01    6.00000000e-01   -1.40087752e-03
155      6.60000000e-01    6.00000000e-01   -1.41882992e-03
156      6.80000000e-01    6.00000000e-01   -1.43661357e-03
157      7.00000000e-01    6.00000000e-01   -1.45424087e-03
158      7.20000000e-01    6.00000000e-01   -1.47172309e-03
159      7.40000000e-01    6.00000000e-01   -1.48907048e-03
160      7.60000000e-01    6.00000000e-01   -1.50629238e-03
161      7.80000000e-01    6.00000000e-01   -1.52339733e-03
162      8.00000000e-01    6.00000000e-01   -1.54039316e-03
163      8.20000000e-01    6.00000000e-01   -1.55728705e-03
164      8.40000000e-01    6.00000000e-01   -1.57408562e-03
165      8.60000000e-01    6.00000000e-01   -1.59079496e-03
166      8.80000000e-01    6.00000000e-01   -1.60742073e-03
167      9.00000000e-01    6.00000000e-01   -1.62396812e-03
168      9.20000000e-01    6.00000000e-01   -1.64044200e-03
169      9.40000000e-01    6.00000000e-01   -1.65684685e-03
170      9.60000000e-01    6.00000000e-01   -1.67318688e-03
171      9.80000000e-01    6.00000000e-01   -1.68946601e-03
172      1.00000000e+00    6.00000000e-01   -1.70568790e-03
173      1.02000000e+00    6.00000000e-01   -1.72185602e-03
174      1.04000000e+00    6.00000000e-01   -1.73797362e-03
175      1.06000000e+00    6.00000000e-01   -1.75404379e-03
176      1.08000000e+00    6.00000000e-01   -1.77006950e-03
177      1.10000000e+00    6.00000000e-01   -1.78605359e-03
178      1.12000000e+00    6.00000000e-01   -1.80199881e-03
179      1.14000000e+00    6.00000000e-01   -1.81790786e-03
180      1.16000000e+00    6.00000000e-01   -1.83378341e-03
181      1.18000000e+00    6.00000000e-01   -1.84962815e-03
182      1.20000000e+00    6.00000000e-01   -1.86544480e-03
183      0.00000000e+00    8.00000000e-01    0.00000000e+00
184      2.00000000e-02    8.00000000e-01   -2.91776678e-04
185      4.00000000e-02    8.00000000e-01   -5.51485384e-04
186      6.00000000e-02    8.00000000e-01   -7.82384341e-04
187      8.00000000e-02    8.00000000e-01   -9.87336929e-04
188      1.00000000e-01    8.00000000e-01   -1.16888597e-03
189      1.20000000e-01    8.00000000e-01   -1.32932190e-03
190      1.40000000e-01    8.00000000e-01   -1.47074991e-03
191      1.60000000e-01    8.00000000e-01   -1.59516035e-03
192      1.80000000e-01    8.00000000e-01   -1.70450130e-03
193      2.00000000e-01    8.00000000e-01   -1.80073813e-03
194      2.20000000e-01    8.00000000e-01   -1.88586234e-03
195      2.40000000e-01    8.00000000e-01   -1.96181197e-03
196      2.60000000e-01    8.00000000e-01   -2.03032871e-03
197      2.80000000e-01    8.00000000e-01   -2.09284797e-03
198      3.00000000e-01    8.00000000e-01   -2.15048522e-03
199      3.20000000e-01    8.00000000e-01   -2.20409048e-03
200      3.40000000e-01    8.00000000e-01   -2.25431644e-03
201      3.60000000e-01    8.00000000e-01   -2.30167328e-03
202      3.80000000e-01    8.00000000e-01   -2.34656715e-03
203      4.00000000e-01    8.00000000e-01   -2.38932659e-03
204      4.20000000e-01    8.00000000e-01   -2.43022091e-03
205      4.40000000e-01    8.00000000e-01   -2.46947338e-03
206      4.60000000e-01    8.00000000e-01   -2.50727097e-03
207      4.80000000e-01    8.00000000e-01   -2.54377166e-03
208      5.00000000e-01    8.00000000e-01   -2.57910999e-03
209      5.20000000e-01    8.00000000e-01   -2.61340140e-03
210      5.40000000e-01    8.00000000e-01   -2.64674561e-03
211      5.60000000e-01    8.00000000e-01   -2.67922929e-03
212      5.80000000e-01    8.00000000e-01   -2.71092818e-03
213      6.00000000e-01    8.00000000e-01   -2.74190888e-03
214      6.20000000e-01    8.00000000e-01   -2.77223016e-03
215      6.40000000e-01    8.00000000e-01   -2.80194420e-03
216      6.60000000e-01    8.00000000e-01   -2.83109748e-03
217      6.80000000e-01    8.00000000e-01   -2.85973155e-03
218      7.00000000e-01    8.00000000e-01   -2.88788374e-03
219      7.20000000e-01    8.00000000e-01   -2.91558770e-03
220      7.40000000e-01    8.00000000e-01   -2.94287380e-03
221      7.60000000e-01    8.00000000e-01   -2.96976962e-03
222      7.80000000e-01    8.00000000e-01   -2.99630022e-03
223      8.00000000e-01    8.00000000e-01   -3.02248846e-03
224      8.20000000e-01    8.00000000e-01   -3.04835522e-03
225      8.40000000e-01    8.00000000e-01   -3.07391966e-03
226      8.60000000e-01    8.00000000e-01   -3.09919936e-03
227      8.80000000e-01    8.00000000e-01   -3.12421051e-03
228      9.00000000e-01    8.00000000e-01   -3.14896805e-03
229      9.20000000e-01    8.00000000e-01   -3.17348577e-03
230      9.40000000e-01    8.00000000e-01   -3.19777648e-03
231      9.60000000e-01    8.00000000e-01   -3.22185203e-03
232      9.80000000e-01    8.00000000e-01   -3.24572345e-03
233      1.00000000e+00    8.00000000e-01   -3.26940104e-03
234      1.02000000e+00    8.00000000e-01   -3.29289438e-03
235      1.04000000e+00    8.00000000e-01   -3.31621245e-03
236      1.06000000e+00    8.00000000e-01   -3.33936369e-03
237      1.08000000e+00    8.00000000e-01   -3.36235601e-03
238      1.10000000e+00    8.00000000e-01   -3.38519692e-03
239      1.12000000e+00    8.00000000e-01   -3.40789350e-03
240      1.14000000e+00    8.00000000e-01   -3.43045252e-03
241      1.16000000e+00    8.00000000e-01   -3.45288046e-03
242      1.18000000e+00    8.00000000e-01   -3.47518359e-03
243      1.20000000e+00    8.00000000e-01   -3.49736798e-03
244      0.00000000e+00    1.00000000e+00    0.00000000e+00
245      2.00000000e-02    1.00000000e+00   -3.93036810e-04
246      4.00000000e-02    1.00000000e+00   -7.49677041e-04
247      6.00000000e-02    1.00000000e+00   -1.07331112e-03
248      8.00000000e-02    1.00000000e+00   -1.36693467e-03
249      1.00000000e-01    1.00000000e+00   -1.63320962e-03
250      1.20000000e-01    1.00000000e+00   -1.87451683e-03
251      1.40000000e-01    1.00000000e+00   -2.09300274e-03
252      1.60000000e-01    1.00000000e+00   -2.29062234e-03
253      1.80000000e-01    1.00000000e+00   -2.46918092e-03
254      2.00000000e-01    1.00000000e+00   -2.63037596e-03
255      2.20000000e-01    1.00000000e+00   -2.77583912e-03
256      2.40000000e-01    1.00000000e+00   -2.90717330e-03
257      2.60000000e-01    1.00000000e+00   -3.02597204e-03
258      2.80000000e-01    1.00000000e+00   -3.13380529e-03
259      3.00000000e-01    1.00000000e+00   -3.23216817e-03
260      3.20000000e-01    1.00000000e+00   -3.32241785e-03
261      3.40000000e-01    1.00000000e+00   -3.40573377e-03
262      3.60000000e-01    1.00000000e+00   -3.48311326e-03
263      3.80000000e-01    1.00000000e+00   -3.55538949e-03
264      4.00000000e-01    1.00000000e+00   -3.62325615e-03
265      4.20000000e-01    1.00000000e+00   -3.68729114e-03
266      4.40000000e-01    1.00000000e+00   -3.74797710e-03
267      4.60000000e-01    1.00000000e+00   -3.80571862e-03
268      4.80000000e-01    1.00000000e+00   -3.86085654e-03
269      5.00000000e-01    1.00000000e+00   -3.91367947e-03
270      5.20000000e-01    1.00000000e+00   -3.96443322e-03
271      5.40000000e-01    1.00000000e+00   -4.01332840e-03
272      5.60000000e-01    1.00000000e+00   -4.06054644e-03
273      5.80000000e-01    1.00000000e+00   -4.10624456e-03
274      6.00000000e-01    1.00000000e+00   -4.15055972e-03
275      6.20000000e-01    1.00000000e+00   -4.19361188e-03
276      6.40000000e-01    1.00000000e+00   -4.23550656e-03
277      6.60000000e-01    1.00000000e+00   -4.27633708e-03
278      6.80000000e-01    1.00000000e+00   -4.31618627e-03
279      7.00000000e-01    1.00000000e+00   -4.35512801e-03
280      7.20000000e-01    1.00000000e+00   -4.39322838e-03
281      7.40000000e-01    1.00000000e+00   -4.43054677e-03
282      7.60000000e-01    1.00000000e+00   -4.46713671e-03
283      7.80000000e-01    1.00000000e+00   -4.50304658e-03
284      8.00000000e-01    1.00000000e+00   -4.53832028e-03
285      8.20000000e-01    1.00000000e+00   -4.57299774e-03
286      8.40000000e-01    1.00000000e+00   -4.60711538e-03
287      8.60000000e-01    1.00000000e+00   -4.64070651e-03
288      8.80000000e-01    1.00000000e+00   -4.67380164e-03
289      9.00000000e-01    1.00000000e+00   -4.70642884e-03
290      9.20000000e-01    1.00000000e+00   -4.73861392e-03
291      9.40000000e-01    1.00000000e+00   -4.77038073e-03
292      9.60000000e-01    1.00000000e+00   -4.80175130e-03
293      9.80000000e-01    1.00000000e+00   -4.83274606e-03
294      1.00000000e+00    1.00000000e+00   -4.86338394e-03
295      1.02000000e+00    1.00000000e+00   -4.89368258e-03
296      1.04000000e+00    1.00000000e+00   -4.92365840e-03
297      1.06000000e+00    1.00000000e+00   -4.95332674e-03
298      1.08000000e+00    1.00000000e+00   -4.98270193e-03
299      1.10000000e+00    1.00000000e+00   -5.01179743e-03
300      1.12000000e+00    1.00000000e+00   -5.04062588e-03
301      1.14000000e+00    1.00000000e+00   -5.06919922e-03
302      1.16000000e+00    1.00000000e+00   -5.09752873e-03
303      1.18000000e+00    1.00000000e+00   -5.12562515e-03
304      1.20000000e+00    1.00000000e+00   -5.15349871e-03
305      0.00000000e+00    1.20000000e+00    0.00000000e+00
306      2.00000000e-02    1.20000000e+00   -4.83167351e-04
307      4.00000000e-02    1.20000000e+00   -9.26659726e-04
308      6.00000000e-02    1.20000000e+00   -1.33393834e-03
309      8.00000000e-02    1.20000000e+00   -1.70808053e-03
310      1.00000000e-01    1.20000000e+00   -2.05183390e-03
311      1.20000000e-01    1.20000000e+00   -2.36766242e-03
312      1.40000000e-01    1.20000000e+00   -2.65778622e-03
313      1.60000000e-01    1.20000000e+00   -2.92421668e-03
314      1.80000000e-01    1.20000000e+00   -3.16878792e-03
315      2.00000000e-01    1.20000000e+00   -3.39318613e-03
316      2.20000000e-01    1.20000000e+00   -3.59897758e-03
317      2.40000000e-01    1.20000000e+00   -3.78763599e-03
318      2.60000000e-01    1.20000000e+00   -3.96056847e-03
319      2.80000000e-01    1.20000000e+00   -4.11913761e-03
320      3.00000000e-01    1.20000000e+00   -4.26467415e-03
321      3.20000000e-01    1.20000000e+00   -4.39847485e-03
322      3.40000000e-01    1.20000000e+00   -4.52178556e-03
323      3.60000000e-01    1.20000000e+00   -4.63577821e-03
324      3.80000000e-01    1.20000000e+00   -4.74153298e-03
325      4.00000000e-01    1.20000000e+00   -4.84002874e-03
326      4.20000000e-01    1.20000000e+00   -4.93213961e-03
327      4.40000000e-01    1.20000000e+00   -5.01863557e-03
328      4.60000000e-01    1.20000000e+00   -5.10018705e-03
329      4.80000000e-01    1.20000000e+00   -5.17737299e-03
330      5.00000000e-01    1.20000000e+00   -5.25069097e-03
331      5.20000000e-01    1.20000000e+00   -5.32056794e-03
