Index       TIME             V(VDD)             V(IN)            V(OUT)      
0        0.00000000e+00    1.00000000e+00    1.00000000e+00    4.18840127e-07
1        1.00000000e-13    1.00000000e+00    1.00000000e+00    4.18840127e-07
2        3.00000000e-13    1.00000000e+00    1.00000000e+00    4.18840127e-07
3        7.00000000e-13    1.00000000e+00    1.00000000e+00    4.18840127e-07
4        1.50000000e-12    1.00000000e+00    1.00000000e+00    4.18840127e-07
5        3.10000000e-12    1.00000000e+00    1.00000000e+00    4.18840127e-07
6        6.30000000e-12    1.00000000e+00    1.00000000e+00    4.18840127e-07
7        1.27000000e-11    1.00000000e+00    1.00000000e+00    4.18840127e-07
8        2.00000000e-11    1.00000000e+00    1.00000000e+00    4.18840127e-07
9        2.12800000e-11    1.00000000e+00    9.96800000e-01   -7.36589381e-04
10       2.23299411e-11    1.00000000e+00    9.94175147e-01   -1.27420099e-03
11       2.33798822e-11    1.00000000e+00    9.91550294e-01   -1.78051912e-03
12       2.54797645e-11    1.00000000e+00    9.86300589e-01   -2.62727172e-03
13       2.96795290e-11    1.00000000e+00    9.75801178e-01   -3.82902231e-03
14       3.80790580e-11    1.00000000e+00    9.54802355e-01   -5.10272158e-03
15       5.48781160e-11    1.00000000e+00    9.12804710e-01   -5.97883192e-03
16       6.00000000e-11    1.00000000e+00    9.00000000e-01   -6.07662387e-03
17       6.08617586e-11    1.00000000e+00    8.91382414e-01   -7.67085179e-03
18       6.15379273e-11    1.00000000e+00    8.84620727e-01   -8.84484006e-03
19       6.22140960e-11    1.00000000e+00    8.77859040e-01   -9.98239555e-03
20       6.35664334e-11    1.00000000e+00    8.64335666e-01   -1.20572771e-02
21       6.62711081e-11    1.00000000e+00    8.37288919e-01   -1.55565181e-02
22       7.16804576e-11    1.00000000e+00    7.83195424e-01   -2.07374936e-02
23       8.24991565e-11    1.00000000e+00    6.75008435e-01   -2.39664003e-02
24       8.40842155e-11    1.00000000e+00    6.59157845e-01   -2.32448034e-02
25       8.56692745e-11    1.00000000e+00    6.43307255e-01   -2.22283930e-02
26       8.88393926e-11    1.00000000e+00    6.11606074e-01   -1.78969140e-02
27       9.20095107e-11    1.00000000e+00    5.79904893e-01   -9.94590769e-03
28       9.51796287e-11    1.00000000e+00    5.48203713e-01    2.10113563e-03
29       9.83497468e-11    1.00000000e+00    5.16502532e-01    1.84819413e-02
30       1.01519865e-10    1.00000000e+00    4.84801352e-01    4.00992314e-02
31       1.04689983e-10    1.00000000e+00    4.53100171e-01    6.79228791e-02
32       1.07860101e-10    1.00000000e+00    4.21398991e-01    1.02792493e-01
33       1.11030219e-10    1.00000000e+00    3.89697810e-01    1.44997058e-01
34       1.14200337e-10    1.00000000e+00    3.57996630e-01    1.94262165e-01
35       1.17370455e-10    1.00000000e+00    3.26295449e-01    2.49944507e-01
36       1.20540573e-10    1.00000000e+00    2.94594269e-01    3.11241243e-01
37       1.23710691e-10    1.00000000e+00    2.62893088e-01    3.77262616e-01
38       1.26880809e-10    1.00000000e+00    2.31191907e-01    4.47065741e-01
39       1.30050927e-10    1.00000000e+00    1.99490727e-01    5.19632566e-01
40       1.33221045e-10    1.00000000e+00    1.67789546e-01    5.93761042e-01
41       1.39561281e-10    1.00000000e+00    1.04387185e-01    7.36636209e-01
42       1.40000000e-10    1.00000000e+00    1.00000000e-01    7.45935193e-01
43       1.40205807e-10    1.00000000e+00    9.94854833e-02    7.50647923e-01
44       1.40376330e-10    1.00000000e+00    9.90591760e-02    7.54512912e-01
45       1.40546852e-10    1.00000000e+00    9.86328688e-02    7.58355123e-01
46       1.40887898e-10    1.00000000e+00    9.77802543e-02    7.65919241e-01
47       1.41569990e-10    1.00000000e+00    9.60750252e-02    7.80558394e-01
48       1.42934173e-10    1.00000000e+00    9.26645671e-02    8.07847640e-01
49       1.44298356e-10    1.00000000e+00    8.92541090e-02    8.32499020e-01
50       1.45662540e-10    1.00000000e+00    8.58436508e-02    8.54583697e-01
51       1.47026723e-10    1.00000000e+00    8.24331927e-02    8.74224248e-01
52       1.48390906e-10    1.00000000e+00    7.90227346e-02    8.91569923e-01
53       1.49755089e-10    1.00000000e+00    7.56122765e-02    9.06786919e-01
54       1.51119273e-10    1.00000000e+00    7.22018184e-02    9.20051792e-01
55       1.52483456e-10    1.00000000e+00    6.87913602e-02    9.31545958e-01
56       1.55211822e-10    1.00000000e+00    6.19704440e-02    9.50011676e-01
57       1.57940189e-10    1.00000000e+00    5.51495278e-02    9.63458858e-01
58       1.60668555e-10    1.00000000e+00    4.83286115e-02    9.73091826e-01
59       1.63396922e-10    1.00000000e+00    4.15076953e-02    9.79903071e-01
60       1.66125288e-10    1.00000000e+00    3.46867790e-02    9.84670669e-01
61       1.71582021e-10    1.00000000e+00    2.10449466e-02    9.90400267e-01
62       1.80000000e-10    1.00000000e+00    0.00000000e+00    9.93960913e-01
63       1.81091347e-10    1.00000000e+00    0.00000000e+00    9.94802065e-01
64       1.82182693e-10    1.00000000e+00    0.00000000e+00    9.95526661e-01
65       1.83274040e-10    1.00000000e+00    0.00000000e+00    9.96197188e-01
66       1.85456733e-10    1.00000000e+00    0.00000000e+00    9.97258723e-01
67       1.89822119e-10    1.00000000e+00    0.00000000e+00    9.98603125e-01
68       1.98552892e-10    1.00000000e+00    0.00000000e+00    9.99704310e-01
69       2.16014438e-10    1.00000000e+00    0.00000000e+00    1.00003984e+00
70       2.33475983e-10    1.00000000e+00    0.00000000e+00    9.99993306e-01
71       2.68399074e-10    1.00000000e+00    0.00000000e+00    1.00000270e+00
72       3.03322166e-10    1.00000000e+00    0.00000000e+00    9.99998412e-01
73       3.20000000e-10    1.00000000e+00    0.00000000e+00    9.99999918e-01
74       3.21873982e-10    1.00000000e+00    4.68495602e-03    1.00110460e+00
75       3.23466417e-10    1.00000000e+00    8.66604198e-03    1.00185499e+00
76       3.25058851e-10    1.00000000e+00    1.26471279e-02    1.00252249e+00
77       3.28243720e-10    1.00000000e+00    2.06092999e-02    1.00346367e+00
78       3.34613457e-10    1.00000000e+00    3.65336437e-02    1.00444407e+00
79       3.47352933e-10    1.00000000e+00    6.83823314e-02    1.00508388e+00
80       3.60000000e-10    1.00000000e+00    1.00000000e-01    1.00529495e+00
81       3.60750516e-10    1.00000000e+00    1.07505158e-01    1.00686718e+00
82       3.61344600e-10    1.00000000e+00    1.13446004e-01    1.00802117e+00
83       3.61938685e-10    1.00000000e+00    1.19386849e-01    1.00913222e+00
84       3.63126854e-10    1.00000000e+00    1.31268540e-01    1.01112154e+00
85       3.65503192e-10    1.00000000e+00    1.55031922e-01    1.01436167e+00
86       3.70255869e-10    1.00000000e+00    2.02558687e-01    1.01891362e+00
87       3.79761222e-10    1.00000000e+00    2.97612216e-01    1.02338668e+00
88       3.89266574e-10    1.00000000e+00    3.92665745e-01    1.01890715e+00
89       3.98771927e-10    1.00000000e+00    4.87719274e-01    9.97802781e-01
90       4.06620928e-10    1.00000000e+00    5.66209281e-01    9.63388050e-01
91       4.07820109e-10    1.00000000e+00    5.78201090e-01    9.55889885e-01
92       4.09019290e-10    1.00000000e+00    5.90192900e-01    9.47970274e-01
93       4.11417652e-10    1.00000000e+00    6.14176518e-01    9.29976647e-01
94       4.13816014e-10    1.00000000e+00    6.38160137e-01    9.09113215e-01
95       4.16214376e-10    1.00000000e+00    6.62143755e-01    8.85471782e-01
96       4.18612737e-10    1.00000000e+00    6.86127374e-01    8.59244836e-01
97       4.21011099e-10    1.00000000e+00    7.10110992e-01    8.30661670e-01
98       4.23409461e-10    1.00000000e+00    7.34094611e-01    7.99949639e-01
99       4.25807823e-10    1.00000000e+00    7.58078229e-01    7.67309250e-01
100      4.28206185e-10    1.00000000e+00    7.82061848e-01    7.32905199e-01
101      4.33002908e-10    1.00000000e+00    8.30029085e-01    6.59413086e-01
102      4.37799632e-10    1.00000000e+00    8.77996322e-01    5.80487091e-01
103      4.40000000e-10    1.00000000e+00    9.00000000e-01    5.42749984e-01
104      4.40233962e-10    1.00000000e+00    9.00584905e-01    5.38255865e-01
105      4.40431264e-10    1.00000000e+00    9.01078159e-01    5.34471624e-01
106      4.40628565e-10    1.00000000e+00    9.01571413e-01    5.30690136e-01
107      4.41023168e-10    1.00000000e+00    9.02557921e-01    5.23144662e-01
108      4.41812375e-10    1.00000000e+00    9.04530938e-01    5.08125566e-01
109      4.43390788e-10    1.00000000e+00    9.08476970e-01    4.78390604e-01
110      4.46547614e-10    1.00000000e+00    9.16369036e-01    4.20278848e-01
111      4.49704441e-10    1.00000000e+00    9.24261102e-01    3.64266565e-01
112      4.52861267e-10    1.00000000e+00    9.32153167e-01    3.10842090e-01
113      4.56018093e-10    1.00000000e+00    9.40045233e-01    2.60660579e-01
114      4.59174919e-10    1.00000000e+00    9.47937298e-01    2.14508303e-01
115      4.62331746e-10    1.00000000e+00    9.55829364e-01    1.73138269e-01
116      4.65488572e-10    1.00000000e+00    9.63721430e-01    1.37101337e-01
117      4.68645398e-10    1.00000000e+00    9.71613495e-01    1.06652692e-01
118      4.71802224e-10    1.00000000e+00    9.79505561e-01    8.17123497e-02
119      4.74959051e-10    1.00000000e+00    9.87397627e-01    6.18880613e-02
120      4.78115877e-10    1.00000000e+00    9.95289692e-01    4.65590728e-02
121      4.80000000e-10    1.00000000e+00    1.00000000e+00    3.92724166e-02
122      4.80315683e-10    1.00000000e+00    1.00000000e+00    3.79911411e-02
123      4.80631365e-10    1.00000000e+00    1.00000000e+00    3.67481436e-02
124      4.80947048e-10    1.00000000e+00    1.00000000e+00    3.55241439e-02
125      4.81578413e-10    1.00000000e+00    1.00000000e+00    3.31870861e-02
126      4.82841144e-10    1.00000000e+00    1.00000000e+00    2.89294013e-02
127      4.85366605e-10    1.00000000e+00    1.00000000e+00    2.18756948e-02
128      4.87892066e-10    1.00000000e+00    1.00000000e+00    1.64701836e-02
129      4.90417527e-10    1.00000000e+00    1.00000000e+00    1.23584176e-02
130      4.95468449e-10    1.00000000e+00    1.00000000e+00    6.82776710e-03
131      5.05570293e-10    1.00000000e+00    1.00000000e+00    1.79853611e-03
132      5.15672137e-10    1.00000000e+00    1.00000000e+00    4.65195049e-04
133      5.35875825e-10    1.00000000e+00    1.00000000e+00   -3.86728962e-05
134      5.54059144e-10    1.00000000e+00    1.00000000e+00    2.10645801e-06
135      5.90425782e-10    1.00000000e+00    1.00000000e+00   -1.91671549e-07
136      6.26792420e-10    1.00000000e+00    1.00000000e+00    6.40673298e-07
137      6.99525697e-10    1.00000000e+00    1.00000000e+00    2.81379320e-07
138      8.44992250e-10    1.00000000e+00    1.00000000e+00    5.27413219e-07
139      1.02000000e-09    1.00000000e+00    1.00000000e+00    3.29575003e-07
140      1.02187602e-09    1.00000000e+00    9.95309948e-01   -1.01734102e-03
141      1.02347434e-09    1.00000000e+00    9.91314151e-01   -1.74695109e-03
142      1.02507266e-09    1.00000000e+00    9.87318353e-01   -2.41441298e-03
143      1.02826930e-09    1.00000000e+00    9.79326758e-01   -3.43840122e-03
144      1.03466257e-09    1.00000000e+00    9.63343568e-01   -4.68226162e-03
145      1.04744913e-09    1.00000000e+00    9.31377187e-01   -5.71230299e-03
146      1.06000000e-09    1.00000000e+00    9.00000000e-01   -6.05681927e-03
147      1.06075102e-09    1.00000000e+00    8.92489826e-01   -7.46164602e-03
148      1.06134803e-09    1.00000000e+00    8.86519719e-01   -8.51699482e-03
149      1.06194504e-09    1.00000000e+00    8.80549612e-01   -9.54307154e-03
150      1.06313906e-09    1.00000000e+00    8.68609397e-01   -1.14328250e-02
151      1.06552710e-09    1.00000000e+00    8.44728969e-01   -1.46730534e-02
152      1.07030319e-09    1.00000000e+00    7.96968111e-01   -1.96082675e-02
153      1.07985536e-09    1.00000000e+00    7.01446397e-01   -2.45537190e-02
154      1.08940753e-09    1.00000000e+00    6.05924682e-01   -1.60323973e-02
155      1.09068310e-09    1.00000000e+00    5.93168982e-01   -1.27949693e-02
156      1.09195867e-09    1.00000000e+00    5.80413283e-01   -9.22906661e-03
157      1.09450981e-09    1.00000000e+00    5.54901884e-01   -2.74480328e-05
158      1.09706095e-09    1.00000000e+00    5.29390485e-01    1.18725883e-02
159      1.09961209e-09    1.00000000e+00    5.03879086e-01    2.69725646e-02
160      1.10216323e-09    1.00000000e+00    4.78367687e-01    4.57100170e-02
161      1.10471437e-09    1.00000000e+00    4.52856288e-01    6.86143964e-02
162      1.10726551e-09    1.00000000e+00    4.27344890e-01    9.61105553e-02
163      1.10981665e-09    1.00000000e+00    4.01833491e-01    1.28383467e-01
164      1.11236779e-09    1.00000000e+00    3.76322092e-01    1.65356927e-01
165      1.11491893e-09    1.00000000e+00    3.50810693e-01    2.06754201e-01
166      1.11747007e-09    1.00000000e+00    3.25299294e-01    2.52199675e-01
167      1.12002121e-09    1.00000000e+00    2.99787895e-01    3.01264959e-01
168      1.12257235e-09    1.00000000e+00    2.74276496e-01    3.53487282e-01
169      1.12512349e-09    1.00000000e+00    2.48765097e-01    4.08382246e-01
170      1.12767463e-09    1.00000000e+00    2.23253698e-01    4.65443114e-01
171      1.13277691e-09    1.00000000e+00    1.72230900e-01    5.83464354e-01
172      1.14000000e-09    1.00000000e+00    1.00000000e-01    7.45160114e-01
173      1.14032087e-09    1.00000000e+00    9.91978133e-02    7.52477715e-01
174      1.14057255e-09    1.00000000e+00    9.85686320e-02    7.58129708e-01
175      1.14082422e-09    1.00000000e+00    9.79394508e-02    7.63731611e-01
176      1.14132756e-09    1.00000000e+00    9.66810882e-02    7.74670229e-01
177      1.14233425e-09    1.00000000e+00    9.41643632e-02    7.95468791e-01
178      1.14434763e-09    1.00000000e+00    8.91309131e-02    8.32736005e-01
179      1.14636101e-09    1.00000000e+00    8.40974631e-02    8.64436514e-01
180      1.14837439e-09    1.00000000e+00    7.90640130e-02    8.90975187e-01
181      1.15038777e-09    1.00000000e+00    7.40305629e-02    9.12866278e-01
182      1.15240115e-09    1.00000000e+00    6.89971129e-02    9.30676246e-01
183      1.15441453e-09    1.00000000e+00    6.39636628e-02    9.44985409e-01
184      1.15642791e-09    1.00000000e+00    5.89302128e-02    9.56355243e-01
185      1.15844129e-09    1.00000000e+00    5.38967627e-02    9.65303476e-01
186      1.16045467e-09    1.00000000e+00    4.88633126e-02    9.72288858e-01
187      1.16448143e-09    1.00000000e+00    3.87964125e-02    9.81995863e-01
188      1.17253496e-09    1.00000000e+00    1.86626122e-02    9.91343623e-01
189      1.18000000e-09    1.00000000e+00    0.00000000e+00    9.93996004e-01
190      1.18080535e-09    1.00000000e+00    0.00000000e+00    9.94636360e-01
191      1.18161070e-09    1.00000000e+00    0.00000000e+00    9.95208811e-01
192      1.18241606e-09    1.00000000e+00    0.00000000e+00    9.95749142e-01
193      1.18402676e-09    1.00000000e+00    0.00000000e+00    9.96657499e-01
194      1.18724817e-09    1.00000000e+00    0.00000000e+00    9.97949488e-01
195      1.19369098e-09    1.00000000e+00    0.00000000e+00    9.99279237e-01
196      1.20657662e-09    1.00000000e+00    0.00000000e+00    9.99985489e-01
197      1.23234788e-09    1.00000000e+00    0.00000000e+00    1.00000439e+00
198      1.25811914e-09    1.00000000e+00    0.00000000e+00    9.99998209e-01
199      1.30966167e-09    1.00000000e+00    0.00000000e+00    1.00000070e+00
200      1.32000000e-09    1.00000000e+00    3.87740912e-16    9.99999857e-01
201      1.32187398e-09    1.00000000e+00    4.68495798e-03    1.00110455e+00
202      1.32346642e-09    1.00000000e+00    8.66605300e-03    1.00185495e+00
203      1.32505886e-09    1.00000000e+00    1.26471480e-02    1.00252246e+00
204      1.32824374e-09    1.00000000e+00    2.06093381e-02    1.00346366e+00
205      1.33461349e-09    1.00000000e+00    3.65337182e-02    1.00444407e+00
206      1.34735299e-09    1.00000000e+00    6.83824783e-02    1.00508389e+00
207      1.36000000e-09    1.00000000e+00    1.00000000e-01    1.00529495e+00
208      1.36075052e-09    1.00000000e+00    1.07505167e-01    1.00686718e+00
209      1.36134460e-09    1.00000000e+00    1.13446018e-01    1.00802117e+00
210      1.36193869e-09    1.00000000e+00    1.19386870e-01    1.00913223e+00
211      1.36312686e-09    1.00000000e+00    1.31268574e-01    1.01112155e+00
212      1.36550320e-09    1.00000000e+00    1.55031981e-01    1.01436167e+00
213      1.37025588e-09    1.00000000e+00    2.02558795e-01    1.01891363e+00
214      1.37976124e-09    1.00000000e+00    2.97612423e-01    1.02338668e+00
215      1.38926661e-09    1.00000000e+00    3.92666051e-01    1.01890711e+00
216      1.39877197e-09    1.00000000e+00    4.87719679e-01    9.97802650e-01
217      1.40662097e-09    1.00000000e+00    5.66209694e-01    9.63387805e-01
218      1.40782015e-09    1.00000000e+00    5.78201495e-01    9.55889623e-01
219      1.40901933e-09    1.00000000e+00    5.90193296e-01    9.47969994e-01
220      1.41141769e-09    1.00000000e+00    6.14176898e-01    9.29976333e-01
221      1.41381605e-09    1.00000000e+00    6.38160500e-01    9.09112871e-01
222      1.41621441e-09    1.00000000e+00    6.62144102e-01    8.85471414e-01
223      1.41861277e-09    1.00000000e+00    6.86127704e-01    8.59244452e-01
224      1.42101113e-09    1.00000000e+00    7.10111306e-01    8.30661275e-01
225      1.42340949e-09    1.00000000e+00    7.34094909e-01    7.99949240e-01
226      1.42580785e-09    1.00000000e+00    7.58078511e-01    7.67308851e-01
227      1.42820621e-09    1.00000000e+00    7.82062113e-01    7.32904803e-01
228      1.43300293e-09    1.00000000e+00    8.30029317e-01    6.59412711e-01
229      1.43779965e-09    1.00000000e+00    8.77996521e-01    5.80486747e-01
230      1.44000000e-09    1.00000000e+00    9.00000000e-01    5.42749978e-01
231      1.44023396e-09    1.00000000e+00    9.00584905e-01    5.38255861e-01
232      1.44043126e-09    1.00000000e+00    9.01078159e-01    5.34471621e-01
233      1.44062857e-09    1.00000000e+00    9.01571413e-01    5.30690135e-01
234      1.44102317e-09    1.00000000e+00    9.02557920e-01    5.23144663e-01
235      1.44181237e-09    1.00000000e+00    9.04530936e-01    5.08125571e-01
236      1.44339079e-09    1.00000000e+00    9.08476968e-01    4.78390618e-01
237      1.44654761e-09    1.00000000e+00    9.16369031e-01    4.20278879e-01
238      1.44970444e-09    1.00000000e+00    9.24261094e-01    3.64266612e-01
239      1.45286126e-09    1.00000000e+00    9.32153157e-01    3.10842150e-01
240      1.45601809e-09    1.00000000e+00    9.40045221e-01    2.60660650e-01
241      1.45917491e-09    1.00000000e+00    9.47937284e-01    2.14508381e-01
242      1.46233174e-09    1.00000000e+00    9.55829347e-01    1.73138350e-01
243      1.46548856e-09    1.00000000e+00    9.63721410e-01    1.37101416e-01
244      1.46864539e-09    1.00000000e+00    9.71613473e-01    1.06652766e-01
245      1.47180221e-09    1.00000000e+00    9.79505537e-01    8.17124166e-02
246      1.47495904e-09    1.00000000e+00    9.87397600e-01    6.18881191e-02
247      1.47811587e-09    1.00000000e+00    9.95289663e-01    4.65591210e-02
248      1.48000000e-09    1.00000000e+00    1.00000000e+00    3.92724157e-02
249      1.48031568e-09    1.00000000e+00    1.00000000e+00    3.79911407e-02
250      1.48063137e-09    1.00000000e+00    1.00000000e+00    3.67481435e-02
251      1.48094705e-09    1.00000000e+00    1.00000000e+00    3.55241442e-02
252      1.48157841e-09    1.00000000e+00    1.00000000e+00    3.31870871e-02
253      1.48284114e-09    1.00000000e+00    1.00000000e+00    2.89294034e-02
254      1.48536660e-09    1.00000000e+00    1.00000000e+00    2.18756983e-02
