Index        TIME               V(IN_1)            V(OUT_1)      
0        0.0000000000e+00    3.0000000000e+00    2.9266865031e+00
1        5.0000000000e-10    3.0000000000e+00    2.9266865031e+00
2        1.5000000000e-09    3.0000000000e+00    2.9266865031e+00
3        3.5000000000e-09    3.0000000000e+00    2.9266865031e+00
4        7.5000000000e-09    3.0000000000e+00    2.9266865031e+00
5        1.5500000000e-08    3.0000000000e+00    2.9266865031e+00
6        2.5500000000e-08    3.0000000000e+00    2.9266865031e+00
7        3.5500000000e-08    3.0000000000e+00    2.9266865031e+00
8        4.5500000000e-08    3.0000000000e+00    2.9266865031e+00
9        5.5500000000e-08    3.0000000000e+00    2.9266865031e+00
10       6.5500000000e-08    3.0000000000e+00    2.9266865031e+00
11       7.5500000000e-08    3.0000000000e+00    2.9266865031e+00
12       8.5500000000e-08    3.0000000000e+00    2.9266865031e+00
13       9.5500000000e-08    3.0000000000e+00    2.9266865031e+00
14       1.0000000000e-07    3.0000000000e+00    2.9266865031e+00
15       1.0006250000e-07    2.9906250000e+00    2.9266865031e+00
16       1.0018750000e-07    2.9718750000e+00    2.9266865031e+00
17       1.0043750000e-07    2.9343750000e+00    2.9266865031e+00
18       1.0093750000e-07    2.8593750000e+00    2.9266865031e+00
19       1.0193750000e-07    2.7093750000e+00    2.9266865031e+00
20       1.0393750000e-07    2.4093750000e+00    2.9266865031e+00
21       1.0793750000e-07    1.8093750000e+00    2.9266865031e+00
22       1.1593750000e-07    6.0937500000e-01    2.9266865031e+00
23       1.2000000000e-07   -8.8817841970e-16    2.9266865031e+00
24       1.2133333333e-07    0.0000000000e+00    2.9266865031e+00
25       1.2400000000e-07    0.0000000000e+00    2.9266865031e+00
26       1.2933333333e-07    0.0000000000e+00    2.9266865031e+00
27       1.3333333333e-07    0.0000000000e+00    2.9266865031e+00
28       1.3334960938e-07    0.0000000000e+00    2.9211249286e+00
29       1.3338216146e-07    0.0000000000e+00    2.9052677448e+00
30       1.3341145833e-07    0.0000000000e+00    2.8900492785e+00
31       1.3344075521e-07    0.0000000000e+00    2.8746289195e+00
32       1.3349934896e-07    0.0000000000e+00    2.8433493058e+00
33       1.3361653646e-07    0.0000000000e+00    2.7806354012e+00
34       1.3385091146e-07    0.0000000000e+00    2.6546628548e+00
35       1.3431966146e-07    0.0000000000e+00    2.4004494799e+00
36       1.3525716146e-07    0.0000000000e+00    1.8825033872e+00
37       1.3593750000e-07    0.0000000000e+00    1.4981622904e+00
38       1.3594335938e-07    0.0000000000e+00    1.4948191999e+00
39       1.3595507813e-07    0.0000000000e+00    1.4881308238e+00
40       1.3597851563e-07    0.0000000000e+00    1.4747494184e+00
41       1.3602539063e-07    0.0000000000e+00    1.4479586990e+00
42       1.3611914063e-07    0.0000000000e+00    1.3942654988e+00
43       1.3630664063e-07    0.0000000000e+00    1.2864287904e+00
44       1.3668164063e-07    0.0000000000e+00    1.0689158991e+00
45       1.3705664063e-07    0.0000000000e+00    8.4887131664e-01
46       1.3743164063e-07    0.0000000000e+00    6.2618283700e-01
47       1.3780664063e-07    0.0000000000e+00    4.0073381557e-01
48       1.3818164063e-07    0.0000000000e+00    1.7239588300e-01
49       1.3827539063e-07    0.0000000000e+00    1.1483192958e-01
50       1.3829882813e-07    0.0000000000e+00    1.0042017117e-01
51       1.3831152604e-07    0.0000000000e+00    9.2606392179e-02
52       1.3832523957e-07    0.0000000000e+00    8.4162253627e-02
53       1.3833209633e-07    0.0000000000e+00    7.9938725334e-02
54       1.3833317697e-07    0.0000000000e+00    7.9273047291e-02
55       1.3833533825e-07    0.0000000000e+00    7.8064848597e-02
56       1.3833749952e-07    0.0000000000e+00    7.7088012247e-02
57       1.3833966080e-07    0.0000000000e+00    7.6306004486e-02
58       1.3834182208e-07    0.0000000000e+00    7.5679967035e-02
59       1.3834398335e-07    0.0000000000e+00    7.5178791843e-02
60       1.3834830591e-07    0.0000000000e+00    7.4449124344e-02
61       1.3835695101e-07    0.0000000000e+00    7.3661899102e-02
62       1.3836559612e-07    0.0000000000e+00    7.3358092007e-02
63       1.3837424122e-07    0.0000000000e+00    7.3240846337e-02
64       1.3838288633e-07    0.0000000000e+00    7.3195598720e-02
65       1.3840017654e-07    0.0000000000e+00    7.3168878749e-02
66       1.3841746675e-07    0.0000000000e+00    7.3167266151e-02
67       1.3845204717e-07    0.0000000000e+00    7.3167133723e-02
68       1.3848662759e-07    0.0000000000e+00    7.3167170616e-02
69       1.3855578843e-07    0.0000000000e+00    7.3167158077e-02
70       1.3869411011e-07    0.0000000000e+00    7.3167165966e-02
71       1.3897075347e-07    0.0000000000e+00    7.3167159636e-02
72       1.3952404019e-07    0.0000000000e+00    7.3167165319e-02
73       1.4063061362e-07    0.0000000000e+00    7.3167159931e-02
74       1.4284376050e-07    0.0000000000e+00    7.3167165177e-02
75       1.4727005426e-07    0.0000000000e+00    7.3167160000e-02
76       1.5612264177e-07    0.0000000000e+00    7.3167165143e-02
77       1.7382781680e-07    0.0000000000e+00    7.3167160017e-02
78       2.0923816686e-07    0.0000000000e+00    7.3167165135e-02
79       2.4923816686e-07    0.0000000000e+00    7.3167160023e-02
80       2.8923816686e-07    0.0000000000e+00    7.3167165130e-02
81       3.0000000000e-07    0.0000000000e+00    7.3167160034e-02
82       3.0003125000e-07    4.6875000000e-03    7.3167161972e-02
83       3.0005937500e-07    8.9062500000e-03    7.3167162422e-02
84       3.0008750000e-07    1.3125000000e-02    7.3167162537e-02
85       3.0014375000e-07    2.1562500000e-02    7.3167162597e-02
86       3.0025625000e-07    3.8437500000e-02    7.3167162564e-02
87       3.0048125000e-07    7.2187500000e-02    7.3167162589e-02
88       3.0093125000e-07    1.3968750000e-01    7.3167162567e-02
89       3.0183125000e-07    2.7468750000e-01    7.3167162588e-02
90       3.0363125000e-07    5.4468750000e-01    7.3167162568e-02
91       3.0723125000e-07    1.0846875000e+00    7.3167162587e-02
92       3.1443125000e-07    2.1646875000e+00    7.3167162568e-02
93       3.2000000000e-07    3.0000000000e+00    7.3167162587e-02
94       3.2120000000e-07    3.0000000000e+00    7.3167162578e-02
95       3.2360000000e-07    3.0000000000e+00    7.3167162577e-02
96       3.2840000000e-07    3.0000000000e+00    7.3167162577e-02
97       3.3200000000e-07    3.0000000000e+00    7.3167162577e-02
98       3.3201519531e-07    3.0000000000e+00    7.8220588492e-02
99       3.3204558594e-07    3.0000000000e+00    9.2865581432e-02
100      3.3207293750e-07    3.0000000000e+00    1.0699549539e-01
101      3.3210028906e-07    3.0000000000e+00    1.2133291255e-01
102      3.3215499219e-07    3.0000000000e+00    1.5046666121e-01
103      3.3226439844e-07    3.0000000000e+00    2.0889174820e-01
104      3.3248321094e-07    3.0000000000e+00    3.2622232956e-01
105      3.3292083594e-07    3.0000000000e+00    5.6291205654e-01
106      3.3379608594e-07    3.0000000000e+00    1.0447501744e+00
107      3.3443125000e-07    3.0000000000e+00    1.4019123686e+00
108      3.3445953417e-07    3.0000000000e+00    1.4179765546e+00
109      3.3448255301e-07    3.0000000000e+00    1.4310586580e+00
110      3.3452859068e-07    3.0000000000e+00    1.4572415571e+00
111      3.3462066602e-07    3.0000000000e+00    1.5097185657e+00
112      3.3480481671e-07    3.0000000000e+00    1.6151147869e+00
113      3.3517311810e-07    3.0000000000e+00    1.8276992630e+00
114      3.3590972086e-07    3.0000000000e+00    2.2603590801e+00
115      3.3664632362e-07    3.0000000000e+00    2.7037050463e+00
116      3.3683995167e-07    3.0000000000e+00    2.8221818415e+00
117      3.3703357971e-07    3.0000000000e+00    2.9225427288e+00
118      3.3705391649e-07    3.0000000000e+00    2.9253431379e+00
119      3.3707425328e-07    3.0000000000e+00    2.9267143340e+00
120      3.3709459007e-07    3.0000000000e+00    2.9266859265e+00
121      3.3713526364e-07    3.0000000000e+00    2.9266867058e+00
122      3.3717593721e-07    3.0000000000e+00    2.9266864318e+00
123      3.3725728435e-07    3.0000000000e+00    2.9266865468e+00
124      3.3741997864e-07    3.0000000000e+00    2.9266864688e+00
125      3.3774536722e-07    3.0000000000e+00    2.9266865336e+00
126      3.3839614438e-07    3.0000000000e+00    2.9266864744e+00
127      3.3969769869e-07    3.0000000000e+00    2.9266865309e+00
128      3.4230080731e-07    3.0000000000e+00    2.9266864757e+00
129      3.4750702456e-07    3.0000000000e+00    2.9266865303e+00
130      3.5791945906e-07    3.0000000000e+00    2.9266864760e+00
131      3.7874432805e-07    3.0000000000e+00    2.9266865302e+00
132      4.1874432805e-07    3.0000000000e+00    2.9266864761e+00
133      4.5874432805e-07    3.0000000000e+00    2.9266865301e+00
134      4.9874432805e-07    3.0000000000e+00    2.9266864761e+00
135      5.0000000000e-07    3.0000000000e+00    2.9266865293e+00
136      5.0012500000e-07    2.9812500000e+00    2.9266865050e+00
137      5.0025000000e-07    2.9625000000e+00    2.9266865032e+00
138      5.0050000000e-07    2.9250000000e+00    2.9266865030e+00
139      5.0100000000e-07    2.8500000000e+00    2.9266865032e+00
140      5.0200000000e-07    2.7000000000e+00    2.9266865030e+00
141      5.0400000000e-07    2.4000000000e+00    2.9266865032e+00
142      5.0800000000e-07    1.8000000000e+00    2.9266865030e+00
143      5.1600000000e-07    6.0000000000e-01    2.9266865032e+00
144      5.2000000000e-07   -1.1102230246e-14    2.9266865030e+00
145      5.2133333333e-07    0.0000000000e+00    2.9266865031e+00
146      5.2400000000e-07    0.0000000000e+00    2.9266865031e+00
147      5.2933333333e-07    0.0000000000e+00    2.9266865031e+00
148      5.3333333333e-07    0.0000000000e+00    2.9266865031e+00
149      5.3335000000e-07    0.0000000000e+00    2.9209432160e+00
150      5.3338333333e-07    0.0000000000e+00    2.9046582559e+00
151      5.3341333333e-07    0.0000000000e+00    2.8890565979e+00
152      5.3344333333e-07    0.0000000000e+00    2.8732550605e+00
153      5.3350333333e-07    0.0000000000e+00    2.8412196263e+00
154      5.3362333333e-07    0.0000000000e+00    2.7769928179e+00
155      5.3386333333e-07    0.0000000000e+00    2.6479652391e+00
156      5.3434333333e-07    0.0000000000e+00    2.3875301764e+00
157      5.3530333333e-07    0.0000000000e+00    1.8566508361e+00
158      5.3600000000e-07    0.0000000000e+00    1.4624749832e+00
159      5.3600600000e-07    0.0000000000e+00    1.4590453756e+00
160      5.3601800000e-07    0.0000000000e+00    1.4521838472e+00
161      5.3604200000e-07    0.0000000000e+00    1.4384558796e+00
162      5.3609000000e-07    0.0000000000e+00    1.4109704898e+00
163      5.3618600000e-07    0.0000000000e+00    1.3558817394e+00
164      5.3637800000e-07    0.0000000000e+00    1.2452287340e+00
165      5.3676200000e-07    0.0000000000e+00    1.0219788329e+00
166      5.3714600000e-07    0.0000000000e+00    7.9605060312e-01
167      5.3753000000e-07    0.0000000000e+00    5.6732144443e-01
168      5.3791400000e-07    0.0000000000e+00    3.3566354460e-01
169      5.3829800000e-07    0.0000000000e+00    1.0093569966e-01
170      5.3832200000e-07    0.0000000000e+00    8.6158167649e-02
171      5.3833400000e-07    0.0000000000e+00    7.8992568653e-02
172      5.3833700000e-07    0.0000000000e+00    7.7622488960e-02
173      5.3833970000e-07    0.0000000000e+00    7.6656709688e-02
174      5.3834189558e-07    0.0000000000e+00    7.6015638326e-02
175      5.3834409116e-07    0.0000000000e+00    7.5492339407e-02
176      5.3834628673e-07    0.0000000000e+00    7.5065176732e-02
177      5.3834848231e-07    0.0000000000e+00    7.4681220238e-02
178      5.3835287347e-07    0.0000000000e+00    7.4124919391e-02
179      5.3835726462e-07    0.0000000000e+00    7.3773016725e-02
180      5.3836165578e-07    0.0000000000e+00    7.3550411480e-02
181      5.3837043809e-07    0.0000000000e+00    7.3312490793e-02
182      5.3837922040e-07    0.0000000000e+00    7.3222271125e-02
183      5.3839678502e-07    0.0000000000e+00    7.3170055983e-02
184      5.3841434964e-07    0.0000000000e+00    7.3167314492e-02
185      5.3844947888e-07    0.0000000000e+00    7.3167119155e-02
186      5.3848460812e-07    0.0000000000e+00    7.3167174989e-02
187      5.3855486661e-07    0.0000000000e+00    7.3167155561e-02
188      5.3869538358e-07    0.0000000000e+00    7.3167167883e-02
189      5.3897641752e-07    0.0000000000e+00    7.3167157961e-02
190      5.3953848539e-07    0.0000000000e+00    7.3167166884e-02
191      5.4066262115e-07    0.0000000000e+00    7.3167158418e-02
192      5.4291089266e-07    0.0000000000e+00    7.3167166666e-02
193      5.4740743568e-07    0.0000000000e+00    7.3167158525e-02
194      5.5640052172e-07    0.0000000000e+00    7.3167166613e-02
195      5.7438669380e-07    0.0000000000e+00    7.3167158551e-02
196      6.1035903796e-07    0.0000000000e+00    7.3167166600e-02
197      6.5035903796e-07    0.0000000000e+00    7.3167158559e-02
198      6.9035903796e-07    0.0000000000e+00    7.3167166592e-02
199      7.0000000000e-07    0.0000000000e+00    7.3167158579e-02
200      7.0003125000e-07    4.6875000000e-03    7.3167161626e-02
201      7.0005937500e-07    8.9062500000e-03    7.3167162332e-02
202      7.0008750000e-07    1.3125000000e-02    7.3167162514e-02
203      7.0014375000e-07    2.1562500000e-02    7.3167162608e-02
204      7.0025625000e-07    3.8437500000e-02    7.3167162556e-02
205      7.0048125000e-07    7.2187500000e-02    7.3167162596e-02
206      7.0093125000e-07    1.3968750000e-01    7.3167162561e-02
207      7.0183125000e-07    2.7468750000e-01    7.3167162593e-02
208      7.0363125000e-07    5.4468750000e-01    7.3167162562e-02
209      7.0723125000e-07    1.0846875000e+00    7.3167162593e-02
210      7.1443125000e-07    2.1646875000e+00    7.3167162562e-02
211      7.2000000000e-07    3.0000000000e+00    7.3167162593e-02
212      7.2120000000e-07    3.0000000000e+00    7.3167162578e-02
213      7.2360000000e-07    3.0000000000e+00    7.3167162577e-02
214      7.2840000000e-07    3.0000000000e+00    7.3167162577e-02
215      7.3200000000e-07    3.0000000000e+00    7.3167162577e-02
216      7.3201519531e-07    3.0000000000e+00    7.8220588492e-02
217      7.3204558594e-07    3.0000000000e+00    9.2865581432e-02
218      7.3207293750e-07    3.0000000000e+00    1.0699549539e-01
219      7.3210028906e-07    3.0000000000e+00    1.2133291255e-01
220      7.3215499219e-07    3.0000000000e+00    1.5046666121e-01
221      7.3226439844e-07    3.0000000000e+00    2.0889174820e-01
222      7.3248321094e-07    3.0000000000e+00    3.2622232956e-01
223      7.3292083594e-07    3.0000000000e+00    5.6291205654e-01
224      7.3379608594e-07    3.0000000000e+00    1.0447501744e+00
225      7.3443125000e-07    3.0000000000e+00    1.4019123686e+00
226      7.3445953417e-07    3.0000000000e+00    1.4179765546e+00
227      7.3448255301e-07    3.0000000000e+00    1.4310586580e+00
228      7.3452859068e-07    3.0000000000e+00    1.4572415571e+00
229      7.3462066602e-07    3.0000000000e+00    1.5097185657e+00
230      7.3480481671e-07    3.0000000000e+00    1.6151147869e+00
231      7.3517311810e-07    3.0000000000e+00    1.8276992630e+00
232      7.3590972086e-07    3.0000000000e+00    2.2603590801e+00
233      7.3664632362e-07    3.0000000000e+00    2.7037050463e+00
234      7.3683995167e-07    3.0000000000e+00    2.8221818415e+00
235      7.3703357971e-07    3.0000000000e+00    2.9225427288e+00
236      7.3705391649e-07    3.0000000000e+00    2.9253431379e+00
237      7.3707425328e-07    3.0000000000e+00    2.9267143340e+00
238      7.3709459007e-07    3.0000000000e+00    2.9266859265e+00
239      7.3713526364e-07    3.0000000000e+00    2.9266867058e+00
240      7.3717593721e-07    3.0000000000e+00    2.9266864318e+00
241      7.3725728435e-07    3.0000000000e+00    2.9266865468e+00
242      7.3741997864e-07    3.0000000000e+00    2.9266864688e+00
243      7.3774536722e-07    3.0000000000e+00    2.9266865336e+00
244      7.3839614438e-07    3.0000000000e+00    2.9266864744e+00
245      7.3969769869e-07    3.0000000000e+00    2.9266865309e+00
246      7.4230080731e-07    3.0000000000e+00    2.9266864757e+00
247      7.4750702456e-07    3.0000000000e+00    2.9266865303e+00
248      7.5791945906e-07    3.0000000000e+00    2.9266864760e+00
249      7.7874432805e-07    3.0000000000e+00    2.9266865302e+00
250      8.1874432805e-07    3.0000000000e+00    2.9266864761e+00
251      8.5874432805e-07    3.0000000000e+00    2.9266865301e+00
252      8.9874432805e-07    3.0000000000e+00    2.9266864761e+00
253      9.0000000000e-07    3.0000000000e+00    2.9266865293e+00
254      9.0012500000e-07    2.9812500000e+00    2.9266865050e+00
255      9.0025000000e-07    2.9625000000e+00    2.9266865032e+00
256      9.0050000000e-07    2.9250000000e+00    2.9266865030e+00
257      9.0100000000e-07    2.8500000000e+00    2.9266865032e+00
258      9.0200000000e-07    2.7000000000e+00    2.9266865030e+00
259      9.0400000000e-07    2.4000000000e+00    2.9266865032e+00
260      9.0800000000e-07    1.8000000000e+00    2.9266865030e+00
261      9.1600000000e-07    6.0000000000e-01    2.9266865032e+00
262      9.2000000000e-07   -3.1086244690e-15    2.9266865030e+00
263      9.2133333333e-07    0.0000000000e+00    2.9266865031e+00
264      9.2400000000e-07    0.0000000000e+00    2.9266865031e+00
265      9.2933333333e-07    0.0000000000e+00    2.9266865031e+00
266      9.3333333333e-07    0.0000000000e+00    2.9266865031e+00
267      9.3335000000e-07    0.0000000000e+00    2.9209432160e+00
268      9.3338333333e-07    0.0000000000e+00    2.9046582559e+00
269      9.3341333333e-07    0.0000000000e+00    2.8890565979e+00
270      9.3344333333e-07    0.0000000000e+00    2.8732550605e+00
271      9.3350333333e-07    0.0000000000e+00    2.8412196263e+00
272      9.3362333333e-07    0.0000000000e+00    2.7769928179e+00
273      9.3386333333e-07    0.0000000000e+00    2.6479652391e+00
274      9.3434333333e-07    0.0000000000e+00    2.3875301764e+00
275      9.3530333333e-07    0.0000000000e+00    1.8566508361e+00
276      9.3600000000e-07    0.0000000000e+00    1.4624749832e+00
277      9.3600600000e-07    0.0000000000e+00    1.4590453756e+00
278      9.3601800000e-07    0.0000000000e+00    1.4521838472e+00
279      9.3604200000e-07    0.0000000000e+00    1.4384558796e+00
280      9.3609000000e-07    0.0000000000e+00    1.4109704898e+00
281      9.3618600000e-07    0.0000000000e+00    1.3558817394e+00
282      9.3637800000e-07    0.0000000000e+00    1.2452287340e+00
283      9.3676200000e-07    0.0000000000e+00    1.0219788329e+00
284      9.3714600000e-07    0.0000000000e+00    7.9605060312e-01
285      9.3753000000e-07    0.0000000000e+00    5.6732144443e-01
286      9.3791400000e-07    0.0000000000e+00    3.3566354460e-01
287      9.3829800000e-07    0.0000000000e+00    1.0093569966e-01
288      9.3832200000e-07    0.0000000000e+00    8.6158167650e-02
289      9.3833400000e-07    0.0000000000e+00    7.8992568653e-02
290      9.3833700000e-07    0.0000000000e+00    7.7622488960e-02
291      9.3833970000e-07    0.0000000000e+00    7.6656709688e-02
292      9.3834189558e-07    0.0000000000e+00    7.6015638326e-02
293      9.3834409116e-07    0.0000000000e+00    7.5492339407e-02
294      9.3834628673e-07    0.0000000000e+00    7.5065176732e-02
295      9.3834848231e-07    0.0000000000e+00    7.4681220238e-02
296      9.3835287347e-07    0.0000000000e+00    7.4124919391e-02
297      9.3835726462e-07    0.0000000000e+00    7.3773016725e-02
298      9.3836165578e-07    0.0000000000e+00    7.3550411480e-02
299      9.3837043809e-07    0.0000000000e+00    7.3312490793e-02
300      9.3837922040e-07    0.0000000000e+00    7.3222271125e-02
301      9.3839678502e-07    0.0000000000e+00    7.3170055983e-02
