Index        TIME              V(IN_PRE)           V(IN_CLR)         V(IN_ENABLE)         V(IN_DATA)           V(OUT_Q)           V(OUT_QBAR)    
0        0.0000000000e+00    3.0000000000e+00    3.0000000000e+00    3.0000000000e+00    3.0000000000e+00    2.9266865031e+00    7.3167162577e-02
1        5.0000000000e-10    3.0000000000e+00    3.0000000000e+00    3.0000000000e+00    3.0000000000e+00    2.9266865031e+00    7.3167162577e-02
2        1.5000000000e-09    3.0000000000e+00    3.0000000000e+00    3.0000000000e+00    3.0000000000e+00    2.9266865031e+00    7.3167162577e-02
3        3.5000000000e-09    3.0000000000e+00    3.0000000000e+00    3.0000000000e+00    3.0000000000e+00    2.9266865031e+00    7.3167162577e-02
4        7.5000000000e-09    3.0000000000e+00    3.0000000000e+00    3.0000000000e+00    3.0000000000e+00    2.9266865031e+00    7.3167162577e-02
5        1.5500000000e-08    3.0000000000e+00    3.0000000000e+00    3.0000000000e+00    3.0000000000e+00    2.9266865031e+00    7.3167162577e-02
6        2.5500000000e-08    3.0000000000e+00    3.0000000000e+00    3.0000000000e+00    3.0000000000e+00    2.9266865031e+00    7.3167162577e-02
7        3.5500000000e-08    3.0000000000e+00    3.0000000000e+00    3.0000000000e+00    3.0000000000e+00    2.9266865031e+00    7.3167162577e-02
8        4.5500000000e-08    3.0000000000e+00    3.0000000000e+00    3.0000000000e+00    3.0000000000e+00    2.9266865031e+00    7.3167162577e-02
9        5.5500000000e-08    3.0000000000e+00    3.0000000000e+00    3.0000000000e+00    3.0000000000e+00    2.9266865031e+00    7.3167162577e-02
10       6.5500000000e-08    3.0000000000e+00    3.0000000000e+00    3.0000000000e+00    3.0000000000e+00    2.9266865031e+00    7.3167162577e-02
11       7.5500000000e-08    3.0000000000e+00    3.0000000000e+00    3.0000000000e+00    3.0000000000e+00    2.9266865031e+00    7.3167162577e-02
12       8.5500000000e-08    3.0000000000e+00    3.0000000000e+00    3.0000000000e+00    3.0000000000e+00    2.9266865031e+00    7.3167162577e-02
13       9.5500000000e-08    3.0000000000e+00    3.0000000000e+00    3.0000000000e+00    3.0000000000e+00    2.9266865031e+00    7.3167162577e-02
14       1.0000000000e-07    3.0000000000e+00    3.0000000000e+00    3.0000000000e+00    3.0000000000e+00    2.9266865031e+00    7.3167162577e-02
15       1.0006250000e-07    3.0000000000e+00    3.0000000000e+00    2.9906250000e+00    2.9906250000e+00    2.9266865031e+00    7.3167162577e-02
16       1.0018750000e-07    3.0000000000e+00    3.0000000000e+00    2.9718750000e+00    2.9718750000e+00    2.9266865031e+00    7.3167162577e-02
17       1.0043750000e-07    3.0000000000e+00    3.0000000000e+00    2.9343750000e+00    2.9343750000e+00    2.9266865031e+00    7.3167162577e-02
18       1.0093750000e-07    3.0000000000e+00    3.0000000000e+00    2.8593750000e+00    2.8593750000e+00    2.9266865031e+00    7.3167162577e-02
19       1.0193750000e-07    3.0000000000e+00    3.0000000000e+00    2.7093750000e+00    2.7093750000e+00    2.9266865031e+00    7.3167162577e-02
20       1.0393750000e-07    3.0000000000e+00    3.0000000000e+00    2.4093750000e+00    2.4093750000e+00    2.9266865031e+00    7.3167162577e-02
21       1.0793750000e-07    3.0000000000e+00    3.0000000000e+00    1.8093750000e+00    1.8093750000e+00    2.9266865031e+00    7.3167162577e-02
22       1.1593750000e-07    3.0000000000e+00    3.0000000000e+00    6.0937500000e-01    6.0937500000e-01    2.9266865031e+00    7.3167162577e-02
23       1.2000000000e-07    3.0000000000e+00    3.0000000000e+00    0.0000000000e+00    3.1086244690e-15    2.9266865031e+00    7.3167162577e-02
24       1.2160000000e-07    3.0000000000e+00    3.0000000000e+00    0.0000000000e+00    0.0000000000e+00    2.9266865031e+00    7.3167162577e-02
25       1.2480000000e-07    3.0000000000e+00    3.0000000000e+00    0.0000000000e+00    0.0000000000e+00    2.9266865031e+00    7.3167162577e-02
26       1.3120000000e-07    3.0000000000e+00    3.0000000000e+00    0.0000000000e+00    0.0000000000e+00    2.9266865031e+00    7.3167162577e-02
27       1.4400000000e-07    3.0000000000e+00    3.0000000000e+00    0.0000000000e+00    0.0000000000e+00    2.9266865031e+00    7.3167162577e-02
28       1.6400000000e-07    3.0000000000e+00    3.0000000000e+00    0.0000000000e+00    0.0000000000e+00    2.9266865031e+00    7.3167162577e-02
29       1.8400000000e-07    3.0000000000e+00    3.0000000000e+00    0.0000000000e+00    0.0000000000e+00    2.9266865031e+00    7.3167162577e-02
30       2.0000000000e-07    3.0000000000e+00    3.0000000000e+00    0.0000000000e+00    0.0000000000e+00    2.9266865031e+00    7.3167162577e-02
31       2.0012500000e-07    3.0000000000e+00    3.0000000000e+00    0.0000000000e+00    1.8750000000e-02    2.9266865031e+00    7.3167162577e-02
32       2.0037500000e-07    3.0000000000e+00    3.0000000000e+00    0.0000000000e+00    5.6250000000e-02    2.9266865031e+00    7.3167162577e-02
33       2.0087500000e-07    3.0000000000e+00    3.0000000000e+00    0.0000000000e+00    1.3125000000e-01    2.9266865031e+00    7.3167162577e-02
34       2.0187500000e-07    3.0000000000e+00    3.0000000000e+00    0.0000000000e+00    2.8125000000e-01    2.9266865031e+00    7.3167162577e-02
35       2.0387500000e-07    3.0000000000e+00    3.0000000000e+00    0.0000000000e+00    5.8125000000e-01    2.9266865031e+00    7.3167162577e-02
36       2.0787500000e-07    3.0000000000e+00    3.0000000000e+00    0.0000000000e+00    1.1812500000e+00    2.9266865031e+00    7.3167162577e-02
37       2.1587500000e-07    3.0000000000e+00    3.0000000000e+00    0.0000000000e+00    2.3812500000e+00    2.9266865031e+00    7.3167162577e-02
38       2.2000000000e-07    3.0000000000e+00    3.0000000000e+00    0.0000000000e+00    3.0000000000e+00    2.9266865031e+00    7.3167162577e-02
39       2.2160000000e-07    3.0000000000e+00    3.0000000000e+00    0.0000000000e+00    3.0000000000e+00    2.9266865031e+00    7.3167162577e-02
40       2.2480000000e-07    3.0000000000e+00    3.0000000000e+00    0.0000000000e+00    3.0000000000e+00    2.9266865031e+00    7.3167162577e-02
41       2.3120000000e-07    3.0000000000e+00    3.0000000000e+00    0.0000000000e+00    3.0000000000e+00    2.9266865031e+00    7.3167162577e-02
42       2.4400000000e-07    3.0000000000e+00    3.0000000000e+00    0.0000000000e+00    3.0000000000e+00    2.9266865031e+00    7.3167162577e-02
43       2.6400000000e-07    3.0000000000e+00    3.0000000000e+00    0.0000000000e+00    3.0000000000e+00    2.9266865031e+00    7.3167162577e-02
44       2.8400000000e-07    3.0000000000e+00    3.0000000000e+00    0.0000000000e+00    3.0000000000e+00    2.9266865031e+00    7.3167162577e-02
45       3.0000000000e-07    3.0000000000e+00    3.0000000000e+00    0.0000000000e+00    3.0000000000e+00    2.9266865031e+00    7.3167162577e-02
46       3.0012500000e-07    3.0000000000e+00    3.0000000000e+00    0.0000000000e+00    2.9812500000e+00    2.9266865031e+00    7.3167162577e-02
47       3.0037500000e-07    3.0000000000e+00    3.0000000000e+00    0.0000000000e+00    2.9437500000e+00    2.9266865031e+00    7.3167162577e-02
48       3.0087500000e-07    3.0000000000e+00    3.0000000000e+00    0.0000000000e+00    2.8687500000e+00    2.9266865031e+00    7.3167162577e-02
49       3.0187500000e-07    3.0000000000e+00    3.0000000000e+00    0.0000000000e+00    2.7187500000e+00    2.9266865031e+00    7.3167162577e-02
50       3.0387500000e-07    3.0000000000e+00    3.0000000000e+00    0.0000000000e+00    2.4187500000e+00    2.9266865031e+00    7.3167162577e-02
51       3.0787500000e-07    3.0000000000e+00    3.0000000000e+00    0.0000000000e+00    1.8187500000e+00    2.9266865031e+00    7.3167162577e-02
52       3.1587500000e-07    3.0000000000e+00    3.0000000000e+00    0.0000000000e+00    6.1875000000e-01    2.9266865031e+00    7.3167162577e-02
53       3.2000000000e-07    3.0000000000e+00    3.0000000000e+00    0.0000000000e+00    8.8817841970e-16    2.9266865031e+00    7.3167162577e-02
54       3.2010000000e-07    3.0000000000e+00    3.0000000000e+00    1.5000000000e-02    0.0000000000e+00    2.9266865031e+00    7.3167162577e-02
55       3.2030000000e-07    3.0000000000e+00    3.0000000000e+00    4.5000000000e-02    0.0000000000e+00    2.9266865031e+00    7.3167162577e-02
56       3.2070000000e-07    3.0000000000e+00    3.0000000000e+00    1.0500000000e-01    0.0000000000e+00    2.9266865031e+00    7.3167162577e-02
57       3.2150000000e-07    3.0000000000e+00    3.0000000000e+00    2.2500000000e-01    0.0000000000e+00    2.9266865031e+00    7.3167162577e-02
58       3.2310000000e-07    3.0000000000e+00    3.0000000000e+00    4.6500000000e-01    0.0000000000e+00    2.9266865031e+00    7.3167162577e-02
59       3.2630000000e-07    3.0000000000e+00    3.0000000000e+00    9.4500000000e-01    0.0000000000e+00    2.9266865031e+00    7.3167162577e-02
60       3.3270000000e-07    3.0000000000e+00    3.0000000000e+00    1.9050000000e+00    0.0000000000e+00    2.9266865031e+00    7.3167162577e-02
61       3.4000000000e-07    3.0000000000e+00    3.0000000000e+00    3.0000000000e+00    0.0000000000e+00    2.9266865031e+00    7.3167162577e-02
62       3.4120000000e-07    3.0000000000e+00    3.0000000000e+00    3.0000000000e+00    0.0000000000e+00    2.9266865031e+00    7.3167162577e-02
63       3.4360000000e-07    3.0000000000e+00    3.0000000000e+00    3.0000000000e+00    0.0000000000e+00    2.9266865031e+00    7.3167162577e-02
64       3.4840000000e-07    3.0000000000e+00    3.0000000000e+00    3.0000000000e+00    0.0000000000e+00    2.9266865031e+00    7.3167162577e-02
65       3.5200000000e-07    3.0000000000e+00    3.0000000000e+00    3.0000000000e+00    0.0000000000e+00    2.9266865031e+00    7.3167162577e-02
66       3.5203304586e-07    3.0000000000e+00    3.0000000000e+00    3.0000000000e+00    0.0000000000e+00    2.9128837019e+00    8.6943277918e-02
67       3.5206278714e-07    3.0000000000e+00    3.0000000000e+00    3.0000000000e+00    0.0000000000e+00    2.8979804384e+00    1.0181800780e-01
68       3.5209252841e-07    3.0000000000e+00    3.0000000000e+00    3.0000000000e+00    0.0000000000e+00    2.8825891485e+00    1.1718006128e-01
69       3.5215201096e-07    3.0000000000e+00    3.0000000000e+00    3.0000000000e+00    0.0000000000e+00    2.8508269400e+00    1.4888307130e-01
70       3.5227097606e-07    3.0000000000e+00    3.0000000000e+00    3.0000000000e+00    0.0000000000e+00    2.7871897970e+00    2.1240574854e-01
71       3.5250890626e-07    3.0000000000e+00    3.0000000000e+00    3.0000000000e+00    0.0000000000e+00    2.6593348563e+00    3.4004742186e-01
72       3.5270000000e-07    3.0000000000e+00    3.0000000000e+00    3.0000000000e+00    0.0000000000e+00    2.5560957679e+00    4.4313056701e-01
73       3.5272541050e-07    3.0000000000e+00    3.0000000000e+00    3.0000000000e+00    0.0000000000e+00    2.5423261945e+00    4.5688052849e-01
74       3.5274766791e-07    3.0000000000e+00    3.0000000000e+00    3.0000000000e+00    0.0000000000e+00    2.5302589957e+00    4.6893072147e-01
75       3.5279218273e-07    3.0000000000e+00    3.0000000000e+00    3.0000000000e+00    0.0000000000e+00    2.5061097920e+00    4.9304632133e-01
76       3.5288121237e-07    3.0000000000e+00    3.0000000000e+00    3.0000000000e+00    0.0000000000e+00    2.4577249381e+00    5.4136634187e-01
77       3.5305927165e-07    3.0000000000e+00    3.0000000000e+00    3.0000000000e+00    0.0000000000e+00    2.3606162853e+00    6.3835460244e-01
78       3.5341539021e-07    3.0000000000e+00    3.0000000000e+00    3.0000000000e+00    0.0000000000e+00    2.1650281992e+00    8.3373926649e-01
79       3.5412762732e-07    3.0000000000e+00    3.0000000000e+00    3.0000000000e+00    0.0000000000e+00    1.7681505956e+00    1.2303644100e+00
80       3.5483986443e-07    3.0000000000e+00    3.0000000000e+00    3.0000000000e+00    0.0000000000e+00    1.3632316991e+00    1.6352466772e+00
81       3.5555210155e-07    3.0000000000e+00    3.0000000000e+00    3.0000000000e+00    0.0000000000e+00    9.4964756442e-01    2.0490242017e+00
82       3.5626433866e-07    3.0000000000e+00    3.0000000000e+00    3.0000000000e+00    0.0000000000e+00    5.2670914012e-01    2.4724017218e+00
83       3.5697657577e-07    3.0000000000e+00    3.0000000000e+00    3.0000000000e+00    0.0000000000e+00    9.3604212357e-02    2.9062099585e+00
84       3.5702109059e-07    3.0000000000e+00    3.0000000000e+00    3.0000000000e+00    0.0000000000e+00    7.6840914276e-02    2.9230056518e+00
85       3.5706560541e-07    3.0000000000e+00    3.0000000000e+00    3.0000000000e+00    0.0000000000e+00    7.1732482285e-02    2.9281239559e+00
86       3.5711012023e-07    3.0000000000e+00    3.0000000000e+00    3.0000000000e+00    0.0000000000e+00    7.3727436572e-02    2.9261251464e+00
87       3.5719914987e-07    3.0000000000e+00    3.0000000000e+00    3.0000000000e+00    0.0000000000e+00    7.2808317611e-02    2.9270460415e+00
88       3.5727927655e-07    3.0000000000e+00    3.0000000000e+00    3.0000000000e+00    0.0000000000e+00    7.3385468449e-02    2.9264677753e+00
89       3.5735940322e-07    3.0000000000e+00    3.0000000000e+00    3.0000000000e+00    0.0000000000e+00    7.3034354658e-02    2.9268195677e+00
90       3.5751965657e-07    3.0000000000e+00    3.0000000000e+00    3.0000000000e+00    0.0000000000e+00    7.3271141153e-02    2.9265823236e+00
91       3.5767990992e-07    3.0000000000e+00    3.0000000000e+00    3.0000000000e+00    0.0000000000e+00    7.3085755202e-02    2.9267680678e+00
92       3.5800041662e-07    3.0000000000e+00    3.0000000000e+00    3.0000000000e+00    0.0000000000e+00    7.3239227157e-02    2.9266142993e+00
93       3.5864143003e-07    3.0000000000e+00    3.0000000000e+00    3.0000000000e+00    0.0000000000e+00    7.3099355430e-02    2.9267544413e+00
94       3.5992345683e-07    3.0000000000e+00    3.0000000000e+00    3.0000000000e+00    0.0000000000e+00    7.3232936743e-02    2.9266206018e+00
95       3.6248751044e-07    3.0000000000e+00    3.0000000000e+00    3.0000000000e+00    0.0000000000e+00    7.3102381873e-02    2.9267514090e+00
96       3.6761561766e-07    3.0000000000e+00    3.0000000000e+00    3.0000000000e+00    0.0000000000e+00    7.3231452199e-02    2.9266220892e+00
97       3.7787183209e-07    3.0000000000e+00    3.0000000000e+00    3.0000000000e+00    0.0000000000e+00    7.3103117098e-02    2.9267506723e+00
98       3.9787183209e-07    3.0000000000e+00    3.0000000000e+00    3.0000000000e+00    0.0000000000e+00    7.3231083218e-02    2.9266224589e+00
99       4.0000000000e-07    3.0000000000e+00    3.0000000000e+00    3.0000000000e+00    0.0000000000e+00    7.3104403350e-02    2.9267493836e+00
100      4.0012500000e-07    3.0000000000e+00    3.0000000000e+00    3.0000000000e+00    1.8750000000e-02    7.3162619129e-02    2.9266910553e+00
101      4.0037500000e-07    3.0000000000e+00    3.0000000000e+00    3.0000000000e+00    5.6250000000e-02    7.3166991939e-02    2.9266866741e+00
102      4.0087500000e-07    3.0000000000e+00    3.0000000000e+00    3.0000000000e+00    1.3125000000e-01    7.3167320398e-02    2.9266863450e+00
103      4.0187500000e-07    3.0000000000e+00    3.0000000000e+00    3.0000000000e+00    2.8125000000e-01    7.3167010797e-02    2.9266866552e+00
104      4.0387500000e-07    3.0000000000e+00    3.0000000000e+00    3.0000000000e+00    5.8125000000e-01    7.3167311425e-02    2.9266863540e+00
105      4.0787500000e-07    3.0000000000e+00    3.0000000000e+00    3.0000000000e+00    1.1812500000e+00    7.3167015175e-02    2.9266866508e+00
106      4.1587500000e-07    3.0000000000e+00    3.0000000000e+00    3.0000000000e+00    2.3812500000e+00    7.3167309262e-02    2.9266863561e+00
107      4.2000000000e-07    3.0000000000e+00    3.0000000000e+00    3.0000000000e+00    3.0000000000e+00    7.3167017274e-02    2.9266866487e+00
108      4.2120000000e-07    3.0000000000e+00    3.0000000000e+00    3.0000000000e+00    3.0000000000e+00    7.3167161406e-02    2.9266865043e+00
109      4.2360000000e-07    3.0000000000e+00    3.0000000000e+00    3.0000000000e+00    3.0000000000e+00    7.3167162573e-02    2.9266865031e+00
110      4.2840000000e-07    3.0000000000e+00    3.0000000000e+00    3.0000000000e+00    3.0000000000e+00    7.3167162582e-02    2.9266865031e+00
111      4.3200000000e-07    3.0000000000e+00    3.0000000000e+00    3.0000000000e+00    3.0000000000e+00    7.3167162573e-02    2.9266865031e+00
112      4.3202421875e-07    3.0000000000e+00    3.0000000000e+00    3.0000000000e+00    3.0000000000e+00    8.2526891804e-02    2.9173086108e+00
113      4.3207265625e-07    3.0000000000e+00    3.0000000000e+00    3.0000000000e+00    3.0000000000e+00    1.0701259611e-01    2.8927759882e+00
114      4.3211625000e-07    3.0000000000e+00    3.0000000000e+00    3.0000000000e+00    3.0000000000e+00    1.2994326137e-01    2.8698020836e+00
115      4.3220343750e-07    3.0000000000e+00    3.0000000000e+00    3.0000000000e+00    3.0000000000e+00    1.7625747603e-01    2.8234024658e+00
116      4.3237781250e-07    3.0000000000e+00    3.0000000000e+00    3.0000000000e+00    3.0000000000e+00    2.6966916838e-01    2.7298279773e+00
117      4.3272656250e-07    3.0000000000e+00    3.0000000000e+00    3.0000000000e+00    3.0000000000e+00    4.5745883651e-01    2.5417469669e+00
118      4.3342406250e-07    3.0000000000e+00    3.0000000000e+00    3.0000000000e+00    3.0000000000e+00    8.3857066543e-01    2.1601925508e+00
119      4.3412156250e-07    3.0000000000e+00    3.0000000000e+00    3.0000000000e+00    3.0000000000e+00    1.2269184103e+00    1.7715977908e+00
120      4.3481906250e-07    3.0000000000e+00    3.0000000000e+00    3.0000000000e+00    3.0000000000e+00    1.6233173995e+00    1.3751588812e+00
121      4.3551656250e-07    3.0000000000e+00    3.0000000000e+00    3.0000000000e+00    3.0000000000e+00    2.0281467199e+00    9.7050969134e-01
122      4.3587500000e-07    3.0000000000e+00    3.0000000000e+00    3.0000000000e+00    3.0000000000e+00    2.2397246312e+00    7.5911454660e-01
123      4.3590436852e-07    3.0000000000e+00    3.0000000000e+00    3.0000000000e+00    3.0000000000e+00    2.2571754806e+00    7.4168165430e-01
124      4.3592913401e-07    3.0000000000e+00    3.0000000000e+00    3.0000000000e+00    3.0000000000e+00    2.2719024085e+00    7.2697015040e-01
125      4.3597866497e-07    3.0000000000e+00    3.0000000000e+00    3.0000000000e+00    3.0000000000e+00    2.3013823538e+00    6.9752171085e-01
126      4.3607772690e-07    3.0000000000e+00    3.0000000000e+00    3.0000000000e+00    3.0000000000e+00    2.3604953253e+00    6.3847562109e-01
127      4.3627585077e-07    3.0000000000e+00    3.0000000000e+00    3.0000000000e+00    3.0000000000e+00    2.4793228091e+00    5.1979714709e-01
128      4.3667209849e-07    3.0000000000e+00    3.0000000000e+00    3.0000000000e+00    3.0000000000e+00    2.7194224728e+00    2.8005735606e-01
129      4.3687022235e-07    3.0000000000e+00    3.0000000000e+00    3.0000000000e+00    3.0000000000e+00    2.8407694231e+00    1.5892304383e-01
130      4.3699860797e-07    3.0000000000e+00    3.0000000000e+00    3.0000000000e+00    3.0000000000e+00    2.9198201641e+00    8.0020567571e-02
131      4.3702015221e-07    3.0000000000e+00    3.0000000000e+00    3.0000000000e+00    3.0000000000e+00    2.9245463854e+00    7.5303248972e-02
132      4.3704169646e-07    3.0000000000e+00    3.0000000000e+00    3.0000000000e+00    3.0000000000e+00    2.9267924784e+00    7.3061386859e-02
133      4.3708478496e-07    3.0000000000e+00    3.0000000000e+00    3.0000000000e+00    3.0000000000e+00    2.9266465891e+00    7.3207001415e-02
134      4.3717096195e-07    3.0000000000e+00    3.0000000000e+00    3.0000000000e+00    3.0000000000e+00    2.9267116800e+00    7.3142033139e-02
