Index        TIME               V(IN_1)             V(IN_2)           V(CARRY_IN)         V(SUM1_OUT)        V(CARRY1_OUT)        V(SUM2_OUT)        V(CARRY2_OUT)   
0        0.0000000000e+00    3.0000000000e+00    3.0000000000e+00    3.0000000000e+00    7.3167162577e-02    7.3167162577e-02    7.3167162577e-02    7.3167162577e-02
1        5.0000000000e-10    3.0000000000e+00    3.0000000000e+00    3.0000000000e+00    7.3167162577e-02    7.3167162577e-02    7.3167162577e-02    7.3167162577e-02
2        1.5000000000e-09    3.0000000000e+00    3.0000000000e+00    3.0000000000e+00    7.3167162577e-02    7.3167162577e-02    7.3167162577e-02    7.3167162577e-02
3        3.5000000000e-09    3.0000000000e+00    3.0000000000e+00    3.0000000000e+00    7.3167162577e-02    7.3167162577e-02    7.3167162577e-02    7.3167162577e-02
4        7.5000000000e-09    3.0000000000e+00    3.0000000000e+00    3.0000000000e+00    7.3167162577e-02    7.3167162577e-02    7.3167162577e-02    7.3167162577e-02
5        1.5500000000e-08    3.0000000000e+00    3.0000000000e+00    3.0000000000e+00    7.3167162577e-02    7.3167162577e-02    7.3167162577e-02    7.3167162577e-02
6        2.0000000000e-08    3.0000000000e+00    3.0000000000e+00    3.0000000000e+00    7.3167162577e-02    7.3167162577e-02    7.3167162577e-02    7.3167162577e-02
7        2.0062500000e-08    3.0000000000e+00    3.0000000000e+00    3.0000000000e+00    1.0217967706e-01    1.0217967706e-01    1.0217967706e-01    1.0217967706e-01
8        2.0125000000e-08    3.0000000000e+00    3.0000000000e+00    3.0000000000e+00    1.3471394062e-01    1.3471394062e-01    1.3471394062e-01    1.3471394062e-01
9        2.0187500000e-08    3.0000000000e+00    3.0000000000e+00    3.0000000000e+00    1.6774611601e-01    1.6774611601e-01    1.6774611601e-01    1.6774611601e-01
10       2.0312500000e-08    3.0000000000e+00    3.0000000000e+00    3.0000000000e+00    2.3466383755e-01    2.3466383755e-01    2.3466383755e-01    2.3466383755e-01
11       2.0562500000e-08    3.0000000000e+00    3.0000000000e+00    3.0000000000e+00    3.6887524216e-01    3.6887524216e-01    3.6887524216e-01    3.6887524216e-01
12       2.1062500000e-08    3.0000000000e+00    3.0000000000e+00    3.0000000000e+00    6.4014883933e-01    6.4014883933e-01    6.4014883933e-01    6.4014883933e-01
13       2.1562500000e-08    3.0000000000e+00    3.0000000000e+00    3.0000000000e+00    9.1499119081e-01    9.1499119081e-01    9.1499119081e-01    9.1499119081e-01
14       2.2062500000e-08    3.0000000000e+00    3.0000000000e+00    3.0000000000e+00    1.1937670901e+00    1.1937670901e+00    1.1937670901e+00    1.1937670901e+00
15       2.2562500000e-08    3.0000000000e+00    3.0000000000e+00    3.0000000000e+00    1.4765455758e+00    1.4765455758e+00    1.4765455758e+00    1.4765455758e+00
16       2.3062500000e-08    3.0000000000e+00    3.0000000000e+00    3.0000000000e+00    1.7635997077e+00    1.7635997077e+00    1.7635997077e+00    1.7635997077e+00
17       2.3562500000e-08    3.0000000000e+00    3.0000000000e+00    3.0000000000e+00    2.0551292083e+00    2.0551292083e+00    2.0551292083e+00    2.0551292083e+00
18       2.4062500000e-08    3.0000000000e+00    3.0000000000e+00    3.0000000000e+00    2.3513982718e+00    2.3513982718e+00    2.3513982718e+00    2.3513982718e+00
19       2.4562500000e-08    3.0000000000e+00    3.0000000000e+00    3.0000000000e+00    2.6526816689e+00    2.6526816689e+00    2.6526816689e+00    2.6526816689e+00
20       2.4899262298e-08    3.0000000000e+00    3.0000000000e+00    3.0000000000e+00    2.8586449895e+00    2.8586449895e+00    2.8586449895e+00    2.8586449895e+00
21       2.5012653519e-08    3.0000000000e+00    3.0000000000e+00    3.0000000000e+00    2.9212962937e+00    2.9212962937e+00    2.9212962937e+00    2.9212962937e+00
22       2.5028463162e-08    3.0000000000e+00    3.0000000000e+00    3.0000000000e+00    2.9246296167e+00    2.9246296167e+00    2.9246296167e+00    2.9246296167e+00
23       2.5044272804e-08    3.0000000000e+00    3.0000000000e+00    3.0000000000e+00    2.9264709430e+00    2.9264709430e+00    2.9264709430e+00    2.9264709430e+00
24       2.5075892089e-08    3.0000000000e+00    3.0000000000e+00    3.0000000000e+00    2.9267375491e+00    2.9267375491e+00    2.9267375491e+00    2.9267375491e+00
25       2.5139130659e-08    3.0000000000e+00    3.0000000000e+00    3.0000000000e+00    2.9266595289e+00    2.9266595289e+00    2.9266595289e+00    2.9266595289e+00
26       2.5202369229e-08    3.0000000000e+00    3.0000000000e+00    3.0000000000e+00    2.9267007570e+00    2.9267007570e+00    2.9267007570e+00    2.9267007570e+00
27       2.5328846369e-08    3.0000000000e+00    3.0000000000e+00    3.0000000000e+00    2.9266760592e+00    2.9266760592e+00    2.9266760592e+00    2.9266760592e+00
28       2.5581800648e-08    3.0000000000e+00    3.0000000000e+00    3.0000000000e+00    2.9266954512e+00    2.9266954512e+00    2.9266954512e+00    2.9266954512e+00
29       2.6087709207e-08    3.0000000000e+00    3.0000000000e+00    3.0000000000e+00    2.9266782196e+00    2.9266782196e+00    2.9266782196e+00    2.9266782196e+00
30       2.7099526324e-08    3.0000000000e+00    3.0000000000e+00    3.0000000000e+00    2.9266944732e+00    2.9266944732e+00    2.9266944732e+00    2.9266944732e+00
31       2.9123160559e-08    3.0000000000e+00    3.0000000000e+00    3.0000000000e+00    2.9266786852e+00    2.9266786852e+00    2.9266786852e+00    2.9266786852e+00
32       3.3170429029e-08    3.0000000000e+00    3.0000000000e+00    3.0000000000e+00    2.9266942460e+00    2.9266942460e+00    2.9266942460e+00    2.9266942460e+00
33       4.1264965969e-08    3.0000000000e+00    3.0000000000e+00    3.0000000000e+00    2.9266787975e+00    2.9266787975e+00    2.9266787975e+00    2.9266787975e+00
34       5.1264965969e-08    3.0000000000e+00    3.0000000000e+00    3.0000000000e+00    2.9266941787e+00    2.9266941787e+00    2.9266941787e+00    2.9266941787e+00
35       6.1264965969e-08    3.0000000000e+00    3.0000000000e+00    3.0000000000e+00    2.9266788574e+00    2.9266788574e+00    2.9266788574e+00    2.9266788574e+00
36       7.1264965969e-08    3.0000000000e+00    3.0000000000e+00    3.0000000000e+00    2.9266941190e+00    2.9266941190e+00    2.9266941190e+00    2.9266941190e+00
37       8.1264965969e-08    3.0000000000e+00    3.0000000000e+00    3.0000000000e+00    2.9266789168e+00    2.9266789168e+00    2.9266789168e+00    2.9266789168e+00
38       9.1264965969e-08    3.0000000000e+00    3.0000000000e+00    3.0000000000e+00    2.9266940598e+00    2.9266940598e+00    2.9266940598e+00    2.9266940598e+00
39       1.0000000000e-07    3.0000000000e+00    3.0000000000e+00    3.0000000000e+00    2.9266789801e+00    2.9266789801e+00    2.9266789801e+00    2.9266789801e+00
40       1.0006250000e-07    2.9906250000e+00    2.9906250000e+00    2.9906250000e+00    2.9266854874e+00    2.9266854874e+00    2.9266854874e+00    2.9266854874e+00
41       1.0018750000e-07    2.9718750000e+00    2.9718750000e+00    2.9718750000e+00    2.9266864296e+00    2.9266864296e+00    2.9266864296e+00    2.9266864296e+00
42       1.0031250000e-07    2.9531250000e+00    2.9531250000e+00    2.9531250000e+00    2.9266865568e+00    2.9266865568e+00    2.9266865568e+00    2.9266865568e+00
43       1.0056250000e-07    2.9156250000e+00    2.9156250000e+00    2.9156250000e+00    2.9266864572e+00    2.9266864572e+00    2.9266864572e+00    2.9266864572e+00
44       1.0106250000e-07    2.8406250000e+00    2.8406250000e+00    2.8406250000e+00    2.9266865456e+00    2.9266865456e+00    2.9266865456e+00    2.9266865456e+00
45       1.0206250000e-07    2.6906250000e+00    2.6906250000e+00    2.6906250000e+00    2.9266864623e+00    2.9266864623e+00    2.9266864623e+00    2.9266864623e+00
46       1.0406250000e-07    2.3906250000e+00    2.3906250000e+00    2.3906250000e+00    2.9266865431e+00    2.9266865431e+00    2.9266865431e+00    2.9266865431e+00
47       1.0806250000e-07    1.7906250000e+00    1.7906250000e+00    1.7906250000e+00    2.9266864634e+00    2.9266864634e+00    2.9266864634e+00    2.9266864634e+00
48       1.1606250000e-07    5.9062500000e-01    5.9062500000e-01    5.9062500000e-01    2.9266865426e+00    2.9266865426e+00    2.9266865426e+00    2.9266865426e+00
49       1.2000000000e-07   -8.8817841970e-16   -8.8817841970e-16   -8.8817841970e-16    2.9266864640e+00    2.9266864640e+00    2.9266864640e+00    2.9266864640e+00
50       1.2133333333e-07    0.0000000000e+00    0.0000000000e+00    0.0000000000e+00    2.9266865028e+00    2.9266865028e+00    2.9266865028e+00    2.9266865028e+00
51       1.2400000000e-07    0.0000000000e+00    0.0000000000e+00    0.0000000000e+00    2.9266865031e+00    2.9266865031e+00    2.9266865031e+00    2.9266865031e+00
52       1.2666666667e-07    0.0000000000e+00    0.0000000000e+00    0.0000000000e+00    2.9266865031e+00    2.9266865031e+00    2.9266865031e+00    2.9266865031e+00
53       1.3200000000e-07    0.0000000000e+00    0.0000000000e+00    0.0000000000e+00    2.9266865031e+00    2.9266865031e+00    2.9266865031e+00    2.9266865031e+00
54       1.3333333333e-07    0.0000000000e+00    0.0000000000e+00    0.0000000000e+00    2.9266865031e+00    2.9266865031e+00    2.9266865031e+00    2.9266865031e+00
55       1.3335039063e-07    0.0000000000e+00    0.0000000000e+00    0.0000000000e+00    2.9207607165e+00    2.9207607165e+00    2.9207607165e+00    2.9207607165e+00
56       1.3338450521e-07    0.0000000000e+00    0.0000000000e+00    0.0000000000e+00    2.9040480753e+00    2.9040480753e+00    2.9040480753e+00    2.9040480753e+00
57       1.3341520833e-07    0.0000000000e+00    0.0000000000e+00    0.0000000000e+00    2.8880634705e+00    2.8880634705e+00    2.8880634705e+00    2.8880634705e+00
58       1.3344591146e-07    0.0000000000e+00    0.0000000000e+00    0.0000000000e+00    2.8718809511e+00    2.8718809511e+00    2.8718809511e+00    2.8718809511e+00
59       1.3350731771e-07    0.0000000000e+00    0.0000000000e+00    0.0000000000e+00    2.8390897571e+00    2.8390897571e+00    2.8390897571e+00    2.8390897571e+00
60       1.3363013021e-07    0.0000000000e+00    0.0000000000e+00    0.0000000000e+00    2.7733496125e+00    2.7733496125e+00    2.7733496125e+00    2.7733496125e+00
61       1.3387575521e-07    0.0000000000e+00    0.0000000000e+00    0.0000000000e+00    2.6412655185e+00    2.6412655185e+00    2.6412655185e+00    2.6412655185e+00
62       1.3436700521e-07    0.0000000000e+00    0.0000000000e+00    0.0000000000e+00    2.3746028812e+00    2.3746028812e+00    2.3746028812e+00    2.3746028812e+00
63       1.3534950521e-07    0.0000000000e+00    0.0000000000e+00    0.0000000000e+00    1.8307649671e+00    1.8307649671e+00    1.8307649671e+00    1.8307649671e+00
64       1.3606250000e-07    0.0000000000e+00    0.0000000000e+00    0.0000000000e+00    1.4267222386e+00    1.4267222386e+00    1.4267222386e+00    1.4267222386e+00
65       1.3609233247e-07    0.0000000000e+00    0.0000000000e+00    0.0000000000e+00    1.4096281079e+00    1.4096281079e+00    1.4096281079e+00    1.4096281079e+00
66       1.3611643352e-07    0.0000000000e+00    0.0000000000e+00    0.0000000000e+00    1.3958088933e+00    1.3958088933e+00    1.3958088933e+00    1.3958088933e+00
67       1.3616463561e-07    0.0000000000e+00    0.0000000000e+00    0.0000000000e+00    1.3681498292e+00    1.3681498292e+00    1.3681498292e+00    1.3681498292e+00
68       1.3626103979e-07    0.0000000000e+00    0.0000000000e+00    0.0000000000e+00    1.3127090190e+00    1.3127090190e+00    1.3127090190e+00    1.3127090190e+00
69       1.3645384816e-07    0.0000000000e+00    0.0000000000e+00    0.0000000000e+00    1.2013396816e+00    1.2013396816e+00    1.2013396816e+00    1.2013396816e+00
70       1.3683946489e-07    0.0000000000e+00    0.0000000000e+00    0.0000000000e+00    9.7662141263e-01    9.7662141263e-01    9.7662141263e-01    9.7662141263e-01
71       1.3761069836e-07    0.0000000000e+00    0.0000000000e+00    0.0000000000e+00    5.1887792743e-01    5.1887792743e-01    5.1887792743e-01    5.1887792743e-01
72       1.3838193182e-07    0.0000000000e+00    0.0000000000e+00    0.0000000000e+00    7.8447888044e-02    7.8447888044e-02    7.8447888044e-02    7.8447888044e-02
73       1.3842525969e-07    0.0000000000e+00    0.0000000000e+00    0.0000000000e+00    7.4137648180e-02    7.4137648180e-02    7.4137648180e-02    7.4137648180e-02
74       1.3846858755e-07    0.0000000000e+00    0.0000000000e+00    0.0000000000e+00    7.2799339271e-02    7.2799339271e-02    7.2799339271e-02    7.2799339271e-02
75       1.3851191542e-07    0.0000000000e+00    0.0000000000e+00    0.0000000000e+00    7.3306571121e-02    7.3306571121e-02    7.3306571121e-02    7.3306571121e-02
76       1.3859857115e-07    0.0000000000e+00    0.0000000000e+00    0.0000000000e+00    7.3078994715e-02    7.3078994715e-02    7.3078994715e-02    7.3078994715e-02
77       1.3868522688e-07    0.0000000000e+00    0.0000000000e+00    0.0000000000e+00    7.3222923665e-02    7.3222923665e-02    7.3222923665e-02    7.3222923665e-02
78       1.3885853834e-07    0.0000000000e+00    0.0000000000e+00    0.0000000000e+00    7.3122686138e-02    7.3122686138e-02    7.3122686138e-02    7.3122686138e-02
79       1.3920516126e-07    0.0000000000e+00    0.0000000000e+00    0.0000000000e+00    7.3206898730e-02    7.3206898730e-02    7.3206898730e-02    7.3206898730e-02
80       1.3989840711e-07    0.0000000000e+00    0.0000000000e+00    0.0000000000e+00    7.3129601926e-02    7.3129601926e-02    7.3129601926e-02    7.3129601926e-02
81       1.4128489880e-07    0.0000000000e+00    0.0000000000e+00    0.0000000000e+00    7.3203680763e-02    7.3203680763e-02    7.3203680763e-02    7.3203680763e-02
82       1.4405788218e-07    0.0000000000e+00    0.0000000000e+00    0.0000000000e+00    7.3131154699e-02    7.3131154699e-02    7.3131154699e-02    7.3131154699e-02
83       1.4960384894e-07    0.0000000000e+00    0.0000000000e+00    0.0000000000e+00    7.3202917986e-02    7.3202917986e-02    7.3202917986e-02    7.3202917986e-02
84       1.6069578246e-07    0.0000000000e+00    0.0000000000e+00    0.0000000000e+00    7.3131532739e-02    7.3131532739e-02    7.3131532739e-02    7.3131532739e-02
85       1.8069578246e-07    0.0000000000e+00    0.0000000000e+00    0.0000000000e+00    7.3202722965e-02    7.3202722965e-02    7.3202722965e-02    7.3202722965e-02
86       2.0000000000e-07    0.0000000000e+00    0.0000000000e+00    0.0000000000e+00    7.3131674001e-02    7.3131674001e-02    7.3131674001e-02    7.3131674001e-02
87       2.0012500000e-07    1.8750000000e-02    0.0000000000e+00    0.0000000000e+00    7.3164593385e-02    7.3164593385e-02    7.3164593385e-02    7.3164593385e-02
88       2.0037500000e-07    5.6250000000e-02    0.0000000000e+00    0.0000000000e+00    7.3167066086e-02    7.3167066086e-02    7.3167066086e-02    7.3167066086e-02
89       2.0087500000e-07    1.3125000000e-01    0.0000000000e+00    0.0000000000e+00    7.3167251821e-02    7.3167251821e-02    7.3167251821e-02    7.3167251821e-02
90       2.0187500000e-07    2.8125000000e-01    0.0000000000e+00    0.0000000000e+00    7.3167076750e-02    7.3167076750e-02    7.3167076750e-02    7.3167076750e-02
91       2.0387500000e-07    5.8125000000e-01    0.0000000000e+00    0.0000000000e+00    7.3167246746e-02    7.3167246746e-02    7.3167246746e-02    7.3167246746e-02
92       2.0787500000e-07    1.1812500000e+00    0.0000000000e+00    0.0000000000e+00    7.3167079226e-02    7.3167079226e-02    7.3167079226e-02    7.3167079226e-02
93       2.1587500000e-07    2.3812500000e+00    0.0000000000e+00    0.0000000000e+00    7.3167245524e-02    7.3167245524e-02    7.3167245524e-02    7.3167245524e-02
94       2.2000000000e-07    3.0000000000e+00    0.0000000000e+00    0.0000000000e+00    7.3167080412e-02    7.3167080412e-02    7.3167080412e-02    7.3167080412e-02
95       2.2120000000e-07    3.0000000000e+00    0.0000000000e+00    0.0000000000e+00    7.3167161915e-02    7.3167161915e-02    7.3167161915e-02    7.3167161915e-02
96       2.2360000000e-07    3.0000000000e+00    0.0000000000e+00    0.0000000000e+00    7.3167162575e-02    7.3167162575e-02    7.3167162575e-02    7.3167162575e-02
97       2.2840000000e-07    3.0000000000e+00    0.0000000000e+00    0.0000000000e+00    7.3167162580e-02    7.3167162580e-02    7.3167162580e-02    7.3167162580e-02
98       2.3200000000e-07    3.0000000000e+00    0.0000000000e+00    0.0000000000e+00    7.3167162575e-02    7.3167162575e-02    7.3167162575e-02    7.3167162575e-02
99       2.3202421875e-07    3.0000000000e+00    0.0000000000e+00    0.0000000000e+00    8.2526891804e-02    7.3167162577e-02    8.2526891804e-02    7.3167162577e-02
100      2.3207265625e-07    3.0000000000e+00    0.0000000000e+00    0.0000000000e+00    1.0701259611e-01    7.3167162577e-02    1.0701259611e-01    7.3167162577e-02
101      2.3211625000e-07    3.0000000000e+00    0.0000000000e+00    0.0000000000e+00    1.2994326137e-01    7.3167162577e-02    1.2994326137e-01    7.3167162577e-02
102      2.3220343750e-07    3.0000000000e+00    0.0000000000e+00    0.0000000000e+00    1.7625747603e-01    7.3167162577e-02    1.7625747603e-01    7.3167162577e-02
103      2.3237781250e-07    3.0000000000e+00    0.0000000000e+00    0.0000000000e+00    2.6966916838e-01    7.3167162577e-02    2.6966916838e-01    7.3167162577e-02
104      2.3272656250e-07    3.0000000000e+00    0.0000000000e+00    0.0000000000e+00    4.5745883651e-01    7.3167162577e-02    4.5745883651e-01    7.3167162577e-02
105      2.3342406250e-07    3.0000000000e+00    0.0000000000e+00    0.0000000000e+00    8.3857066543e-01    7.3167162577e-02    8.3857066543e-01    7.3167162577e-02
106      2.3412156250e-07    3.0000000000e+00    0.0000000000e+00    0.0000000000e+00    1.2269184103e+00    7.3167162577e-02    1.2269184103e+00    7.3167162577e-02
107      2.3481906250e-07    3.0000000000e+00    0.0000000000e+00    0.0000000000e+00    1.6233173995e+00    7.3167162577e-02    1.6233173995e+00    7.3167162577e-02
108      2.3551656250e-07    3.0000000000e+00    0.0000000000e+00    0.0000000000e+00    2.0281467199e+00    7.3167162577e-02    2.0281467199e+00    7.3167162577e-02
109      2.3587500000e-07    3.0000000000e+00    0.0000000000e+00    0.0000000000e+00    2.2397246312e+00    7.3167162577e-02    2.2397246312e+00    7.3167162577e-02
110      2.3590436081e-07    3.0000000000e+00    0.0000000000e+00    0.0000000000e+00    2.2571708918e+00    7.3167162577e-02    2.2571708918e+00    7.3167162577e-02
111      2.3592911896e-07    3.0000000000e+00    0.0000000000e+00    0.0000000000e+00    2.2718934540e+00    7.3167162577e-02    2.2718934540e+00    7.3167162577e-02
112      2.3597863526e-07    3.0000000000e+00    0.0000000000e+00    0.0000000000e+00    2.3013646518e+00    7.3167162577e-02    2.3013646518e+00    7.3167162577e-02
113      2.3607766787e-07    3.0000000000e+00    0.0000000000e+00    0.0000000000e+00    2.3604600358e+00    7.3167162577e-02    2.3604600358e+00    7.3167162577e-02
114      2.3627573308e-07    3.0000000000e+00    0.0000000000e+00    0.0000000000e+00    2.4792519849e+00    7.3167162577e-02    2.4792519849e+00    7.3167162577e-02
115      2.3667186350e-07    3.0000000000e+00    0.0000000000e+00    0.0000000000e+00    2.7192790943e+00    7.3167162577e-02    2.7192790943e+00    7.3167162577e-02
116      2.3686992871e-07    3.0000000000e+00    0.0000000000e+00    0.0000000000e+00    2.8405890110e+00    7.3167162577e-02    2.8405890110e+00    7.3167162577e-02
117      2.3699831005e-07    3.0000000000e+00    0.0000000000e+00    0.0000000000e+00    2.9196362830e+00    7.3167162577e-02    2.9196362830e+00    7.3167162577e-02
118      2.3701985582e-07    3.0000000000e+00    0.0000000000e+00    0.0000000000e+00    2.9244891800e+00    7.3167162577e-02    2.9244891800e+00    7.3167162577e-02
