Index        TIME              V(CLK_IN)            V(J_IN)             V(K_IN)            V(Q_OUT)           V(QBAR_OUT)    
0        0.0000000000e+00    0.0000000000e+00    0.0000000000e+00    0.0000000000e+00    7.3167162577e-02    2.9266865031e+00
1        5.0000000000e-10    0.0000000000e+00    0.0000000000e+00    0.0000000000e+00    7.3167162577e-02    2.9266865031e+00
2        1.5000000000e-09    0.0000000000e+00    0.0000000000e+00    0.0000000000e+00    7.3167162577e-02    2.9266865031e+00
3        3.5000000000e-09    0.0000000000e+00    0.0000000000e+00    0.0000000000e+00    7.3167162577e-02    2.9266865031e+00
4        7.5000000000e-09    0.0000000000e+00    0.0000000000e+00    0.0000000000e+00    7.3167162577e-02    2.9266865031e+00
5        1.5500000000e-08    0.0000000000e+00    0.0000000000e+00    0.0000000000e+00    7.3167162577e-02    2.9266865031e+00
6        2.5500000000e-08    0.0000000000e+00    0.0000000000e+00    0.0000000000e+00    7.3167162577e-02    2.9266865031e+00
7        3.5500000000e-08    0.0000000000e+00    0.0000000000e+00    0.0000000000e+00    7.3167162577e-02    2.9266865031e+00
8        4.5500000000e-08    0.0000000000e+00    0.0000000000e+00    0.0000000000e+00    7.3167162577e-02    2.9266865031e+00
9        5.5500000000e-08    0.0000000000e+00    0.0000000000e+00    0.0000000000e+00    7.3167162577e-02    2.9266865031e+00
10       6.5500000000e-08    0.0000000000e+00    0.0000000000e+00    0.0000000000e+00    7.3167162577e-02    2.9266865031e+00
11       7.5500000000e-08    0.0000000000e+00    0.0000000000e+00    0.0000000000e+00    7.3167162577e-02    2.9266865031e+00
12       8.5500000000e-08    0.0000000000e+00    0.0000000000e+00    0.0000000000e+00    7.3167162577e-02    2.9266865031e+00
13       9.5500000000e-08    0.0000000000e+00    0.0000000000e+00    0.0000000000e+00    7.3167162577e-02    2.9266865031e+00
14       1.0000000000e-07    0.0000000000e+00    0.0000000000e+00    0.0000000000e+00    7.3167162577e-02    2.9266865031e+00
15       1.0006250000e-07    1.8750000000e-02    0.0000000000e+00    0.0000000000e+00    7.3167162577e-02    2.9266865031e+00
16       1.0018750000e-07    5.6250000000e-02    0.0000000000e+00    0.0000000000e+00    7.3167162577e-02    2.9266865031e+00
17       1.0043750000e-07    1.3125000000e-01    0.0000000000e+00    0.0000000000e+00    7.3167162577e-02    2.9266865031e+00
18       1.0093750000e-07    2.8125000000e-01    0.0000000000e+00    0.0000000000e+00    7.3167162577e-02    2.9266865031e+00
19       1.0193750000e-07    5.8125000000e-01    0.0000000000e+00    0.0000000000e+00    7.3167162577e-02    2.9266865031e+00
20       1.0393750000e-07    1.1812500000e+00    0.0000000000e+00    0.0000000000e+00    7.3167162577e-02    2.9266865031e+00
21       1.0793750000e-07    2.3812500000e+00    0.0000000000e+00    0.0000000000e+00    7.3167162577e-02    2.9266865031e+00
22       1.1000000000e-07    3.0000000000e+00    0.0000000000e+00    0.0000000000e+00    7.3167162577e-02    2.9266865031e+00
23       1.1080000000e-07    3.0000000000e+00    0.0000000000e+00    0.0000000000e+00    7.3167162577e-02    2.9266865031e+00
24       1.1240000000e-07    3.0000000000e+00    0.0000000000e+00    0.0000000000e+00    7.3167162577e-02    2.9266865031e+00
25       1.1560000000e-07    3.0000000000e+00    0.0000000000e+00    0.0000000000e+00    7.3167162577e-02    2.9266865031e+00
26       1.2200000000e-07    3.0000000000e+00    0.0000000000e+00    0.0000000000e+00    7.3167162577e-02    2.9266865031e+00
27       1.3480000000e-07    3.0000000000e+00    0.0000000000e+00    0.0000000000e+00    7.3167162577e-02    2.9266865031e+00
28       1.5480000000e-07    3.0000000000e+00    0.0000000000e+00    0.0000000000e+00    7.3167162577e-02    2.9266865031e+00
29       1.7480000000e-07    3.0000000000e+00    0.0000000000e+00    0.0000000000e+00    7.3167162577e-02    2.9266865031e+00
30       1.9000000000e-07    3.0000000000e+00    0.0000000000e+00    0.0000000000e+00    7.3167162577e-02    2.9266865031e+00
31       1.9006250000e-07    2.9812500000e+00    0.0000000000e+00    0.0000000000e+00    7.3167162577e-02    2.9266865031e+00
32       1.9018750000e-07    2.9437500000e+00    0.0000000000e+00    0.0000000000e+00    7.3167162577e-02    2.9266865031e+00
33       1.9043750000e-07    2.8687500000e+00    0.0000000000e+00    0.0000000000e+00    7.3167162577e-02    2.9266865031e+00
34       1.9093750000e-07    2.7187500000e+00    0.0000000000e+00    0.0000000000e+00    7.3167162577e-02    2.9266865031e+00
35       1.9193750000e-07    2.4187500000e+00    0.0000000000e+00    0.0000000000e+00    7.3167162577e-02    2.9266865031e+00
36       1.9393750000e-07    1.8187500000e+00    0.0000000000e+00    0.0000000000e+00    7.3167162577e-02    2.9266865031e+00
37       1.9793750000e-07    6.1875000000e-01    0.0000000000e+00    0.0000000000e+00    7.3167162577e-02    2.9266865031e+00
38       2.0000000000e-07   -3.1086244690e-15    0.0000000000e+00    0.0000000000e+00    7.3167162577e-02    2.9266865031e+00
39       2.0080000000e-07    0.0000000000e+00    0.0000000000e+00    0.0000000000e+00    7.3167162577e-02    2.9266865031e+00
40       2.0240000000e-07    0.0000000000e+00    0.0000000000e+00    0.0000000000e+00    7.3167162577e-02    2.9266865031e+00
41       2.0560000000e-07    0.0000000000e+00    0.0000000000e+00    0.0000000000e+00    7.3167162577e-02    2.9266865031e+00
42       2.1200000000e-07    0.0000000000e+00    0.0000000000e+00    0.0000000000e+00    7.3167162577e-02    2.9266865031e+00
43       2.2480000000e-07    0.0000000000e+00    0.0000000000e+00    0.0000000000e+00    7.3167162577e-02    2.9266865031e+00
44       2.4480000000e-07    0.0000000000e+00    0.0000000000e+00    0.0000000000e+00    7.3167162577e-02    2.9266865031e+00
45       2.5000000000e-07    0.0000000000e+00    0.0000000000e+00    0.0000000000e+00    7.3167162577e-02    2.9266865031e+00
46       2.5006250000e-07    0.0000000000e+00    1.8750000000e-02    0.0000000000e+00    7.3167162577e-02    2.9266865031e+00
47       2.5018750000e-07    0.0000000000e+00    5.6250000000e-02    0.0000000000e+00    7.3167162577e-02    2.9266865031e+00
48       2.5043750000e-07    0.0000000000e+00    1.3125000000e-01    0.0000000000e+00    7.3167162577e-02    2.9266865031e+00
49       2.5093750000e-07    0.0000000000e+00    2.8125000000e-01    0.0000000000e+00    7.3167162577e-02    2.9266865031e+00
50       2.5193750000e-07    0.0000000000e+00    5.8125000000e-01    0.0000000000e+00    7.3167162577e-02    2.9266865031e+00
51       2.5393750000e-07    0.0000000000e+00    1.1812500000e+00    0.0000000000e+00    7.3167162577e-02    2.9266865031e+00
52       2.5793750000e-07    0.0000000000e+00    2.3812500000e+00    0.0000000000e+00    7.3167162577e-02    2.9266865031e+00
53       2.6000000000e-07    0.0000000000e+00    3.0000000000e+00    0.0000000000e+00    7.3167162577e-02    2.9266865031e+00
54       2.6080000000e-07    0.0000000000e+00    3.0000000000e+00    0.0000000000e+00    7.3167162577e-02    2.9266865031e+00
55       2.6240000000e-07    0.0000000000e+00    3.0000000000e+00    0.0000000000e+00    7.3167162577e-02    2.9266865031e+00
56       2.6560000000e-07    0.0000000000e+00    3.0000000000e+00    0.0000000000e+00    7.3167162577e-02    2.9266865031e+00
57       2.7200000000e-07    0.0000000000e+00    3.0000000000e+00    0.0000000000e+00    7.3167162577e-02    2.9266865031e+00
58       2.8480000000e-07    0.0000000000e+00    3.0000000000e+00    0.0000000000e+00    7.3167162577e-02    2.9266865031e+00
59       3.0000000000e-07    7.9409338805e-15    3.0000000000e+00    0.0000000000e+00    7.3167162577e-02    2.9266865031e+00
60       3.0006250000e-07    1.8750000000e-02    3.0000000000e+00    0.0000000000e+00    7.3167162577e-02    2.9266865031e+00
61       3.0018750000e-07    5.6250000000e-02    3.0000000000e+00    0.0000000000e+00    7.3167162577e-02    2.9266865031e+00
62       3.0043750000e-07    1.3125000000e-01    3.0000000000e+00    0.0000000000e+00    7.3167162577e-02    2.9266865031e+00
63       3.0093750000e-07    2.8125000000e-01    3.0000000000e+00    0.0000000000e+00    7.3167162577e-02    2.9266865031e+00
64       3.0193750000e-07    5.8125000000e-01    3.0000000000e+00    0.0000000000e+00    7.3167162577e-02    2.9266865031e+00
65       3.0393750000e-07    1.1812500000e+00    3.0000000000e+00    0.0000000000e+00    7.3167162577e-02    2.9266865031e+00
66       3.0793750000e-07    2.3812500000e+00    3.0000000000e+00    0.0000000000e+00    7.3167162577e-02    2.9266865031e+00
67       3.1000000000e-07    3.0000000000e+00    3.0000000000e+00    0.0000000000e+00    7.3167162577e-02    2.9266865031e+00
68       3.1080000000e-07    3.0000000000e+00    3.0000000000e+00    0.0000000000e+00    7.3167162577e-02    2.9266865031e+00
69       3.1240000000e-07    3.0000000000e+00    3.0000000000e+00    0.0000000000e+00    7.3167162577e-02    2.9266865031e+00
70       3.1560000000e-07    3.0000000000e+00    3.0000000000e+00    0.0000000000e+00    7.3167162577e-02    2.9266865031e+00
71       3.2200000000e-07    3.0000000000e+00    3.0000000000e+00    0.0000000000e+00    7.3167162577e-02    2.9266865031e+00
72       3.3480000000e-07    3.0000000000e+00    3.0000000000e+00    0.0000000000e+00    7.3167162577e-02    2.9266865031e+00
73       3.5480000000e-07    3.0000000000e+00    3.0000000000e+00    0.0000000000e+00    7.3167162577e-02    2.9266865031e+00
74       3.7480000000e-07    3.0000000000e+00    3.0000000000e+00    0.0000000000e+00    7.3167162577e-02    2.9266865031e+00
75       3.9000000000e-07    3.0000000000e+00    3.0000000000e+00    0.0000000000e+00    7.3167162577e-02    2.9266865031e+00
76       3.9006250000e-07    2.9812500000e+00    3.0000000000e+00    0.0000000000e+00    7.3167162577e-02    2.9266865031e+00
77       3.9018750000e-07    2.9437500000e+00    3.0000000000e+00    0.0000000000e+00    7.3167162577e-02    2.9266865031e+00
78       3.9043750000e-07    2.8687500000e+00    3.0000000000e+00    0.0000000000e+00    7.3167162577e-02    2.9266865031e+00
79       3.9093750000e-07    2.7187500000e+00    3.0000000000e+00    0.0000000000e+00    7.3167162577e-02    2.9266865031e+00
80       3.9193750000e-07    2.4187500000e+00    3.0000000000e+00    0.0000000000e+00    7.3167162577e-02    2.9266865031e+00
81       3.9393750000e-07    1.8187500000e+00    3.0000000000e+00    0.0000000000e+00    7.3167162577e-02    2.9266865031e+00
82       3.9793750000e-07    6.1875000000e-01    3.0000000000e+00    0.0000000000e+00    7.3167162577e-02    2.9266865031e+00
83       4.0000000000e-07   -2.2648549702e-14    3.0000000000e+00    0.0000000000e+00    7.3167162577e-02    2.9266865031e+00
84       4.0080000000e-07    0.0000000000e+00    3.0000000000e+00    0.0000000000e+00    7.3167162577e-02    2.9266865031e+00
85       4.0240000000e-07    0.0000000000e+00    3.0000000000e+00    0.0000000000e+00    7.3167162577e-02    2.9266865031e+00
86       4.0560000000e-07    0.0000000000e+00    3.0000000000e+00    0.0000000000e+00    7.3167162577e-02    2.9266865031e+00
87       4.1200000000e-07    0.0000000000e+00    3.0000000000e+00    0.0000000000e+00    7.3167162577e-02    2.9266865031e+00
88       4.1666666667e-07    0.0000000000e+00    3.0000000000e+00    0.0000000000e+00    7.3167162577e-02    2.9266865031e+00
89       4.1671171885e-07    0.0000000000e+00    3.0000000000e+00    0.0000000000e+00    9.3096348006e-02    2.9067188060e+00
90       4.1675099281e-07    0.0000000000e+00    3.0000000000e+00    0.0000000000e+00    1.1316209025e-01    2.8866148128e+00
91       4.1679026677e-07    0.0000000000e+00    3.0000000000e+00    0.0000000000e+00    1.3369845259e-01    2.8660397315e+00
92       4.1686881469e-07    0.0000000000e+00    3.0000000000e+00    0.0000000000e+00    1.7564614056e-01    2.8240149723e+00
93       4.1702591053e-07    0.0000000000e+00    3.0000000000e+00    0.0000000000e+00    2.5965644852e-01    2.7398575430e+00
94       4.1734010221e-07    0.0000000000e+00    3.0000000000e+00    0.0000000000e+00    4.2878073840e-01    2.5704664440e+00
95       4.1793750000e-07    0.0000000000e+00    3.0000000000e+00    0.0000000000e+00    7.5419264028e-01    2.2446514274e+00
96       4.1796761299e-07    0.0000000000e+00    3.0000000000e+00    0.0000000000e+00    7.7074218645e-01    2.2280853539e+00
97       4.1799351679e-07    0.0000000000e+00    3.0000000000e+00    0.0000000000e+00    7.8498740923e-01    2.2138261662e+00
98       4.1804532440e-07    0.0000000000e+00    3.0000000000e+00    0.0000000000e+00    8.1349883398e-01    2.1852873883e+00
99       4.1814893962e-07    0.0000000000e+00    3.0000000000e+00    0.0000000000e+00    8.7064645014e-01    2.1280884422e+00
100      4.1835617006e-07    0.0000000000e+00    3.0000000000e+00    0.0000000000e+00    9.8543930763e-01    2.0132061434e+00
101      4.1877063094e-07    0.0000000000e+00    3.0000000000e+00    0.0000000000e+00    1.2170516844e+00    1.7814681808e+00
102      4.1959955271e-07    0.0000000000e+00    3.0000000000e+00    0.0000000000e+00    1.6887765452e+00    1.3097138854e+00
103      4.2042847447e-07    0.0000000000e+00    3.0000000000e+00    0.0000000000e+00    2.1726488923e+00    8.2612586748e-01
104      4.2125739623e-07    0.0000000000e+00    3.0000000000e+00    0.0000000000e+00    2.6698522562e+00    3.2954694145e-01
105      4.2151482127e-07    0.0000000000e+00    3.0000000000e+00    0.0000000000e+00    2.8272309866e+00    1.7243723374e-01
106      4.2167592480e-07    0.0000000000e+00    3.0000000000e+00    0.0000000000e+00    2.9210078469e+00    7.8835230341e-02
107      4.2169773531e-07    0.0000000000e+00    3.0000000000e+00    0.0000000000e+00    2.9249314948e+00    7.4918898475e-02
108      4.2171954582e-07    0.0000000000e+00    3.0000000000e+00    0.0000000000e+00    2.9267841570e+00    7.3069690752e-02
109      4.2176316684e-07    0.0000000000e+00    3.0000000000e+00    0.0000000000e+00    2.9266492097e+00    7.3204386395e-02
110      4.2185040887e-07    0.0000000000e+00    3.0000000000e+00    0.0000000000e+00    2.9267101643e+00    7.3143545517e-02
111      4.2193765091e-07    0.0000000000e+00    3.0000000000e+00    0.0000000000e+00    2.9266714910e+00    7.3182146682e-02
112      4.2211213498e-07    0.0000000000e+00    3.0000000000e+00    0.0000000000e+00    2.9266984955e+00    7.3155192551e-02
113      4.2246110313e-07    0.0000000000e+00    3.0000000000e+00    0.0000000000e+00    2.9266757807e+00    7.3177864961e-02
114      4.2315903943e-07    0.0000000000e+00    3.0000000000e+00    0.0000000000e+00    2.9266966423e+00    7.3157042304e-02
115      4.2455491202e-07    0.0000000000e+00    3.0000000000e+00    0.0000000000e+00    2.9266766435e+00    7.3177003832e-02
116      4.2734665721e-07    0.0000000000e+00    3.0000000000e+00    0.0000000000e+00    2.9266962259e+00    7.3157457927e-02
117      4.3293014759e-07    0.0000000000e+00    3.0000000000e+00    0.0000000000e+00    2.9266768480e+00    7.3176799639e-02
118      4.4409712834e-07    0.0000000000e+00    3.0000000000e+00    0.0000000000e+00    2.9266961245e+00    7.3157559133e-02
119      4.5000000000e-07    0.0000000000e+00    3.0000000000e+00    0.0000000000e+00    2.9266769451e+00    7.3176702745e-02
120      4.5006250000e-07    0.0000000000e+00    2.9812500000e+00    1.8750000000e-02    2.9266852126e+00    7.3168450647e-02
121      4.5012500000e-07    0.0000000000e+00    2.9625000000e+00    3.7500000000e-02    2.9266863289e+00    7.3167336487e-02
122      4.5025000000e-07    0.0000000000e+00    2.9250000000e+00    7.5000000000e-02    2.9266866303e+00    7.3167035629e-02
123      4.5050000000e-07    0.0000000000e+00    2.8500000000e+00    1.5000000000e-01    2.9266863943e+00    7.3167271145e-02
124      4.5100000000e-07    0.0000000000e+00    2.7000000000e+00    3.0000000000e-01    2.9266866037e+00    7.3167062165e-02
125      4.5200000000e-07    0.0000000000e+00    2.4000000000e+00    6.0000000000e-01    2.9266864063e+00    7.3167259147e-02
126      4.5400000000e-07    0.0000000000e+00    1.8000000000e+00    1.2000000000e+00    2.9266865980e+00    7.3167067874e-02
127      4.5800000000e-07    0.0000000000e+00    6.0000000000e-01    2.4000000000e+00    2.9266864091e+00    7.3167256361e-02
128      4.6000000000e-07    0.0000000000e+00    0.0000000000e+00    3.0000000000e+00    2.9266865952e+00    7.3167070606e-02
129      4.6080000000e-07    0.0000000000e+00    0.0000000000e+00    3.0000000000e+00    2.9266865042e+00    7.3167161469e-02
130      4.6240000000e-07    0.0000000000e+00    0.0000000000e+00    3.0000000000e+00    2.9266865031e+00    7.3167162571e-02
131      4.6560000000e-07    0.0000000000e+00    0.0000000000e+00    3.0000000000e+00    2.9266865031e+00    7.3167162584e-02
132      4.7200000000e-07    0.0000000000e+00    0.0000000000e+00    3.0000000000e+00    2.9266865031e+00    7.3167162571e-02
133      4.8480000000e-07    0.0000000000e+00    0.0000000000e+00    3.0000000000e+00    2.9266865031e+00    7.3167162584e-02
134      5.0000000000e-07    1.5881867761e-14    0.0000000000e+00    3.0000000000e+00    2.9266865031e+00    7.3167162571e-02
135      5.0006250000e-07    1.8750000000e-02    0.0000000000e+00    3.0000000000e+00    2.9266865031e+00    7.3167162577e-02
136      5.0018750000e-07    5.6250000000e-02    0.0000000000e+00    3.0000000000e+00    2.9266865031e+00    7.3167162577e-02
137      5.0043750000e-07    1.3125000000e-01    0.0000000000e+00    3.0000000000e+00    2.9266865031e+00    7.3167162577e-02
138      5.0093750000e-07    2.8125000000e-01    0.0000000000e+00    3.0000000000e+00    2.9266865031e+00    7.3167162577e-02
139      5.0193750000e-07    5.8125000000e-01    0.0000000000e+00    3.0000000000e+00    2.9266865031e+00    7.3167162577e-02
140      5.0393750000e-07    1.1812500000e+00    0.0000000000e+00    3.0000000000e+00    2.9266865031e+00    7.3167162577e-02
141      5.0793750000e-07    2.3812500000e+00    0.0000000000e+00    3.0000000000e+00    2.9266865031e+00    7.3167162577e-02
142      5.1000000000e-07    3.0000000000e+00    0.0000000000e+00    3.0000000000e+00    2.9266865031e+00    7.3167162577e-02
143      5.1080000000e-07    3.0000000000e+00    0.0000000000e+00    3.0000000000e+00    2.9266865031e+00    7.3167162577e-02
144      5.1240000000e-07    3.0000000000e+00    0.0000000000e+00    3.0000000000e+00    2.9266865031e+00    7.3167162577e-02
145      5.1560000000e-07    3.0000000000e+00    0.0000000000e+00    3.0000000000e+00    2.9266865031e+00    7.3167162577e-02
146      5.2200000000e-07    3.0000000000e+00    0.0000000000e+00    3.0000000000e+00    2.9266865031e+00    7.3167162577e-02
147      5.3480000000e-07    3.0000000000e+00    0.0000000000e+00    3.0000000000e+00    2.9266865031e+00    7.3167162577e-02
148      5.5480000000e-07    3.0000000000e+00    0.0000000000e+00    3.0000000000e+00    2.9266865031e+00    7.3167162577e-02
149      5.7480000000e-07    3.0000000000e+00    0.0000000000e+00    3.0000000000e+00    2.9266865031e+00    7.3167162577e-02
150      5.9000000000e-07    3.0000000000e+00    0.0000000000e+00    3.0000000000e+00    2.9266865031e+00    7.3167162577e-02
151      5.9006250000e-07    2.9812500000e+00    0.0000000000e+00    3.0000000000e+00    2.9266865031e+00    7.3167162577e-02
152      5.9018750000e-07    2.9437500000e+00    0.0000000000e+00    3.0000000000e+00    2.9266865031e+00    7.3167162577e-02
153      5.9043750000e-07    2.8687500000e+00    0.0000000000e+00    3.0000000000e+00    2.9266865031e+00    7.3167162577e-02
154      5.9093750000e-07    2.7187500000e+00    0.0000000000e+00    3.0000000000e+00    2.9266865031e+00    7.3167162577e-02
155      5.9193750000e-07    2.4187500000e+00    0.0000000000e+00    3.0000000000e+00    2.9266865031e+00    7.3167162577e-02
156      5.9393750000e-07    1.8187500000e+00    0.0000000000e+00    3.0000000000e+00    2.9266865031e+00    7.3167162577e-02
