Index        TIME               V(T_IN)            V(CLK_IN)           V(Q_OUT)           V(QBAR_OUT)    
0        0.0000000000e+00    3.0000000000e+00    3.0000000000e+00    2.9266865031e+00    7.3167162577e-02
1        1.0000000000e-10    2.9850000000e+00    3.0000000000e+00    2.9266865031e+00    7.3167162577e-02
2        3.0000000000e-10    2.9550000000e+00    3.0000000000e+00    2.9266865031e+00    7.3167162577e-02
3        7.0000000000e-10    2.8950000000e+00    3.0000000000e+00    2.9266865031e+00    7.3167162577e-02
4        1.5000000000e-09    2.7750000000e+00    3.0000000000e+00    2.9266865031e+00    7.3167162577e-02
5        3.1000000000e-09    2.5350000000e+00    3.0000000000e+00    2.9266865031e+00    7.3167162577e-02
6        6.3000000000e-09    2.0550000000e+00    3.0000000000e+00    2.9266865031e+00    7.3167162577e-02
7        1.2700000000e-08    1.0950000000e+00    3.0000000000e+00    2.9266865031e+00    7.3167162577e-02
8        2.0000000000e-08   -4.4408920985e-16    3.0000000000e+00    2.9266865031e+00    7.3167162577e-02
9        2.1000000000e-08    0.0000000000e+00    3.0000000000e+00    2.9266865031e+00    7.3167162577e-02
10       2.3000000000e-08    0.0000000000e+00    3.0000000000e+00    2.9266865031e+00    7.3167162577e-02
11       2.7000000000e-08    0.0000000000e+00    3.0000000000e+00    2.9266865031e+00    7.3167162577e-02
12       3.5000000000e-08    0.0000000000e+00    3.0000000000e+00    2.9266865031e+00    7.3167162577e-02
13       4.5000000000e-08    0.0000000000e+00    3.0000000000e+00    2.9266865031e+00    7.3167162577e-02
14       5.5000000000e-08    0.0000000000e+00    3.0000000000e+00    2.9266865031e+00    7.3167162577e-02
15       6.5000000000e-08    0.0000000000e+00    3.0000000000e+00    2.9266865031e+00    7.3167162577e-02
16       7.5000000000e-08    0.0000000000e+00    3.0000000000e+00    2.9266865031e+00    7.3167162577e-02
17       8.5000000000e-08    0.0000000000e+00    3.0000000000e+00    2.9266865031e+00    7.3167162577e-02
18       9.5000000000e-08    0.0000000000e+00    3.0000000000e+00    2.9266865031e+00    7.3167162577e-02
19       1.0000000000e-07    0.0000000000e+00    3.0000000000e+00    2.9266865031e+00    7.3167162577e-02
20       1.0025000000e-07    0.0000000000e+00    2.9625000000e+00    2.9266865031e+00    7.3167162577e-02
21       1.0043804967e-07    0.0000000000e+00    2.9342925489e+00    2.9266865031e+00    7.3167162577e-02
22       1.0081414902e-07    0.0000000000e+00    2.8778776466e+00    2.9266865031e+00    7.3167162577e-02
23       1.0156634772e-07    0.0000000000e+00    2.7650478421e+00    2.9266865031e+00    7.3167162577e-02
24       1.0307074511e-07    0.0000000000e+00    2.5393882330e+00    2.9266865031e+00    7.3167162577e-02
25       1.0607953990e-07    0.0000000000e+00    2.0880690148e+00    2.9266865031e+00    7.3167162577e-02
26       1.1209712948e-07    0.0000000000e+00    1.1854305785e+00    2.9266865031e+00    7.3167162577e-02
27       1.2000000000e-07    0.0000000000e+00   -8.8817841970e-16    2.9266865031e+00    7.3167162577e-02
28       1.2120351792e-07    0.0000000000e+00    0.0000000000e+00    2.9266865031e+00    7.3167162577e-02
29       1.2361055375e-07    0.0000000000e+00    0.0000000000e+00    2.9266865031e+00    7.3167162577e-02
30       1.2842462541e-07    0.0000000000e+00    0.0000000000e+00    2.9266865031e+00    7.3167162577e-02
31       1.3805276873e-07    0.0000000000e+00    0.0000000000e+00    2.9266865031e+00    7.3167162577e-02
32       1.5730905537e-07    0.0000000000e+00    0.0000000000e+00    2.9266865031e+00    7.3167162577e-02
33       1.7730905537e-07    0.0000000000e+00    0.0000000000e+00    2.9266865031e+00    7.3167162577e-02
34       1.9730905537e-07    0.0000000000e+00    0.0000000000e+00    2.9266865031e+00    7.3167162577e-02
35       2.0000000000e-07    0.0000000000e+00    0.0000000000e+00    2.9266865031e+00    7.3167162577e-02
36       2.0012500000e-07    0.0000000000e+00    1.8750000000e-02    2.9266865031e+00    7.3167162577e-02
37       2.0025000000e-07    0.0000000000e+00    3.7500000000e-02    2.9266865031e+00    7.3167162577e-02
38       2.0050000000e-07    0.0000000000e+00    7.5000000000e-02    2.9266865031e+00    7.3167162577e-02
39       2.0100000000e-07    0.0000000000e+00    1.5000000000e-01    2.9266865031e+00    7.3167162577e-02
40       2.0200000000e-07    0.0000000000e+00    3.0000000000e-01    2.9266865031e+00    7.3167162577e-02
41       2.0400000000e-07    0.0000000000e+00    6.0000000000e-01    2.9266865031e+00    7.3167162577e-02
42       2.0800000000e-07    0.0000000000e+00    1.2000000000e+00    2.9266865031e+00    7.3167162577e-02
43       2.1600000000e-07    0.0000000000e+00    2.4000000000e+00    2.9266865031e+00    7.3167162577e-02
44       2.2000000000e-07    0.0000000000e+00    3.0000000000e+00    2.9266865031e+00    7.3167162577e-02
45       2.2160000000e-07    0.0000000000e+00    3.0000000000e+00    2.9266865031e+00    7.3167162577e-02
46       2.2480000000e-07    0.0000000000e+00    3.0000000000e+00    2.9266865031e+00    7.3167162577e-02
47       2.3120000000e-07    0.0000000000e+00    3.0000000000e+00    2.9266865031e+00    7.3167162577e-02
48       2.4400000000e-07    0.0000000000e+00    3.0000000000e+00    2.9266865031e+00    7.3167162577e-02
49       2.6400000000e-07    0.0000000000e+00    3.0000000000e+00    2.9266865031e+00    7.3167162577e-02
50       2.8400000000e-07    0.0000000000e+00    3.0000000000e+00    2.9266865031e+00    7.3167162577e-02
51       3.0000000000e-07    0.0000000000e+00    3.0000000000e+00    2.9266865031e+00    7.3167162577e-02
52       3.0012500000e-07    0.0000000000e+00    2.9812500000e+00    2.9266865031e+00    7.3167162577e-02
53       3.0025000000e-07    0.0000000000e+00    2.9625000000e+00    2.9266865031e+00    7.3167162577e-02
54       3.0050000000e-07    0.0000000000e+00    2.9250000000e+00    2.9266865031e+00    7.3167162577e-02
55       3.0100000000e-07    0.0000000000e+00    2.8500000000e+00    2.9266865031e+00    7.3167162577e-02
56       3.0200000000e-07    0.0000000000e+00    2.7000000000e+00    2.9266865031e+00    7.3167162577e-02
57       3.0400000000e-07    0.0000000000e+00    2.4000000000e+00    2.9266865031e+00    7.3167162577e-02
58       3.0800000000e-07    0.0000000000e+00    1.8000000000e+00    2.9266865031e+00    7.3167162577e-02
59       3.1600000000e-07    0.0000000000e+00    6.0000000000e-01    2.9266865031e+00    7.3167162577e-02
60       3.2000000000e-07    0.0000000000e+00   -7.1054273576e-15    2.9266865031e+00    7.3167162577e-02
61       3.2160000000e-07    0.0000000000e+00    0.0000000000e+00    2.9266865031e+00    7.3167162577e-02
62       3.2480000000e-07    0.0000000000e+00    0.0000000000e+00    2.9266865031e+00    7.3167162577e-02
63       3.3120000000e-07    0.0000000000e+00    0.0000000000e+00    2.9266865031e+00    7.3167162577e-02
64       3.4400000000e-07    0.0000000000e+00    0.0000000000e+00    2.9266865031e+00    7.3167162577e-02
65       3.6400000000e-07    0.0000000000e+00    0.0000000000e+00    2.9266865031e+00    7.3167162577e-02
66       3.8400000000e-07    0.0000000000e+00    0.0000000000e+00    2.9266865031e+00    7.3167162577e-02
67       4.0000000000e-07    0.0000000000e+00    0.0000000000e+00    2.9266865031e+00    7.3167162577e-02
68       4.0012500000e-07    0.0000000000e+00    1.8750000000e-02    2.9266865031e+00    7.3167162577e-02
69       4.0025000000e-07    0.0000000000e+00    3.7500000000e-02    2.9266865031e+00    7.3167162577e-02
70       4.0050000000e-07    0.0000000000e+00    7.5000000000e-02    2.9266865031e+00    7.3167162577e-02
71       4.0100000000e-07    0.0000000000e+00    1.5000000000e-01    2.9266865031e+00    7.3167162577e-02
72       4.0200000000e-07    0.0000000000e+00    3.0000000000e-01    2.9266865031e+00    7.3167162577e-02
73       4.0400000000e-07    0.0000000000e+00    6.0000000000e-01    2.9266865031e+00    7.3167162577e-02
74       4.0800000000e-07    0.0000000000e+00    1.2000000000e+00    2.9266865031e+00    7.3167162577e-02
75       4.1600000000e-07    0.0000000000e+00    2.4000000000e+00    2.9266865031e+00    7.3167162577e-02
76       4.2000000000e-07    0.0000000000e+00    3.0000000000e+00    2.9266865031e+00    7.3167162577e-02
77       4.2160000000e-07    0.0000000000e+00    3.0000000000e+00    2.9266865031e+00    7.3167162577e-02
78       4.2480000000e-07    0.0000000000e+00    3.0000000000e+00    2.9266865031e+00    7.3167162577e-02
79       4.3120000000e-07    0.0000000000e+00    3.0000000000e+00    2.9266865031e+00    7.3167162577e-02
80       4.4400000000e-07    0.0000000000e+00    3.0000000000e+00    2.9266865031e+00    7.3167162577e-02
81       4.6400000000e-07    0.0000000000e+00    3.0000000000e+00    2.9266865031e+00    7.3167162577e-02
82       4.8400000000e-07    0.0000000000e+00    3.0000000000e+00    2.9266865031e+00    7.3167162577e-02
83       5.0000000000e-07    0.0000000000e+00    3.0000000000e+00    2.9266865031e+00    7.3167162577e-02
84       5.0012500000e-07    0.0000000000e+00    2.9812500000e+00    2.9266865031e+00    7.3167162577e-02
85       5.0025000000e-07    0.0000000000e+00    2.9625000000e+00    2.9266865031e+00    7.3167162577e-02
86       5.0050000000e-07    0.0000000000e+00    2.9250000000e+00    2.9266865031e+00    7.3167162577e-02
87       5.0100000000e-07    0.0000000000e+00    2.8500000000e+00    2.9266865031e+00    7.3167162577e-02
88       5.0200000000e-07    0.0000000000e+00    2.7000000000e+00    2.9266865031e+00    7.3167162577e-02
89       5.0400000000e-07    0.0000000000e+00    2.4000000000e+00    2.9266865031e+00    7.3167162577e-02
90       5.0800000000e-07    0.0000000000e+00    1.8000000000e+00    2.9266865031e+00    7.3167162577e-02
91       5.1600000000e-07    0.0000000000e+00    6.0000000000e-01    2.9266865031e+00    7.3167162577e-02
92       5.2000000000e-07    0.0000000000e+00   -1.1102230246e-14    2.9266865031e+00    7.3167162577e-02
93       5.2160000000e-07    0.0000000000e+00    0.0000000000e+00    2.9266865031e+00    7.3167162577e-02
94       5.2480000000e-07    0.0000000000e+00    0.0000000000e+00    2.9266865031e+00    7.3167162577e-02
95       5.3120000000e-07    0.0000000000e+00    0.0000000000e+00    2.9266865031e+00    7.3167162577e-02
96       5.4400000000e-07    0.0000000000e+00    0.0000000000e+00    2.9266865031e+00    7.3167162577e-02
97       5.6400000000e-07    0.0000000000e+00    0.0000000000e+00    2.9266865031e+00    7.3167162577e-02
98       5.8400000000e-07    0.0000000000e+00    0.0000000000e+00    2.9266865031e+00    7.3167162577e-02
99       6.0000000000e-07    0.0000000000e+00    0.0000000000e+00    2.9266865031e+00    7.3167162577e-02
100      6.0012500000e-07    0.0000000000e+00    1.8750000000e-02    2.9266865031e+00    7.3167162577e-02
101      6.0025000000e-07    0.0000000000e+00    3.7500000000e-02    2.9266865031e+00    7.3167162577e-02
102      6.0050000000e-07    0.0000000000e+00    7.5000000000e-02    2.9266865031e+00    7.3167162577e-02
103      6.0100000000e-07    0.0000000000e+00    1.5000000000e-01    2.9266865031e+00    7.3167162577e-02
104      6.0200000000e-07    0.0000000000e+00    3.0000000000e-01    2.9266865031e+00    7.3167162577e-02
105      6.0400000000e-07    0.0000000000e+00    6.0000000000e-01    2.9266865031e+00    7.3167162577e-02
106      6.0800000000e-07    0.0000000000e+00    1.2000000000e+00    2.9266865031e+00    7.3167162577e-02
107      6.1600000000e-07    0.0000000000e+00    2.4000000000e+00    2.9266865031e+00    7.3167162577e-02
108      6.2000000000e-07    0.0000000000e+00    3.0000000000e+00    2.9266865031e+00    7.3167162577e-02
109      6.2160000000e-07    0.0000000000e+00    3.0000000000e+00    2.9266865031e+00    7.3167162577e-02
110      6.2480000000e-07    0.0000000000e+00    3.0000000000e+00    2.9266865031e+00    7.3167162577e-02
111      6.3120000000e-07    0.0000000000e+00    3.0000000000e+00    2.9266865031e+00    7.3167162577e-02
112      6.4400000000e-07    0.0000000000e+00    3.0000000000e+00    2.9266865031e+00    7.3167162577e-02
113      6.6400000000e-07    0.0000000000e+00    3.0000000000e+00    2.9266865031e+00    7.3167162577e-02
114      6.8400000000e-07    0.0000000000e+00    3.0000000000e+00    2.9266865031e+00    7.3167162577e-02
115      7.0000000000e-07    0.0000000000e+00    3.0000000000e+00    2.9266865031e+00    7.3167162577e-02
116      7.0012500000e-07    0.0000000000e+00    2.9812500000e+00    2.9266865031e+00    7.3167162577e-02
117      7.0025000000e-07    0.0000000000e+00    2.9625000000e+00    2.9266865031e+00    7.3167162577e-02
118      7.0050000000e-07    0.0000000000e+00    2.9250000000e+00    2.9266865031e+00    7.3167162577e-02
119      7.0100000000e-07    0.0000000000e+00    2.8500000000e+00    2.9266865031e+00    7.3167162577e-02
120      7.0200000000e-07    0.0000000000e+00    2.7000000000e+00    2.9266865031e+00    7.3167162577e-02
121      7.0400000000e-07    0.0000000000e+00    2.4000000000e+00    2.9266865031e+00    7.3167162577e-02
122      7.0800000000e-07    0.0000000000e+00    1.8000000000e+00    2.9266865031e+00    7.3167162577e-02
123      7.1600000000e-07    0.0000000000e+00    6.0000000000e-01    2.9266865031e+00    7.3167162577e-02
124      7.2000000000e-07    0.0000000000e+00   -3.1086244690e-15    2.9266865031e+00    7.3167162577e-02
125      7.2160000000e-07    0.0000000000e+00    0.0000000000e+00    2.9266865031e+00    7.3167162577e-02
126      7.2480000000e-07    0.0000000000e+00    0.0000000000e+00    2.9266865031e+00    7.3167162577e-02
127      7.3120000000e-07    0.0000000000e+00    0.0000000000e+00    2.9266865031e+00    7.3167162577e-02
128      7.4400000000e-07    0.0000000000e+00    0.0000000000e+00    2.9266865031e+00    7.3167162577e-02
129      7.6400000000e-07    0.0000000000e+00    0.0000000000e+00    2.9266865031e+00    7.3167162577e-02
130      7.8400000000e-07    0.0000000000e+00    0.0000000000e+00    2.9266865031e+00    7.3167162577e-02
131      8.0000000000e-07    0.0000000000e+00    0.0000000000e+00    2.9266865031e+00    7.3167162577e-02
132      8.0012500000e-07    0.0000000000e+00    1.8750000000e-02    2.9266865031e+00    7.3167162577e-02
133      8.0025000000e-07    0.0000000000e+00    3.7500000000e-02    2.9266865031e+00    7.3167162577e-02
134      8.0050000000e-07    0.0000000000e+00    7.5000000000e-02    2.9266865031e+00    7.3167162577e-02
135      8.0100000000e-07    0.0000000000e+00    1.5000000000e-01    2.9266865031e+00    7.3167162577e-02
136      8.0200000000e-07    0.0000000000e+00    3.0000000000e-01    2.9266865031e+00    7.3167162577e-02
137      8.0400000000e-07    0.0000000000e+00    6.0000000000e-01    2.9266865031e+00    7.3167162577e-02
138      8.0800000000e-07    0.0000000000e+00    1.2000000000e+00    2.9266865031e+00    7.3167162577e-02
139      8.1600000000e-07    0.0000000000e+00    2.4000000000e+00    2.9266865031e+00    7.3167162577e-02
140      8.2000000000e-07    0.0000000000e+00    3.0000000000e+00    2.9266865031e+00    7.3167162577e-02
141      8.2160000000e-07    0.0000000000e+00    3.0000000000e+00    2.9266865031e+00    7.3167162577e-02
142      8.2480000000e-07    0.0000000000e+00    3.0000000000e+00    2.9266865031e+00    7.3167162577e-02
143      8.3120000000e-07    0.0000000000e+00    3.0000000000e+00    2.9266865031e+00    7.3167162577e-02
144      8.4400000000e-07    0.0000000000e+00    3.0000000000e+00    2.9266865031e+00    7.3167162577e-02
145      8.6400000000e-07    0.0000000000e+00    3.0000000000e+00    2.9266865031e+00    7.3167162577e-02
146      8.8400000000e-07    0.0000000000e+00    3.0000000000e+00    2.9266865031e+00    7.3167162577e-02
147      9.0000000000e-07    0.0000000000e+00    3.0000000000e+00    2.9266865031e+00    7.3167162577e-02
148      9.0012500000e-07    0.0000000000e+00    2.9812500000e+00    2.9266865031e+00    7.3167162577e-02
149      9.0025000000e-07    0.0000000000e+00    2.9625000000e+00    2.9266865031e+00    7.3167162577e-02
150      9.0050000000e-07    0.0000000000e+00    2.9250000000e+00    2.9266865031e+00    7.3167162577e-02
151      9.0100000000e-07    0.0000000000e+00    2.8500000000e+00    2.9266865031e+00    7.3167162577e-02
152      9.0200000000e-07    0.0000000000e+00    2.7000000000e+00    2.9266865031e+00    7.3167162577e-02
153      9.0400000000e-07    0.0000000000e+00    2.4000000000e+00    2.9266865031e+00    7.3167162577e-02
154      9.0800000000e-07    0.0000000000e+00    1.8000000000e+00    2.9266865031e+00    7.3167162577e-02
155      9.1600000000e-07    0.0000000000e+00    6.0000000000e-01    2.9266865031e+00    7.3167162577e-02
156      9.2000000000e-07    0.0000000000e+00   -3.1086244690e-15    2.9266865031e+00    7.3167162577e-02
157      9.2160000000e-07    0.0000000000e+00    0.0000000000e+00    2.9266865031e+00    7.3167162577e-02
158      9.2480000000e-07    0.0000000000e+00    0.0000000000e+00    2.9266865031e+00    7.3167162577e-02
159      9.3120000000e-07    0.0000000000e+00    0.0000000000e+00    2.9266865031e+00    7.3167162577e-02
160      9.4400000000e-07    0.0000000000e+00    0.0000000000e+00    2.9266865031e+00    7.3167162577e-02
161      9.6400000000e-07    0.0000000000e+00    0.0000000000e+00    2.9266865031e+00    7.3167162577e-02
162      9.8000000000e-07    0.0000000000e+00    0.0000000000e+00    2.9266865031e+00    7.3167162577e-02
163      9.8012500000e-07    1.8750000000e-02    0.0000000000e+00    2.9266865031e+00    7.3167162577e-02
164      9.8025000000e-07    3.7500000000e-02    0.0000000000e+00    2.9266865031e+00    7.3167162577e-02
165      9.8050000000e-07    7.5000000000e-02    0.0000000000e+00    2.9266865031e+00    7.3167162577e-02
166      9.8100000000e-07    1.5000000000e-01    0.0000000000e+00    2.9266865031e+00    7.3167162577e-02
167      9.8200000000e-07    3.0000000000e-01    0.0000000000e+00    2.9266865031e+00    7.3167162577e-02
168      9.8400000000e-07    6.0000000000e-01    0.0000000000e+00    2.9266865031e+00    7.3167162577e-02
169      9.8800000000e-07    1.2000000000e+00    0.0000000000e+00    2.9266865031e+00    7.3167162577e-02
170      9.9600000000e-07    2.4000000000e+00    0.0000000000e+00    2.9266865031e+00    7.3167162577e-02
171      1.0000000000e-06    3.0000000000e+00    0.0000000000e+00    2.9266865031e+00    7.3167162577e-02
172      1.0001000000e-06    3.0000000000e+00    1.5000000000e-02    2.9266865031e+00    7.3167162577e-02
173      1.0003000000e-06    3.0000000000e+00    4.5000000000e-02    2.9266865031e+00    7.3167162577e-02
174      1.0007000000e-06    3.0000000000e+00    1.0500000000e-01    2.9266865031e+00    7.3167162577e-02
175      1.0015000000e-06    3.0000000000e+00    2.2500000000e-01    2.9266865031e+00    7.3167162577e-02
176      1.0031000000e-06    3.0000000000e+00    4.6500000000e-01    2.9266865031e+00    7.3167162577e-02
177      1.0063000000e-06    3.0000000000e+00    9.4500000000e-01    2.9266865031e+00    7.3167162577e-02
178      1.0127000000e-06    3.0000000000e+00    1.9050000000e+00    2.9266865031e+00    7.3167162577e-02
179      1.0200000000e-06    3.0000000000e+00    3.0000000000e+00    2.9266865031e+00    7.3167162577e-02
180      1.0212000000e-06    3.0000000000e+00    3.0000000000e+00    2.9266865031e+00    7.3167162577e-02
181      1.0236000000e-06    3.0000000000e+00    3.0000000000e+00    2.9266865031e+00    7.3167162577e-02
182      1.0284000000e-06    3.0000000000e+00    3.0000000000e+00    2.9266865031e+00    7.3167162577e-02
183      1.0320000000e-06    3.0000000000e+00    3.0000000000e+00    2.9266865031e+00    7.3167162577e-02
184      1.0320298604e-06    3.0000000000e+00    3.0000000000e+00    2.9144950773e+00    8.5335002810e-02
185      1.0320567348e-06    3.0000000000e+00    3.0000000000e+00    2.9011554075e+00    9.8649088842e-02
186      1.0320836092e-06    3.0000000000e+00    3.0000000000e+00    2.8873279135e+00    1.1245024810e-01
