Index         TIME               V(3)               V(4)           {I(VID)+0.5}
0       0.0000000000e+00   5.0000000000e-01   0.0000000000e+00   5.0000000000e-01   
1       5.0000000000e-10   5.0000000000e-01   0.0000000000e+00   5.0000000000e-01   
2       1.5000000000e-09   5.0000000000e-01   0.0000000000e+00   5.0000000000e-01   
3       3.5000000000e-09   5.0000000000e-01   0.0000000000e+00   5.0000000000e-01   
4       5.5000000000e-09   5.0000000000e-01   0.0000000000e+00   5.0000000000e-01   
5       7.5000000000e-09   5.0000000000e-01   0.0000000000e+00   5.0000000000e-01   
6       9.5000000000e-09   5.0000000000e-01   0.0000000000e+00   5.0000000000e-01   
7       1.1500000000e-08   5.0000000000e-01   0.0000000000e+00   5.0000000000e-01   
8       1.3500000000e-08   5.0000000000e-01   0.0000000000e+00   5.0000000000e-01   
9       1.5500000000e-08   5.0000000000e-01   0.0000000000e+00   5.0000000000e-01   
10      1.7500000000e-08   5.0000000000e-01   0.0000000000e+00   5.0000000000e-01   
11      1.9500000000e-08   5.0000000000e-01   0.0000000000e+00   5.0000000000e-01   
12      2.1500000000e-08   5.0000000000e-01   0.0000000000e+00   5.0000000000e-01   
13      2.3500000000e-08   5.0000000000e-01   0.0000000000e+00   5.0000000000e-01   
14      2.5500000000e-08   5.0000000000e-01   0.0000000000e+00   5.0000000000e-01   
15      2.7500000000e-08   5.0000000000e-01   0.0000000000e+00   5.0000000000e-01   
16      2.9500000000e-08   5.0000000000e-01   0.0000000000e+00   5.0000000000e-01   
17      3.1500000000e-08   5.0000000000e-01   0.0000000000e+00   5.0000000000e-01   
18      3.3500000000e-08   5.0000000000e-01   0.0000000000e+00   5.0000000000e-01   
19      3.5500000000e-08   5.0000000000e-01   0.0000000000e+00   5.0000000000e-01   
20      3.7500000000e-08   5.0000000000e-01   0.0000000000e+00   5.0000000000e-01   
21      3.9500000000e-08   5.0000000000e-01   0.0000000000e+00   5.0000000000e-01   
22      4.1500000000e-08   5.0000000000e-01   0.0000000000e+00   5.0000000000e-01   
23      4.3500000000e-08   5.0000000000e-01   0.0000000000e+00   5.0000000000e-01   
24      4.5500000000e-08   5.0000000000e-01   0.0000000000e+00   5.0000000000e-01   
25      4.7500000000e-08   5.0000000000e-01   0.0000000000e+00   5.0000000000e-01   
26      4.9500000000e-08   5.0000000000e-01   0.0000000000e+00   5.0000000000e-01   
27      5.1500000000e-08   5.0000000000e-01   0.0000000000e+00   5.0000000000e-01   
28      5.3500000000e-08   5.0000000000e-01   0.0000000000e+00   5.0000000000e-01   
29      5.5500000000e-08   5.0000000000e-01   0.0000000000e+00   5.0000000000e-01   
30      5.7500000000e-08   5.0000000000e-01   0.0000000000e+00   5.0000000000e-01   
31      5.9500000000e-08   5.0000000000e-01   0.0000000000e+00   5.0000000000e-01   
32      6.1500000000e-08   5.0000000000e-01   0.0000000000e+00   5.0000000000e-01   
33      6.3500000000e-08   5.0000000000e-01   0.0000000000e+00   5.0000000000e-01   
34      6.5500000000e-08   5.0000000000e-01   0.0000000000e+00   5.0000000000e-01   
35      6.7500000000e-08   5.0000000000e-01   0.0000000000e+00   5.0000000000e-01   
36      6.9500000000e-08   5.0000000000e-01   0.0000000000e+00   5.0000000000e-01   
37      7.1500000000e-08   5.0000000000e-01   0.0000000000e+00   5.0000000000e-01   
38      7.3500000000e-08   5.0000000000e-01   0.0000000000e+00   5.0000000000e-01   
39      7.5500000000e-08   5.0000000000e-01   0.0000000000e+00   5.0000000000e-01   
40      7.7500000000e-08   5.0000000000e-01   0.0000000000e+00   5.0000000000e-01   
41      7.9500000000e-08   5.0000000000e-01   0.0000000000e+00   5.0000000000e-01   
42      8.1500000000e-08   5.0000000000e-01   0.0000000000e+00   5.0000000000e-01   
43      8.3500000000e-08   5.0000000000e-01   0.0000000000e+00   5.0000000000e-01   
44      8.5500000000e-08   5.0000000000e-01   0.0000000000e+00   5.0000000000e-01   
45      8.7500000000e-08   5.0000000000e-01   0.0000000000e+00   5.0000000000e-01   
46      8.9500000000e-08   5.0000000000e-01   0.0000000000e+00   5.0000000000e-01   
47      9.1500000000e-08   5.0000000000e-01   0.0000000000e+00   5.0000000000e-01   
48      9.3500000000e-08   5.0000000000e-01   0.0000000000e+00   5.0000000000e-01   
49      9.5500000000e-08   5.0000000000e-01   0.0000000000e+00   5.0000000000e-01   
50      9.7500000000e-08   5.0000000000e-01   0.0000000000e+00   5.0000000000e-01   
51      9.9500000000e-08   5.0000000000e-01   0.0000000000e+00   5.0000000000e-01   
52      1.0150000000e-07   5.0000000000e-01   0.0000000000e+00   5.0000000000e-01   
53      1.0350000000e-07   5.0000000000e-01   0.0000000000e+00   5.0000000000e-01   
54      1.0550000000e-07   5.0000000000e-01   0.0000000000e+00   5.0000000000e-01   
55      1.0750000000e-07   5.0000000000e-01   0.0000000000e+00   5.0000000000e-01   
56      1.0950000000e-07   5.0000000000e-01   0.0000000000e+00   5.0000000000e-01   
57      1.1150000000e-07   5.0000000000e-01   0.0000000000e+00   5.0000000000e-01   
58      1.1350000000e-07   5.0000000000e-01   0.0000000000e+00   5.0000000000e-01   
59      1.1550000000e-07   5.0000000000e-01   0.0000000000e+00   5.0000000000e-01   
60      1.1750000000e-07   5.0000000000e-01   0.0000000000e+00   5.0000000000e-01   
61      1.1950000000e-07   5.0000000000e-01   0.0000000000e+00   5.0000000000e-01   
62      1.2150000000e-07   5.0000000000e-01   0.0000000000e+00   5.0000000000e-01   
63      1.2350000000e-07   5.0000000000e-01   0.0000000000e+00   5.0000000000e-01   
64      1.2550000000e-07   5.0000000000e-01   0.0000000000e+00   5.0000000000e-01   
65      1.2750000000e-07   5.0000000000e-01   0.0000000000e+00   5.0000000000e-01   
66      1.2950000000e-07   5.0000000000e-01   0.0000000000e+00   5.0000000000e-01   
67      1.3150000000e-07   5.0000000000e-01   0.0000000000e+00   5.0000000000e-01   
68      1.3350000000e-07   5.0000000000e-01   0.0000000000e+00   5.0000000000e-01   
69      1.3550000000e-07   5.0000000000e-01   0.0000000000e+00   5.0000000000e-01   
70      1.3750000000e-07   5.0000000000e-01   0.0000000000e+00   5.0000000000e-01   
71      1.3950000000e-07   5.0000000000e-01   0.0000000000e+00   5.0000000000e-01   
72      1.4150000000e-07   5.0000000000e-01   0.0000000000e+00   5.0000000000e-01   
73      1.4350000000e-07   5.0000000000e-01   0.0000000000e+00   5.0000000000e-01   
74      1.4550000000e-07   5.0000000000e-01   0.0000000000e+00   5.0000000000e-01   
75      1.4750000000e-07   5.0000000000e-01   0.0000000000e+00   5.0000000000e-01   
76      1.4950000000e-07   5.0000000000e-01   0.0000000000e+00   5.0000000000e-01   
77      1.5150000000e-07   5.0000000000e-01   0.0000000000e+00   5.0000000000e-01   
78      1.5350000000e-07   5.0000000000e-01   0.0000000000e+00   5.0000000000e-01   
79      1.5550000000e-07   5.0000000000e-01   0.0000000000e+00   5.0000000000e-01   
80      1.5750000000e-07   5.0000000000e-01   0.0000000000e+00   5.0000000000e-01   
81      1.5950000000e-07   5.0000000000e-01   0.0000000000e+00   5.0000000000e-01   
82      1.6150000000e-07   5.0000000000e-01   0.0000000000e+00   5.0000000000e-01   
83      1.6350000000e-07   5.0000000000e-01   0.0000000000e+00   5.0000000000e-01   
84      1.6550000000e-07   5.0000000000e-01   0.0000000000e+00   5.0000000000e-01   
85      1.6750000000e-07   5.0000000000e-01   0.0000000000e+00   5.0000000000e-01   
86      1.6950000000e-07   5.0000000000e-01   0.0000000000e+00   5.0000000000e-01   
87      1.7150000000e-07   5.0000000000e-01   0.0000000000e+00   5.0000000000e-01   
88      1.7350000000e-07   5.0000000000e-01   0.0000000000e+00   5.0000000000e-01   
89      1.7550000000e-07   5.0000000000e-01   0.0000000000e+00   5.0000000000e-01   
90      1.7750000000e-07   5.0000000000e-01   0.0000000000e+00   5.0000000000e-01   
91      1.7950000000e-07   5.0000000000e-01   0.0000000000e+00   5.0000000000e-01   
92      1.8150000000e-07   5.0000000000e-01   0.0000000000e+00   5.0000000000e-01   
93      1.8350000000e-07   5.0000000000e-01   0.0000000000e+00   5.0000000000e-01   
94      1.8550000000e-07   5.0000000000e-01   0.0000000000e+00   5.0000000000e-01   
95      1.8750000000e-07   5.0000000000e-01   0.0000000000e+00   5.0000000000e-01   
96      1.8950000000e-07   5.0000000000e-01   0.0000000000e+00   5.0000000000e-01   
97      1.9150000000e-07   5.0000000000e-01   0.0000000000e+00   5.0000000000e-01   
98      1.9350000000e-07   5.0000000000e-01   0.0000000000e+00   5.0000000000e-01   
99      1.9550000000e-07   5.0000000000e-01   0.0000000000e+00   5.0000000000e-01   
100     1.9750000000e-07   5.0000000000e-01   0.0000000000e+00   5.0000000000e-01   
101     1.9950000000e-07   5.0000000000e-01   0.0000000000e+00   5.0000000000e-01   
102     2.0150000000e-07   5.0000000000e-01   0.0000000000e+00   5.0000000000e-01   
103     2.0350000000e-07   5.0000000000e-01   0.0000000000e+00   5.0000000000e-01   
104     2.0550000000e-07   5.0000000000e-01   0.0000000000e+00   5.0000000000e-01   
105     2.0750000000e-07   5.0000000000e-01   0.0000000000e+00   5.0000000000e-01   
106     2.0950000000e-07   5.0000000000e-01   0.0000000000e+00   5.0000000000e-01   
107     2.1150000000e-07   5.0000000000e-01   0.0000000000e+00   5.0000000000e-01   
108     2.1350000000e-07   5.0000000000e-01   0.0000000000e+00   5.0000000000e-01   
109     2.1550000000e-07   5.0000000000e-01   0.0000000000e+00   5.0000000000e-01   
110     2.1750000000e-07   5.0000000000e-01   0.0000000000e+00   5.0000000000e-01   
111     2.1950000000e-07   5.0000000000e-01   0.0000000000e+00   5.0000000000e-01   
112     2.2150000000e-07   5.0000000000e-01   0.0000000000e+00   5.0000000000e-01   
113     2.2350000000e-07   5.0000000000e-01   0.0000000000e+00   5.0000000000e-01   
114     2.2550000000e-07   5.0000000000e-01   0.0000000000e+00   5.0000000000e-01   
115     2.2750000000e-07   5.0000000000e-01   0.0000000000e+00   5.0000000000e-01   
116     2.2950000000e-07   5.0000000000e-01   0.0000000000e+00   5.0000000000e-01   
117     2.3150000000e-07   5.0000000000e-01   0.0000000000e+00   5.0000000000e-01   
118     2.3350000000e-07   5.0000000000e-01   0.0000000000e+00   5.0000000000e-01   
119     2.3550000000e-07   5.0000000000e-01   0.0000000000e+00   5.0000000000e-01   
120     2.3750000000e-07   5.0000000000e-01   0.0000000000e+00   5.0000000000e-01   
121     2.3950000000e-07   5.0000000000e-01   0.0000000000e+00   5.0000000000e-01   
122     2.4150000000e-07   5.0000000000e-01   0.0000000000e+00   5.0000000000e-01   
123     2.4350000000e-07   5.0000000000e-01   0.0000000000e+00   5.0000000000e-01   
124     2.4550000000e-07   5.0000000000e-01   0.0000000000e+00   5.0000000000e-01   
125     2.4750000000e-07   5.0000000000e-01   0.0000000000e+00   5.0000000000e-01   
126     2.4950000000e-07   5.0000000000e-01   0.0000000000e+00   5.0000000000e-01   
127     2.5150000000e-07   5.0000000000e-01   0.0000000000e+00   5.0000000000e-01   
128     2.5350000000e-07   5.0000000000e-01   0.0000000000e+00   5.0000000000e-01   
129     2.5550000000e-07   5.0000000000e-01   0.0000000000e+00   5.0000000000e-01   
130     2.5750000000e-07   5.0000000000e-01   0.0000000000e+00   5.0000000000e-01   
131     2.5950000000e-07   5.0000000000e-01   0.0000000000e+00   5.0000000000e-01   
132     2.6150000000e-07   5.0000000000e-01   0.0000000000e+00   5.0000000000e-01   
133     2.6350000000e-07   5.0000000000e-01   0.0000000000e+00   5.0000000000e-01   
134     2.6550000000e-07   5.0000000000e-01   0.0000000000e+00   5.0000000000e-01   
135     2.6750000000e-07   5.0000000000e-01   0.0000000000e+00   5.0000000000e-01   
136     2.6950000000e-07   5.0000000000e-01   0.0000000000e+00   5.0000000000e-01   
137     2.7150000000e-07   5.0000000000e-01   0.0000000000e+00   5.0000000000e-01   
138     2.7350000000e-07   5.0000000000e-01   0.0000000000e+00   5.0000000000e-01   
139     2.7550000000e-07   5.0000000000e-01   0.0000000000e+00   5.0000000000e-01   
140     2.7750000000e-07   5.0000000000e-01   0.0000000000e+00   5.0000000000e-01   
141     2.7950000000e-07   5.0000000000e-01   0.0000000000e+00   5.0000000000e-01   
142     2.8150000000e-07   5.0000000000e-01   0.0000000000e+00   5.0000000000e-01   
143     2.8350000000e-07   5.0000000000e-01   0.0000000000e+00   5.0000000000e-01   
144     2.8550000000e-07   5.0000000000e-01   0.0000000000e+00   5.0000000000e-01   
145     2.8750000000e-07   5.0000000000e-01   0.0000000000e+00   5.0000000000e-01   
146     2.8950000000e-07   5.0000000000e-01   0.0000000000e+00   5.0000000000e-01   
147     2.9150000000e-07   5.0000000000e-01   0.0000000000e+00   5.0000000000e-01   
148     2.9350000000e-07   5.0000000000e-01   0.0000000000e+00   5.0000000000e-01   
149     2.9550000000e-07   5.0000000000e-01   0.0000000000e+00   5.0000000000e-01   
150     2.9750000000e-07   5.0000000000e-01   0.0000000000e+00   5.0000000000e-01   
151     2.9950000000e-07   5.0000000000e-01   0.0000000000e+00   5.0000000000e-01   
152     3.0000000000e-07   5.0000000000e-01   0.0000000000e+00   5.0000000000e-01   
153     3.0025000000e-07   5.0000000000e-01   5.0000000000e-02   5.0000000000e-01   
154     3.0025195313e-07   5.0000000000e-01   5.0390625000e-02   5.0000000000e-01   
155     3.0025585938e-07   5.0000000000e-01   5.1171875000e-02   5.0000000000e-01   
156     3.0026367188e-07   5.0000000000e-01   5.2734375000e-02   5.0000000000e-01   
157     3.0027929688e-07   5.0000000000e-01   5.5859375000e-02   5.0000000000e-01   
158     3.0031054688e-07   5.0000000000e-01   6.2109375000e-02   5.0000000000e-01   
159     3.0037304688e-07   5.0000000000e-01   7.4609375000e-02   5.0000000000e-01   
160     3.0049804688e-07   5.0000000000e-01   9.9609375000e-02   5.0000000000e-01   
161     3.0074804688e-07   5.0000000000e-01   1.4960937500e-01   5.0000000000e-01   
162     3.0124804688e-07   5.0000000000e-01   2.4960937500e-01   5.0000000000e-01   
163     3.0224804688e-07   5.0000000000e-01   4.4960937500e-01   5.0000000000e-01   
164     3.0424804688e-07   5.0000000000e-01   8.4960937500e-01   5.0000000000e-01   
165     3.0624804688e-07   5.0000000000e-01   1.2496093750e+00   5.0000000000e-01   
166     3.0824804688e-07   5.0000000000e-01   1.6496093750e+00   5.0000000000e-01   
167     3.1024804688e-07   5.0000000000e-01   2.0496093750e+00   5.0000000000e-01   
168     3.1224804688e-07   5.0000000000e-01   2.4496093750e+00   5.0000000000e-01   
169     3.1424804688e-07   5.0000000000e-01   2.8496093750e+00   5.0000000001e-01   
170     3.1437304688e-07   5.0000000000e-01   2.8746093750e+00   5.0000000002e-01   
171     3.1443554688e-07   5.0000000000e-01   2.8871093750e+00   5.0000000003e-01   
172     3.1446679688e-07   5.0000000000e-01   2.8933593750e+00   5.0000000003e-01   
173     3.1448242188e-07   5.0000000000e-01   2.8964843750e+00   5.0000000003e-01   
174     3.1449118568e-07   5.0000000000e-01   2.8982371351e+00   5.0000000004e-01   
175     3.1449734292e-07   5.0000000000e-01   2.8994685837e+00   5.0000000004e-01   
176     3.1450145197e-07   5.0000000000e-01   2.9002903932e+00   5.0000000004e-01   
177     3.1450425415e-07   5.0000000000e-01   2.9008508303e+00   5.0000000004e-01   
178     3.1450677612e-07   5.0000000000e-01   2.9013552237e+00   5.0000000004e-01   
179     3.1450929809e-07   5.0000000000e-01   2.9018596171e+00   5.0000000004e-01   
180     3.1451434202e-07   5.0000000000e-01   2.9028684039e+00   5.0000000004e-01   
181     3.1451763101e-07   5.0000000000e-01   2.9035262025e+00   5.0000000004e-01   
182     3.1452059111e-07   5.0000000000e-01   2.9041182213e+00   5.0000000004e-01   
183     3.1452355120e-07   5.0000000000e-01   2.9047102401e+00   5.0000000004e-01   
184     3.1452710617e-07   5.0000000000e-01   2.9054212334e+00   5.0000000005e-01   
185     3.1453066113e-07   5.0000000000e-01   2.9061322267e+00   5.0000000005e-01   
186     3.1453421610e-07   5.0000000000e-01   2.9068432200e+00   5.0000000005e-01   
187     3.1453810522e-07   5.0000000000e-01   2.9076210444e+00   5.0000000005e-01   
188     3.1454257238e-07   5.0000000000e-01   2.9085144754e+00   5.0000000005e-01   
189     3.1454762950e-07   5.0000000000e-01   2.9095259010e+00   5.0000000005e-01   
190     3.1455291590e-07   5.0000000000e-01   2.9105831793e+00   5.0000000005e-01   
191     3.1455786379e-07   5.0000000000e-01   2.9115727573e+00   5.0000000005e-01   
192     3.1456281168e-07   5.0000000000e-01   2.9125623354e+00   5.0000000006e-01   
193     3.1456737848e-07   5.0000000000e-01   2.9134756953e+00   5.0000000006e-01   
194     3.1457143677e-07   5.0000000000e-01   2.9142873541e+00   5.0000000006e-01   
195     3.1457512951e-07   5.0000000000e-01   2.9150259021e+00   5.0000000006e-01   
196     3.1457872616e-07   5.0000000000e-01   2.9157452325e+00   5.0000000006e-01   
197     3.1458250907e-07   5.0000000000e-01   2.9165018138e+00   5.0000000006e-01   
198     3.1458670018e-07   5.0000000000e-01   2.9173400361e+00   5.0000000006e-01   
199     3.1459136487e-07   5.0000000000e-01   2.9182729746e+00   5.0000000007e-01   
200     3.1459630776e-07   5.0000000000e-01   2.9192615527e+00   5.0000000007e-01   
201     3.1460112561e-07   5.0000000000e-01   2.9202251230e+00   5.0000000007e-01   
202     3.1460549086e-07   5.0000000000e-01   2.9210981719e+00   5.0000000007e-01   
203     3.1460936624e-07   5.0000000000e-01   2.9218732472e+00   5.0000000007e-01   
204     3.1461294833e-07   5.0000000000e-01   2.9225896651e+00   5.0000000007e-01   
205     3.1461651925e-07   5.0000000000e-01   2.9233038499e+00   5.0000000008e-01   
206     3.1462035112e-07   5.0000000000e-01   2.9240702236e+00   5.0000000008e-01   
207     3.1462463260e-07   5.0000000000e-01   2.9249265206e+00   5.0000000008e-01   
208     3.1462936177e-07   5.0000000000e-01   2.9258723537e+00   5.0000000008e-01   
209     3.1463426437e-07   5.0000000000e-01   2.9268528742e+00   5.0000000008e-01   
210     3.1463892286e-07   5.0000000000e-01   2.9277845724e+00   5.0000000009e-01   
211     3.1464308407e-07   5.0000000000e-01   2.9286168141e+00   5.0000000009e-01   
212     3.1464679498e-07   5.0000000000e-01   2.9293589951e+00   5.0000000009e-01   
213     3.1465029175e-07   5.0000000000e-01   2.9300583497e+00   5.0000000009e-01   
214     3.1465386103e-07   5.0000000000e-01   2.9307722067e+00   5.0000000009e-01   
215     3.1465775924e-07   5.0000000000e-01   2.9315518476e+00   5.0000000010e-01   
216     3.1466213296e-07   5.0000000000e-01   2.9324265918e+00   5.0000000010e-01   
217     3.1466690427e-07   5.0000000000e-01   2.9333808550e+00   5.0000000010e-01   
218     3.1467172968e-07   5.0000000000e-01   2.9343459353e+00   5.0000000010e-01   
219     3.1467620632e-07   5.0000000000e-01   2.9352412633e+00   5.0000000011e-01   
220     3.1468016856e-07   5.0000000000e-01   2.9360337117e+00   5.0000000011e-01   
221     3.1468373662e-07   5.0000000000e-01   2.9367473238e+00   5.0000000011e-01   
222     3.1468717350e-07   5.0000000000e-01   2.9374347006e+00   5.0000000011e-01   
223     3.1469076385e-07   5.0000000000e-01   2.9381527708e+00   5.0000000012e-01   
224     3.1469474246e-07   5.0000000000e-01   2.9389484927e+00   5.0000000012e-01   
225     3.1469920397e-07   5.0000000000e-01   2.9398407936e+00   5.0000000012e-01   
226     3.1470398870e-07   5.0000000000e-01   2.9407977395e+00   5.0000000013e-01   
227     3.1470870105e-07   5.0000000000e-01   2.9417402103e+00   5.0000000013e-01   
228     3.1471298136e-07   5.0000000000e-01   2.9425962723e+00   5.0000000013e-01   
229     3.1471675611e-07   5.0000000000e-01   2.9433512214e+00   5.0000000014e-01   
230     3.1472020496e-07   5.0000000000e-01   2.9440409921e+00   5.0000000014e-01   
231     3.1472360697e-07   5.0000000000e-01   2.9447213945e+00   5.0000000014e-01   
232     3.1472723933e-07   5.0000000000e-01   2.9454478660e+00   5.0000000015e-01   
233     3.1473130835e-07   5.0000000000e-01   2.9462616707e+00   5.0000000015e-01   
