
Circuit: pnp bipolar transistor circuit netlist

Doing analysis at TEMP = 27.000000 and TNOM = 27.000000


No. of Data Rows : 30

                     pnp bipolar transistor circuit netlist
                     DC transfer characteristic  Tue Oct 19 10:31:07  2010
-----------------------------------------------------------------------------------------------------------------
Index   v-sweep         v(1)            v(6)            vmon1#branch             vmon2#branch    vmon3#branch    
-----------------------------------------------------------------------------------------------------------------
0	0.000000e+00	0.000000e+00	0.000000e+00	6.402335e-34	         1.353733e-33	1.993967e-33	
1	1.000000e+00	1.000000e+00	0.000000e+00	7.470504e-07	         7.470492e-05	7.545197e-05	
2	2.000000e+00	2.000000e+00	0.000000e+00	3.201982e-06	         3.201982e-04	3.234002e-04	
3	3.000000e+00	3.000000e+00	0.000000e+00	5.712349e-06	         5.712350e-04	5.769473e-04	
4	4.000000e+00	4.000000e+00	0.000000e+00	8.239270e-06	         8.239272e-04	8.321665e-04	
5	5.000000e+00	5.000000e+00	0.000000e+00	1.077452e-05	         1.077452e-03	1.088227e-03	
6	0.000000e+00	0.000000e+00	-5.000000e-01	2.144665e-08	         -2.123368e-08	2.129639e-10	
7	1.000000e+00	1.000000e+00	-5.000000e-01	1.958635e-06	         1.958634e-04	1.978220e-04	
8	2.000000e+00	2.000000e+00	-5.000000e-01	4.455244e-06	         4.455243e-04	4.499795e-04	
9	3.000000e+00	3.000000e+00	-5.000000e-01	6.972952e-06	         6.972952e-04	7.042682e-04	
10	4.000000e+00	4.000000e+00	-5.000000e-01	9.505795e-06	         9.505796e-04	9.600854e-04	
11	5.000000e+00	5.000000e+00	-5.000000e-01	1.204310e-05	         1.204310e-03	1.216354e-03	
12	0.000000e+00	0.000000e+00	-1.000000e+00	2.033356e-06	         -2.015942e-06	1.741344e-08	
13	1.000000e+00	1.000000e+00	-1.000000e+00	3.202298e-06	         3.201912e-04	3.233935e-04	
14	2.000000e+00	2.000000e+00	-1.000000e+00	5.714868e-06	         5.714866e-04	5.772015e-04	
15	3.000000e+00	3.000000e+00	-1.000000e+00	8.240357e-06	         8.240357e-04	8.322760e-04	
16	4.000000e+00	4.000000e+00	-1.000000e+00	1.077448e-05	         1.077448e-03	1.088222e-03	
17	5.000000e+00	5.000000e+00	-1.000000e+00	1.331207e-05	         1.331207e-03	1.344519e-03	
18	0.000000e+00	0.000000e+00	-1.500000e+00	4.555132e-06	         -4.521707e-06	3.342423e-08	
19	1.000000e+00	1.000000e+00	-1.500000e+00	4.813372e-06	         4.122185e-04	4.170319e-04	
20	2.000000e+00	2.000000e+00	-1.500000e+00	6.977226e-06	         6.977224e-04	7.046996e-04	
21	3.000000e+00	3.000000e+00	-1.500000e+00	9.506439e-06	         9.506438e-04	9.601503e-04	
22	4.000000e+00	4.000000e+00	-1.500000e+00	1.204284e-05	         1.204284e-03	1.216327e-03	
23	5.000000e+00	5.000000e+00	-1.500000e+00	1.458162e-05	         1.458162e-03	1.472743e-03	
24	0.000000e+00	0.000000e+00	-2.000000e+00	7.125792e-06	         -7.080148e-06	4.564409e-08	
25	1.000000e+00	1.000000e+00	-2.000000e+00	7.246637e-06	         4.279855e-04	4.352321e-04	
26	2.000000e+00	2.000000e+00	-2.000000e+00	8.242318e-06	         8.240344e-04	8.322767e-04	
27	3.000000e+00	3.000000e+00	-2.000000e+00	1.077496e-05	         1.077495e-03	1.088270e-03	
28	4.000000e+00	4.000000e+00	-2.000000e+00	1.331207e-05	         1.331207e-03	1.344519e-03	
29	5.000000e+00	5.000000e+00	-2.000000e+00	1.585161e-05	         1.585161e-03	1.601013e-03	

CPU time since last call: 0.027 seconds.

Total CPU time: 0.027 seconds.

Current dynamic memory usage = 0 bytes,
Dynamic memory limit = 1012.039062 MB.

