Index    V(BASE)    V(COLL)    I(V_COLL)    I(V_BASE)
0    3.0000000000E-01    5.0000000000E-01    1.1802781000E-11    2.1172646970E-13
1    3.2000000000E-01    5.0000000000E-01    2.4737378800E-11    3.8207631500E-13
2    3.4000000000E-01    5.0000000000E-01    5.2787330100E-11    7.0452671470E-13
3    3.6000000000E-01    5.0000000000E-01    1.1358897160E-10    1.3565468000E-12
4    3.8000000000E-01    5.0000000000E-01    2.4535681820E-10    2.7226693000E-12
5    4.0000000000E-01    5.0000000000E-01    5.3089327380E-10    5.6360749000E-12
6    4.2000000000E-01    5.0000000000E-01    1.1496145000E-09    1.1902201400E-11
7    4.4000000000E-01    5.0000000000E-01    2.4902770000E-09    2.5432878000E-11
8    4.6000000000E-01    5.0000000000E-01    5.3952349000E-09    5.4704324300E-11
9    4.8000000000E-01    5.0000000000E-01    1.1689692300E-08    1.1808280690E-10
10    5.0000000000E-01    5.0000000000E-01    2.5328479700E-08    2.5536393600E-10
11    5.2000000000E-01    5.0000000000E-01    5.4880865500E-08    5.5277670260E-10
12    5.4000000000E-01    5.0000000000E-01    1.1891455610E-07    1.1971607000E-09
13    5.6000000000E-01    5.0000000000E-01    2.5766137000E-07    2.5933563000E-09
14    5.8000000000E-01    5.0000000000E-01    5.5829271510E-07    5.6185580000E-09
15    6.0000000000E-01    5.0000000000E-01    1.2096784000E-06    1.2173409100E-08
16    6.2000000000E-01    5.0000000000E-01    2.6209993000E-06    2.6375931400E-08
17    6.4000000000E-01    5.0000000000E-01    5.6785680000E-06    5.7147604700E-08
18    6.6000000000E-01    5.0000000000E-01    1.2301392700E-05    1.2381221990E-07
19    6.8000000000E-01    5.0000000000E-01    2.6640518700E-05    2.6820401020E-07
20    7.0000000000E-01    5.0000000000E-01    5.7656215800E-05    5.8078617270E-07
21    7.2000000000E-01    5.0000000000E-01    1.2459866670E-04    1.2566619000E-06
22    7.4000000000E-01    5.0000000000E-01    2.6839320070E-04    2.7140871000E-06
23    7.6000000000E-01    5.0000000000E-01    5.7406126130E-04    5.8376568000E-06
24    7.8000000000E-01    5.0000000000E-01    1.2096721000E-03    1.2443714400E-05
25    8.0000000000E-01    5.0000000000E-01    2.4750173000E-03    2.6039410400E-05
26    8.2000000000E-01    5.0000000000E-01    4.8081418000E-03    5.2650467900E-05
27    8.4000000000E-01    5.0000000000E-01    8.6529098000E-03    1.0079572350E-04
28    8.6000000000E-01    5.0000000000E-01    1.4212635900E-02    1.7948894300E-04
29    8.8000000000E-01    5.0000000000E-01    2.1341464500E-02    2.9471555080E-04
30    9.0000000000E-01    5.0000000000E-01    2.9680858600E-02    4.4641597250E-04
31    9.2000000000E-01    5.0000000000E-01    3.8847869600E-02    6.2743620550E-04
32    9.4000000000E-01    5.0000000000E-01    4.8531456500E-02    8.2450103640E-04
33    9.6000000000E-01    5.0000000000E-01    5.8507443900E-02    1.0204522000E-03
34    9.8000000000E-01    5.0000000000E-01    6.8618376000E-02    1.1969638000E-03
35    1.0000000000E+00    5.0000000000E-01    7.8743399300E-02    1.3374707000E-03
36    1.0200000000E+00    5.0000000000E-01    8.8758301300E-02    1.4311003000E-03
37    1.0400000000E+00    5.0000000000E-01    9.8451262100E-02    1.4813179000E-03
0    3.0000000000E-01    1.0000000000E+00    1.2802758900E-11    -2.8828328610E-13
1    3.2000000000E-01    1.0000000000E+00    2.5737356700E-11    -1.1791956300E-13
2    3.4000000000E-01    1.0000000000E+00    5.3787363500E-11    2.0453083670E-13
3    3.6000000000E-01    1.0000000000E+00    1.1458906050E-10    8.5655094120E-13
4    3.8000000000E-01    1.0000000000E+00    2.4635699040E-10    2.2226734000E-12
5    4.0000000000E-01    1.0000000000E+00    5.3189347370E-10    5.1361138000E-12
6    4.2000000000E-01    1.0000000000E+00    1.1506150000E-09    1.1402212500E-11
7    4.4000000000E-01    1.0000000000E+00    2.4912785000E-09    2.4932889000E-11
8    4.6000000000E-01    1.0000000000E+00    5.3962387000E-09    5.4204363000E-11
9    4.8000000000E-01    1.0000000000E+00    1.1690703200E-08    1.1758290080E-10
10    5.0000000000E-01    1.0000000000E+00    2.5329516300E-08    2.5486429170E-10
11    5.2000000000E-01    1.0000000000E+00    5.4882003500E-08    5.5227838220E-10
12    5.4000000000E-01    1.0000000000E+00    1.1891611850E-07    1.1966684000E-09
13    5.6000000000E-01    1.0000000000E+00    2.5766477430E-07    2.5928916000E-09
14    5.8000000000E-01    1.0000000000E+00    5.5830424840E-07    5.6182191000E-09
15    6.0000000000E-01    1.0000000000E+00    1.2097261000E-06    1.2173644600E-08
16    6.2000000000E-01    1.0000000000E+00    2.6212081000E-06    2.6378785400E-08
17    6.4000000000E-01    1.0000000000E+00    5.6794952000E-06    5.7162386000E-08
18    6.6000000000E-01    1.0000000000E+00    1.2305516300E-05    1.2388127300E-07
19    6.8000000000E-01    1.0000000000E+00    2.6658822300E-05    2.6851970710E-07
20    7.0000000000E-01    1.0000000000E+00    5.7737141300E-05    5.8222089990E-07
21    7.2000000000E-01    1.0000000000E+00    1.2495417010E-04    1.2631603000E-06
22    7.4000000000E-01    1.0000000000E+00    2.6993776140E-04    2.7433858000E-06
23    7.6000000000E-01    1.0000000000E+00    5.8063535250E-04    5.9685869000E-06
24    7.8000000000E-01    1.0000000000E+00    1.2365586000E-03    1.3018002000E-05
25    8.0000000000E-01    1.0000000000E+00    2.5769418000E-03    2.8463315000E-05
26    8.2000000000E-01    1.0000000000E+00    5.1471102000E-03    6.2165248600E-05
27    8.4000000000E-01    1.0000000000E+00    9.5852441000E-03    1.3400554520E-04
28    8.6000000000E-01    1.0000000000E+00    1.6267057000E-02    2.7849804610E-04
29    8.8000000000E-01    1.0000000000E+00    2.5001697900E-02    5.4204911110E-04
30    9.0000000000E-01    1.0000000000E+00    3.5143274200E-02    9.6689808860E-04
31    9.2000000000E-01    1.0000000000E+00    4.5972040400E-02    1.5715352000E-03
32    9.4000000000E-01    1.0000000000E+00    5.6971904100E-02    2.3453736000E-03
33    9.6000000000E-01    1.0000000000E+00    6.7878377700E-02    3.2579853000E-03
34    9.8000000000E-01    1.0000000000E+00    7.8604982300E-02    4.2702509000E-03
35    1.0000000000E+00    1.0000000000E+00    8.9162302200E-02    5.3406111000E-03
36    1.0200000000E+00    1.0000000000E+00    9.9606585700E-02    6.4269153000E-03
37    1.0400000000E+00    1.0000000000E+00    1.1001369460E-01    7.4859764000E-03
0    3.0000000000E-01    1.5000000000E+00    1.3802847800E-11    -7.8827222530E-13
1    3.2000000000E-01    1.5000000000E+00    2.6737390100E-11    -6.1792237990E-13
2    3.4000000000E-01    1.5000000000E+00    5.4787396800E-11    -2.9547198020E-13
3    3.6000000000E-01    1.5000000000E+00    1.1558898280E-10    3.5654812430E-13
4    3.8000000000E-01    1.5000000000E+00    2.4735691270E-10    1.7226706000E-12
5    4.0000000000E-01    1.5000000000E+00    5.3289384020E-10    4.6360971000E-12
6    4.2000000000E-01    1.5000000000E+00    1.1516157000E-09    1.0902223600E-11
7    4.4000000000E-01    1.5000000000E+00    2.4922798000E-09    2.4432872300E-11
8    4.6000000000E-01    1.5000000000E+00    5.3972422000E-09    5.3704387800E-11
9    4.8000000000E-01    1.5000000000E+00    1.1691713400E-08    1.1708296690E-10
10    5.0000000000E-01    1.5000000000E+00    2.5330551800E-08    2.5436467520E-10
11    5.2000000000E-01    1.5000000000E+00    5.4883138500E-08    5.5178008960E-10
12    5.4000000000E-01    1.5000000000E+00    1.1891767440E-07    1.1961761000E-09
13    5.6000000000E-01    1.5000000000E+00    2.5766816440E-07    2.5924269000E-09
14    5.8000000000E-01    1.5000000000E+00    5.5831575030E-07    5.6178803000E-09
15    6.0000000000E-01    1.5000000000E+00    1.2097737000E-06    1.2173880300E-08
16    6.2000000000E-01    1.5000000000E+00    2.6214168000E-06    2.6381640400E-08
17    6.4000000000E-01    1.5000000000E+00    5.6804225000E-06    5.7177176100E-08
18    6.6000000000E-01    1.5000000000E+00    1.2309643100E-05    1.2395040890E-07
19    6.8000000000E-01    1.5000000000E+00    2.6677160500E-05    2.6883618430E-07
20    7.0000000000E-01    1.5000000000E+00    5.7818390400E-05    5.8366295010E-07
21    7.2000000000E-01    1.5000000000E+00    1.2531259010E-04    1.2697271000E-06
22    7.4000000000E-01    1.5000000000E+00    2.7150799380E-04    2.7733198000E-06
23    7.6000000000E-01    1.5000000000E+00    5.8742825410E-04    6.1053454000E-06
24    7.8000000000E-01    1.5000000000E+00    1.2652027000E-03    1.3644451300E-05
25    8.0000000000E-01    1.5000000000E+00    2.6914578000E-03    3.1330187000E-05
26    8.2000000000E-01    1.5000000000E+00    5.5594742000E-03    7.5068554700E-05
27    8.4000000000E-01    1.5000000000E+00    1.0826655000E-02    1.8876884240E-04
28    8.6000000000E-01    1.5000000000E+00    1.9153439100E-02    4.8076168890E-04
29    8.8000000000E-01    1.5000000000E+00    2.9919886800E-02    1.1315302000E-03
30    9.0000000000E-01    1.5000000000E+00    4.1358455500E-02    2.2710049000E-03
31    9.2000000000E-01    1.5000000000E+00    5.2146945600E-02    3.8753675000E-03
32    9.4000000000E-01    1.5000000000E+00    6.1931553200E-02    5.8478847000E-03
33    9.6000000000E-01    1.5000000000E+00    7.0804235900E-02    8.1012313000E-03
34    9.8000000000E-01    1.5000000000E+00    7.8944211200E-02    1.0572756200E-02
35    1.0000000000E+00    1.5000000000E+00    8.6512172300E-02    1.3218179600E-02
36    1.0200000000E+00    1.5000000000E+00    9.3634498500E-02    1.6004864400E-02
37    1.0400000000E+00    1.5000000000E+00    1.0040838210E-01    1.8907513100E-02
End of Xyce(TM) Parameter Sweep
