Index       FREQ        Re(I(V_COLL_COLL)) Im(I(V_COLL_COLL)) Re(I(V_BASE_COLL)) Im(I(V_BASE_COLL)) Re(I(V_EMIT_COLL)) Im(I(V_EMIT_COLL)) Re(I(V_SUBS_COLL)) Im(I(V_SUBS_COLL)) Re(V(THERM_COLL)) Im(V(THERM_COLL)) Re(I(V_COLL_BASE)) Im(I(V_COLL_BASE)) Re(I(V_BASE_BASE)) Im(I(V_BASE_BASE)) Re(I(V_EMIT_BASE)) Im(I(V_EMIT_BASE)) Re(I(V_SUBS_BASE)) Im(I(V_SUBS_BASE)) Re(V(THERM_BASE)) Im(V(THERM_BASE))
0        1.00000000e+10    2.77065774e-05    3.15385098e-03   -1.69599124e-05   -1.72225677e-03    7.79241762e-09   -5.83534159e-05   -1.07544574e-05   -1.37324079e-03    6.19881545e-05   -9.15039862e-04    1.48087698e-02   -1.91753417e-03    1.63150338e-04    3.62301218e-03   -1.49784546e-02   -1.75597409e-03    6.53447659e-06    5.04960771e-05   -5.46156247e-05   -1.71389945e-02
1        1.25892541e+10    4.39089071e-05    3.97028098e-03   -2.68783984e-05   -2.16807238e-03    1.32485862e-08   -7.34704212e-05   -1.70437572e-05   -1.72873818e-03    6.12836734e-05   -7.27225997e-04    1.47976568e-02   -2.41378328e-03    1.70669770e-04    4.56101477e-03   -1.49786843e-02   -2.21075458e-03    1.03577621e-05    6.35230929e-05   -6.77236528e-05   -1.36136550e-02
2        1.58489319e+10    6.95845082e-05    4.99791690e-03   -4.25959509e-05   -2.72920129e-03    2.18467578e-08   -9.25019371e-05   -2.70104041e-05   -2.17621366e-03    6.08343142e-05   -5.78138620e-04    1.47800465e-02   -3.03841294e-03    1.82585653e-04    5.74180052e-03   -1.49790485e-02   -2.78326325e-03    1.64163846e-05    7.98756678e-05   -7.59904037e-05   -1.08132759e-02
3        1.99526231e+10    1.10269136e-04    6.29125925e-03   -6.75010970e-05   -3.43538198e-03    3.53685362e-08   -1.16463393e-04   -4.28034075e-05   -2.73941388e-03    6.05430859e-05   -4.59838643e-04    1.47521423e-02   -3.82452562e-03    2.01466994e-04    7.22814365e-03   -1.49796258e-02   -3.50398569e-03    2.60164529e-05    1.00367662e-04   -8.12002365e-05   -8.58873513e-03
0        1.00000000e+10    2.83908454e-05    3.18374615e-03   -1.74909951e-05   -1.72588361e-03   -4.17621286e-08   -8.44100769e-05   -1.08580881e-05   -1.37345246e-03    8.93676365e-05   -1.33662438e-03    2.13995056e-02   -2.02360920e-03    2.32284398e-04    3.74506425e-03   -2.16386854e-02   -1.79443543e-03    6.89539701e-06    7.29803755e-05   -9.64397659e-05   -2.46865983e-02
1        1.25892541e+10    4.49926151e-05    4.00791416e-03   -2.77201530e-05   -2.17263043e-03   -6.45311011e-08   -1.06280812e-04   -1.72079310e-05   -1.72900293e-03    8.83411320e-05   -1.06230487e-03    2.13873749e-02   -2.54719095e-03    2.40734431e-04    4.71465720e-03   -2.16390396e-02   -2.25929102e-03    1.09302611e-05    9.18247727e-05   -1.15259814e-04   -1.96086885e-02
2        1.58489319e+10    7.13010400e-05    5.04528146e-03   -4.39298707e-05   -2.73492397e-03   -1.00695406e-07   -1.33813978e-04   -2.72704739e-05   -2.17654352e-03    8.76856849e-05   -8.44555574e-04    2.13681522e-02   -3.20623680e-03    2.54124901e-04    5.93519809e-03   -2.16396012e-02   -2.84445793e-03    1.73240999e-05    1.15496644e-04   -1.27127645e-04   -1.55749896e-02
3        1.99526231e+10    1.12987989e-04    6.35085614e-03   -6.96145027e-05   -3.44255547e-03   -1.58170332e-07   -1.68478390e-04   -4.32153162e-05   -2.73982228e-03    8.72598223e-05   -6.71781057e-04    2.13376937e-02   -4.03566122e-03    2.75342504e-04    7.47156109e-03   -2.16404913e-02   -3.58109428e-03    2.74551664e-05    1.45194406e-04   -1.34604903e-04   -1.23707041e-02
0        1.00000000e+10    2.93954926e-05    3.22459132e-03   -1.82277322e-05   -1.72971345e-03   -1.67901904e-07   -1.21119829e-04   -1.09998585e-05   -1.37375804e-03    1.27604641e-04   -1.94541640e-03    3.06641816e-02   -2.18800656e-03    3.30566906e-04    3.91763813e-03   -3.10022036e-02   -1.83423013e-03    7.45513210e-06    1.04598560e-04   -1.73665510e-04   -3.52173883e-02
1        1.25892541e+10    4.65835222e-05    4.05933396e-03   -2.88879419e-05   -2.17743992e-03   -2.63048487e-07   -1.52508948e-04   -1.74325319e-05   -1.72938510e-03    1.26115411e-04   -1.54620309e-03    3.06504079e-02   -2.75390150e-03    3.40503973e-04    4.93189484e-03   -3.10027296e-02   -2.30961599e-03    1.18177559e-05    1.31622645e-04   -2.00397253e-04   -2.79731265e-02
2        1.58489319e+10    7.38207098e-05    5.10999758e-03   -4.57804798e-05   -2.74095515e-03   -4.13967619e-07   -1.92022830e-04   -2.76262624e-05   -2.17701959e-03    1.25163006e-04   -1.22932868e-03    3.06285825e-02   -3.46623307e-03    3.56250657e-04    6.20863857e-03   -3.10035640e-02   -2.90799060e-03    1.87308664e-05    1.65585105e-04   -2.17250912e-04   -2.22185027e-02
3        1.99526231e+10    1.16978616e-04    6.43228184e-03   -7.25464297e-05   -3.45010146e-03   -6.53389717e-07   -2.41768820e-04   -4.37787970e-05   -2.74041155e-03    1.24541858e-04   -9.77919155e-04    3.05940009e-02   -4.36271805e-03    3.81201149e-04    7.81570702e-03   -3.10048865e-02   -3.66121291e-03    2.96844399e-05    2.08223939e-04   -2.27864313e-04   -1.76470791e-02
0        1.00000000e+10    3.08924543e-05    3.27992904e-03   -1.92472218e-05   -1.73386275e-03   -4.53013593e-07   -1.71871032e-04   -1.11922189e-05   -1.37419526e-03    1.79792275e-04   -2.81694657e-03    4.34328696e-02   -2.44602510e-03    4.68254060e-04    4.15892025e-03   -4.39094580e-02   -1.86109389e-03    8.33438061e-06    1.48198743e-04   -3.15918076e-04   -4.95723269e-02
1        1.25892541e+10    4.89537493e-05    4.12900240e-03   -3.05040575e-05   -2.18264495e-03   -7.12400110e-07   -2.16425698e-04   -1.77372917e-05   -1.72993175e-03    1.77644561e-04   -2.23898622e-03    4.34163408e-02   -3.07825424e-03    4.80612631e-04    5.23561561e-03   -4.39101647e-02   -2.34386153e-03    1.32112297e-05    1.86500173e-04   -3.53328427e-04   -3.93747175e-02
2        1.58489319e+10    7.75742929e-05    5.19768025e-03   -4.83415918e-05   -2.74747143e-03   -1.12368188e-06   -2.72508560e-04   -2.81090192e-05   -2.17770026e-03    1.76267749e-04   -1.78025704e-03    4.33901508e-02   -3.87412868e-03    5.00196006e-04    6.59091868e-03   -4.39112858e-02   -2.95143819e-03    2.09389842e-05    2.34648184e-04   -3.76906105e-04   -3.12739098e-02
3        1.99526231e+10    1.22922902e-04    6.54259516e-03   -7.66037752e-05   -3.45823274e-03   -1.77582864e-06   -3.43108954e-04   -4.45432980e-05   -2.74125346e-03    1.75364671e-04   -1.41633091e-03    4.33486560e-02   -4.87575018e-03    5.31224366e-04    8.29679754e-03   -4.39130631e-02   -3.71616943e-03    3.31828073e-05    2.95122067e-04   -3.91740311e-04   -2.48385296e-02
0        1.00000000e+10    3.31426821e-05    3.35364748e-03   -2.06464583e-05   -1.73854863e-03   -1.04726965e-06   -2.40285724e-04   -1.14489542e-05   -1.37481313e-03    2.48839481e-04   -4.04961601e-03    6.05657237e-02   -2.85322530e-03    6.57383687e-04    4.49080956e-03   -6.12328308e-02   -1.84433121e-03    9.72348303e-06    2.06746957e-04   -5.73538716e-04   -6.85243726e-02
1        1.25892541e+10    5.25163478e-05    4.22181808e-03   -3.27224043e-05   -2.18851479e-03   -1.64988327e-06   -3.02599373e-04   -1.81440602e-05   -1.73070392e-03    2.45766556e-04   -3.21892553e-03    6.05443932e-02   -3.59003235e-03    6.73734696e-04    5.65337235e-03   -6.12335397e-02   -2.32352735e-03    1.54117535e-05    2.60187347e-04   -6.24862060e-04   -5.44268975e-02
2        1.58489319e+10    8.32156266e-05    5.31449187e-03   -5.18570976e-05   -2.75480388e-03   -2.60519391e-06   -3.81026927e-04   -2.87533352e-05   -2.17866106e-03    2.43789465e-04   -2.55965007e-03    6.05105973e-02   -4.51761416e-03    6.99643220e-04    7.11668852e-03   -6.12346654e-02   -2.92644799e-03    2.44248498e-05    3.27373633e-04   -6.57185083e-04   -4.32277916e-02
3        1.99526231e+10    1.31855584e-04    6.68953546e-03   -8.21725237e-05   -3.46735066e-03   -4.11955880e-06   -4.79744322e-04   -4.55635011e-05   -2.74244048e-03    2.42481487e-04   -2.03668185e-03    6.04570564e-02   -5.68496265e-03    7.40690098e-04    8.95837742e-03   -6.12364506e-02   -3.68518911e-03    3.87041091e-05    4.11774328e-04   -6.77484676e-04   -3.43306940e-02
0        1.00000000e+10    3.65294740e-05    3.44943055e-03   -2.25428198e-05   -1.74416969e-03   -2.20330414e-06   -3.29588978e-04   -1.17833500e-05   -1.37567189e-03    3.36572256e-04   -5.76484439e-03    8.27631757e-02   -3.49275568e-03    9.10684582e-04    4.93769964e-03   -8.36857683e-02   -1.72763268e-03    1.19080218e-05    2.82688724e-04   -1.02517111e-03   -9.25008796e-02
1        1.25892541e+10    5.78782086e-05    4.34242345e-03   -3.57293070e-05   -2.19554457e-03   -3.47500427e-06   -4.15102386e-04   -1.86738973e-05   -1.73177649e-03    3.32219992e-04   -4.58262862e-03    8.27332042e-02   -4.39366522e-03    9.33638946e-04    6.21583892e-03   -8.36857141e-02   -2.17792886e-03    1.88709287e-05    3.55755161e-04   -1.09378842e-03   -7.34679777e-02
2        1.58489319e+10    9.17053588e-05    5.46626680e-03   -5.66221787e-05   -2.76356317e-03   -5.49066345e-06   -5.22709311e-04   -2.95925166e-05   -2.17999431e-03    3.29404478e-04   -3.64444765e-03    8.26857224e-02   -5.52788811e-03    9.70007442e-04    7.82448567e-03   -8.36856326e-02   -2.74420975e-03    2.99027908e-05    4.47612190e-04   -1.13693916e-03   -5.83474335e-02
3        1.99526231e+10    1.45296391e-04    6.88041228e-03   -8.97193413e-05   -3.47819919e-03   -8.68511568e-06   -6.58128079e-04   -4.68919337e-05   -2.74408501e-03    3.27518067e-04   -2.90034082e-03    8.26105105e-02   -6.95516455e-03    1.02761802e-03    9.84880065e-03   -8.36855066e-02   -3.45663390e-03    4.73780727e-05    5.62997799e-04   -1.16393744e-03   -4.63340679e-02
0        1.00000000e+10    4.15913532e-05    3.57004581e-03   -2.50762273e-05   -1.75143766e-03   -4.30933407e-06   -4.41768061e-04   -1.22057918e-05   -1.37684008e-03    4.42648230e-04   -8.10152486e-03    1.10293257e-01   -4.47991531e-03    1.23968319e-03    5.52436308e-03   -1.11548225e-01   -1.42147553e-03    1.52854618e-05    3.77027754e-04   -1.78020971e-03   -1.21212907e-01
1        1.25892541e+10    6.58924335e-05    4.49430562e-03   -3.97469522e-05   -2.20461972e-03   -6.80222414e-06   -5.56451504e-04   -1.93432572e-05   -1.73323439e-03    4.36560435e-04   -6.44064230e-03    1.10247453e-01   -5.63395636e-03    1.27348012e-03    6.95412498e-03   -1.11545150e-01   -1.79462134e-03    2.42171358e-05    4.74452731e-04   -1.86904862e-03   -9.62661818e-02
2        1.58489319e+10    1.04393768e-04    5.65737228e-03   -6.29885781e-05   -2.77484391e-03   -1.07526914e-05   -7.00724144e-04   -3.06524989e-05   -2.18180422e-03    4.32590527e-04   -5.12273650e-03    1.10174901e-01   -7.08679911e-03    1.32701918e-03    8.75331108e-03   -1.11540287e-01   -2.26341952e-03    3.83662374e-05    5.96907549e-04   -1.92474233e-03   -7.64458852e-02
3        1.99526231e+10    1.65380012e-04    7.12065542e-03   -9.97992358e-05   -3.49211719e-03   -1.70115612e-05   -8.82225417e-04   -4.85692146e-05   -2.74631281e-03    4.29881816e-04   -4.07762399e-03    1.10060006e-01   -8.91459382e-03    1.41180863e-03    1.10168323e-02   -1.11532589e-01   -2.85291695e-03    6.07743695e-05    7.50678442e-04   -1.95931271e-03   -6.06965775e-02
0        1.00000000e+10    4.90549952e-05    3.71693311e-03   -2.84213267e-05   -1.76157590e-03   -7.91131427e-06   -5.76969511e-04   -1.27223543e-05   -1.37838770e-03    5.63919830e-04   -1.12027043e-02    1.42728021e-01   -5.95961598e-03    1.65253347e-03    6.27388490e-03   -1.44400913e-01   -8.02698738e-04    2.03581246e-05    4.88429820e-04   -2.96904791e-03   -1.53335985e-01
1        1.25892541e+10    7.77109289e-05    4.67927130e-03   -4.50526543e-05   -2.21726375e-03   -1.24965515e-05   -7.26843702e-04   -2.01617231e-05   -1.73516384e-03    5.55527440e-04   -8.90686944e-03    1.42653231e-01   -7.49286262e-03    1.70384556e-03    7.89713325e-03   -1.44389321e-01   -1.01884517e-03    3.22442379e-05    6.14574534e-04   -3.07974740e-03   -1.21765367e-01
2        1.58489319e+10    1.23103545e-04    5.89003309e-03   -7.13946981e-05   -2.79053259e-03   -1.97606663e-05   -9.15304841e-04   -3.19481808e-05   -2.18419566e-03    5.49991956e-04   -7.08533956e-03    1.42534794e-01   -9.42264831e-03    1.78510998e-03    9.93922127e-03   -1.44370973e-01   -1.28963412e-03    5.10689898e-05    7.73061164e-04   -3.14868999e-03   -9.66790987e-02
3        1.99526231e+10    1.94984258e-04    7.41293696e-03   -1.13101842e-04   -3.51141842e-03   -3.12643624e-05   -1.15226992e-03   -5.06180539e-05   -2.74924862e-03    5.46119131e-04   -5.64110773e-03    1.42347310e-01   -1.18492770e-02    1.91375489e-03    1.25071992e-02   -1.44341936e-01   -1.62986841e-03    8.08704304e-05    9.71946228e-04   -3.19075888e-03   -7.67413417e-02
0        1.00000000e+10    5.98962397e-05    3.89083341e-03   -3.28243001e-05   -1.77659400e-03   -1.37350410e-05   -7.33863783e-04   -1.33368986e-05   -1.38037562e-03    6.95145370e-04   -1.51953328e-02    1.78849156e-01   -8.09553146e-03    2.15275365e-03    7.20733141e-03   -1.81029607e-01    2.75309162e-04    2.76982123e-05    6.12890888e-04   -4.71828704e-03   -1.86472507e-01
1        1.25892541e+10    9.48812546e-05    4.89822299e-03   -5.20369847e-05   -2.23598024e-03   -2.17090015e-05   -9.24603733e-04   -2.11352683e-05   -1.73763902e-03    6.83759447e-04   -1.20824778e-02    1.78722233e-01   -1.01757310e-02    2.23175992e-03    9.07106997e-03   -1.80997849e-01    3.33624645e-04    4.38556894e-05    7.71036391e-04   -4.85029437e-03   -1.48054405e-01
2        1.58489319e+10    1.50281310e-04    6.16528253e-03   -8.24567417e-05   -2.81373113e-03   -3.43361164e-05   -1.16429439e-03   -3.34884521e-05   -2.18725702e-03    6.76130869e-04   -9.61302599e-03    1.78521325e-01   -1.27925348e-02    2.35683114e-03    1.14145703e-02   -1.80947591e-01    4.08378359e-04    6.94348311e-05    9.69586164e-04   -4.93137137e-03   -1.17520681e-01
3        1.99526231e+10    2.37962949e-04    7.75831993e-03   -1.30592956e-04   -3.53991106e-03   -5.43191045e-05   -1.46541494e-03   -5.30508886e-05   -2.75299393e-03    6.70614683e-04   -7.65545671e-03    1.78203502e-01   -1.60800561e-02    2.55469061e-03    1.43593573e-02   -1.80868095e-01    5.02235145e-04    1.09903029e-04    1.21846358e-03   -4.97902639e-03   -9.32454761e-02
0        1.00000000e+10    7.55056516e-05    4.09399617e-03   -3.86821481e-05   -1.79963859e-03   -2.27649424e-05   -9.11513628e-04   -1.40585611e-05   -1.38284396e-03    8.31467440e-04   -2.01684483e-02    2.16841029e-01   -1.10570549e-02    2.74008112e-03    8.34634641e-03   -2.19619015e-01    1.96633758e-03    3.79053755e-05    7.44370873e-04   -7.11895220e-03   -2.17543625e-01
1        1.25892541e+10    1.19607783e-04    5.15390966e-03   -6.13287645e-05   -2.26468724e-03   -3.60010142e-05   -1.14851562e-03   -2.22780046e-05   -1.74070680e-03    8.16270832e-04   -1.60385916e-02    2.16623008e-01   -1.38945553e-02    2.86194240e-03    1.05025866e-02   -2.19544946e-01    2.45580344e-03    5.99959284e-05    9.36165247e-04   -7.26873483e-03   -1.72677901e-01
2        1.58489319e+10    1.89405667e-04    6.48637717e-03   -9.71645345e-05   -2.84928966e-03   -5.69465824e-05   -1.44604723e-03   -3.52945505e-05   -2.19104028e-03    8.05873692e-04   -1.27627864e-02    2.16278125e-01   -1.74605536e-02    3.05472460e-03    1.32117186e-02   -2.19427794e-01    3.07214913e-03    9.49448670e-05    1.17668588e-03   -7.35805694e-03   -1.37008011e-01
3        1.99526231e+10    2.99775342e-04    8.16046920e-03   -1.53818628e-04   -3.58354129e-03   -9.00583469e-05   -1.81932758e-03   -5.58983669e-05   -2.75760032e-03    7.98036546e-04   -1.01665474e-02    2.15733125e-01   -2.19336518e-02    3.35937415e-03    1.66116814e-02   -2.19242679e-01    3.84434351e-03    1.50179460e-04    1.47762691e-03   -7.40622842e-03   -1.08634780e-01
0        1.00000000e+10    9.80800362e-05    4.33375631e-03   -4.66835475e-05   -1.83542218e-03   -3.64824608e-05   -1.11253141e-03   -1.49140279e-05   -1.38580272e-03    9.71854834e-04   -2.61579516e-02    2.54714201e-01   -1.50146367e-02    3.41367767e-03    9.71802169e-03   -2.58179471e-01    4.42040855e-03    5.15925895e-05    8.76206432e-04   -1.02032144e-02   -2.43489610e-01
1        1.25892541e+10    1.55367092e-04    5.45537832e-03   -7.40164609e-05   -2.30924242e-03   -5.77192186e-05   -1.40176173e-03   -2.36314121e-05   -1.74437417e-03    9.51879051e-04   -2.08042841e-02    2.54341969e-01   -1.88613510e-02    3.60068784e-03    1.22246869e-02   -2.58024282e-01    5.53519745e-03    8.16247819e-05    1.10146659e-03   -1.03635794e-02   -1.93192181e-01
2        1.58489319e+10    2.45946970e-04    6.86430837e-03   -1.17226988e-04   -2.90443861e-03   -9.12899523e-05   -1.76432664e-03   -3.74300300e-05   -2.19554313e-03    9.37830900e-04   -1.65583978e-02    2.53753758e-01   -2.36879988e-02    3.89622145e-03    1.53700336e-02   -2.57779069e-01    6.93450772e-03    1.29089014e-04    1.38345742e-03   -1.04532541e-02   -1.53183544e-01
3        1.99526231e+10    3.88966024e-04    8.63241696e-03   -1.85438484e-04   -3.65113285e-03   -1.44271902e-04   -2.21824071e-03   -5.92556381e-05   -2.76304340e-03    9.26691313e-04   -1.31940949e-02    2.52825786e-01   -2.97275098e-02    4.36246694e-03    1.93094342e-02   -2.57392234e-01    8.68277517e-03    2.03981118e-04    1.73530048e-03   -1.04916989e-02   -1.21333980e-01
0        1.00000000e+10    1.31399703e-04    4.62669241e-03   -5.80433536e-05   -1.89078061e-03   -5.73943058e-05   -1.34668430e-03   -1.59620437e-05   -1.38922750e-03    1.12183618e-03   -3.31439279e-02    2.90740806e-01   -2.01497153e-02    4.17679786e-03    1.13602982e-02   -2.94987025e-01    7.78684600e-03    6.94217009e-05    1.00257113e-03   -1.39393237e-02   -2.61932310e-01
1        1.25892541e+10    2.08124935e-04    5.82310926e-03   -9.20148894e-05   -2.37811403e-03   -9.08231501e-05   -1.69639451e-03   -2.52868958e-05   -1.74860072e-03    1.09589778e-03   -2.63646241e-02    2.90114959e-01   -2.52991793e-02    4.46164827e-03    1.42831190e-02   -2.94686375e-01    9.75661497e-03    1.09767397e-04    1.25944540e-03   -1.40985222e-02   -2.07691300e-01
2        1.58489319e+10    3.29256361e-04    7.32407853e-03   -1.45640008e-04   -2.98957361e-03   -1.43580892e-04   -2.13380906e-03   -4.00354615e-05   -2.20069586e-03    1.07698801e-03   -2.09890834e-02    2.89127572e-01   -3.17444924e-02    4.91106784e-03    1.79431454e-02   -2.94212070e-01    1.22211954e-02    1.73429969e-04    1.58015156e-03   -1.41747644e-02   -1.64512505e-01
3        1.99526231e+10    5.20058608e-04    9.20410564e-03   -2.30092337e-04   -3.75526054e-03   -2.26631427e-04   -2.67964594e-03   -6.33348442e-05   -2.76919916e-03    1.06106128e-03   -1.67308343e-02    2.87573836e-01   -3.97786223e-02    5.61827370e-03    2.25123911e-02   -2.93465739e-01    1.52876284e-02    2.73628666e-04    1.97860278e-03   -1.41848484e-02   -1.30098665e-01
0        1.00000000e+10    1.82306867e-04    5.00329822e-03   -7.49278648e-05   -1.97565208e-03   -9.00689466e-05   -1.63458739e-03   -1.73100555e-05   -1.39305875e-03    1.29463452e-03   -4.10604311e-02    3.23698415e-01   -2.66823421e-02    5.04238310e-03    1.33291220e-02   -3.28832999e-01    1.22339219e-02    9.22001662e-05    1.11929824e-03   -1.82454515e-02   -2.71505588e-01
1        1.25892541e+10    2.88638534e-04    6.29468532e-03   -1.18725997e-04   -2.48354739e-03   -1.42501312e-04   -2.05784376e-03   -2.74112254e-05   -1.75329417e-03    1.26118296e-03   -3.26687406e-02    3.22664457e-01   -3.34741462e-02    5.47337388e-03    1.67445999e-02   -3.28283486e-01    1.53249342e-02    1.45655314e-04    1.40461206e-03   -1.83854452e-02   -2.15068959e-01
2        1.58489319e+10    4.56111396e-04    7.91142948e-03   -1.87700179e-04   -3.11959618e-03   -2.25044740e-04   -2.58548452e-03   -4.33664766e-05   -2.20634878e-03    1.23562018e-03   -2.60162617e-02    3.21037227e-01   -4.19430693e-02    6.15167859e-03    2.10077986e-02   -3.27418704e-01    1.91758866e-02    2.29797835e-04    1.75938414e-03   -1.84253253e-02   -1.70090574e-01
