Index    V(COLL)    V(BASE)    I(V_COLL)    I(V_BASE)
0    0.0000000000E+00    6.0000000000E-01    -1.4596562000E-12    1.2174033400E-08
1    5.0000000000E-02    6.0000000000E-01    1.0345873000E-06    1.2173311000E-08
2    1.0000000000E-01    6.0000000000E-01    1.1843108000E-06    1.2173235700E-08
3    1.5000000000E-01    6.0000000000E-01    1.2059799000E-06    1.2173246200E-08
4    2.0000000000E-01    6.0000000000E-01    1.2091194000E-06    1.2173268100E-08
5    2.5000000000E-01    6.0000000000E-01    1.2095778000E-06    1.2173291400E-08
6    3.0000000000E-01    6.0000000000E-01    1.2096482000E-06    1.2173314900E-08
7    3.5000000000E-01    6.0000000000E-01    1.2096625000E-06    1.2173338500E-08
8    4.0000000000E-01    6.0000000000E-01    1.2096686000E-06    1.2173362000E-08
9    4.5000000000E-01    6.0000000000E-01    1.2096736000E-06    1.2173385600E-08
10    5.0000000000E-01    6.0000000000E-01    1.2096784000E-06    1.2173409100E-08
11    5.5000000000E-01    6.0000000000E-01    1.2096832000E-06    1.2173432700E-08
12    6.0000000000E-01    6.0000000000E-01    1.2096880000E-06    1.2173456200E-08
13    6.5000000000E-01    6.0000000000E-01    1.2096927000E-06    1.2173479800E-08
14    7.0000000000E-01    6.0000000000E-01    1.2096975000E-06    1.2173503300E-08
15    7.5000000000E-01    6.0000000000E-01    1.2097023000E-06    1.2173526900E-08
16    8.0000000000E-01    6.0000000000E-01    1.2097070000E-06    1.2173550400E-08
17    8.5000000000E-01    6.0000000000E-01    1.2097118000E-06    1.2173574000E-08
18    9.0000000000E-01    6.0000000000E-01    1.2097166000E-06    1.2173597500E-08
19    9.5000000000E-01    6.0000000000E-01    1.2097213000E-06    1.2173621100E-08
20    1.0000000000E+00    6.0000000000E-01    1.2097261000E-06    1.2173644600E-08
21    1.0500000000E+00    6.0000000000E-01    1.2097309000E-06    1.2173668200E-08
22    1.1000000000E+00    6.0000000000E-01    1.2097356000E-06    1.2173691800E-08
23    1.1500000000E+00    6.0000000000E-01    1.2097404000E-06    1.2173715300E-08
24    1.2000000000E+00    6.0000000000E-01    1.2097451000E-06    1.2173738900E-08
25    1.2500000000E+00    6.0000000000E-01    1.2097499000E-06    1.2173762400E-08
26    1.3000000000E+00    6.0000000000E-01    1.2097547000E-06    1.2173786000E-08
27    1.3500000000E+00    6.0000000000E-01    1.2097594000E-06    1.2173809500E-08
28    1.4000000000E+00    6.0000000000E-01    1.2097642000E-06    1.2173833100E-08
29    1.4500000000E+00    6.0000000000E-01    1.2097690000E-06    1.2173856700E-08
30    1.5000000000E+00    6.0000000000E-01    1.2097737000E-06    1.2173880300E-08
31    1.5500000000E+00    6.0000000000E-01    1.2097785000E-06    1.2173903800E-08
32    1.6000000000E+00    6.0000000000E-01    1.2097832000E-06    1.2173927400E-08
33    1.6500000000E+00    6.0000000000E-01    1.2097880000E-06    1.2173951000E-08
34    1.7000000000E+00    6.0000000000E-01    1.2097928000E-06    1.2173974500E-08
35    1.7500000000E+00    6.0000000000E-01    1.2097975000E-06    1.2173998100E-08
36    1.8000000000E+00    6.0000000000E-01    1.2098023000E-06    1.2174021700E-08
37    1.8500000000E+00    6.0000000000E-01    1.2098070000E-06    1.2174045200E-08
38    1.9000000000E+00    6.0000000000E-01    1.2098118000E-06    1.2174068800E-08
39    1.9500000000E+00    6.0000000000E-01    1.2098165000E-06    1.2174092400E-08
40    2.0000000000E+00    6.0000000000E-01    1.2098213000E-06    1.2174116000E-08
0    0.0000000000E+00    6.5000000000E-01    -4.1663343300E-11    8.4126314600E-08
1    5.0000000000E-02    6.5000000000E-01    7.1463314000E-06    8.4093953400E-08
2    1.0000000000E-01    6.5000000000E-01    8.1814107000E-06    8.4092413800E-08
3    1.5000000000E-01    6.5000000000E-01    8.3313758000E-06    8.4094992500E-08
4    2.0000000000E-01    6.5000000000E-01    8.3532441000E-06    8.4098117500E-08
5    2.5000000000E-01    6.5000000000E-01    8.3565758000E-06    8.4101314600E-08
6    3.0000000000E-01    6.5000000000E-01    8.3572251000E-06    8.4104521200E-08
7    3.5000000000E-01    6.5000000000E-01    8.3574863000E-06    8.4107729300E-08
8    4.0000000000E-01    6.5000000000E-01    8.3576913000E-06    8.4110937900E-08
9    4.5000000000E-01    6.5000000000E-01    8.3578882000E-06    8.4114146800E-08
10    5.0000000000E-01    6.5000000000E-01    8.3580840000E-06    8.4117355900E-08
11    5.5000000000E-01    6.5000000000E-01    8.3582795000E-06    8.4120565200E-08
12    6.0000000000E-01    6.5000000000E-01    8.3584750000E-06    8.4123774900E-08
13    6.5000000000E-01    6.5000000000E-01    8.3586706000E-06    8.4126984800E-08
14    7.0000000000E-01    6.5000000000E-01    8.3588661000E-06    8.4130195000E-08
15    7.5000000000E-01    6.5000000000E-01    8.3590616000E-06    8.4133405400E-08
16    8.0000000000E-01    6.5000000000E-01    8.3592572000E-06    8.4136616200E-08
17    8.5000000000E-01    6.5000000000E-01    8.3594528000E-06    8.4139827200E-08
18    9.0000000000E-01    6.5000000000E-01    8.3596483000E-06    8.4143038400E-08
19    9.5000000000E-01    6.5000000000E-01    8.3598439000E-06    8.4146250000E-08
20    1.0000000000E+00    6.5000000000E-01    8.3600395000E-06    8.4149461800E-08
21    1.0500000000E+00    6.5000000000E-01    8.3602351000E-06    8.4152673900E-08
22    1.1000000000E+00    6.5000000000E-01    8.3604307000E-06    8.4155886200E-08
23    1.1500000000E+00    6.5000000000E-01    8.3606263000E-06    8.4159098900E-08
24    1.2000000000E+00    6.5000000000E-01    8.3608219000E-06    8.4162311700E-08
25    1.2500000000E+00    6.5000000000E-01    8.3610175000E-06    8.4165524900E-08
26    1.3000000000E+00    6.5000000000E-01    8.3612131000E-06    8.4168738300E-08
27    1.3500000000E+00    6.5000000000E-01    8.3614088000E-06    8.4171952000E-08
28    1.4000000000E+00    6.5000000000E-01    8.3616045000E-06    8.4175166000E-08
29    1.4500000000E+00    6.5000000000E-01    8.3618001000E-06    8.4178380200E-08
30    1.5000000000E+00    6.5000000000E-01    8.3619958000E-06    8.4181594700E-08
31    1.5500000000E+00    6.5000000000E-01    8.3621915000E-06    8.4184809500E-08
32    1.6000000000E+00    6.5000000000E-01    8.3623872000E-06    8.4188024600E-08
33    1.6500000000E+00    6.5000000000E-01    8.3625829000E-06    8.4191239900E-08
34    1.7000000000E+00    6.5000000000E-01    8.3627786000E-06    8.4194455500E-08
35    1.7500000000E+00    6.5000000000E-01    8.3629744000E-06    8.4197671300E-08
36    1.8000000000E+00    6.5000000000E-01    8.3631701000E-06    8.4200887400E-08
37    1.8500000000E+00    6.5000000000E-01    8.3633659000E-06    8.4204103900E-08
38    1.9000000000E+00    6.5000000000E-01    8.3635616000E-06    8.4207320500E-08
39    1.9500000000E+00    6.5000000000E-01    8.3637574000E-06    8.4210537500E-08
40    2.0000000000E+00    6.5000000000E-01    8.3639532000E-06    8.4213754700E-08
0    0.0000000000E+00    7.0000000000E-01    -1.9442710000E-09    5.8131012960E-07
1    5.0000000000E-02    7.0000000000E-01    4.9210588500E-05    5.7976388200E-07
2    1.0000000000E-01    7.0000000000E-01    5.6378884700E-05    5.7967867830E-07
3    1.5000000000E-01    7.0000000000E-01    5.7424181100E-05    5.7979082980E-07
4    2.0000000000E-01    7.0000000000E-01    5.7582397200E-05    5.7992943590E-07
5    2.5000000000E-01    7.0000000000E-01    5.7612193600E-05    5.8007161590E-07
6    3.0000000000E-01    7.0000000000E-01    5.7623402600E-05    5.8021432930E-07
7    3.5000000000E-01    7.0000000000E-01    5.7631923600E-05    5.8035717500E-07
8    4.0000000000E-01    7.0000000000E-01    5.7640058200E-05    5.8050010100E-07
9    4.5000000000E-01    7.0000000000E-01    5.7648139500E-05    5.8064310050E-07
10    5.0000000000E-01    7.0000000000E-01    5.7656215800E-05    5.8078617270E-07
11    5.5000000000E-01    7.0000000000E-01    5.7664294100E-05    5.8092931760E-07
12    6.0000000000E-01    7.0000000000E-01    5.7672375400E-05    5.8107253510E-07
13    6.5000000000E-01    7.0000000000E-01    5.7680459900E-05    5.8121582550E-07
14    7.0000000000E-01    7.0000000000E-01    5.7688547600E-05    5.8135918860E-07
15    7.5000000000E-01    7.0000000000E-01    5.7696638500E-05    5.8150262460E-07
16    8.0000000000E-01    7.0000000000E-01    5.7704732600E-05    5.8164613360E-07
17    8.5000000000E-01    7.0000000000E-01    5.7712829900E-05    5.8178971550E-07
18    9.0000000000E-01    7.0000000000E-01    5.7720930500E-05    5.8193337050E-07
19    9.5000000000E-01    7.0000000000E-01    5.7729034300E-05    5.8207709870E-07
20    1.0000000000E+00    7.0000000000E-01    5.7737141300E-05    5.8222089990E-07
21    1.0500000000E+00    7.0000000000E-01    5.7745251600E-05    5.8236477450E-07
22    1.1000000000E+00    7.0000000000E-01    5.7753365100E-05    5.8250872230E-07
23    1.1500000000E+00    7.0000000000E-01    5.7761481800E-05    5.8265274340E-07
24    1.2000000000E+00    7.0000000000E-01    5.7769601800E-05    5.8279683800E-07
25    1.2500000000E+00    7.0000000000E-01    5.7777725100E-05    5.8294100600E-07
26    1.3000000000E+00    7.0000000000E-01    5.7785851600E-05    5.8308524760E-07
27    1.3500000000E+00    7.0000000000E-01    5.7793981400E-05    5.8322956270E-07
28    1.4000000000E+00    7.0000000000E-01    5.7802114500E-05    5.8337395140E-07
29    1.4500000000E+00    7.0000000000E-01    5.7810250800E-05    5.8351841390E-07
30    1.5000000000E+00    7.0000000000E-01    5.7818390400E-05    5.8366295010E-07
31    1.5500000000E+00    7.0000000000E-01    5.7826533300E-05    5.8380756020E-07
32    1.6000000000E+00    7.0000000000E-01    5.7834679500E-05    5.8395224410E-07
33    1.6500000000E+00    7.0000000000E-01    5.7842829000E-05    5.8409700200E-07
34    1.7000000000E+00    7.0000000000E-01    5.7850981700E-05    5.8424183380E-07
35    1.7500000000E+00    7.0000000000E-01    5.7859137800E-05    5.8438673980E-07
36    1.8000000000E+00    7.0000000000E-01    5.7867297100E-05    5.8453171980E-07
37    1.8500000000E+00    7.0000000000E-01    5.7875459800E-05    5.8467677410E-07
38    1.9000000000E+00    7.0000000000E-01    5.7883625700E-05    5.8482190250E-07
39    1.9500000000E+00    7.0000000000E-01    5.7891795000E-05    5.8496710530E-07
40    2.0000000000E+00    7.0000000000E-01    5.7899967600E-05    5.8511238240E-07
0    0.0000000000E+00    7.5000000000E-01    -8.8065944000E-08    4.0136384000E-06
1    5.0000000000E-02    7.5000000000E-01    3.3183899220E-04    3.9416707000E-06
2    1.0000000000E-01    7.5000000000E-01    3.8200473360E-04    3.9367791000E-06
3    1.5000000000E-01    7.5000000000E-01    3.8958444010E-04    3.9412838000E-06
4    2.0000000000E-01    7.5000000000E-01    3.9095096780E-04    3.9470786000E-06
5    2.5000000000E-01    7.5000000000E-01    3.9141620740E-04    3.9530622000E-06
6    3.0000000000E-01    7.5000000000E-01    3.9175129410E-04    3.9590866000E-06
7    3.5000000000E-01    7.5000000000E-01    3.9206810350E-04    3.9651321000E-06
8    4.0000000000E-01    7.5000000000E-01    3.9238287120E-04    3.9711962000E-06
9    4.5000000000E-01    7.5000000000E-01    3.9269795590E-04    3.9772785000E-06
10    5.0000000000E-01    7.5000000000E-01    3.9301370270E-04    3.9833791000E-06
11    5.5000000000E-01    7.5000000000E-01    3.9333016410E-04    3.9894981000E-06
12    6.0000000000E-01    7.5000000000E-01    3.9364735040E-04    3.9956356000E-06
13    6.5000000000E-01    7.5000000000E-01    3.9396526560E-04    4.0017916000E-06
14    7.0000000000E-01    7.5000000000E-01    3.9428391280E-04    4.0079663000E-06
15    7.5000000000E-01    7.5000000000E-01    3.9460329500E-04    4.0141598000E-06
16    8.0000000000E-01    7.5000000000E-01    3.9492341520E-04    4.0203720000E-06
17    8.5000000000E-01    7.5000000000E-01    3.9524427650E-04    4.0266032000E-06
18    9.0000000000E-01    7.5000000000E-01    3.9556588180E-04    4.0328534000E-06
19    9.5000000000E-01    7.5000000000E-01    3.9588823430E-04    4.0391227000E-06
20    1.0000000000E+00    7.5000000000E-01    3.9621133690E-04    4.0454111000E-06
21    1.0500000000E+00    7.5000000000E-01    3.9653519290E-04    4.0517189000E-06
22    1.1000000000E+00    7.5000000000E-01    3.9685980520E-04    4.0580460000E-06
23    1.1500000000E+00    7.5000000000E-01    3.9718517690E-04    4.0643926000E-06
24    1.2000000000E+00    7.5000000000E-01    3.9751131130E-04    4.0707587000E-06
25    1.2500000000E+00    7.5000000000E-01    3.9783821150E-04    4.0771445000E-06
26    1.3000000000E+00    7.5000000000E-01    3.9816588060E-04    4.0835500000E-06
27    1.3500000000E+00    7.5000000000E-01    3.9849432190E-04    4.0899754000E-06
28    1.4000000000E+00    7.5000000000E-01    3.9882353840E-04    4.0964207000E-06
29    1.4500000000E+00    7.5000000000E-01    3.9915353360E-04    4.1028860000E-06
30    1.5000000000E+00    7.5000000000E-01    3.9948431050E-04    4.1093715000E-06
31    1.5500000000E+00    7.5000000000E-01    3.9981587250E-04    4.1158772000E-06
32    1.6000000000E+00    7.5000000000E-01    4.0014822290E-04    4.1224032000E-06
33    1.6500000000E+00    7.5000000000E-01    4.0048136500E-04    4.1289496000E-06
34    1.7000000000E+00    7.5000000000E-01    4.0081530210E-04    4.1355165000E-06
35    1.7500000000E+00    7.5000000000E-01    4.0115003750E-04    4.1421041000E-06
36    1.8000000000E+00    7.5000000000E-01    4.0148557470E-04    4.1487124000E-06
37    1.8500000000E+00    7.5000000000E-01    4.0182191700E-04    4.1553415000E-06
38    1.9000000000E+00    7.5000000000E-01    4.0215906780E-04    4.1619916000E-06
39    1.9500000000E+00    7.5000000000E-01    4.0249703050E-04    4.1686626000E-06
40    2.0000000000E+00    7.5000000000E-01    4.0283580860E-04    4.1753549000E-06
0    0.0000000000E+00    8.0000000000E-01    -3.0999254000E-06    2.7565325400E-05
1    5.0000000000E-02    8.0000000000E-01    1.9689958000E-03    2.4733262200E-05
2    1.0000000000E-01    8.0000000000E-01    2.3368773000E-03    2.4436140400E-05
3    1.5000000000E-01    8.0000000000E-01    2.4005013000E-03    2.4565612600E-05
4    2.0000000000E-01    8.0000000000E-01    2.4175732000E-03    2.4758627200E-05
5    2.5000000000E-01    8.0000000000E-01    2.4278583000E-03    2.4963049300E-05
6    3.0000000000E-01    8.0000000000E-01    2.4372277000E-03    2.5171713900E-05
7    3.5000000000E-01    8.0000000000E-01    2.4465446000E-03    2.5383696800E-05
8    4.0000000000E-01    8.0000000000E-01    2.4559376000E-03    2.5598933900E-05
9    4.5000000000E-01    8.0000000000E-01    2.4654270000E-03    2.5817480600E-05
10    5.0000000000E-01    8.0000000000E-01    2.4750173000E-03    2.6039410300E-05
11    5.5000000000E-01    8.0000000000E-01    2.4847109000E-03    2.6264801300E-05
12    6.0000000000E-01    8.0000000000E-01    2.4945099000E-03    2.6493734300E-05
13    6.5000000000E-01    8.0000000000E-01    2.5044160000E-03    2.6726292800E-05
14    7.0000000000E-01    8.0000000000E-01    2.5144315000E-03    2.6962562900E-05
15    7.5000000000E-01    8.0000000000E-01    2.5245584000E-03    2.7202633500E-05
16    8.0000000000E-01    8.0000000000E-01    2.5347989000E-03    2.7446596500E-05
17    8.5000000000E-01    8.0000000000E-01    2.5451552000E-03    2.7694546500E-05
18    9.0000000000E-01    8.0000000000E-01    2.5556295000E-03    2.7946581600E-05
19    9.5000000000E-01    8.0000000000E-01    2.5662243000E-03    2.8202802900E-05
20    1.0000000000E+00    8.0000000000E-01    2.5769418000E-03    2.8463314900E-05
21    1.0500000000E+00    8.0000000000E-01    2.5877847000E-03    2.8728225900E-05
22    1.1000000000E+00    8.0000000000E-01    2.5987554000E-03    2.8997647700E-05
23    1.1500000000E+00    8.0000000000E-01    2.6098567000E-03    2.9271695900E-05
24    1.2000000000E+00    8.0000000000E-01    2.6210911000E-03    2.9550490300E-05
25    1.2500000000E+00    8.0000000000E-01    2.6324616000E-03    2.9834154800E-05
26    1.3000000000E+00    8.0000000000E-01    2.6439709000E-03    3.0122817700E-05
27    1.3500000000E+00    8.0000000000E-01    2.6556221000E-03    3.0416612200E-05
28    1.4000000000E+00    8.0000000000E-01    2.6674182000E-03    3.0715675700E-05
29    1.4500000000E+00    8.0000000000E-01    2.6793623000E-03    3.1020151300E-05
30    1.5000000000E+00    8.0000000000E-01    2.6914578000E-03    3.1330186900E-05
31    1.5500000000E+00    8.0000000000E-01    2.7037080000E-03    3.1645936200E-05
32    1.6000000000E+00    8.0000000000E-01    2.7161163000E-03    3.1967558400E-05
33    1.6500000000E+00    8.0000000000E-01    2.7286864000E-03    3.2295219100E-05
34    1.7000000000E+00    8.0000000000E-01    2.7414220000E-03    3.2629090000E-05
35    1.7500000000E+00    8.0000000000E-01    2.7543268000E-03    3.2969349600E-05
36    1.8000000000E+00    8.0000000000E-01    2.7674049000E-03    3.3316183300E-05
37    1.8500000000E+00    8.0000000000E-01    2.7806603000E-03    3.3669784000E-05
38    1.9000000000E+00    8.0000000000E-01    2.7940973000E-03    3.4030352100E-05
39    1.9500000000E+00    8.0000000000E-01    2.8077202000E-03    3.4398096400E-05
40    2.0000000000E+00    8.0000000000E-01    2.8215336000E-03    3.4773234000E-05
0    0.0000000000E+00    8.5000000000E-01    -5.1130539500E-05    1.8321694180E-04
1    5.0000000000E-02    8.5000000000E-01    7.0097958000E-03    1.2450383490E-04
2    1.0000000000E-01    8.5000000000E-01    9.6949952000E-03    1.1011523880E-04
3    1.5000000000E-01    8.5000000000E-01    1.0331586800E-02    1.1001646220E-04
4    2.0000000000E-01    8.5000000000E-01    1.0521925600E-02    1.1278849660E-04
5    2.5000000000E-01    8.5000000000E-01    1.0641808600E-02    1.1613311150E-04
6    3.0000000000E-01    8.5000000000E-01    1.0753147300E-02    1.1970051260E-04
7    3.5000000000E-01    8.5000000000E-01    1.0865573000E-02    1.2344788870E-04
8    4.0000000000E-01    8.5000000000E-01    1.0980664400E-02    1.2737859080E-04
9    4.5000000000E-01    8.5000000000E-01    1.1098771200E-02    1.3150356280E-04
10    5.0000000000E-01    8.5000000000E-01    1.1220059900E-02    1.3583575360E-04
11    5.5000000000E-01    8.5000000000E-01    1.1344674800E-02    1.4038938430E-04
12    6.0000000000E-01    8.5000000000E-01    1.1472763800E-02    1.4517994260E-04
13    6.5000000000E-01    8.5000000000E-01    1.1604482900E-02    1.5022429450E-04
14    7.0000000000E-01    8.5000000000E-01    1.1739997000E-02    1.5554083000E-04
15    7.5000000000E-01    8.5000000000E-01    1.1879481100E-02    1.6114962750E-04
16    8.0000000000E-01    8.5000000000E-01    1.2023120900E-02    1.6707264070E-04
17    8.5000000000E-01    8.5000000000E-01    1.2171113400E-02    1.7333390830E-04
18    9.0000000000E-01    8.5000000000E-01    1.2323667900E-02    1.7995979170E-04
19    9.5000000000E-01    8.5000000000E-01    1.2481006600E-02    1.8697924300E-04
20    1.0000000000E+00    8.5000000000E-01    1.2643365700E-02    1.9442410860E-04
21    1.0500000000E+00    8.5000000000E-01    1.2810996500E-02    2.0232947360E-04
22    1.1000000000E+00    8.5000000000E-01    1.2984165900E-02    2.1073405210E-04
23    1.1500000000E+00    8.5000000000E-01    1.3163157800E-02    2.1968063090E-04
24    1.2000000000E+00    8.5000000000E-01    1.3348273900E-02    2.2921657390E-04
25    1.2500000000E+00    8.5000000000E-01    1.3539834900E-02    2.3939439590E-04
26    1.3000000000E+00    8.5000000000E-01    1.3738181800E-02    2.5027241610E-04
27    1.3500000000E+00    8.5000000000E-01    1.3943676200E-02    2.6191550190E-04
28    1.4000000000E+00    8.5000000000E-01    1.4156701900E-02    2.7439591600E-04
29    1.4500000000E+00    8.5000000000E-01    1.4377665200E-02    2.8779428070E-04
30    1.5000000000E+00    8.5000000000E-01    1.4606995800E-02    3.0220067340E-04
31    1.5500000000E+00    8.5000000000E-01    1.4845146700E-02    3.1771587120E-04
32    1.6000000000E+00    8.5000000000E-01    1.5092594500E-02    3.3445275890E-04
33    1.6500000000E+00    8.5000000000E-01    1.5349838300E-02    3.5253791870E-04
34    1.7000000000E+00    8.5000000000E-01    1.5617398000E-02    3.7211341430E-04
