[Version] 2.0
# Hz Y RI R 50
[Number of Ports] 1
[Number of Frequencies] 60
[Reference] 50
[Network Data]
! This is not a "standard" Touchstone 2 file.  It also has the extra columns
! for the frequency-domain ISC data.
! Freq             ReY11          ImY11              ReIsc1        ImIsc1
   1.0000000e+07   2.8513140e-09   1.1740089e-04   7.282981259543946e-07 0.02147383240615873
   2.0000000e+07   4.6971346e-08   2.3753089e-04   0.0000000e+00   0.0000000e+00
   3.0000000e+07   2.4986966e-07   3.6338488e-04   0.0000000e+00   0.0000000e+00
   4.0000000e+07   8.4815823e-07   4.9854543e-04   0.0000000e+00   0.0000000e+00
   5.0000000e+07   2.2783227e-06   6.4763854e-04   0.0000000e+00   0.0000000e+00
   6.0000000e+07   5.3431296e-06   8.1705531e-04   0.0000000e+00   0.0000000e+00
   7.0000000e+07   1.1564672e-05   1.0161977e-03   0.0000000e+00   0.0000000e+00
   8.0000000e+07   2.3982832e-05   1.2598010e-03   0.0000000e+00   0.0000000e+00
   9.0000000e+07   4.9130992e-05   1.5726282e-03   0.0000000e+00   0.0000000e+00
   1.0000000e+08   1.0254880e-04   1.9998914e-03   0.0000000e+00   0.0000000e+00
   1.1000000e+08   2.2690008e-04   2.6331477e-03   0.0000000e+00   0.0000000e+00
   1.2000000e+08   5.6714610e-04   3.6830500e-03   0.0000000e+00   0.0000000e+00
   1.3000000e+08   1.8106012e-03   5.6771567e-03   0.0000000e+00   0.0000000e+00
   1.4000000e+08   8.5763332e-03   7.8566078e-03   0.0000000e+00   0.0000000e+00
   1.5000000e+08   9.8197339e-03  -5.3248412e-03   0               0
   1.6000000e+08   3.2058235e-03  -4.7446004e-03   0.0000000e+00   0.0000000e+00
   1.7000000e+08   1.5716290e-03  -3.2285763e-03   0.0000000e+00   0.0000000e+00
   1.8000000e+08   9.8829969e-04  -2.3424398e-03   0.0000000e+00   0.0000000e+00
   1.9000000e+08   7.1294104e-04  -1.7817490e-03   0.0000000e+00   0.0000000e+00
   2.0000000e+08   5.5915308e-04  -1.3926391e-03   0.0000000e+00   0.0000000e+00
   2.1000000e+08   4.6337269e-04  -1.1023866e-03   0.0000000e+00   0.0000000e+00
   2.2000000e+08   3.9905012e-04  -8.7337295e-04   0.0000000e+00   0.0000000e+00
   2.3000000e+08   3.5343067e-04  -6.8436028e-04   0.0000000e+00   0.0000000e+00
   2.4000000e+08   3.1973456e-04  -5.2243599e-04   0.0000000e+00   0.0000000e+00
   2.5000000e+08   2.9407609e-04  -3.7922971e-04   0.0000000e+00   0.0000000e+00
   2.6000000e+08   2.7410014e-04  -2.4898692e-04   0.0000000e+00   0.0000000e+00
   2.7000000e+08   2.5832276e-04  -1.2751434e-04   0.0000000e+00   0.0000000e+00
   2.8000000e+08   2.4579096e-04  -1.1561137e-05   0.0000000e+00   0.0000000e+00
   2.9000000e+08   2.3590009e-04   1.0157278e-04   0.0000000e+00   0.0000000e+00
   3.0000000e+08   2.2829649e-04   2.1430945e-04   0.0000000e+00   0.0000000e+00
   3.1000000e+08   2.2283243e-04   3.2900904e-04   0.0000000e+00   0.0000000e+00
   3.2000000e+08   2.1956026e-04   4.4817165e-04   0.0000000e+00   0.0000000e+00
   3.3000000e+08   2.1876586e-04   5.7466170e-04   0.0000000e+00   0.0000000e+00
   3.4000000e+08   2.2105538e-04   7.1199847e-04   0.0000000e+00   0.0000000e+00
   3.5000000e+08   2.2753089e-04   8.6477692e-04   0.0000000e+00   0.0000000e+00
   3.6000000e+08   2.4013465e-04   1.0393291e-03   0.0000000e+00   0.0000000e+00
   3.7000000e+08   2.6234340e-04   1.2448316e-03   0.0000000e+00   0.0000000e+00
   3.8000000e+08   3.0065092e-04   1.4952638e-03   0.0000000e+00   0.0000000e+00
   3.9000000e+08   3.6799497e-04   1.8130550e-03   0.0000000e+00   0.0000000e+00
   4.0000000e+08   4.9252434e-04   2.2361528e-03   0.0000000e+00   0.0000000e+00
   4.1000000e+08   7.4309466e-04   2.8315623e-03   0.0000000e+00   0.0000000e+00
   4.2000000e+08   1.3158131e-03   3.7132730e-03   0.0000000e+00   0.0000000e+00
   4.3000000e+08   2.8679562e-03   4.9496952e-03   0.0000000e+00   0.0000000e+00
   4.4000000e+08   7.1800508e-03   4.8885501e-03   0.0000000e+00   0.0000000e+00
   4.5000000e+08   8.9338925e-03  -1.7926499e-03   0.0000000e+00   0.0000000e+00
   4.6000000e+08   4.5301952e-03  -3.9431612e-03   0.0000000e+00   0.0000000e+00
   4.7000000e+08   2.4036271e-03  -3.1972586e-03   0.0000000e+00   0.0000000e+00
   4.8000000e+08   1.5219573e-03  -2.4474070e-03   0.0000000e+00   0.0000000e+00
   4.9000000e+08   1.0926371e-03  -1.9012843e-03   0.0000000e+00   0.0000000e+00
   5.0000000e+08   8.5276624e-04  -1.5009595e-03   0.0000000e+00   0.0000000e+00
   5.1000000e+08   7.0462819e-04  -1.1950330e-03   0.0000000e+00   0.0000000e+00
   5.2000000e+08   6.0618830e-04  -9.5111585e-04   0.0000000e+00   0.0000000e+00
   5.3000000e+08   5.3709084e-04  -7.4913440e-04   0.0000000e+00   0.0000000e+00
   5.4000000e+08   4.8652928e-04  -5.7623926e-04   0.0000000e+00   0.0000000e+00
   5.5000000e+08   4.4834283e-04  -4.2384752e-04   0.0000000e+00   0.0000000e+00
   5.6000000e+08   4.1882151e-04  -2.8596063e-04   0.0000000e+00   0.0000000e+00
   5.7000000e+08   3.9564004e-04  -1.5818168e-04   0.0000000e+00   0.0000000e+00
   5.8000000e+08   3.7730622e-04  -3.7115845e-05   0.0000000e+00   0.0000000e+00
   5.9000000e+08   3.6286241e-04   8.0015876e-05   0.0000000e+00   0.0000000e+00
   6.0000000e+08   3.5172189e-04   1.9564429e-04   0.0000000e+00   0.0000000e+00
