# Hz Y RI R 50
! This is not a "standard" Touchstone 1 file.  It also has the extra columns
! for the frequency-domain ISC data.
!Freq              ReY11             ImY11             ReY12           ImY12           ReY21           ImY21           ReY22           ImY22
!                  ReIsc1            ImIsc1            ReIsc2          ImIsc2
   0.0000000e+00   0.0000000e+00   0.0000000e+00   0.0000000e+00   0.0000000e+00   0.0000000e+00   0.0000000e+00   0.0000000e+00   0.0000000e+00
                   0.0000000e+00   0.0000000e+00   0.0000000e+00   0.0000000e+00
   1.0000000e+07   1.3143197e-10   2.8177829e-05   1.3137522e-10   1.4011716e-06   1.3137543e-10   1.4011749e-06   1.3143215e-10   2.8177825e-05
                   1.5634726e-07   4.6106324e-03   1.5634726e-07   4.6106324e-03
   2.0000000e+07   2.1546029e-09   5.6480766e-05   2.1509632e-09   2.8751222e-06   2.1509666e-09   2.8751290e-06   2.1546059e-09   5.6480759e-05
                   0.0000000e+00   0.0000000e+00   0.0000000e+00   0.0000000e+00
   3.0000000e+07   1.1368127e-08   8.5042886e-05   1.1326503e-08   4.5025410e-06   1.1326521e-08   4.5025515e-06   1.1368143e-08   8.5042875e-05
                   0.0000000e+00   0.0000000e+00   0.0000000e+00   0.0000000e+00
   4.0000000e+07   3.8143710e-08   1.1401799e-04   3.7908494e-08   6.3816859e-06   3.7908554e-08   6.3817008e-06   3.8143764e-08   1.1401797e-04
                   0.0000000e+00   0.0000000e+00   0.0000000e+00   0.0000000e+00
   5.0000000e+07   1.0092902e-07   1.4359460e-04   1.0002488e-07   8.6421976e-06   1.0002504e-07   8.6422175e-06   1.0092917e-07   1.4359459e-04
                   0.0000000e+00   0.0000000e+00   0.0000000e+00   0.0000000e+00
   6.0000000e+07   2.3231625e-07   1.7401941e-04   2.2959026e-07   1.1467190e-05   2.2959064e-07   1.1467216e-05   2.3231660e-07   1.7401939e-04
                   0.0000000e+00   0.0000000e+00   0.0000000e+00   0.0000000e+00
   7.0000000e+07   4.9165996e-07   2.0563718e-04   4.8470356e-07   1.5131650e-05   4.8470436e-07   1.5131684e-05   4.9166072e-07   2.0563717e-04
                   0.0000000e+00   0.0000000e+00   0.0000000e+00   0.0000000e+00
   8.0000000e+07   9.9306374e-07   2.3896455e-04   9.7733790e-07   2.0074329e-05   9.7733956e-07   2.0074374e-05   9.9306534e-07   2.3896454e-04
                   0.0000000e+00   0.0000000e+00   0.0000000e+00   0.0000000e+00
   9.0000000e+07   1.9733822e-06   2.7483780e-04   1.9409449e-06   2.7043301e-05   1.9409482e-06   2.7043361e-05   1.9733855e-06   2.7483780e-04
                   0.0000000e+00   0.0000000e+00   0.0000000e+00   0.0000000e+00
   1.0000000e+08   3.9787882e-06   3.1473867e-04   3.9164849e-06   3.7418846e-05   3.9164917e-06   3.7418927e-05   3.9787952e-06   3.1473869e-04
                   0.0000000e+00   0.0000000e+00   0.0000000e+00   0.0000000e+00
   1.1000000e+08   8.4682080e-06   3.6159690e-04   8.3551250e-06   5.4012351e-05   8.3551400e-06   5.4012465e-05   8.4682238e-06   3.6159695e-04
                   0.0000000e+00   0.0000000e+00   0.0000000e+00   0.0000000e+00
   1.2000000e+08   2.0277489e-05   4.2201505e-04   2.0081377e-05   8.3286212e-05   2.0081414e-05   8.3286385e-05   2.0277529e-05   4.2201516e-04
                   0.0000000e+00   0.0000000e+00   0.0000000e+00   0.0000000e+00
   1.3000000e+08   6.1788212e-05   5.1205158e-04   6.1460431e-05   1.4113038e-04   6.1460546e-05   1.4113067e-04   6.1788343e-05   5.1205182e-04
                   0.0000000e+00   0.0000000e+00   0.0000000e+00   0.0000000e+00
   1.4000000e+08   2.7857198e-04   6.0263272e-04   2.7804029e-04   1.9826525e-04   2.7804083e-04   1.9826566e-04   2.7857261e-04   6.0263312e-04
                   0.0000000e+00   0.0000000e+00   0.0000000e+00   0.0000000e+00
   1.5000000e+08   3.0326909e-04   2.1346204e-04   3.0242707e-04  -2.2586149e-04   3.0242767e-04  -2.2586190e-04   3.0326983e-04   2.1346144e-04
                   0.0000000e+00   0.0000000e+00   0.0000000e+00   0.0000000e+00
   1.6000000e+08   9.4330702e-05   2.7038119e-04   9.3022118e-05  -2.0573168e-04   9.3022309e-05  -2.0573206e-04   9.4330949e-05   2.7038061e-04
                   0.0000000e+00   0.0000000e+00   0.0000000e+00   0.0000000e+00
   1.7000000e+08   4.4387449e-05   3.5280567e-04   4.2382591e-05  -1.6234786e-04   4.2382681e-05  -1.6234815e-04   4.4387573e-05   3.5280518e-04
                   0.0000000e+00   0.0000000e+00   0.0000000e+00   0.0000000e+00
   1.8000000e+08   2.7226042e-05   4.1579193e-04   2.4184262e-05  -1.4120558e-04   2.4184317e-05  -1.4120582e-04   2.7226121e-05   4.1579148e-04
                   0.0000000e+00   0.0000000e+00   0.0000000e+00   0.0000000e+00
   1.9000000e+08   1.9727085e-05   4.7022399e-04   1.5136154e-05  -1.3216829e-04   1.5136191e-05  -1.3216851e-04   1.9727143e-05   4.7022357e-04
                   0.0000000e+00   0.0000000e+00   0.0000000e+00   0.0000000e+00
   2.0000000e+08   1.6293565e-05   5.2174520e-04   9.3671883e-06  -1.3063429e-04   9.3672158e-06  -1.3063451e-04   1.6293611e-05   5.2174478e-04
                   0.0000000e+00   0.0000000e+00   0.0000000e+00   0.0000000e+00
   2.1000000e+08   1.5222823e-05   5.7352505e-04   4.7192095e-06  -1.3493419e-04   4.7192298e-06  -1.3493440e-04   1.5222861e-05   5.7352462e-04
                   0.0000000e+00   0.0000000e+00   0.0000000e+00   0.0000000e+00
   2.2000000e+08   1.6116917e-05   6.2795831e-04  -8.0880230e-10  -1.4491808e-04  -7.9448638e-10  -1.4491830e-04   1.6116950e-05   6.2795786e-04
                   0.0000000e+00   0.0000000e+00   0.0000000e+00   0.0000000e+00
   2.3000000e+08   1.9338206e-05   6.8754855e-04  -5.9058331e-06  -1.6159738e-04  -5.9058252e-06  -1.6159761e-04   1.9338232e-05   6.8754807e-04
                   0.0000000e+00   0.0000000e+00   0.0000000e+00   0.0000000e+00
   2.4000000e+08   2.6172224e-05   7.5568517e-04  -1.4668572e-05  -1.8738987e-04  -1.4668572e-05  -1.8739012e-04   2.6172243e-05   7.5568465e-04
                   0.0000000e+00   0.0000000e+00   0.0000000e+00   0.0000000e+00
   2.5000000e+08   3.9794606e-05   8.3782735e-04  -2.9674059e-05  -2.2705195e-04  -2.9674073e-05  -2.2705225e-04   3.9794613e-05   8.3782678e-04
                   0.0000000e+00   0.0000000e+00   0.0000000e+00   0.0000000e+00
   2.6000000e+08   6.8474312e-05   9.4386165e-04  -5.9303361e-05  -2.8990451e-04  -5.9303401e-05  -2.8990487e-04   6.8474293e-05   9.4386099e-04
                   0.0000000e+00   0.0000000e+00   0.0000000e+00   0.0000000e+00
   2.7000000e+08   1.3758501e-04   1.0926117e-03  -1.2898202e-04  -3.9426547e-04  -1.2898212e-04  -3.9426593e-04   1.3758492e-04   1.0926109e-03
                   0.0000000e+00   0.0000000e+00   0.0000000e+00   0.0000000e+00
   2.8000000e+08   3.4477731e-04   1.3063838e-03  -3.3636903e-04  -5.6194363e-04  -3.3636932e-04  -5.6194427e-04   3.4477701e-04   1.3063828e-03
                   0.0000000e+00   0.0000000e+00   0.0000000e+00   0.0000000e+00
   2.9000000e+08   1.0207812e-03   1.3093100e-03  -1.0121647e-03  -5.1654048e-04  -1.0121656e-03  -5.1654112e-04   1.0207801e-03   1.3093089e-03
                   0.0000000e+00   0.0000000e+00   0.0000000e+00   0.0000000e+00
   3.0000000e+08   1.0303417e-03   2.8228997e-04  -1.0210461e-03   5.6164720e-04  -1.0210471e-03   5.6164759e-04   1.0303404e-03   2.8229011e-04
                   0.0000000e+00   0.0000000e+00   0.0000000e+00   0.0000000e+00
   3.1000000e+08   4.1428914e-04   2.5065214e-04  -4.0372570e-04   6.4801675e-04  -4.0372612e-04   6.4801724e-04   4.1428855e-04   2.5065247e-04
                   0.0000000e+00   0.0000000e+00   0.0000000e+00   0.0000000e+00
   3.2000000e+08   2.0344955e-04   4.3247406e-04  -1.9084242e-04   5.2539239e-04  -1.9084264e-04   5.2539277e-04   2.0344923e-04   4.3247428e-04
                   0.0000000e+00   0.0000000e+00   0.0000000e+00   0.0000000e+00
   3.3000000e+08   1.2365118e-04   5.7624064e-04  -1.0793820e-04   4.4645466e-04  -1.0793834e-04   4.4645495e-04   1.2365096e-04   5.7624077e-04
                   0.0000000e+00   0.0000000e+00   0.0000000e+00   0.0000000e+00
   3.4000000e+08   8.7184677e-05   6.9161269e-04  -6.6858665e-05   4.0309703e-04  -6.6858757e-05   4.0309727e-04   8.7184509e-05   6.9161279e-04
                   0.0000000e+00   0.0000000e+00   0.0000000e+00   0.0000000e+00
   3.5000000e+08   6.9110454e-05   7.9298798e-04  -4.1957130e-05   3.8306041e-04  -4.1957202e-05   3.8306061e-04   6.9110311e-05   7.9298807e-04
                   0.0000000e+00   0.0000000e+00   0.0000000e+00   0.0000000e+00
   3.6000000e+08   6.1008865e-05   8.8950393e-04  -2.3652102e-05   3.8024886e-04  -2.3652163e-05   3.8024904e-04   6.1008736e-05   8.8950404e-04
                   0.0000000e+00   0.0000000e+00   0.0000000e+00   0.0000000e+00
   3.7000000e+08   6.0076324e-05   9.8769434e-04  -7.1440925e-06   3.9261330e-04  -7.1441466e-06   3.9261345e-04   6.0076202e-05   9.8769450e-04
                   0.0000000e+00   0.0000000e+00   0.0000000e+00   0.0000000e+00
   3.8000000e+08   6.6306667e-05   1.0935634e-03   1.1200729e-05   4.2103592e-04   1.1200677e-05   4.2103606e-04   6.6306551e-05   1.0935637e-03
                   0.0000000e+00   0.0000000e+00   0.0000000e+00   0.0000000e+00
   3.9000000e+08   8.2286365e-05   1.2142796e-03   3.5877350e-05   4.6941286e-04   3.5877296e-05   4.6941298e-04   8.2286260e-05   1.2142800e-03
                   0.0000000e+00   0.0000000e+00   0.0000000e+00   0.0000000e+00
   4.0000000e+08   1.1505535e-04   1.3602879e-03   7.4991559e-05   5.4594433e-04   7.4991498e-05   5.4594443e-04   1.1505528e-04   1.3602886e-03
                   0.0000000e+00   0.0000000e+00   0.0000000e+00   0.0000000e+00
   4.1000000e+08   1.8253786e-04   1.5486992e-03   1.4708399e-04   6.6608024e-04   1.4708391e-04   6.6608033e-04   1.8253787e-04   1.5487002e-03
                   0.0000000e+00   0.0000000e+00   0.0000000e+00   0.0000000e+00
   4.2000000e+08   3.3564341e-04   1.8070452e-03   3.0341877e-04   8.5601957e-04   3.0341866e-04   8.5601963e-04   3.3564369e-04   1.8070470e-03
                   0.0000000e+00   0.0000000e+00   0.0000000e+00   0.0000000e+00
   4.3000000e+08   7.4211774e-04   2.1462427e-03   7.1192788e-04   1.1255123e-03   7.1192769e-04   1.1255124e-03   7.4211895e-04   2.1462456e-03
                   0.0000000e+00   0.0000000e+00   0.0000000e+00   0.0000000e+00
   4.4000000e+08   1.8368567e-03   2.1276825e-03   1.8075707e-03   1.0348352e-03   1.8075704e-03   1.0348353e-03   1.8368613e-03   2.1276862e-03
                   0.0000000e+00   0.0000000e+00   0.0000000e+00   0.0000000e+00
   4.5000000e+08   2.2107159e-03   4.5592074e-04   2.1811575e-03  -7.1261220e-04   2.1811573e-03  -7.1261175e-04   2.2107234e-03   4.5591957e-04
                   0.0000000e+00   0.0000000e+00   0.0000000e+00   0.0000000e+00
   4.6000000e+08   1.0684479e-03   5.0780675e-06   1.0372848e-03  -1.2439889e-03   1.0372848e-03  -1.2439885e-03   1.0684525e-03   5.0740946e-06
                   0.0000000e+00   0.0000000e+00   0.0000000e+00   0.0000000e+00
   4.7000000e+08   5.3698163e-04   2.6990613e-04   5.0259774e-04  -1.0660593e-03   5.0259778e-04  -1.0660589e-03   5.3698446e-04   2.6990208e-04
                   0.0000000e+00   0.0000000e+00   0.0000000e+00   0.0000000e+00
   4.8000000e+08   3.2308579e-04   5.2710891e-04   2.8339384e-04  -9.0400105e-04   2.8339390e-04  -9.0400071e-04   3.2308780e-04   5.2710506e-04
                   0.0000000e+00   0.0000000e+00   0.0000000e+00   0.0000000e+00
   4.9000000e+08   2.2342321e-04   7.3364602e-04   1.7558911e-04  -8.0328580e-04   1.7558919e-04  -8.0328547e-04   2.2342479e-04   7.3364229e-04
                   0.0000000e+00   0.0000000e+00   0.0000000e+00   0.0000000e+00
   5.0000000e+08   1.7237984e-04   9.0873853e-04   1.1238300e-04  -7.4795313e-04   1.1238309e-04  -7.4795280e-04   1.7238117e-04   9.0873483e-04
                   0.0000000e+00   0.0000000e+00   0.0000000e+00   0.0000000e+00
   5.1000000e+08   1.4663788e-04   1.0688168e-03   6.8529221e-05  -7.2610191e-04   6.8529336e-05  -7.2610157e-04   1.4663904e-04   1.0688131e-03
                   0.0000000e+00   0.0000000e+00   0.0000000e+00   0.0000000e+00
   5.2000000e+08   1.3749376e-04   1.2258845e-03   3.2073666e-05  -7.3224540e-04   3.2073808e-05  -7.3224503e-04   1.3749479e-04   1.2258807e-03
                   0.0000000e+00   0.0000000e+00   0.0000000e+00   0.0000000e+00
   5.3000000e+08   1.4287627e-04   1.3901995e-03  -4.8078175e-06  -7.6585412e-04  -4.8076384e-06  -7.6585372e-04   1.4287719e-04   1.3901955e-03
                   0.0000000e+00   0.0000000e+00   0.0000000e+00   0.0000000e+00
   5.4000000e+08   1.6560929e-04   1.5727750e-03  -5.0128822e-05  -8.3100315e-04  -5.0128589e-05  -8.3100271e-04   1.6561008e-04   1.5727707e-03
                   0.0000000e+00   0.0000000e+00   0.0000000e+00   0.0000000e+00
   5.5000000e+08   2.1528353e-04   1.7880905e-03  -1.1639190e-04  -9.3746779e-04  -1.1639158e-04  -9.3746729e-04   2.1528415e-04   1.7880860e-03
                   0.0000000e+00   0.0000000e+00   0.0000000e+00   0.0000000e+00
   5.6000000e+08   3.1592261e-04   2.0576493e-03  -2.2933185e-04  -1.1033700e-03  -2.2933140e-04  -1.1033694e-03   3.1592293e-04   2.0576444e-03
                   0.0000000e+00   0.0000000e+00   0.0000000e+00   0.0000000e+00
   5.7000000e+08   5.3032290e-04   2.4123595e-03  -4.5277281e-04  -1.3570261e-03  -4.5277211e-04  -1.3570255e-03   5.3032270e-04   2.4123541e-03
                   0.0000000e+00   0.0000000e+00   0.0000000e+00   0.0000000e+00
   5.8000000e+08   1.0399792e-03   2.8636203e-03  -9.6881613e-04  -1.7077028e-03  -9.6881497e-04  -1.7077021e-03   1.0399779e-03   2.8636146e-03
                   0.0000000e+00   0.0000000e+00   0.0000000e+00   0.0000000e+00
   5.9000000e+08   2.3087087e-03   3.0668736e-03  -2.2416005e-03  -1.8089452e-03  -2.2415985e-03  -1.8089450e-03   2.3087055e-03   3.0668687e-03
                   0.0000000e+00   0.0000000e+00   0.0000000e+00   0.0000000e+00
   6.0000000e+08   3.6676756e-03   1.3274022e-03  -3.6023932e-03   3.5789751e-05  -3.6023911e-03   3.5788245e-05   3.6676722e-03   1.3274011e-03
                   0.0000000e+00   0.0000000e+00   0.0000000e+00   0.0000000e+00
   6.1000000e+08   2.3575512e-03  -2.9265059e-04  -2.2917717e-03   1.7662601e-03  -2.2917712e-03   1.7662581e-03   2.3575517e-03  -2.9265075e-04
                   0.0000000e+00   0.0000000e+00   0.0000000e+00   0.0000000e+00
   6.2000000e+08   1.2131097e-03  -1.7013785e-04  -1.1442030e-03   1.7614360e-03  -1.1442032e-03   1.7614345e-03   1.2131123e-03  -1.7013970e-04
                   0.0000000e+00   0.0000000e+00   0.0000000e+00   0.0000000e+00
   6.3000000e+08   7.1040170e-04   2.0380527e-04  -6.3516959e-04   1.5149547e-03  -6.3517010e-04   1.5149536e-03   7.1040500e-04   2.0380188e-04
                   0.0000000e+00   0.0000000e+00   0.0000000e+00   0.0000000e+00
   6.4000000e+08   4.7565678e-04   5.2963801e-04  -3.8996548e-04   1.3294664e-03  -3.8996610e-04   1.3294656e-03   4.7566054e-04   5.2963333e-04
                   0.0000000e+00   0.0000000e+00   0.0000000e+00   0.0000000e+00
   6.5000000e+08   3.5440246e-04   8.0219740e-04  -2.5262341e-04   1.2141639e-03  -2.5262409e-04   1.2141632e-03   3.5440663e-04   8.0219147e-04
                   0.0000000e+00   0.0000000e+00   0.0000000e+00   0.0000000e+00
   6.6000000e+08   2.8928100e-04   1.0426805e-03  -1.6338659e-04   1.1532699e-03  -1.6338734e-04   1.1532694e-03   2.8928561e-04   1.0426733e-03
                   0.0000000e+00   0.0000000e+00   0.0000000e+00   0.0000000e+00
   6.7000000e+08   2.5758270e-04   1.2692598e-03  -9.5600017e-05   1.1361601e-03  -9.5600860e-05   1.1361597e-03   2.5758779e-04   1.2692511e-03
                   0.0000000e+00   0.0000000e+00   0.0000000e+00   0.0000000e+00
   6.8000000e+08   2.5103788e-04   1.4968454e-03  -3.4252582e-05   1.1587961e-03  -3.4253534e-05   1.1587959e-03   2.5104354e-04   1.4968348e-03
                   0.0000000e+00   0.0000000e+00   0.0000000e+00   0.0000000e+00
   6.9000000e+08   2.6968925e-04   1.7397343e-03   3.2734216e-05   1.2230599e-03   3.2733121e-05   1.2230599e-03   2.6969556e-04   1.7397214e-03
                   0.0000000e+00   0.0000000e+00   0.0000000e+00   0.0000000e+00
   7.0000000e+08   3.2181627e-04   2.0145085e-03   1.2032593e-04   1.3371388e-03   1.2032465e-04   1.3371390e-03   3.2182327e-04   2.0144925e-03
                   0.0000000e+00   0.0000000e+00   0.0000000e+00   0.0000000e+00
   7.1000000e+08   4.2960198e-04   2.3432853e-03   2.5462629e-04   1.5172230e-03   2.5462477e-04   1.5172235e-03   4.2960959e-04   2.3432649e-03
                   0.0000000e+00   0.0000000e+00   0.0000000e+00   0.0000000e+00
   7.2000000e+08   6.4705765e-04   2.7559940e-03   4.9203032e-04   1.7888415e-03   4.9202849e-04   1.7888427e-03   6.4706537e-04   2.7559671e-03
                   0.0000000e+00   0.0000000e+00   0.0000000e+00   0.0000000e+00
   7.3000000e+08   1.1129005e-03   3.2763687e-03   9.7272396e-04   2.1722699e-03   9.7272184e-04   2.1722722e-03   1.1129063e-03   3.2763315e-03
                   0.0000000e+00   0.0000000e+00   0.0000000e+00   0.0000000e+00
   7.4000000e+08   2.1828617e-03   3.7740229e-03   2.0533188e-03   2.5342235e-03   2.0533169e-03   2.5342278e-03   2.1828575e-03   3.7739698e-03
                   0.0000000e+00   0.0000000e+00   0.0000000e+00   0.0000000e+00
   7.5000000e+08   4.1960906e-03   3.1525139e-03   4.0734283e-03   1.7756596e-03   4.0734294e-03   1.7756666e-03   4.1960537e-03   3.1524501e-03
                   0.0000000e+00   0.0000000e+00   0.0000000e+00   0.0000000e+00
   7.6000000e+08   4.5449358e-03   3.5279729e-04   4.4255594e-03  -1.1649661e-03   4.4255657e-03  -1.1649609e-03   4.5448664e-03   3.5276681e-04
                   0.0000000e+00   0.0000000e+00   0.0000000e+00   0.0000000e+00
   7.7000000e+08   2.7026556e-03  -7.3013268e-04   2.5828417e-03  -2.3953073e-03   2.5828486e-03  -2.3953063e-03   2.7025984e-03  -7.3013078e-04
                   0.0000000e+00   0.0000000e+00   0.0000000e+00   0.0000000e+00
   7.8000000e+08   1.5362991e-03  -4.5121907e-04   1.4118208e-03  -2.2732377e-03   1.4118267e-03  -2.2732388e-03   1.5362584e-03  -4.5120872e-04
                   0.0000000e+00   0.0000000e+00   0.0000000e+00   0.0000000e+00
   7.9000000e+08   9.7681981e-04  -7.6513578e-06   8.4255078e-04  -1.9993720e-03   8.4255569e-04  -1.9993740e-03   9.7678947e-04  -7.6404981e-06
                   0.0000000e+00   0.0000000e+00   0.0000000e+00   0.0000000e+00
   8.0000000e+08   6.9176516e-04   3.8710264e-04   5.4110815e-04  -1.7914173e-03   5.4111250e-04  -1.7914199e-03   6.9174110e-04   3.8711199e-04
                   0.0000000e+00   0.0000000e+00   0.0000000e+00   0.0000000e+00
   8.1000000e+08   5.3600445e-04   7.2827831e-04   3.6001347e-04  -1.6596007e-03   3.6001746e-04  -1.6596038e-03   5.3598440e-04   7.2828562e-04
                   0.0000000e+00   0.0000000e+00   0.0000000e+00   0.0000000e+00
   8.2000000e+08   4.4992171e-04   1.0361750e-03   2.3588317e-04  -1.5909143e-03   2.3588696e-04  -1.5909180e-03   4.4990435e-04   1.0361800e-03
                   0.0000000e+00   0.0000000e+00   0.0000000e+00   0.0000000e+00
   8.3000000e+08   4.0845393e-04   1.3302820e-03   1.3746923e-04  -1.5759208e-03   1.3747291e-04  -1.5759252e-03   4.0843839e-04   1.3302846e-03
                   0.0000000e+00   0.0000000e+00   0.0000000e+00   0.0000000e+00
   8.4000000e+08   4.0276232e-04   1.6279386e-03   4.5399329e-05  -1.6115508e-03   4.5402958e-05  -1.6115560e-03   4.0274795e-04   1.6279384e-03
                   0.0000000e+00   0.0000000e+00   0.0000000e+00   0.0000000e+00
   8.5000000e+08   4.3463372e-04   1.9465506e-03  -5.7371329e-05  -1.7011612e-03  -5.7367737e-05  -1.7011675e-03   4.3461994e-04   1.9465470e-03
                   0.0000000e+00   0.0000000e+00   0.0000000e+00   0.0000000e+00
   8.6000000e+08   5.1756132e-04   2.3063316e-03  -1.9311163e-04  -1.8551159e-03  -1.9310813e-04  -1.8551238e-03   5.1754742e-04   2.3063239e-03
