Index        TIME            V(2827)           V(6)            V(2843)          V(2652)          V(2757)
0       0.00000000e+00   8.84208034e-01   0.00000000e+00   0.00000000e+00   3.30000000e+00   3.30000000e+00   
1       5.00000000e-12   8.84208529e-01   1.65000000e-02   0.00000000e+00   3.30000000e+00   3.30000000e+00   
2       1.50000000e-11   8.84209590e-01   4.95000000e-02   0.00000000e+00   3.30000000e+00   3.30000000e+00   
3       3.50000000e-11   8.84211804e-01   1.15500000e-01   0.00000000e+00   3.30000000e+00   3.30000000e+00   
4       7.50000000e-11   8.84216625e-01   2.47500000e-01   0.00000000e+00   3.30000000e+00   3.30000000e+00   
5       1.55000000e-10   8.84226899e-01   5.11500000e-01   0.00000000e+00   3.30000000e+00   3.30000000e+00   
6       3.15000000e-10   8.84247458e-01   1.03950000e+00   0.00000000e+00   3.30000000e+00   3.30000000e+00   
7       6.35000000e-10   8.84285704e-01   2.09550000e+00   0.00000000e+00   3.30000000e+00   3.30000000e+00   
8       9.55000000e-10   8.84320315e-01   3.15150000e+00   0.00000000e+00   3.30000000e+00   3.30000000e+00   
9       1.00000000e-09   8.84324922e-01   3.30000000e+00   0.00000000e+00   3.30000000e+00   3.30000000e+00   
10      1.03200000e-09   8.84328127e-01   3.30000000e+00   0.00000000e+00   3.30000000e+00   3.30000000e+00   
11      1.06400000e-09   8.84331304e-01   3.30000000e+00   0.00000000e+00   3.30000000e+00   3.30000000e+00   
12      1.12800000e-09   8.84337601e-01   3.30000000e+00   0.00000000e+00   3.30000000e+00   3.30000000e+00   
13      1.25600000e-09   8.84349872e-01   3.30000000e+00   0.00000000e+00   3.30000000e+00   3.30000000e+00   
14      1.51200000e-09   8.84373192e-01   3.30000000e+00   0.00000000e+00   3.30000000e+00   3.30000000e+00   
15      2.02400000e-09   8.84415292e-01   3.30000000e+00   0.00000000e+00   3.30000000e+00   3.30000000e+00   
16      2.53600000e-09   8.84450829e-01   3.30000000e+00   0.00000000e+00   3.30000000e+00   3.30000000e+00   
17      3.04800000e-09   8.84478192e-01   3.30000000e+00   0.00000000e+00   3.30000000e+00   3.30000000e+00   
18      3.56000000e-09   8.84503500e-01   3.30000000e+00   0.00000000e+00   3.30000000e+00   3.30000000e+00   
19      4.07200000e-09   8.84570919e-01   3.30000000e+00   0.00000000e+00   3.30000000e+00   3.30000000e+00   
20      4.13983949e-09   8.84586701e-01   3.30000000e+00   0.00000000e+00   3.30000000e+00   3.30000000e+00   
21      4.20767897e-09   8.84603416e-01   3.30000000e+00   0.00000000e+00   3.30000000e+00   3.30000000e+00   
22      4.34335795e-09   8.84641911e-01   3.30000000e+00   0.00000000e+00   3.30000000e+00   3.30000000e+00   
23      4.47903692e-09   8.84686709e-01   3.30000000e+00   0.00000000e+00   3.30000000e+00   3.30000000e+00   
24      4.61471589e-09   8.84736624e-01   3.30000000e+00   0.00000000e+00   3.30000000e+00   3.30000000e+00   
25      4.75039487e-09   8.84789484e-01   3.30000000e+00   0.00000000e+00   3.30000000e+00   3.30000000e+00   
26      4.88607384e-09   8.84842492e-01   3.30000000e+00   0.00000000e+00   3.30000000e+00   3.30000000e+00   
27      5.02175281e-09   8.84892878e-01   3.30000000e+00   0.00000000e+00   3.30000000e+00   3.30000000e+00   
28      5.15743179e-09   8.84938103e-01   3.30000000e+00   0.00000000e+00   3.30000000e+00   3.30000000e+00   
29      5.29311076e-09   8.84975897e-01   3.30000000e+00   0.00000000e+00   3.30000000e+00   3.30000000e+00   
30      5.42878973e-09   8.85004416e-01   3.30000000e+00   0.00000000e+00   3.30000000e+00   3.30000000e+00   
31      5.70014768e-09   8.85027814e-01   3.30000000e+00   0.00000000e+00   3.30000000e+00   3.30000000e+00   
32      5.97150563e-09   8.84997436e-01   3.30000000e+00   0.00000000e+00   3.30000000e+00   3.30000000e+00   
33      6.24286358e-09   8.84899601e-01   3.30000000e+00   0.00000000e+00   3.30000000e+00   3.30000000e+00   
34      6.51422152e-09   8.84737090e-01   3.30000000e+00   0.00000000e+00   3.30000000e+00   3.30000000e+00   
35      6.78557947e-09   8.84531018e-01   3.30000000e+00   0.00000000e+00   3.30000000e+00   3.30000000e+00   
36      7.05693742e-09   8.84301403e-01   3.30000000e+00   0.00000000e+00   3.30000000e+00   3.30000000e+00   
37      7.32829536e-09   8.84064617e-01   3.30000000e+00   0.00000000e+00   3.30000000e+00   3.30000000e+00   
38      7.59965331e-09   8.83833333e-01   3.30000000e+00   0.00000000e+00   3.30000000e+00   3.30000000e+00   
39      7.87101126e-09   8.83612603e-01   3.30000000e+00   0.00000000e+00   3.30000000e+00   3.30000000e+00   
40      8.14236920e-09   8.83420551e-01   3.30000000e+00   0.00000000e+00   3.30000000e+00   3.30000000e+00   
41      8.41372715e-09   8.83278414e-01   3.30000000e+00   0.00000000e+00   3.30000000e+00   3.30000000e+00   
42      8.68508510e-09   8.83183534e-01   3.30000000e+00   0.00000000e+00   3.30000000e+00   3.30000000e+00   
43      8.95644304e-09   8.83128910e-01   3.30000000e+00   0.00000000e+00   3.30000000e+00   3.30000000e+00   
44      9.22780099e-09   8.83107214e-01   3.30000000e+00   0.00000000e+00   3.30000000e+00   3.30000000e+00   
45      9.49915894e-09   8.83111823e-01   3.30000000e+00   0.00000000e+00   3.30000000e+00   3.30000000e+00   
46      9.77051689e-09   8.83136953e-01   3.30000000e+00   0.00000000e+00   3.30000000e+00   3.30000000e+00   
47      1.00418748e-08   8.83177665e-01   3.30000000e+00   0.00000000e+00   3.30000000e+00   3.30000000e+00   
48      1.05845907e-08   8.83288762e-01   3.30000000e+00   0.00000000e+00   3.30000000e+00   3.30000000e+00   
49      1.16700225e-08   8.83558080e-01   3.30000000e+00   0.00000000e+00   3.30000000e+00   3.30000000e+00   
50      1.38408861e-08   8.84042014e-01   3.30000000e+00   0.00000000e+00   3.30000000e+00   3.30000000e+00   
51      1.57946633e-08   8.84324279e-01   3.30000000e+00   0.00000000e+00   3.30000000e+00   3.30000000e+00   
52      1.77484405e-08   8.84483656e-01   3.30000000e+00   0.00000000e+00   3.30000000e+00   3.30000000e+00   
53      1.97022177e-08   8.84570993e-01   3.30000000e+00   0.00000000e+00   3.30000000e+00   3.30000000e+00   
54      2.36097722e-08   8.84646593e-01   3.30000000e+00   0.00000000e+00   3.30000000e+00   3.30000000e+00   
55      3.14248810e-08   8.84672258e-01   3.30000000e+00   0.00000000e+00   3.30000000e+00   3.30000000e+00   
56      4.70550988e-08   8.84669403e-01   3.30000000e+00   0.00000000e+00   3.30000000e+00   3.30000000e+00   
57      5.10000000e-08   8.84674745e-01   3.30000000e+00   0.00000000e+00   3.30000000e+00   3.30000000e+00   
58      5.11000000e-08   8.84674707e-01   2.97000000e+00   0.00000000e+00   3.30000000e+00   3.30000000e+00   
59      5.12000000e-08   8.84674710e-01   2.64000000e+00   0.00000000e+00   3.30000000e+00   3.30000000e+00   
60      5.14000000e-08   8.84674793e-01   1.98000000e+00   0.00000000e+00   3.30000000e+00   3.30000000e+00   
61      5.18000000e-08   8.84675235e-01   6.60000000e-01   0.00000000e+00   3.30000000e+00   3.30000000e+00   
62      5.20000000e-08   8.84675507e-01   0.00000000e+00   0.00000000e+00   3.30000000e+00   3.30000000e+00   
63      5.20400000e-08   8.84675623e-01   0.00000000e+00   0.00000000e+00   3.30000000e+00   3.30000000e+00   
64      5.20800000e-08   8.84675724e-01   0.00000000e+00   0.00000000e+00   3.30000000e+00   3.30000000e+00   
65      5.21600000e-08   8.84675896e-01   0.00000000e+00   0.00000000e+00   3.30000000e+00   3.30000000e+00   
66      5.23200000e-08   8.84676074e-01   0.00000000e+00   0.00000000e+00   3.30000000e+00   3.30000000e+00   
67      5.26400000e-08   8.84676024e-01   0.00000000e+00   0.00000000e+00   3.30000000e+00   3.30000000e+00   
68      5.29600000e-08   8.84675705e-01   0.00000000e+00   0.00000000e+00   3.30000000e+00   3.30000000e+00   
69      5.30000000e-08   8.84675656e-01   0.00000000e+00   0.00000000e+00   3.30000000e+00   3.30000000e+00   
70      5.30320000e-08   8.84979136e-01   0.00000000e+00   1.05600000e-01   3.30000000e+00   3.30000000e+00   
71      5.30640000e-08   8.85247543e-01   0.00000000e+00   2.11200000e-01   3.30000000e+00   3.30000000e+00   
72      5.31280000e-08   8.85713616e-01   0.00000000e+00   4.22400000e-01   3.30000000e+00   3.30000000e+00   
73      5.32560000e-08   8.86264248e-01   0.00000000e+00   8.44800000e-01   3.30000000e+00   3.30000000e+00   
74      5.35120000e-08   8.86282557e-01   0.00000000e+00   1.68960000e+00   3.30000000e+00   3.30000000e+00   
75      5.37680000e-08   8.85736692e-01   0.00000000e+00   2.53440000e+00   3.30000000e+00   3.30000000e+00   
76      5.40000000e-08   8.86720831e-01   0.00000000e+00   3.30000000e+00   3.30000000e+00   3.30000000e+00   
77      5.40256000e-08   8.86869133e-01   0.00000000e+00   3.30000000e+00   3.30000000e+00   3.30000000e+00   
78      5.40512000e-08   8.87119830e-01   0.00000000e+00   3.30000000e+00   3.30000000e+00   3.30000000e+00   
79      5.41024000e-08   8.87827185e-01   0.00000000e+00   3.30000000e+00   3.30000000e+00   3.30000000e+00   
80      5.42048000e-08   8.90474461e-01   0.00000000e+00   3.30000000e+00   3.30000000e+00   3.30000000e+00   
81      5.44096000e-08   9.00895584e-01   0.00000000e+00   3.30000000e+00   3.30000000e+00   3.30000000e+00   
82      5.46144000e-08   9.19270669e-01   0.00000000e+00   3.30000000e+00   3.30000000e+00   3.30000000e+00   
83      5.48192000e-08   9.46503796e-01   0.00000000e+00   3.30000000e+00   3.30000000e+00   3.30000000e+00   
84      5.50240000e-08   9.81591160e-01   0.00000000e+00   3.30000000e+00   3.30000000e+00   3.30000000e+00   
85      5.54336000e-08   1.07141324e+00   0.00000000e+00   3.30000000e+00   3.30000000e+00   3.30000000e+00   
86      5.58432000e-08   1.19019714e+00   0.00000000e+00   3.30000000e+00   3.30000000e+00   3.30000000e+00   
87      5.61916047e-08   1.32618540e+00   0.00000000e+00   3.30000000e+00   3.30000000e+00   3.30000000e+00   
88      5.65400094e-08   1.51304891e+00   0.00000000e+00   3.30000000e+00   3.30000000e+00   3.30000000e+00   
89      5.68535736e-08   1.73016854e+00   0.00000000e+00   3.30000000e+00   3.30000000e+00   3.30000000e+00   
90      5.71671379e-08   1.98152791e+00   0.00000000e+00   3.30000000e+00   3.30000000e+00   3.30000000e+00   
91      5.74807021e-08   2.24352687e+00   0.00000000e+00   3.30000000e+00   3.30000000e+00   3.30000000e+00   
92      5.77942663e-08   2.49427756e+00   0.00000000e+00   3.30000000e+00   3.30000000e+00   3.30000000e+00   
93      5.81078306e-08   2.71131146e+00   0.00000000e+00   3.30000000e+00   3.30000000e+00   3.30000000e+00   
94      5.84213948e-08   2.88114086e+00   0.00000000e+00   3.30000000e+00   3.30000000e+00   3.30000000e+00   
95      5.87349590e-08   3.00713752e+00   0.00000000e+00   3.30000000e+00   3.30000000e+00   3.30000000e+00   
96      5.90485233e-08   3.09758173e+00   0.00000000e+00   3.30000000e+00   3.30000000e+00   3.30000000e+00   
97      5.93620875e-08   3.16126199e+00   0.00000000e+00   3.30000000e+00   3.30000000e+00   3.30000000e+00   
98      5.96756517e-08   3.20561875e+00   0.00000000e+00   3.30000000e+00   3.30000000e+00   3.30000000e+00   
99      5.97148473e-08   3.20996575e+00   0.00000000e+00   3.30000000e+00   3.30000000e+00   3.30000000e+00   
100     5.97932383e-08   3.21827967e+00   0.00000000e+00   3.30000000e+00   3.30000000e+00   3.30000000e+00   
101     5.98128361e-08   3.22021967e+00   0.00000000e+00   3.30000000e+00   3.30000000e+00   3.30000000e+00   
102     5.98520316e-08   3.22401301e+00   0.00000000e+00   3.30000000e+00   3.30000000e+00   3.30000000e+00   
103     5.98618305e-08   3.22492937e+00   0.00000000e+00   3.30000000e+00   3.30000000e+00   3.30000000e+00   
104     5.98814283e-08   3.22674139e+00   0.00000000e+00   3.30000000e+00   3.30000000e+00   3.30000000e+00   
105     5.99206238e-08   3.23024442e+00   0.00000000e+00   3.30000000e+00   3.30000000e+00   3.30000000e+00   
106     5.99990149e-08   3.23679277e+00   0.00000000e+00   3.30000000e+00   3.30000000e+00   3.30000000e+00   
107     6.01557970e-08   3.24825146e+00   0.00000000e+00   3.30000000e+00   3.30000000e+00   3.30000000e+00   
108     6.04693612e-08   3.26590404e+00   0.00000000e+00   3.30000000e+00   3.30000000e+00   3.30000000e+00   
109     6.07829254e-08   3.27822651e+00   0.00000000e+00   3.30000000e+00   3.30000000e+00   3.30000000e+00   
110     6.10964897e-08   3.28697712e+00   0.00000000e+00   3.30000000e+00   3.30000000e+00   3.30000000e+00   
111     6.14100539e-08   3.29341976e+00   0.00000000e+00   3.30000000e+00   3.30000000e+00   3.30000000e+00   
112     6.17236181e-08   3.29852960e+00   0.00000000e+00   3.30000000e+00   3.30000000e+00   3.30000000e+00   
113     6.20371824e-08   3.30317522e+00   0.00000000e+00   3.30000000e+00   3.30000000e+00   3.30000000e+00   
114     6.23507466e-08   3.30794439e+00   0.00000000e+00   3.30000000e+00   3.30000000e+00   3.30000000e+00   
115     6.26643108e-08   3.31264080e+00   0.00000000e+00   3.30000000e+00   3.30000000e+00   3.30000000e+00   
116     6.29778751e-08   3.31676287e+00   0.00000000e+00   3.30000000e+00   3.30000000e+00   3.30000000e+00   
117     6.32914393e-08   3.31935132e+00   0.00000000e+00   3.30000000e+00   3.30000000e+00   3.30000000e+00   
118     6.36050035e-08   3.31596568e+00   0.00000000e+00   3.30000000e+00   3.30000000e+00   3.30000000e+00   
119     6.39185678e-08   3.29843105e+00   0.00000000e+00   3.30000000e+00   3.30000000e+00   3.30000000e+00   
120     6.42321320e-08   3.26101598e+00   0.00000000e+00   3.30000000e+00   3.30000000e+00   3.30000000e+00   
121     6.45456962e-08   3.20399267e+00   0.00000000e+00   3.30000000e+00   3.30000000e+00   3.30000000e+00   
122     6.48592605e-08   3.13036733e+00   0.00000000e+00   3.30000000e+00   3.30000000e+00   3.30000000e+00   
123     6.51728247e-08   3.04268673e+00   0.00000000e+00   3.30000000e+00   3.30000000e+00   3.30000000e+00   
124     6.54863890e-08   2.94222035e+00   0.00000000e+00   3.30000000e+00   3.30000000e+00   3.30000000e+00   
125     6.57999532e-08   2.82860229e+00   0.00000000e+00   3.30000000e+00   3.30000000e+00   3.30000000e+00   
126     6.58783442e-08   2.79755092e+00   0.00000000e+00   3.30000000e+00   3.30000000e+00   3.30000000e+00   
127     6.60351264e-08   2.73323196e+00   0.00000000e+00   3.30000000e+00   3.30000000e+00   3.30000000e+00   
128     6.63486906e-08   2.58890686e+00   0.00000000e+00   3.30000000e+00   3.30000000e+00   3.30000000e+00   
129     6.66622548e-08   2.41667503e+00   0.00000000e+00   3.30000000e+00   3.30000000e+00   3.30000000e+00   
130     6.69758191e-08   2.20994385e+00   0.00000000e+00   3.30000000e+00   3.30000000e+00   3.30000000e+00   
131     6.72893833e-08   1.96921892e+00   0.00000000e+00   3.30000000e+00   3.30000000e+00   3.30000000e+00   
132     6.76029475e-08   1.70472509e+00   0.00000000e+00   3.30000000e+00   3.30000000e+00   3.30000000e+00   
133     6.79165118e-08   1.43217633e+00   0.00000000e+00   3.30000000e+00   3.30000000e+00   3.30000000e+00   
134     6.82300760e-08   1.16347549e+00   0.00000000e+00   3.30000000e+00   3.30000000e+00   3.30000000e+00   
135     6.85436402e-08   9.03257477e-01   0.00000000e+00   3.30000000e+00   3.30000000e+00   3.30000000e+00   
136     6.88572045e-08   6.68224591e-01   0.00000000e+00   3.30000000e+00   3.30000000e+00   3.30000000e+00   
137     6.91707687e-08   4.78630148e-01   0.00000000e+00   3.30000000e+00   3.30000000e+00   3.30000000e+00   
138     6.94843329e-08   3.35674015e-01   0.00000000e+00   3.30000000e+00   3.30000000e+00   3.30000000e+00   
139     6.97978972e-08   2.32562772e-01   0.00000000e+00   3.30000000e+00   3.30000000e+00   3.30000000e+00   
140     7.01114614e-08   1.60483405e-01   0.00000000e+00   3.30000000e+00   3.30000000e+00   3.30000000e+00   
141     7.07385899e-08   7.60627282e-02   0.00000000e+00   3.30000000e+00   3.30000000e+00   3.30000000e+00   
142     7.19928468e-08   1.83416943e-02   0.00000000e+00   3.30000000e+00   3.30000000e+00   3.30000000e+00   
143     7.32471037e-08   9.85239475e-03   0.00000000e+00   3.30000000e+00   3.30000000e+00   3.30000000e+00   
144     7.45013607e-08   6.30141343e-03   0.00000000e+00   3.30000000e+00   3.30000000e+00   3.30000000e+00   
145     7.57556176e-08   4.33107739e-03   0.00000000e+00   3.30000000e+00   3.30000000e+00   3.30000000e+00   
146     7.70098745e-08   3.11487821e-03   0.00000000e+00   3.30000000e+00   3.30000000e+00   3.30000000e+00   
147     7.82641315e-08   2.30630053e-03   0.00000000e+00   3.30000000e+00   3.30000000e+00   3.30000000e+00   
148     7.95183884e-08   1.75814941e-03   0.00000000e+00   3.30000000e+00   3.30000000e+00   3.30000000e+00   
149     8.07726453e-08   1.36815398e-03   0.00000000e+00   3.30000000e+00   3.30000000e+00   3.30000000e+00   
150     8.20269023e-08   1.11036836e-03   0.00000000e+00   3.30000000e+00   3.30000000e+00   3.30000000e+00   
151     8.32811592e-08   9.56346920e-04   0.00000000e+00   3.30000000e+00   3.30000000e+00   3.30000000e+00   
152     8.45354161e-08   8.62483207e-04   0.00000000e+00   3.30000000e+00   3.30000000e+00   3.30000000e+00   
153     8.57896731e-08   5.71027048e-04   0.00000000e+00   3.30000000e+00   3.30000000e+00   3.30000000e+00   
154     8.82981870e-08   -1.59558910e-03  0.00000000e+00   3.30000000e+00   3.30000000e+00   3.30000000e+00   
155     9.08067008e-08   -6.74336940e-03  0.00000000e+00   3.30000000e+00   3.30000000e+00   3.30000000e+00   
156     9.29638472e-08   7.93260534e-02   0.00000000e+00   3.30000000e+00   3.30000000e+00   3.30000000e+00   
157     9.47200127e-08   8.17144471e-01   0.00000000e+00   3.30000000e+00   3.30000000e+00   3.30000000e+00   
158     9.62083412e-08   2.09310831e+00   0.00000000e+00   3.30000000e+00   3.30000000e+00   3.30000000e+00   
159     9.75478368e-08   2.95173341e+00   0.00000000e+00   3.30000000e+00   3.30000000e+00   3.30000000e+00   
160     9.87136779e-08   3.21664037e+00   0.00000000e+00   3.30000000e+00   3.30000000e+00   3.30000000e+00   
161     9.98795189e-08   3.28432041e+00   0.00000000e+00   3.30000000e+00   3.30000000e+00   3.30000000e+00   
162     1.01045360e-07   3.29322460e+00   0.00000000e+00   3.30000000e+00   3.30000000e+00   3.30000000e+00   
163     1.02211201e-07   3.29850663e+00   0.00000000e+00   3.30000000e+00   3.30000000e+00   3.30000000e+00   
164     1.04000000e-07   3.29813731e+00   0.00000000e+00   3.30000000e+00   3.30000000e+00   3.30000000e+00   
165     1.04100000e-07   3.29815085e+00   0.00000000e+00   2.97000000e+00   3.30000000e+00   3.30000000e+00   
166     1.04200000e-07   3.29814417e+00   0.00000000e+00   2.64000000e+00   3.30000000e+00   3.30000000e+00   
167     1.04400000e-07   3.29822783e+00   0.00000000e+00   1.98000000e+00   3.30000000e+00   3.30000000e+00   
168     1.04800000e-07   3.29943508e+00   0.00000000e+00   6.60000000e-01   3.30000000e+00   3.30000000e+00   
169     1.05000000e-07   3.30063315e+00   0.00000000e+00   0.00000000e+00   3.30000000e+00   3.30000000e+00   
170     1.05040000e-07   3.30105093e+00   0.00000000e+00   0.00000000e+00   3.30000000e+00   3.30000000e+00   
171     1.05080000e-07   3.30137593e+00   0.00000000e+00   0.00000000e+00   3.30000000e+00   3.30000000e+00   
172     1.05160000e-07   3.30184751e+00   0.00000000e+00   0.00000000e+00   3.30000000e+00   3.30000000e+00   
173     1.05320000e-07   3.30203594e+00   0.00000000e+00   0.00000000e+00   3.30000000e+00   3.30000000e+00   
174     1.05640000e-07   3.30108689e+00   0.00000000e+00   0.00000000e+00   3.30000000e+00   3.30000000e+00   
175     1.05960000e-07   3.29960350e+00   0.00000000e+00   0.00000000e+00   3.30000000e+00   3.30000000e+00   
176     1.06000000e-07   3.29942890e+00   0.00000000e+00   0.00000000e+00   3.30000000e+00   3.30000000e+00   
177     1.06032000e-07   3.29929933e+00   1.05600000e-01   0.00000000e+00   3.30000000e+00   3.30000000e+00   
178     1.06064000e-07   3.29917599e+00   2.11200000e-01   0.00000000e+00   3.30000000e+00   3.30000000e+00   
