Index   V(2)                  V(1)          I(vds)           
0       0.00000000e+00  0.00000000e+00  0.00000000e+00  
1       5.00000000e-02  0.00000000e+00  -4.98010043e-08 
2       1.00000000e-01  0.00000000e+00  -5.89915234e-08 
3       1.50000000e-01  0.00000000e+00  -6.32816041e-08 
4       2.00000000e-01  0.00000000e+00  -6.67038318e-08 
5       2.50000000e-01  0.00000000e+00  -6.97750489e-08 
6       3.00000000e-01  0.00000000e+00  -7.26531587e-08 
7       3.50000000e-01  0.00000000e+00  -7.54141321e-08 
8       4.00000000e-01  0.00000000e+00  -7.81029149e-08 
9       4.50000000e-01  0.00000000e+00  -8.07490566e-08 
10      5.00000000e-01  0.00000000e+00  -8.33732631e-08 
11      5.50000000e-01  0.00000000e+00  -8.59907051e-08 
12      6.00000000e-01  0.00000000e+00  -8.86128897e-08 
13      6.50000000e-01  0.00000000e+00  -9.12488019e-08 
14      7.00000000e-01  0.00000000e+00  -9.39056366e-08 
15      7.50000000e-01  0.00000000e+00  -9.65892879e-08 
16      8.00000000e-01  0.00000000e+00  -9.93046860e-08 
17      8.50000000e-01  0.00000000e+00  -1.02056035e-07 
18      9.00000000e-01  0.00000000e+00  -1.04846985e-07 
19      9.50000000e-01  0.00000000e+00  -1.07680757e-07 
20      1.00000000e+00  0.00000000e+00  -1.10560240e-07 
21      1.05000000e+00  0.00000000e+00  -1.13488059e-07 
22      1.10000000e+00  0.00000000e+00  -1.16466634e-07 
23      1.15000000e+00  0.00000000e+00  -1.19498217e-07 
24      1.20000000e+00  0.00000000e+00  -1.22584933e-07 
25      1.25000000e+00  0.00000000e+00  -1.25728800e-07 
26      1.30000000e+00  0.00000000e+00  -1.28931756e-07 
27      1.35000000e+00  0.00000000e+00  -1.32195672e-07 
28      1.40000000e+00  0.00000000e+00  -1.35522367e-07 
29      1.45000000e+00  0.00000000e+00  -1.38913622e-07 
30      1.50000000e+00  0.00000000e+00  -1.42371189e-07 
31      1.55000000e+00  0.00000000e+00  -1.45896796e-07 
32      1.60000000e+00  0.00000000e+00  -1.49492158e-07 
33      1.65000000e+00  0.00000000e+00  -1.53158979e-07 
34      1.70000000e+00  0.00000000e+00  -1.56898961e-07 
35      1.75000000e+00  0.00000000e+00  -1.60713805e-07 
36      1.80000000e+00  0.00000000e+00  -1.64605214e-07 
37      1.85000000e+00  0.00000000e+00  -1.68574901e-07 
38      1.90000000e+00  0.00000000e+00  -1.72624588e-07 
39      1.95000000e+00  0.00000000e+00  -1.76756007e-07 
40      2.00000000e+00  0.00000000e+00  -1.80970906e-07 
41      2.05000000e+00  0.00000000e+00  -1.85271051e-07 
42      2.10000000e+00  0.00000000e+00  -1.89658225e-07 
43      2.15000000e+00  0.00000000e+00  -1.94134229e-07 
44      2.20000000e+00  0.00000000e+00  -1.98700888e-07 
45      2.25000000e+00  0.00000000e+00  -2.03360050e-07 
46      2.30000000e+00  0.00000000e+00  -2.08113584e-07 
47      2.35000000e+00  0.00000000e+00  -2.12963389e-07 
48      2.40000000e+00  0.00000000e+00  -2.17911386e-07 
49      2.45000000e+00  0.00000000e+00  -2.22959526e-07 
50      2.50000000e+00  0.00000000e+00  -2.28109788e-07 
51      2.55000000e+00  0.00000000e+00  -2.33364180e-07 
52      2.60000000e+00  0.00000000e+00  -2.38724740e-07 
53      2.65000000e+00  0.00000000e+00  -2.44193539e-07 
54      2.70000000e+00  0.00000000e+00  -2.49772680e-07 
55      2.75000000e+00  0.00000000e+00  -2.55464296e-07 
56      2.80000000e+00  0.00000000e+00  -2.61270558e-07 
57      2.85000000e+00  0.00000000e+00  -2.67193669e-07 
58      2.90000000e+00  0.00000000e+00  -2.73235868e-07 
59      2.95000000e+00  0.00000000e+00  -2.79399431e-07 
60      3.00000000e+00  0.00000000e+00  -2.85686670e-07 
61      3.05000000e+00  0.00000000e+00  -2.92099935e-07 
62      3.10000000e+00  0.00000000e+00  -2.98641616e-07 
63      3.15000000e+00  0.00000000e+00  -3.05314140e-07 
64      3.20000000e+00  0.00000000e+00  -3.12119976e-07 
65      3.25000000e+00  0.00000000e+00  -3.19061634e-07 
66      3.30000000e+00  0.00000000e+00  -3.26141662e-07 
67      3.35000000e+00  0.00000000e+00  -3.33362656e-07 
68      3.40000000e+00  0.00000000e+00  -3.40727251e-07 
69      3.45000000e+00  0.00000000e+00  -3.48238127e-07 
70      3.50000000e+00  0.00000000e+00  -3.55898010e-07 
71      0.00000000e+00  5.00000000e-01  7.39036246e-19  
72      5.00000000e-02  5.00000000e-01  -4.71555819e-05 
73      1.00000000e-01  5.00000000e-01  -8.14039670e-05 
74      1.50000000e-01  5.00000000e-01  -1.04167402e-04 
75      2.00000000e-01  5.00000000e-01  -1.17803394e-04 
76      2.50000000e-01  5.00000000e-01  -1.26038537e-04 
77      3.00000000e-01  5.00000000e-01  -1.31889331e-04 
78      3.50000000e-01  5.00000000e-01  -1.36615628e-04 
79      4.00000000e-01  5.00000000e-01  -1.40674667e-04 
80      4.50000000e-01  5.00000000e-01  -1.44277002e-04 
81      5.00000000e-01  5.00000000e-01  -1.47543884e-04 
82      5.50000000e-01  5.00000000e-01  -1.50554545e-04 
83      6.00000000e-01  5.00000000e-01  -1.53364479e-04 
84      6.50000000e-01  5.00000000e-01  -1.56014231e-04 
85      7.00000000e-01  5.00000000e-01  -1.58534307e-04 
86      7.50000000e-01  5.00000000e-01  -1.60948176e-04 
87      8.00000000e-01  5.00000000e-01  -1.63274221e-04 
88      8.50000000e-01  5.00000000e-01  -1.65527062e-04 
89      9.00000000e-01  5.00000000e-01  -1.67718476e-04 
90      9.50000000e-01  5.00000000e-01  -1.69858064e-04 
91      1.00000000e+00  5.00000000e-01  -1.71953730e-04 
92      1.05000000e+00  5.00000000e-01  -1.74012044e-04 
93      1.10000000e+00  5.00000000e-01  -1.76038510e-04 
94      1.15000000e+00  5.00000000e-01  -1.78037779e-04 
95      1.20000000e+00  5.00000000e-01  -1.80013802e-04 
96      1.25000000e+00  5.00000000e-01  -1.81969965e-04 
97      1.30000000e+00  5.00000000e-01  -1.83909178e-04 
98      1.35000000e+00  5.00000000e-01  -1.85833965e-04 
99      1.40000000e+00  5.00000000e-01  -1.87746519e-04 
100     1.45000000e+00  5.00000000e-01  -1.89648758e-04 
101     1.50000000e+00  5.00000000e-01  -1.91542367e-04 
102     1.55000000e+00  5.00000000e-01  -1.93428833e-04 
103     1.60000000e+00  5.00000000e-01  -1.95309470e-04 
104     1.65000000e+00  5.00000000e-01  -1.97185448e-04 
105     1.70000000e+00  5.00000000e-01  -1.99057809e-04 
106     1.75000000e+00  5.00000000e-01  -2.00927487e-04 
107     1.80000000e+00  5.00000000e-01  -2.02795318e-04 
108     1.85000000e+00  5.00000000e-01  -2.04662057e-04 
109     1.90000000e+00  5.00000000e-01  -2.06528384e-04 
110     1.95000000e+00  5.00000000e-01  -2.08394915e-04 
111     2.00000000e+00  5.00000000e-01  -2.10262210e-04 
112     2.05000000e+00  5.00000000e-01  -2.12130777e-04 
113     2.10000000e+00  5.00000000e-01  -2.14001081e-04 
114     2.15000000e+00  5.00000000e-01  -2.15873545e-04 
115     2.20000000e+00  5.00000000e-01  -2.17748558e-04 
116     2.25000000e+00  5.00000000e-01  -2.19626477e-04 
117     2.30000000e+00  5.00000000e-01  -2.21507630e-04 
118     2.35000000e+00  5.00000000e-01  -2.23392319e-04 
119     2.40000000e+00  5.00000000e-01  -2.25280823e-04 
120     2.45000000e+00  5.00000000e-01  -2.27173401e-04 
121     2.50000000e+00  5.00000000e-01  -2.29070290e-04 
122     2.55000000e+00  5.00000000e-01  -2.30971714e-04 
123     2.60000000e+00  5.00000000e-01  -2.32877879e-04 
124     2.65000000e+00  5.00000000e-01  -2.34788976e-04 
125     2.70000000e+00  5.00000000e-01  -2.36705184e-04 
126     2.75000000e+00  5.00000000e-01  -2.38626672e-04 
127     2.80000000e+00  5.00000000e-01  -2.40553594e-04 
128     2.85000000e+00  5.00000000e-01  -2.42486098e-04 
129     2.90000000e+00  5.00000000e-01  -2.44424321e-04 
130     2.95000000e+00  5.00000000e-01  -2.46368391e-04 
131     3.00000000e+00  5.00000000e-01  -2.48318430e-04 
132     3.05000000e+00  5.00000000e-01  -2.50274552e-04 
133     3.10000000e+00  5.00000000e-01  -2.52236863e-04 
134     3.15000000e+00  5.00000000e-01  -2.54205467e-04 
135     3.20000000e+00  5.00000000e-01  -2.56180457e-04 
136     3.25000000e+00  5.00000000e-01  -2.58161925e-04 
137     3.30000000e+00  5.00000000e-01  -2.60149956e-04 
138     3.35000000e+00  5.00000000e-01  -2.62144631e-04 
139     3.40000000e+00  5.00000000e-01  -2.64146029e-04 
140     3.45000000e+00  5.00000000e-01  -2.66154220e-04 
141     3.50000000e+00  5.00000000e-01  -2.68169277e-04 
142     0.00000000e+00  1.00000000e+00  2.16840434e-19  
143     5.00000000e-02  1.00000000e+00  -1.12090015e-04 
144     1.00000000e-01  1.00000000e+00  -2.11589135e-04 
145     1.50000000e-01  1.00000000e+00  -2.99147511e-04 
146     2.00000000e-01  1.00000000e+00  -3.75379331e-04 
147     2.50000000e-01  1.00000000e+00  -4.40873682e-04 
148     3.00000000e-01  1.00000000e+00  -4.96215158e-04 
149     3.50000000e-01  1.00000000e+00  -5.42030303e-04 
150     4.00000000e-01  1.00000000e+00  -5.79096253e-04 
151     4.50000000e-01  1.00000000e+00  -6.08545135e-04 
152     5.00000000e-01  1.00000000e+00  -6.32000527e-04 
153     5.50000000e-01  1.00000000e+00  -6.51220087e-04 
154     6.00000000e-01  1.00000000e+00  -6.67528248e-04 
155     6.50000000e-01  1.00000000e+00  -6.81740583e-04 
156     7.00000000e-01  1.00000000e+00  -6.94361596e-04 
157     7.50000000e-01  1.00000000e+00  -7.05729855e-04 
158     8.00000000e-01  1.00000000e+00  -7.16088577e-04 
159     8.50000000e-01  1.00000000e+00  -7.25620176e-04 
160     9.00000000e-01  1.00000000e+00  -7.34465300e-04 
161     9.50000000e-01  1.00000000e+00  -7.42734530e-04 
162     1.00000000e+00  1.00000000e+00  -7.50516140e-04 
163     1.05000000e+00  1.00000000e+00  -7.57881492e-04 
164     1.10000000e+00  1.00000000e+00  -7.64888915e-04 
165     1.15000000e+00  1.00000000e+00  -7.71586544e-04 
166     1.20000000e+00  1.00000000e+00  -7.78014454e-04 
167     1.25000000e+00  1.00000000e+00  -7.84206279e-04 
168     1.30000000e+00  1.00000000e+00  -7.90190448e-04 
169     1.35000000e+00  1.00000000e+00  -7.95991156e-04 
170     1.40000000e+00  1.00000000e+00  -8.01629121e-04 
171     1.45000000e+00  1.00000000e+00  -8.07122185e-04 
172     1.50000000e+00  1.00000000e+00  -8.12485798e-04 
173     1.55000000e+00  1.00000000e+00  -8.17733402e-04 
174     1.60000000e+00  1.00000000e+00  -8.22876749e-04 
175     1.65000000e+00  1.00000000e+00  -8.27926159e-04 
176     1.70000000e+00  1.00000000e+00  -8.32890727e-04 
177     1.75000000e+00  1.00000000e+00  -8.37778503e-04 
178     1.80000000e+00  1.00000000e+00  -8.42596639e-04 
179     1.85000000e+00  1.00000000e+00  -8.47351506e-04 
180     1.90000000e+00  1.00000000e+00  -8.52048803e-04 
181     1.95000000e+00  1.00000000e+00  -8.56693640e-04 
182     2.00000000e+00  1.00000000e+00  -8.61290611e-04 
183     2.05000000e+00  1.00000000e+00  -8.65843863e-04 
184     2.10000000e+00  1.00000000e+00  -8.70357144e-04 
185     2.15000000e+00  1.00000000e+00  -8.74833851e-04 
186     2.20000000e+00  1.00000000e+00  -8.79277072e-04 
187     2.25000000e+00  1.00000000e+00  -8.83689617e-04 
188     2.30000000e+00  1.00000000e+00  -8.88074055e-04 
189     2.35000000e+00  1.00000000e+00  -8.92432730e-04 
190     2.40000000e+00  1.00000000e+00  -8.96767793e-04 
191     2.45000000e+00  1.00000000e+00  -9.01081220e-04 
192     2.50000000e+00  1.00000000e+00  -9.05374824e-04 
193     2.55000000e+00  1.00000000e+00  -9.09650281e-04 
194     2.60000000e+00  1.00000000e+00  -9.13909132e-04 
195     2.65000000e+00  1.00000000e+00  -9.18152807e-04 
196     2.70000000e+00  1.00000000e+00  -9.22382625e-04 
197     2.75000000e+00  1.00000000e+00  -9.26599811e-04 
198     2.80000000e+00  1.00000000e+00  -9.30805504e-04 
199     2.85000000e+00  1.00000000e+00  -9.35000761e-04 
200     2.90000000e+00  1.00000000e+00  -9.39186567e-04 
201     2.95000000e+00  1.00000000e+00  -9.43363838e-04 
202     3.00000000e+00  1.00000000e+00  -9.47533433e-04 
203     3.05000000e+00  1.00000000e+00  -9.51696151e-04 
204     3.10000000e+00  1.00000000e+00  -9.55852742e-04 
205     3.15000000e+00  1.00000000e+00  -9.60003908e-04 
206     3.20000000e+00  1.00000000e+00  -9.64150306e-04 
207     3.25000000e+00  1.00000000e+00  -9.68292554e-04 
208     3.30000000e+00  1.00000000e+00  -9.72431232e-04 
209     3.35000000e+00  1.00000000e+00  -9.76566886e-04 
210     3.40000000e+00  1.00000000e+00  -9.80700030e-04 
211     3.45000000e+00  1.00000000e+00  -9.84831149e-04 
212     3.50000000e+00  1.00000000e+00  -9.88960698e-04 
213     0.00000000e+00  1.50000000e+00  -1.08420217e-18 
214     5.00000000e-02  1.50000000e+00  -1.44845384e-04 
215     1.00000000e-01  1.50000000e+00  -2.78958668e-04 
216     1.50000000e-01  1.50000000e+00  -4.02757178e-04 
217     2.00000000e-01  1.50000000e+00  -5.16637639e-04 
218     2.50000000e-01  1.50000000e+00  -6.20977849e-04 
219     3.00000000e-01  1.50000000e+00  -7.16138503e-04 
220     3.50000000e-01  1.50000000e+00  -8.02465359e-04 
221     4.00000000e-01  1.50000000e+00  -8.80292214e-04 
222     4.50000000e-01  1.50000000e+00  -9.49945608e-04 
223     5.00000000e-01  1.50000000e+00  -1.01175334e-03 
224     5.50000000e-01  1.50000000e+00  -1.06606150e-03 
225     6.00000000e-01  1.50000000e+00  -1.11327023e-03 
226     6.50000000e-01  1.50000000e+00  -1.15390697e-03 
227     7.00000000e-01  1.50000000e+00  -1.18873316e-03 
228     7.50000000e-01  1.50000000e+00  -1.21875797e-03 
229     8.00000000e-01  1.50000000e+00  -1.24502108e-03 
230     8.50000000e-01  1.50000000e+00  -1.26835595e-03 
231     9.00000000e-01  1.50000000e+00  -1.28935684e-03 
232     9.50000000e-01  1.50000000e+00  -1.30845055e-03 
233     1.00000000e+00  1.50000000e+00  -1.32595825e-03 
234     1.05000000e+00  1.50000000e+00  -1.34213099e-03 
235     1.10000000e+00  1.50000000e+00  -1.35716967e-03 
236     1.15000000e+00  1.50000000e+00  -1.37123749e-03 
237     1.20000000e+00  1.50000000e+00  -1.38446846e-03 
238     1.25000000e+00  1.50000000e+00  -1.39697359e-03 
239     1.30000000e+00  1.50000000e+00  -1.40884558e-03 
240     1.35000000e+00  1.50000000e+00  -1.42016232e-03 
241     1.40000000e+00  1.50000000e+00  -1.43098977e-03 
242     1.45000000e+00  1.50000000e+00  -1.44138408e-03 
243     1.50000000e+00  1.50000000e+00  -1.45139332e-03 
244     1.55000000e+00  1.50000000e+00  -1.46105891e-03 
245     1.60000000e+00  1.50000000e+00  -1.47041668e-03 
246     1.65000000e+00  1.50000000e+00  -1.47949779e-03 
247     1.70000000e+00  1.50000000e+00  -1.48832947e-03 
248     1.75000000e+00  1.50000000e+00  -1.49693561e-03 
249     1.80000000e+00  1.50000000e+00  -1.50533725e-03 
250     1.85000000e+00  1.50000000e+00  -1.51355298e-03 
251     1.90000000e+00  1.50000000e+00  -1.52159931e-03 
252     1.95000000e+00  1.50000000e+00  -1.52949094e-03 
253     2.00000000e+00  1.50000000e+00  -1.53724101e-03 
254     2.05000000e+00  1.50000000e+00  -1.54486126e-03 
255     2.10000000e+00  1.50000000e+00  -1.55236228e-03 
256     2.15000000e+00  1.50000000e+00  -1.55975359e-03 
257     2.20000000e+00  1.50000000e+00  -1.56704379e-03 
258     2.25000000e+00  1.50000000e+00  -1.57424067e-03 
259     2.30000000e+00  1.50000000e+00  -1.58135132e-03 
260     2.35000000e+00  1.50000000e+00  -1.58838215e-03 
261     2.40000000e+00  1.50000000e+00  -1.59533905e-03 
262     2.45000000e+00  1.50000000e+00  -1.60222738e-03 
263     2.50000000e+00  1.50000000e+00  -1.60905205e-03 
264     2.55000000e+00  1.50000000e+00  -1.61581755e-03 
265     2.60000000e+00  1.50000000e+00  -1.62252804e-03 
266     2.65000000e+00  1.50000000e+00  -1.62918732e-03 
267     2.70000000e+00  1.50000000e+00  -1.63579889e-03 
268     2.75000000e+00  1.50000000e+00  -1.64236602e-03 
269     2.80000000e+00  1.50000000e+00  -1.64889170e-03 
270     2.85000000e+00  1.50000000e+00  -1.65537871e-03 
271     2.90000000e+00  1.50000000e+00  -1.66182963e-03 
272     2.95000000e+00  1.50000000e+00  -1.66824685e-03 
273     3.00000000e+00  1.50000000e+00  -1.67463261e-03 
274     3.05000000e+00  1.50000000e+00  -1.68098899e-03 
275     3.10000000e+00  1.50000000e+00  -1.68731791e-03 
276     3.15000000e+00  1.50000000e+00  -1.69362120e-03 
277     3.20000000e+00  1.50000000e+00  -1.69990053e-03 
278     3.25000000e+00  1.50000000e+00  -1.70615750e-03 
279     3.30000000e+00  1.50000000e+00  -1.71239358e-03 
280     3.35000000e+00  1.50000000e+00  -1.71861016e-03 
281     3.40000000e+00  1.50000000e+00  -1.72480856e-03 
282     3.45000000e+00  1.50000000e+00  -1.73098999e-03 
283     3.50000000e+00  1.50000000e+00  -1.73715561e-03 
284     0.00000000e+00  2.00000000e+00  2.60208521e-18  
285     5.00000000e-02  2.00000000e+00  -1.64217752e-04 
286     1.00000000e-01  2.00000000e+00  -3.19302481e-04 
287     1.50000000e-01  2.00000000e+00  -4.65538872e-04 
288     2.00000000e-01  2.00000000e+00  -6.03200055e-04 
289     2.50000000e-01  2.00000000e+00  -7.32548239e-04 
290     3.00000000e-01  2.00000000e+00  -8.53835340e-04 
291     3.50000000e-01  2.00000000e+00  -9.67303596e-04 
292     4.00000000e-01  2.00000000e+00  -1.07318621e-03 
293     4.50000000e-01  2.00000000e+00  -1.17170805e-03 
294     5.00000000e-01  2.00000000e+00  -1.26308642e-03 
295     5.50000000e-01  2.00000000e+00  -1.34753213e-03 
296     6.00000000e-01  2.00000000e+00  -1.42525092e-03 
297     6.50000000e-01  2.00000000e+00  -1.49644568e-03 
298     7.00000000e-01  2.00000000e+00  -1.56132040e-03 
299     7.50000000e-01  2.00000000e+00  -1.62008759e-03 
300     8.00000000e-01  2.00000000e+00  -1.67298421e-03 
301     8.50000000e-01  2.00000000e+00  -1.72030677e-03 
302     9.00000000e-01  2.00000000e+00  -1.76247415e-03 
303     9.50000000e-01  2.00000000e+00  -1.80008060e-03 
304     1.00000000e+00  2.00000000e+00  -1.83384195e-03 
305     1.05000000e+00  2.00000000e+00  -1.86443927e-03 
306     1.10000000e+00  2.00000000e+00  -1.89241542e-03 
307     1.15000000e+00  2.00000000e+00  -1.91817969e-03 
308     1.20000000e+00  2.00000000e+00  -1.94204923e-03 
309     1.25000000e+00  2.00000000e+00  -1.96428041e-03 
310     1.30000000e+00  2.00000000e+00  -1.98508617e-03 
311     1.35000000e+00  2.00000000e+00  -2.00464589e-03 
312     1.40000000e+00  2.00000000e+00  -2.02311174e-03 
313     1.45000000e+00  2.00000000e+00  -2.04061342e-03 
314     1.50000000e+00  2.00000000e+00  -2.05726191e-03 
315     1.55000000e+00  2.00000000e+00  -2.07315252e-03 
316     1.60000000e+00  2.00000000e+00  -2.08836744e-03 
317     1.65000000e+00  2.00000000e+00  -2.10297782e-03 
318     1.70000000e+00  2.00000000e+00  -2.11704549e-03 
319     1.75000000e+00  2.00000000e+00  -2.13062437e-03 
320     1.80000000e+00  2.00000000e+00  -2.14376172e-03 
321     1.85000000e+00  2.00000000e+00  -2.15649906e-03 
322     1.90000000e+00  2.00000000e+00  -2.16887302e-03 
323     1.95000000e+00  2.00000000e+00  -2.18091604e-03 
324     2.00000000e+00  2.00000000e+00  -2.19265691e-03 
325     2.05000000e+00  2.00000000e+00  -2.20412130e-03 
326     2.10000000e+00  2.00000000e+00  -2.21533216e-03 
327     2.15000000e+00  2.00000000e+00  -2.22631003e-03 
328     2.20000000e+00  2.00000000e+00  -2.23707341e-03 
329     2.25000000e+00  2.00000000e+00  -2.24763894e-03 
330     2.30000000e+00  2.00000000e+00  -2.25802168e-03 
331     2.35000000e+00  2.00000000e+00  -2.26823525e-03 
332     2.40000000e+00  2.00000000e+00  -2.27829203e-03 
333     2.45000000e+00  2.00000000e+00  -2.28820328e-03 
334     2.50000000e+00  2.00000000e+00  -2.29797925e-03 
335     2.55000000e+00  2.00000000e+00  -2.30762934e-03 
336     2.60000000e+00  2.00000000e+00  -2.31716213e-03 
337     2.65000000e+00  2.00000000e+00  -2.32658548e-03 
338     2.70000000e+00  2.00000000e+00  -2.33590664e-03 
339     2.75000000e+00  2.00000000e+00  -2.34513226e-03 
340     2.80000000e+00  2.00000000e+00  -2.35426848e-03 
341     2.85000000e+00  2.00000000e+00  -2.36332098e-03 
342     2.90000000e+00  2.00000000e+00  -2.37229500e-03 
343     2.95000000e+00  2.00000000e+00  -2.38119538e-03 
344     3.00000000e+00  2.00000000e+00  -2.39002665e-03 
345     3.05000000e+00  2.00000000e+00  -2.39879297e-03 
346     3.10000000e+00  2.00000000e+00  -2.40749824e-03 
347     3.15000000e+00  2.00000000e+00  -2.41614610e-03 
348     3.20000000e+00  2.00000000e+00  -2.42473990e-03 
