#H
SOURCE='Xyce' VERSION='7.0'
TITLE='* tran-step-probe.cir'
SUBTITLE='Step param VS1:VA = 1.0e+00 VS2:VA = 3.0e+00' 
TIME='05:11:06 PM' DATE='Dec 17, 2015' TEMPERATURE='2.70000000e+01'
ANALYSIS='Transient Analysis' SERIALNO='12345'
ALLVALUES='NO' COMPLEXVALUES='NO' NODES='2'
SWEEPVAR='Time' SWEEPMODE='VAR_STEP'
XBEGIN='0.00000000e+00' XEND='2.00000000e-03'
FORMAT='0 VOLTSorAMPS;EFLOAT : NODEorBRANCH;NODE  '  
DGTLDATA='NO'
#N
'V(1)' 'V(2)' 
#C 0.00000000e+00 2
0.00000000e+00:1   0.00000000e+00:2   
#C 1.00000000e-05 2
6.27773973e-02:1   1.88332192e-01:2   
#C 2.00000000e-05 2
1.25327510e-01:1   3.75982529e-01:2   
#C 3.00000000e-05 2
1.87342992e-01:1   5.62028976e-01:2   
#C 4.00000000e-05 2
2.48669491e-01:1   7.46008474e-01:2   
#C 5.00000000e-05 2
3.08956557e-01:1   9.26869671e-01:2   
#C 6.00000000e-05 2
3.68082639e-01:1   1.10424792e+00:2   
#C 7.00000000e-05 2
4.25701729e-01:1   1.27710519e+00:2   
#C 8.00000000e-05 2
4.81685643e-01:1   1.44505693e+00:2   
#C 9.00000000e-05 2
5.35738775e-01:1   1.60721632e+00:2   
#C 1.00000000e-04 2
5.87688797e-01:1   1.76306639e+00:2   
#C 1.10000000e-04 2
6.37333554e-01:1   1.91200066e+00:2   
#C 1.20000000e-04 2
6.84422163e-01:1   2.05326649e+00:2   
#C 1.30000000e-04 2
7.28884819e-01:1   2.18665446e+00:2   
#C 1.40000000e-04 2
7.70361851e-01:1   2.31108555e+00:2   
#C 1.50000000e-04 2
8.08949420e-01:1   2.42684826e+00:2   
#C 1.60000000e-04 2
8.44154003e-01:1   2.53246201e+00:2   
#C 1.70000000e-04 2
8.76265034e-01:1   2.62879510e+00:2   
#C 1.80000000e-04 2
9.04636094e-01:1   2.71390828e+00:2   
#C 1.90000000e-04 2
9.29770044e-01:1   2.78931013e+00:2   
#C 2.00000000e-04 2
9.50855230e-01:1   2.85256569e+00:2   
#C 2.10000000e-04 2
9.68548910e-01:1   2.90564673e+00:2   
#C 2.20000000e-04 2
9.82083144e-01:1   2.94624943e+00:2   
#C 2.30000000e-04 2
9.92042136e-01:1   2.97612641e+00:2   
#C 2.40000000e-04 2
9.97827659e-01:1   2.99348298e+00:2   
#C 2.50000000e-04 2
9.99893711e-01:1   2.99968113e+00:2   
#C 2.60000000e-04 2
9.97840436e-01:1   2.99352131e+00:2   
#C 2.70000000e-04 2
9.91980908e-01:1   2.97594272e+00:2   
#C 2.80000000e-04 2
9.82120889e-01:1   2.94636267e+00:2   
#C 2.90000000e-04 2
9.68429268e-01:1   2.90528780e+00:2   
#C 3.00000000e-04 2
9.50916197e-01:1   2.85274859e+00:2   
#C 3.10000000e-04 2
9.29610609e-01:1   2.78883183e+00:2   
#C 3.20000000e-04 2
9.04717421e-01:1   2.71415226e+00:2   
#C 3.30000000e-04 2
8.76137162e-01:1   2.62841149e+00:2   
#C 3.40000000e-04 2
8.44251787e-01:1   2.53275536e+00:2   
#C 3.50000000e-04 2
8.08851931e-01:1   2.42655579e+00:2   
#C 3.60000000e-04 2
7.70471246e-01:1   2.31141374e+00:2   
#C 3.70000000e-04 2
7.28815412e-01:1   2.18644624e+00:2   
#C 3.80000000e-04 2
6.84537507e-01:1   2.05361252e+00:2   
#C 3.90000000e-04 2
6.37288899e-01:1   1.91186670e+00:2   
#C 4.00000000e-04 2
5.87768641e-01:1   1.76330592e+00:2   
#C 4.10000000e-04 2
5.35714629e-01:1   1.60714389e+00:2   
#C 4.20000000e-04 2
4.81688881e-01:1   1.44506664e+00:2   
#C 4.30000000e-04 2
4.25545888e-01:1   1.27663766e+00:2   
#C 4.40000000e-04 2
3.67815565e-01:1   1.10344670e+00:2   
#C 4.50000000e-04 2
3.08791121e-01:1   9.26373363e-01:2   
#C 4.60000000e-04 2
2.48623546e-01:1   7.45870638e-01:2   
#C 4.70000000e-04 2
1.87296025e-01:1   5.61888076e-01:2   
#C 4.80000000e-04 2
1.25227963e-01:1   3.75683890e-01:2   
#C 4.90000000e-04 2
6.27452539e-02:1   1.88235762e-01:2   
#C 5.00000000e-04 2
9.95187653e-07:1   2.98556296e-06:2   
#C 5.10000000e-04 2
-6.27896243e-02:1   -1.88368873e-01:2   
#C 5.20000000e-04 2
-1.25320772e-01:1   -3.75962315e-01:2   
#C 5.30000000e-04 2
-1.87282899e-01:1   -5.61848696e-01:2   
#C 5.40000000e-04 2
-2.48590232e-01:1   -7.45770695e-01:2   
#C 5.50000000e-04 2
-3.08946937e-01:1   -9.26840810e-01:2   
#C 5.60000000e-04 2
-3.68123078e-01:1   -1.10436923e+00:2   
#C 5.70000000e-04 2
-4.25694140e-01:1   -1.27708242e+00:2   
#C 5.80000000e-04 2
-4.81577640e-01:1   -1.44473292e+00:2   
#C 5.90000000e-04 2
-5.35564742e-01:1   -1.60669423e+00:2   
#C 6.00000000e-04 2
-5.87450898e-01:1   -1.76235269e+00:2   
#C 6.10000000e-04 2
-6.37039354e-01:1   -1.91111806e+00:2   
#C 6.20000000e-04 2
-6.84141840e-01:1   -2.05242552e+00:2   
#C 6.30000000e-04 2
-7.28579230e-01:1   -2.18573769e+00:2   
#C 6.40000000e-04 2
-7.70182176e-01:1   -2.31054653e+00:2   
#C 6.50000000e-04 2
-8.08791702e-01:1   -2.42637511e+00:2   
#C 6.60000000e-04 2
-8.44259771e-01:1   -2.53277931e+00:2   
#C 6.70000000e-04 2
-8.76183581e-01:1   -2.62855074e+00:2   
#C 6.80000000e-04 2
-9.04535959e-01:1   -2.71360788e+00:2   
#C 6.90000000e-04 2
-9.29349852e-01:1   -2.78804955e+00:2   
#C 7.00000000e-04 2
-9.50532281e-01:1   -2.85159684e+00:2   
#C 7.10000000e-04 2
-9.68003655e-01:1   -2.90401097e+00:2   
#C 7.20000000e-04 2
-9.81698045e-01:1   -2.94509413e+00:2   
#C 7.30000000e-04 2
-9.91563410e-01:1   -2.97469023e+00:2   
#C 7.40000000e-04 2
-9.97561787e-01:1   -2.99268536e+00:2   
#C 7.50000000e-04 2
-9.99669419e-01:1   -2.99900826e+00:2   
#C 7.60000000e-04 2
-9.97876853e-01:1   -2.99363056e+00:2   
#C 7.70000000e-04 2
-9.92044360e-01:1   -2.97613308e+00:2   
#C 7.80000000e-04 2
-9.82023152e-01:1   -2.94606946e+00:2   
#C 7.90000000e-04 2
-9.68175026e-01:1   -2.90452508e+00:2   
#C 8.00000000e-04 2
-9.50554210e-01:1   -2.85166263e+00:2   
#C 8.10000000e-04 2
-9.29228779e-01:1   -2.78768634e+00:2   
#C 8.20000000e-04 2
-9.04280405e-01:1   -2.71284122e+00:2   
#C 8.30000000e-04 2
-8.75804070e-01:1   -2.62741221e+00:2   
#C 8.40000000e-04 2
-8.43907727e-01:1   -2.53172318e+00:2   
#C 8.50000000e-04 2
-8.08711924e-01:1   -2.42613577e+00:2   
#C 8.60000000e-04 2
-7.70349383e-01:1   -2.31104815e+00:2   
#C 8.70000000e-04 2
-7.28964541e-01:1   -2.18689362e+00:2   
#C 8.80000000e-04 2
-6.84402762e-01:1   -2.05320829e+00:2   
#C 8.90000000e-04 2
-6.37181499e-01:1   -1.91154450e+00:2   
#C 9.00000000e-04 2
-5.87489819e-01:1   -1.76246946e+00:2   
#C 9.10000000e-04 2
-5.35517405e-01:1   -1.60655221e+00:2   
#C 9.20000000e-04 2
-4.81462259e-01:1   -1.44438678e+00:2   
#C 9.30000000e-04 2
-4.25530003e-01:1   -1.27659001e+00:2   
#C 9.40000000e-04 2
-3.67933153e-01:1   -1.10379946e+00:2   
#C 9.50000000e-04 2
-3.08890371e-01:1   -9.26671112e-01:2   
#C 9.60000000e-04 2
-2.48625701e-01:1   -7.45877102e-01:2   
#C 9.70000000e-04 2
-1.87367779e-01:1   -5.62103337e-01:2   
#C 9.80000000e-04 2
-1.25312814e-01:1   -3.75938441e-01:2   
#C 9.90000000e-04 2
-6.27651507e-02:1   -1.88295452e-01:2   
#C 1.00000000e-03 2
5.21866338e-06:1   1.56559901e-05:2   
#C 1.01000000e-03 2
6.27596455e-02:1   1.88278936e-01:2   
#C 1.02000000e-03 2
1.25291131e-01:1   3.75873393e-01:2   
#C 1.03000000e-03 2
1.87332304e-01:1   5.61996912e-01:2   
#C 1.04000000e-03 2
2.48651548e-01:1   7.45954644e-01:2   
#C 1.05000000e-03 2
3.09012913e-01:1   9.27038740e-01:2   
#C 1.06000000e-03 2
3.68070580e-01:1   1.10421174e+00:2   
#C 1.07000000e-03 2
4.25665661e-01:1   1.27699698e+00:2   
#C 1.08000000e-03 2
4.81585699e-01:1   1.44475710e+00:2   
#C 1.09000000e-03 2
5.35615868e-01:1   1.60684760e+00:2   
#C 1.10000000e-03 2
5.87548528e-01:1   1.76264558e+00:2   
#C 1.11000000e-03 2
6.37183997e-01:1   1.91155199e+00:2   
#C 1.12000000e-03 2
6.84331304e-01:1   2.05299391e+00:2   
#C 1.13000000e-03 2
7.28808902e-01:1   2.18642671e+00:2   
#C 1.14000000e-03 2
7.70445353e-01:1   2.31133606e+00:2   
#C 1.15000000e-03 2
8.08958044e-01:1   2.42687413e+00:2   
#C 1.16000000e-03 2
8.44150427e-01:1   2.53245128e+00:2   
#C 1.17000000e-03 2
8.76034513e-01:1   2.62810354e+00:2   
#C 1.18000000e-03 2
9.04488195e-01:1   2.71346459e+00:2   
#C 1.19000000e-03 2
9.29402387e-01:1   2.78820716e+00:2   
#C 1.20000000e-03 2
9.50681428e-01:1   2.85204428e+00:2   
#C 1.21000000e-03 2
9.68243444e-01:1   2.90473033e+00:2   
#C 1.22000000e-03 2
9.82020654e-01:1   2.94606196e+00:2   
#C 1.23000000e-03 2
9.91959624e-01:1   2.97587887e+00:2   
#C 1.24000000e-03 2
9.98021468e-01:1   2.99406440e+00:2   
#C 1.25000000e-03 2
9.99851752e-01:1   2.99955526e+00:2   
#C 1.26000000e-03 2
9.97761592e-01:1   2.99328478e+00:2   
#C 1.27000000e-03 2
9.91770282e-01:1   2.97531084e+00:2   
#C 1.28000000e-03 2
9.81901334e-01:1   2.94570400e+00:2   
#C 1.29000000e-03 2
9.68192967e-01:1   2.90457890e+00:2   
#C 1.30000000e-03 2
9.50697953e-01:1   2.85209386e+00:2   
#C 1.31000000e-03 2
9.29483425e-01:1   2.78845027e+00:2   
#C 1.32000000e-03 2
9.04630624e-01:1   2.71389187e+00:2   
#C 1.33000000e-03 2
8.76234598e-01:1   2.62870379e+00:2   
#C 1.34000000e-03 2
8.44261163e-01:1   2.53278349e+00:2   
#C 1.35000000e-03 2
8.08845031e-01:1   2.42653509e+00:2   
#C 1.36000000e-03 2
7.70273663e-01:1   2.31082099e+00:2   
#C 1.37000000e-03 2
7.28695846e-01:1   2.18608754e+00:2   
#C 1.38000000e-03 2
6.84271746e-01:1   2.05281524e+00:2   
#C 1.39000000e-03 2
6.37172316e-01:1   1.91151695e+00:2   
#C 1.40000000e-03 2
5.87578653e-01:1   1.76273596e+00:2   
#C 1.41000000e-03 2
5.35681315e-01:1   1.60704395e+00:2   
#C 1.42000000e-03 2
4.81679614e-01:1   1.44503884e+00:2   
#C 1.43000000e-03 2
4.25777846e-01:1   1.27733354e+00:2   
#C 1.44000000e-03 2
3.68069553e-01:1   1.10420866e+00:2   
#C 1.45000000e-03 2
3.08936062e-01:1   9.26808185e-01:2   
#C 1.46000000e-03 2
2.48604998e-01:1   7.45814995e-01:2   
#C 1.47000000e-03 2
1.87308504e-01:1   5.61925513e-01:2   
#C 1.48000000e-03 2
1.25282362e-01:1   3.75847087e-01:2   
#C 1.49000000e-03 2
6.27651151e-02:1   1.88295345e-01:2   
#C 1.50000000e-03 2
5.13309495e-07:1   1.53992848e-06:2   
#C 1.51000000e-03 2
-6.27851361e-02:1   -1.88355408e-01:2   
#C 1.52000000e-03 2
-1.25268940e-01:1   -3.75806821e-01:2   
#C 1.53000000e-03 2
-1.87292669e-01:1   -5.61878008e-01:2   
#C 1.54000000e-03 2
-2.48583791e-01:1   -7.45751372e-01:2   
#C 1.55000000e-03 2
-3.08901929e-01:1   -9.26705787e-01:2   
#C 1.56000000e-03 2
-3.68010476e-01:1   -1.10403143e+00:2   
#C 1.57000000e-03 2
-4.25677510e-01:1   -1.27703253e+00:2   
#C 1.58000000e-03 2
-4.81676697e-01:1   -1.44503009e+00:2   
#C 1.59000000e-03 2
-5.35788167e-01:1   -1.60736450e+00:2   
#C 1.60000000e-03 2
-5.87772238e-01:1   -1.76331672e+00:2   
#C 1.61000000e-03 2
-6.37354349e-01:1   -1.91206305e+00:2   
#C 1.62000000e-03 2
-6.84417754e-01:1   -2.05325326e+00:2   
#C 1.63000000e-03 2
-7.28778413e-01:1   -2.18633524e+00:2   
#C 1.64000000e-03 2
-7.70262863e-01:1   -2.31078859e+00:2   
#C 1.65000000e-03 2
-8.08708895e-01:1   -2.42612668e+00:2   
#C 1.66000000e-03 2
-8.43966173e-01:1   -2.53189852e+00:2   
#C 1.67000000e-03 2
-8.75896822e-01:1   -2.62769047e+00:2   
#C 1.68000000e-03 2
-9.04375959e-01:1   -2.71312788e+00:2   
#C 1.69000000e-03 2
-9.29292176e-01:1   -2.78787653e+00:2   
#C 1.70000000e-03 2
-9.50547971e-01:1   -2.85164391e+00:2   
#C 1.71000000e-03 2
-9.68060127e-01:1   -2.90418038e+00:2   
#C 1.72000000e-03 2
-9.81760031e-01:1   -2.94528009e+00:2   
#C 1.73000000e-03 2
-9.91593944e-01:1   -2.97478183e+00:2   
#C 1.74000000e-03 2
-9.97523206e-01:1   -2.99256962e+00:2   
#C 1.75000000e-03 2
-9.99524390e-01:1   -2.99857317e+00:2   
#C 1.76000000e-03 2
-9.97589391e-01:1   -2.99276817e+00:2   
#C 1.77000000e-03 2
-9.91725459e-01:1   -2.97517638e+00:2   
#C 1.78000000e-03 2
-9.81955175e-01:1   -2.94586553e+00:2   
#C 1.79000000e-03 2
-9.68316362e-01:1   -2.90494909e+00:2   
#C 1.80000000e-03 2
-9.50861941e-01:1   -2.85258582e+00:2   
#C 1.81000000e-03 2
-9.29659733e-01:1   -2.78897920e+00:2   
#C 1.82000000e-03 2
-9.04792190e-01:1   -2.71437657e+00:2   
#C 1.83000000e-03 2
-8.76258607e-01:1   -2.62877582e+00:2   
#C 1.84000000e-03 2
-8.44207928e-01:1   -2.53262379e+00:2   
#C 1.85000000e-03 2
-8.08838268e-01:1   -2.42651480e+00:2   
#C 1.86000000e-03 2
-7.70288881e-01:1   -2.31086664e+00:2   
#C 1.87000000e-03 2
-7.28711400e-01:1   -2.18613420e+00:2   
#C 1.88000000e-03 2
-6.84269248e-01:1   -2.05280774e+00:2   
#C 1.89000000e-03 2
-6.37136996e-01:1   -1.91141099e+00:2   
#C 1.90000000e-03 2
-5.87499691e-01:1   -1.76249907e+00:2   
#C 1.91000000e-03 2
-5.35552132e-01:1   -1.60665640e+00:2   
#C 1.92000000e-03 2
-4.81498115e-01:1   -1.44449434e+00:2   
#C 1.93000000e-03 2
-4.25549641e-01:1   -1.27664892e+00:2   
#C 1.94000000e-03 2
-3.67926094e-01:1   -1.10377828e+00:2   
#C 1.95000000e-03 2
-3.08853389e-01:1   -9.26560167e-01:2   
#C 1.96000000e-03 2
-2.48563096e-01:1   -7.45689287e-01:2   
#C 1.97000000e-03 2
-1.87291539e-01:1   -5.61874618e-01:2   
#C 1.98000000e-03 2
-1.25278885e-01:1   -3.75836656e-01:2   
#C 1.99000000e-03 2
-6.27682068e-02:1   -1.88304620e-01:2   
#C 2.00000000e-03 2
-4.89859482e-16:1   -1.46957506e-15:2   
#;
#H
SOURCE='Xyce' VERSION='7.0'
TITLE='* tran-step-probe.cir'
SUBTITLE='Step param VS1:VA = 2.0e+00 VS2:VA = 3.0e+00' 
TIME='05:11:06 PM' DATE='Dec 17, 2015' TEMPERATURE='2.70000000e+01'
ANALYSIS='Transient Analysis' SERIALNO='12345'
ALLVALUES='NO' COMPLEXVALUES='NO' NODES='2'
SWEEPVAR='Time' SWEEPMODE='VAR_STEP'
XBEGIN='0.00000000e+00' XEND='2.00000000e-03'
FORMAT='0 VOLTSorAMPS;EFLOAT : NODEorBRANCH;NODE  '  
DGTLDATA='NO'
#N
'V(1)' 'V(2)' 
#C 0.00000000e+00 2
0.00000000e+00:1   0.00000000e+00:2   
#C 1.00000000e-05 2
1.25554795e-01:1   1.88332192e-01:2   
#C 2.00000000e-05 2
2.50655019e-01:1   3.75982529e-01:2   
#C 3.00000000e-05 2
3.74685984e-01:1   5.62028976e-01:2   
#C 4.00000000e-05 2
4.97338983e-01:1   7.46008474e-01:2   
#C 5.00000000e-05 2
6.17913114e-01:1   9.26869671e-01:2   
#C 6.00000000e-05 2
7.36165278e-01:1   1.10424792e+00:2   
#C 7.00000000e-05 2
8.51403457e-01:1   1.27710519e+00:2   
#C 8.00000000e-05 2
9.63371286e-01:1   1.44505693e+00:2   
#C 9.00000000e-05 2
1.07147755e+00:1   1.60721632e+00:2   
#C 1.00000000e-04 2
1.17537759e+00:1   1.76306639e+00:2   
#C 1.10000000e-04 2
1.27466711e+00:1   1.91200066e+00:2   
#C 1.20000000e-04 2
1.36884433e+00:1   2.05326649e+00:2   
#C 1.30000000e-04 2
1.45776964e+00:1   2.18665446e+00:2   
#C 1.40000000e-04 2
1.54072370e+00:1   2.31108555e+00:2   
#C 1.50000000e-04 2
1.61789884e+00:1   2.42684826e+00:2   
#C 1.60000000e-04 2
1.68830801e+00:1   2.53246201e+00:2   
#C 1.70000000e-04 2
1.75253007e+00:1   2.62879510e+00:2   
#C 1.80000000e-04 2
1.80927219e+00:1   2.71390828e+00:2   
#C 1.90000000e-04 2
1.85954009e+00:1   2.78931013e+00:2   
#C 2.00000000e-04 2
1.90171046e+00:1   2.85256569e+00:2   
#C 2.10000000e-04 2
1.93709782e+00:1   2.90564673e+00:2   
#C 2.20000000e-04 2
1.96416629e+00:1   2.94624943e+00:2   
#C 2.30000000e-04 2
1.98408427e+00:1   2.97612641e+00:2   
#C 2.40000000e-04 2
1.99565532e+00:1   2.99348298e+00:2   
#C 2.50000000e-04 2
1.99978742e+00:1   2.99968113e+00:2   
#C 2.60000000e-04 2
1.99568087e+00:1   2.99352131e+00:2   
#C 2.70000000e-04 2
1.98396182e+00:1   2.97594272e+00:2   
#C 2.80000000e-04 2
1.96424178e+00:1   2.94636267e+00:2   
#C 2.90000000e-04 2
1.93685854e+00:1   2.90528780e+00:2   
#C 3.00000000e-04 2
1.90183239e+00:1   2.85274859e+00:2   
#C 3.10000000e-04 2
1.85922122e+00:1   2.78883183e+00:2   
#C 3.20000000e-04 2
1.80943484e+00:1   2.71415226e+00:2   
#C 3.30000000e-04 2
1.75227432e+00:1   2.62841149e+00:2   
#C 3.40000000e-04 2
1.68850357e+00:1   2.53275536e+00:2   
#C 3.50000000e-04 2
1.61770386e+00:1   2.42655579e+00:2   
#C 3.60000000e-04 2
1.54094249e+00:1   2.31141374e+00:2   
#C 3.70000000e-04 2
1.45763082e+00:1   2.18644624e+00:2   
#C 3.80000000e-04 2
1.36907501e+00:1   2.05361252e+00:2   
#C 3.90000000e-04 2
1.27457780e+00:1   1.91186670e+00:2   
#C 4.00000000e-04 2
1.17553728e+00:1   1.76330592e+00:2   
#C 4.10000000e-04 2
1.07142926e+00:1   1.60714389e+00:2   
#C 4.20000000e-04 2
9.63443857e-01:1   1.44516578e+00:2   
#C 4.30000000e-04 2
8.51386164e-01:1   1.27707925e+00:2   
#C 4.40000000e-04 2
7.36176419e-01:1   1.10426463e+00:2   
#C 4.50000000e-04 2
6.17915569e-01:1   9.26873354e-01:2   
#C 4.60000000e-04 2
4.97316919e-01:1   7.45975378e-01:2   
#C 4.70000000e-04 2
3.74696061e-01:1   5.62044091e-01:2   
#C 4.80000000e-04 2
2.50455927e-01:1   3.75683890e-01:2   
#C 4.90000000e-04 2
1.25490508e-01:1   1.88235762e-01:2   
#C 5.00000000e-04 2
3.03185514e-08:1   4.54778271e-08:2   
#C 5.10000000e-04 2
-1.25556957e-01:1   -1.88335435e-01:2   
#C 5.20000000e-04 2
-2.50641409e-01:1   -3.75962114e-01:2   
#C 5.30000000e-04 2
-3.74701483e-01:1   -5.62052224e-01:2   
#C 5.40000000e-04 2
-4.97299184e-01:1   -7.45948776e-01:2   
#C 5.50000000e-04 2
-6.17968765e-01:1   -9.26953148e-01:2   
#C 5.60000000e-04 2
-7.36105619e-01:1   -1.10415843e+00:2   
#C 5.70000000e-04 2
-8.51542704e-01:1   -1.27731406e+00:2   
#C 5.80000000e-04 2
-9.63315969e-01:1   -1.44497395e+00:2   
#C 5.90000000e-04 2
-1.07156644e+00:1   -1.60734966e+00:2   
#C 6.00000000e-04 2
-1.17536687e+00:1   -1.76305031e+00:2   
#C 6.10000000e-04 2
-1.27465505e+00:1   -1.91198258e+00:2   
#C 6.20000000e-04 2
-1.36893187e+00:1   -2.05339780e+00:2   
#C 6.30000000e-04 2
-1.45765920e+00:1   -2.18648880e+00:2   
#C 6.40000000e-04 2
-1.54097325e+00:1   -2.31145987e+00:2   
#C 6.50000000e-04 2
-1.61771023e+00:1   -2.42656535e+00:2   
#C 6.60000000e-04 2
-1.68854271e+00:1   -2.53281406e+00:2   
#C 6.70000000e-04 2
-1.75229838e+00:1   -2.62844758e+00:2   
#C 6.80000000e-04 2
-1.80939758e+00:1   -2.71409636e+00:2   
#C 6.90000000e-04 2
-1.85931190e+00:1   -2.78896784e+00:2   
#C 7.00000000e-04 2
-1.90175890e+00:1   -2.85263835e+00:2   
#C 7.10000000e-04 2
-1.93706991e+00:1   -2.90560487e+00:2   
#C 7.20000000e-04 2
-1.96418041e+00:1   -2.94627062e+00:2   
#C 7.30000000e-04 2
-1.98412537e+00:1   -2.97618805e+00:2   
#C 7.40000000e-04 2
-1.99568390e+00:1   -2.99352585e+00:2   
#C 7.50000000e-04 2
-1.99973657e+00:1   -2.99960486e+00:2   
#C 7.60000000e-04 2
-1.99577443e+00:1   -2.99366164e+00:2   
#C 7.70000000e-04 2
-1.98387038e+00:1   -2.97580557e+00:2   
#C 7.80000000e-04 2
-1.96444807e+00:1   -2.94667210e+00:2   
#C 7.90000000e-04 2
-1.93677836e+00:1   -2.90516754e+00:2   
#C 8.00000000e-04 2
-1.90204207e+00:1   -2.85306311e+00:2   
#C 8.10000000e-04 2
-1.85920011e+00:1   -2.78880017e+00:2   
#C 8.20000000e-04 2
-1.80943520e+00:1   -2.71415280e+00:2   
#C 8.30000000e-04 2
-1.75235179e+00:1   -2.62852768e+00:2   
#C 8.40000000e-04 2
-1.68836057e+00:1   -2.53254085e+00:2   
#C 8.50000000e-04 2
-1.61790712e+00:1   -2.42686069e+00:2   
#C 8.60000000e-04 2
-1.54071965e+00:1   -2.31107947e+00:2   
#C 8.70000000e-04 2
-1.45790579e+00:1   -2.18685869e+00:2   
#C 8.80000000e-04 2
-1.36882906e+00:1   -2.05324359e+00:2   
#C 8.90000000e-04 2
-1.27470869e+00:1   -1.91206303e+00:2   
#C 9.00000000e-04 2
-1.17538443e+00:1   -1.76307664e+00:2   
#C 9.10000000e-04 2
-1.07147395e+00:1   -1.60721093e+00:2   
#C 9.20000000e-04 2
-9.63418391e-01:1   -1.44512759e+00:2   
#C 9.30000000e-04 2
-8.51390931e-01:1   -1.27708640e+00:2   
#C 9.40000000e-04 2
-7.36245181e-01:1   -1.10436777e+00:2   
#C 9.50000000e-04 2
-6.17912075e-01:1   -9.26868113e-01:2   
#C 9.60000000e-04 2
-4.97332473e-01:1   -7.45998710e-01:2   
#C 9.70000000e-04 2
-3.74497981e-01:1   -5.61746971e-01:2   
#C 9.80000000e-04 2
-2.50584216e-01:1   -3.75876324e-01:2   
#C 9.90000000e-04 2
-1.25542779e-01:1   -1.88314169e-01:2   
#C 1.00000000e-03 2
1.47709463e-05:1   2.21564195e-05:2   
#C 1.01000000e-03 2
1.25557740e-01:1   1.88336610e-01:2   
#C 1.02000000e-03 2
2.50658015e-01:1   3.75987022e-01:2   
#C 1.03000000e-03 2
3.74665088e-01:1   5.61997633e-01:2   
#C 1.04000000e-03 2
4.97221135e-01:1   7.45831702e-01:2   
#C 1.05000000e-03 2
6.17890732e-01:1   9.26836098e-01:2   
#C 1.06000000e-03 2
7.36244852e-01:1   1.10436728e+00:2   
#C 1.07000000e-03 2
8.51357496e-01:1   1.27703624e+00:2   
#C 1.08000000e-03 2
9.63199624e-01:1   1.44479944e+00:2   
#C 1.09000000e-03 2
1.07138302e+00:1   1.60707453e+00:2   
#C 1.10000000e-03 2
1.17552295e+00:1   1.76328443e+00:2   
#C 1.11000000e-03 2
1.27457516e+00:1   1.91186274e+00:2   
#C 1.12000000e-03 2
1.36866009e+00:1   2.05299013e+00:2   
#C 1.13000000e-03 2
1.45754475e+00:1   2.18631713e+00:2   
#C 1.14000000e-03 2
1.54091301e+00:1   2.31136951e+00:2   
#C 1.15000000e-03 2
1.61772563e+00:1   2.42658845e+00:2   
#C 1.16000000e-03 2
1.68812817e+00:1   2.53219225e+00:2   
#C 1.17000000e-03 2
