Index       TIME              V(A)              V(B)       
0        0.00000000e+00    5.00000000e+00    8.33333333e-01
1        3.00000000e-01    5.09410831e+00    8.49018052e-01
2        9.00000000e-01    5.27899111e+00    8.79831851e-01
3        1.50000000e+00    5.45399050e+00    9.08998417e-01
4        2.10000000e+00    5.61290705e+00    9.35484509e-01
5        2.70000000e+00    5.75011107e+00    9.58351845e-01
6        3.30000000e+00    5.86074203e+00    9.76790338e-01
7        3.90000000e+00    5.94088077e+00    9.90146795e-01
8        4.50000000e+00    5.98768834e+00    9.97948057e-01
9        5.10000000e+00    5.99950656e+00    9.99917760e-01
10       5.70000000e+00    5.97591676e+00    9.95986127e-01
11       6.30000000e+00    5.91775463e+00    9.86292438e-01
12       6.90000000e+00    5.82708057e+00    9.71180096e-01
13       7.50000000e+00    5.70710678e+00    9.51184464e-01
14       8.10000000e+00    5.56208338e+00    9.27013896e-01
15       8.70000000e+00    5.39714789e+00    8.99524648e-01
16       9.30000000e+00    5.21814324e+00    8.69690540e-01
17       9.90000000e+00    5.03141076e+00    8.38568460e-01
18       1.11000000e+01    4.66126208e+00    7.76877013e-01
19       1.23000000e+01    4.33868813e+00    7.23114689e-01
20       1.24697204e+01    4.29965154e+00    7.16608591e-01
21       1.26394408e+01    4.26260553e+00    7.10434255e-01
22       1.29788816e+01    4.19490046e+00    6.99150077e-01
23       1.33183224e+01    4.13634212e+00    6.89390354e-01
24       1.36577632e+01    4.08759579e+00    6.81265966e-01
25       1.39972041e+01    4.04921528e+00    6.74869214e-01
26       1.43366449e+01    4.02163663e+00    6.70272771e-01
27       1.46760857e+01    4.00517315e+00    6.67528859e-01
28       1.50155265e+01    4.00001190e+00    6.66668649e-01
29       1.53549673e+01    4.00621150e+00    6.67701916e-01
30       1.56944081e+01    4.02370152e+00    6.70616920e-01
31       1.60338489e+01    4.05228327e+00    6.75380544e-01
32       1.63732897e+01    4.09163201e+00    6.81938669e-01
33       1.67127305e+01    4.14130072e+00    6.90216787e-01
34       1.70521714e+01    4.20072511e+00    7.00120851e-01
35       1.73916122e+01    4.26923005e+00    7.11538341e-01
36       1.77310530e+01    4.34603726e+00    7.24339543e-01
37       1.80704938e+01    4.43027413e+00    7.38379022e-01
38       1.84099346e+01    4.52098366e+00    7.53497277e-01
39       1.90888162e+01    4.71763664e+00    7.86272774e-01
40       1.97676978e+01    4.92708489e+00    8.21180815e-01
41       2.04465795e+01    5.13983728e+00    8.56639547e-01
42       2.18043427e+01    5.53697822e+00    9.22829703e-01
43       2.29255574e+01    5.79505058e+00    9.65841764e-01
44       2.38268112e+01    5.93284418e+00    9.88807363e-01
45       2.46291664e+01    5.99322145e+00    9.98870242e-01
46       2.53512861e+01    5.99391654e+00    9.98986090e-01
47       2.60734057e+01    5.94367800e+00    9.90612999e-01
48       2.67955254e+01    5.84508032e+00    9.74180054e-01
49       2.75176451e+01    5.70317619e+00    9.50529365e-01
50       2.82397647e+01    5.52523753e+00    9.20872922e-01
51       2.89618844e+01    5.32038287e+00    8.86730479e-01
52       2.96840040e+01    5.09911008e+00    8.49851680e-01
53       3.11282434e+01    4.65292717e+00    7.75487861e-01
54       3.13409897e+01    4.59106716e+00    7.65177860e-01
55       3.15537361e+01    4.53103321e+00    7.55172202e-01
56       3.19792288e+01    4.41750644e+00    7.36251073e-01
57       3.24047215e+01    4.31437237e+00    7.19062061e-01
58       3.28302142e+01    4.22347109e+00    7.03911848e-01
59       3.32557069e+01    4.14642443e+00    6.91070738e-01
60       3.36811996e+01    4.08460705e+00    6.80767841e-01
61       3.41066923e+01    4.03912187e+00    6.73186978e-01
62       3.45321850e+01    4.01078043e+00    6.68463405e-01
63       3.49576777e+01    4.00008839e+00    6.66681398e-01
64       3.53831705e+01    4.00723651e+00    6.67872752e-01
65       3.58086632e+01    4.03209726e+00    6.72016210e-01
66       3.62341559e+01    4.07422708e+00    6.79037847e-01
67       3.66596486e+01    4.13287430e+00    6.88812384e-01
68       3.70851413e+01    4.20699255e+00    7.01165426e-01
69       3.75106340e+01    4.29525944e+00    7.15876573e-01
70       3.79361267e+01    4.39610012e+00    7.32683354e-01
71       3.83616194e+01    4.50771543e+00    7.51285905e-01
72       3.87871121e+01    4.62811395e+00    7.71352325e-01
73       3.92126048e+01    4.75514757e+00    7.92524595e-01
74       4.00635902e+01    5.01997613e+00    8.36662689e-01
75       4.09145757e+01    5.28338543e+00    8.80564238e-01
76       4.17655611e+01    5.52666057e+00    9.21110095e-01
77       4.26165465e+01    5.73251720e+00    9.55419533e-01
78       4.34675319e+01    5.88632948e+00    9.81054914e-01
79       4.42334188e+01    5.97114068e+00    9.95190114e-01
80       4.49227170e+01    5.99970528e+00    9.99950879e-01
81       4.56120152e+01    5.98157295e+00    9.96928825e-01
82       4.63013133e+01    5.91759068e+00    9.86265114e-01
83       4.69906115e+01    5.81074713e+00    9.68457855e-01
84       4.76799097e+01    5.66603302e+00    9.44338837e-01
85       4.83692079e+01    5.49020806e+00    9.15034677e-01
86       4.90585061e+01    5.29148514e+00    8.81914191e-01
87       4.97478043e+01    5.07914676e+00    8.46524459e-01
88       5.11264007e+01    4.65347014e+00    7.75578357e-01
89       5.13397202e+01    4.59143116e+00    7.65238527e-01
90       5.15530397e+01    4.53122645e+00    7.55204409e-01
91       5.19796787e+01    4.41739156e+00    7.36231926e-01
92       5.24063177e+01    4.31400741e+00    7.19001235e-01
93       5.28329567e+01    4.22292850e+00    7.03821417e-01
94       5.32595957e+01    4.14578859e+00    6.90964765e-01
95       5.36862348e+01    4.08397141e+00    6.80661901e-01
96       5.41128738e+01    4.03858581e+00    6.73097636e-01
97       5.45395128e+01    4.01044594e+00    6.68407656e-01
98       5.49661518e+01    4.00005654e+00    6.66676090e-01
99       5.53927908e+01    4.00760399e+00    6.67933998e-01
100      5.58194299e+01    4.03295289e+00    6.72158816e-01
101      5.62460689e+01    4.07564856e+00    6.79274760e-01
102      5.66727079e+01    4.13492511e+00    6.89154185e-01
103      5.70993469e+01    4.20971925e+00    7.01619875e-01
104      5.75259859e+01    4.29868934e+00    7.16448223e-01
105      5.79526249e+01    4.40023944e+00    7.33373240e-01
106      5.83792640e+01    4.51254796e+00    7.52091326e-01
107      5.88059030e+01    4.63360033e+00    7.72266721e-01
108      5.92325420e+01    4.76122512e+00    7.93537520e-01
109      6.00000000e+01    5.00000000e+00    8.33333333e-01
0        0.00000000e+00    5.00000000e+00    7.69230769e-01
1        3.00000000e-01    5.09410831e+00    7.83708971e-01
2        9.00000000e-01    5.27899111e+00    8.12152478e-01
3        1.50000000e+00    5.45399050e+00    8.39075461e-01
4        2.10000000e+00    5.61290705e+00    8.63524162e-01
5        2.70000000e+00    5.75011107e+00    8.84632472e-01
6        3.30000000e+00    5.86074203e+00    9.01652620e-01
7        3.90000000e+00    5.94088077e+00    9.13981657e-01
8        4.50000000e+00    5.98768834e+00    9.21182822e-01
9        5.10000000e+00    5.99950656e+00    9.23001009e-01
10       5.70000000e+00    5.97591676e+00    9.19371810e-01
11       6.30000000e+00    5.91775463e+00    9.10423789e-01
12       6.90000000e+00    5.82708057e+00    8.96473935e-01
13       7.50000000e+00    5.70710678e+00    8.78016428e-01
14       8.10000000e+00    5.56208338e+00    8.55705135e-01
15       8.70000000e+00    5.39714789e+00    8.30330445e-01
16       9.30000000e+00    5.21814324e+00    8.02791268e-01
17       9.90000000e+00    5.03141076e+00    7.74063194e-01
18       1.11000000e+01    4.66126208e+00    7.17117243e-01
19       1.23000000e+01    4.33868813e+00    6.67490482e-01
20       1.24699333e+01    4.29960380e+00    6.61477507e-01
21       1.26398667e+01    4.26251517e+00    6.55771565e-01
22       1.29797333e+01    4.19474178e+00    6.45344890e-01
23       1.33196000e+01    4.13613987e+00    6.36329212e-01
24       1.36594667e+01    4.08737689e+00    6.28827214e-01
25       1.39993334e+01    4.04900822e+00    6.22924342e-01
26       1.43392000e+01    4.02147086e+00    6.18687825e-01
27       1.46790667e+01    4.00507845e+00    6.16165916e-01
28       1.50189334e+01    4.00001769e+00    6.15387337e-01
29       1.53588000e+01    4.00634622e+00    6.16360956e-01
30       1.56986667e+01    4.02399195e+00    6.19075685e-01
31       1.60385334e+01    4.05275392e+00    6.23500603e-01
32       1.63784000e+01    4.09230454e+00    6.29585314e-01
33       1.67182667e+01    4.14219334e+00    6.37260515e-01
34       1.70581334e+01    4.20185213e+00    6.46438789e-01
35       1.73980001e+01    4.27060142e+00    6.57015602e-01
36       1.77378667e+01    4.34765818e+00    6.68870489e-01
37       1.80777334e+01    4.43214478e+00    6.81868428e-01
38       1.84176001e+01    4.52309896e+00    6.95861379e-01
39       1.90973334e+01    4.72020452e+00    7.26185311e-01
40       1.97770668e+01    4.93002070e+00    7.58464723e-01
41       2.04568001e+01    5.14301591e+00    7.91233217e-01
42       2.11365334e+01    5.34951416e+00    8.23002178e-01
43       2.18162668e+01    5.54013460e+00    8.52328400e-01
44       2.24960001e+01    5.70621767e+00    8.77879642e-01
45       2.31757335e+01    5.84021852e+00    8.98495157e-01
46       2.38554668e+01    5.93604972e+00    9.13238419e-01
47       2.45352001e+01    5.98935784e+00    9.21439667e-01
48       2.52149335e+01    5.99772117e+00    9.22726333e-01
49       2.58946668e+01    5.96075978e+00    9.17039966e-01
50       2.65744002e+01    5.88015277e+00    9.04638887e-01
51       2.72541335e+01    5.75956197e+00    8.86086456e-01
52       2.79338668e+01    5.60446560e+00    8.62225477e-01
53       2.86136002e+01    5.42190943e+00    8.34139912e-01
54       2.92933335e+01    5.22018666e+00    8.03105640e-01
55       2.99730669e+01    5.00846119e+00    7.70532491e-01
56       3.13325335e+01    4.59349291e+00    7.06691216e-01
57       3.15349557e+01    4.53625234e+00    6.97884976e-01
58       3.17373779e+01    4.48088656e+00    6.89367163e-01
59       3.21422222e+01    4.37666617e+00    6.73333258e-01
60       3.25470665e+01    4.28251536e+00    6.58848517e-01
61       3.29519108e+01    4.19995506e+00    6.46146932e-01
62       3.33567551e+01    4.13031899e+00    6.35433691e-01
63       3.37615994e+01    4.07473208e+00    6.26881859e-01
64       3.41664437e+01    4.03409231e+00    6.20629586e-01
65       3.45712880e+01    4.00905617e+00    6.16777872e-01
66       3.49761323e+01    4.00002811e+00    6.15388940e-01
67       3.53809766e+01    4.00715398e+00    6.16485228e-01
68       3.57858209e+01    4.03031867e+00    6.20049026e-01
69       3.61906652e+01    4.06914795e+00    6.26022762e-01
70       3.65955095e+01    4.12301457e+00    6.34309934e-01
71       3.70003538e+01    4.19104835e+00    6.44776669e-01
72       3.74051982e+01    4.27215024e+00    6.57253883e-01
73       3.78100425e+01    4.36501009e+00    6.71540015e-01
74       3.82148868e+01    4.46812782e+00    6.87404279e-01
75       3.86197311e+01    4.57983760e+00    7.04590400e-01
76       3.90245754e+01    4.69833485e+00    7.22820747e-01
77       3.98342640e+01    4.94795602e+00    7.61224003e-01
78       4.14536412e+01    5.44096616e+00    8.37071716e-01
79       4.16640260e+01    5.49928138e+00    8.46043290e-01
80       4.18744108e+01    5.55541631e+00    8.54679433e-01
81       4.22951804e+01    5.66017534e+00    8.70796206e-01
82       4.27159499e+01    5.75341535e+00    8.85140824e-01
83       4.31367195e+01    5.83350947e+00    8.97462995e-01
84       4.35574891e+01    5.89906016e+00    9.07547717e-01
85       4.39782587e+01    5.94892369e+00    9.15219029e-01
86       4.43990282e+01    5.98223000e+00    9.20343077e-01
87       4.48197978e+01    5.99839796e+00    9.22830455e-01
88       4.52405674e+01    5.99714546e+00    9.22637763e-01
89       4.56613370e+01    5.97849435e+00    9.19768362e-01
90       4.60821065e+01    5.94277007e+00    9.14272319e-01
91       4.65028761e+01    5.89059596e+00    9.06245532e-01
92       4.69236457e+01    5.82288235e+00    8.95828054e-01
93       4.73444152e+01    5.74081076e+00    8.83201655e-01
94       4.77651848e+01    5.64581319e+00    8.68586645e-01
95       4.81859544e+01    5.53954721e+00    8.52238033e-01
96       4.86067240e+01    5.42386699e+00    8.34441075e-01
97       4.90274935e+01    5.30079096e+00    8.15506302e-01
98       4.98690327e+01    5.04113299e+00    7.75558921e-01
99       5.15521110e+01    4.53148419e+00    6.97151414e-01
100      5.17403615e+01    4.48008563e+00    6.89243943e-01
101      5.19286121e+01    4.43050501e+00    6.81616155e-01
102      5.23051132e+01    4.33748404e+00    6.67305237e-01
103      5.26816143e+01    4.25372118e+00    6.54418644e-01
104      5.30581154e+01    4.18038695e+00    6.43136454e-01
105      5.34346165e+01    4.11850612e+00    6.33616327e-01
106      5.38111176e+01    4.06894344e+00    6.25991298e-01
107      5.41876187e+01    4.03239149e+00    6.20367921e-01
108      5.45641198e+01    4.00936106e+00    6.16824779e-01
109      5.49406210e+01    4.00017399e+00    6.15411383e-01
110      5.53171221e+01    4.00495865e+00    6.16147485e-01
111      5.56936232e+01    4.02364818e+00    6.19022797e-01
112      5.60701243e+01    4.05598142e+00    6.23997141e-01
113      5.64466254e+01    4.10150652e+00    6.31001003e-01
114      5.68231265e+01    4.15958732e+00    6.39936511e-01
115      5.71996276e+01    4.22941219e+00    6.50678798e-01
116      5.75761287e+01    4.31000538e+00    6.63077750e-01
117      5.79526298e+01    4.40024067e+00    6.76960102e-01
118      5.83291309e+01    4.49885709e+00    6.92131860e-01
119      5.87056320e+01    4.60447657e+00    7.08381010e-01
120      5.94586343e+01    4.83074367e+00    7.43191334e-01
121      6.00000000e+01    5.00000000e+00    7.69230769e-01
0        0.00000000e+00    5.00000000e+00    7.14285714e-01
1        3.00000000e-01    5.09410831e+00    7.27729759e-01
2        9.00000000e-01    5.27899111e+00    7.54141587e-01
3        1.50000000e+00    5.45399050e+00    7.79141500e-01
4        2.10000000e+00    5.61290705e+00    8.01843865e-01
5        2.70000000e+00    5.75011107e+00    8.21444439e-01
6        3.30000000e+00    5.86074203e+00    8.37248861e-01
7        3.90000000e+00    5.94088077e+00    8.48697253e-01
8        4.50000000e+00    5.98768834e+00    8.55384049e-01
9        5.10000000e+00    5.99950656e+00    8.57072366e-01
10       5.70000000e+00    5.97591676e+00    8.53702395e-01
11       6.30000000e+00    5.91775463e+00    8.45393518e-01
12       6.90000000e+00    5.82708057e+00    8.32440082e-01
13       7.50000000e+00    5.70710678e+00    8.15300969e-01
14       8.10000000e+00    5.56208338e+00    7.94583340e-01
15       8.70000000e+00    5.39714789e+00    7.71021127e-01
16       9.30000000e+00    5.21814324e+00    7.45449034e-01
17       9.90000000e+00    5.03141076e+00    7.18772966e-01
18       1.11000000e+01    4.66126208e+00    6.65894583e-01
19       1.23000000e+01    4.33868813e+00    6.19812591e-01
20       1.24701032e+01    4.29956570e+00    6.14223672e-01
21       1.26402065e+01    4.26244308e+00    6.08920440e-01
22       1.29804129e+01    4.19461521e+00    5.99230745e-01
23       1.33206194e+01    4.13597860e+00    5.90854086e-01
24       1.36608259e+01    4.08720242e+00    5.83886060e-01
25       1.40010323e+01    4.04884331e+00    5.78406188e-01
26       1.43412388e+01    4.02133905e+00    5.74477008e-01
27       1.46814453e+01    4.00500352e+00    5.72143360e-01
28       1.50216517e+01    4.00002313e+00    5.71431876e-01
29       1.53618582e+01    4.00645474e+00    5.72350677e-01
30       1.57020647e+01    4.02422494e+00    5.74889277e-01
31       1.60422711e+01    4.05313093e+00    5.79018704e-01
32       1.63824776e+01    4.09284283e+00    5.84691832e-01
33       1.67226840e+01    4.14290743e+00    5.91843919e-01
34       1.70628905e+01    4.20275340e+00    6.00393343e-01
35       1.74030970e+01    4.27169774e+00    6.10242535e-01
36       1.77433034e+01    4.34895366e+00    6.21279094e-01
37       1.80835099e+01    4.43363948e+00    6.33377069e-01
38       1.84237164e+01    4.52478875e+00    6.46398393e-01
39       1.91041293e+01    4.72225488e+00    6.74607840e-01
40       1.97845422e+01    4.93236362e+00    7.04623375e-01
41       2.04649552e+01    5.14555109e+00    7.35078727e-01
42       2.11453681e+01    5.35211325e+00    7.64587608e-01
43       2.18257810e+01    5.54264765e+00    7.91806807e-01
44       2.25061940e+01    5.70848139e+00    8.15497342e-01
45       2.31866069e+01    5.84206593e+00    8.34580847e-01
46       2.38670198e+01    5.93732066e+00    8.48188665e-01
47       2.45474327e+01    5.98990970e+00    8.55701385e-01
48       2.52278457e+01    5.99743926e+00    8.56777037e-01
49       2.59082586e+01    5.95956661e+00    8.51366658e-01
50       2.65886715e+01    5.87801566e+00    8.39716523e-01
51       2.72690845e+01    5.75649852e+00    8.22356931e-01
52       2.79494974e+01    5.60054649e+00    8.00078069e-01
53       2.86299103e+01    5.41725832e+00    7.73894045e-01
54       2.93103233e+01    5.21497706e+00    7.44996723e-01
55       2.99907362e+01    5.00291031e+00    7.14701473e-01
56       3.13515620e+01    4.58803844e+00    6.55434062e-01
57       3.15532086e+01    4.53117957e+00    6.47311367e-01
58       3.17548552e+01    4.47620150e+00    6.39457357e-01
59       3.21581484e+01    4.37276158e+00    6.24680225e-01
60       3.25614416e+01    4.27937691e+00    6.11339559e-01
61       3.29647347e+01    4.19754455e+00    5.99649221e-01
62       3.33680279e+01    4.12857634e+00    5.89796620e-01
63       3.37713211e+01    4.07357792e+00    5.81939703e-01
64       3.41746142e+01    4.03343097e+00    5.76204424e-01
65       3.45779074e+01    4.00877908e+00    5.72682725e-01
66       3.49812006e+01    4.00001744e+00    5.71431063e-01
67       3.53844937e+01    4.00728652e+00    5.72469503e-01
68       3.57877869e+01    4.03046978e+00    5.75781397e-01
69       3.61910801e+01    4.06919558e+00    5.81313654e-01
70       3.65943732e+01    4.12284309e+00    5.88977585e-01
71       3.69976664e+01    4.19055230e+00    5.98650329e-01
72       3.74009596e+01    4.27123777e+00    6.10176824e-01
73       3.78042527e+01    4.36360601e+00    6.23372287e-01
74       3.82075459e+01    4.46617628e+00    6.38025183e-01
75       3.86108391e+01    4.57730428e+00    6.53900611e-01
76       3.90141322e+01    4.69520851e+00    6.70744073e-01
77       3.98207186e+01    4.94370685e+00    7.06243836e-01
78       4.14338912e+01    5.43538889e+00    7.76484127e-01
79       4.16451246e+01    5.49412765e+00    7.84875378e-01
80       4.18563580e+01    5.55069117e+00    7.92955882e-01
81       4.22788247e+01    5.65630721e+00    8.08043888e-01
82       4.27012914e+01    5.75037931e+00    8.21482758e-01
83       4.31237581e+01    5.83125280e+00    8.33036114e-01
84       4.35462249e+01    5.89750518e+00    8.42500740e-01
85       4.39686916e+01    5.94797112e+00    8.49710161e-01
86       4.43911583e+01    5.98176297e+00    8.54537568e-01
87       4.48136251e+01    5.99828636e+00    8.56898051e-01
88       4.52360918e+01    5.99725064e+00    8.56750091e-01
89       4.56585585e+01    5.97867403e+00    8.54096290e-01
90       4.60810252e+01    5.94288329e+00    8.48983327e-01
91       4.65034920e+01    5.89050795e+00    8.41501135e-01
92       4.69259587e+01    5.82246924e+00    8.31781320e-01
93       4.73484254e+01    5.73996392e+00    8.19994846e-01
94       4.77708922e+01    5.64444320e+00    8.06349028e-01
95       4.81933589e+01    5.53758721e+00    7.91083887e-01
96       4.86158256e+01    5.42127546e+00    7.74467923e-01
97       4.90382923e+01    5.29755380e+00    7.56793400e-01
98       4.98832258e+01    5.03667747e+00    7.19525353e-01
99       5.15730927e+01    4.52567102e+00    6.46524432e-01
