Index        TIME             V(4)             V(6)             V(11)
0       1.00000000e-02   -2.44929360e-16  8.43697617e-02   6.56307559e-02   
1       1.00010000e-02   6.28314397e-04   6.99491097e-02   5.18508955e-02   
2       1.00019978e-02   1.25520578e-03   5.55531568e-02   3.80947159e-02   
3       1.00029955e-02   1.88204783e-03   4.11513376e-02   2.43330176e-02   
4       1.00049911e-02   3.13548539e-03   1.23328783e-02   -3.20425162e-03  
5       1.00089822e-02   5.64068474e-03   -4.53183495e-02  -5.82911023e-02  
6       1.00134420e-02   8.43579514e-03   -1.09701117e-01  -1.19807445e-01  
7       1.00179017e-02   1.12242821e-02   -1.73991103e-01  -1.81231743e-01  
8       1.00268213e-02   1.67726353e-02   -3.02019794e-01  -3.03540893e-01  
9       1.00357408e-02   2.22683223e-02   -4.29075419e-01  -4.24899177e-01  
10      1.00535798e-02   3.30328918e-02   -6.78308388e-01  -6.62872675e-01  
11      1.00627496e-02   3.84132090e-02   -8.03683102e-01  -7.82529638e-01  
12      1.00719194e-02   4.36660467e-02   -9.26216293e-01  -8.99431401e-01  
13      1.00801723e-02   4.82701882e-02   -1.03387419e+00  -1.00210068e+00  
14      1.00884251e-02   5.27445681e-02   -1.13870069e+00  -1.10202795e+00  
15      1.00966779e-02   5.70771581e-02   -1.24044401e+00  -1.19897166e+00  
16      1.01049307e-02   6.12525664e-02   -1.33895856e+00  -1.29279206e+00  
17      1.01131836e-02   6.52707928e-02   -1.43424434e+00  -1.38348917e+00  
18      1.01277865e-02   7.19377761e-02   -1.59122799e+00  -1.53279438e+00  
19      1.01423894e-02   7.79995700e-02   -1.73558921e+00  -1.66994518e+00  
20      1.01569923e-02   8.34051784e-02   -1.86549213e+00  -1.79321806e+00  
21      1.01715952e-02   8.80959349e-02   -1.97995388e+00  -1.90172353e+00  
22      1.01861981e-02   9.20718395e-02   -2.07897445e+00  -1.99546157e+00  
23      1.01993408e-02   9.49655073e-02   -2.15180934e+00  -2.06436829e+00  
24      1.02124834e-02   9.72345568e-02   -2.21022428e+00  -2.11955599e+00  
25      1.02263281e-02   9.88959304e-02   -2.25274338e+00  -2.15971215e+00  
26      1.02401727e-02   9.98094287e-02   -2.27941164e+00  -2.18488659e+00  
27      1.02517468e-02   9.99939772e-02   -2.28890992e+00  -2.19385065e+00  
28      1.02633208e-02   9.96499437e-02   -2.28594729e+00  -2.19105497e+00  
29      1.02748949e-02   9.87791468e-02   -2.27065559e+00  -2.17662249e+00  
30      1.02806819e-02   9.81479383e-02   -2.25901176e+00  -2.16563028e+00  
31      1.02864689e-02   9.73861897e-02   -2.24470261e+00  -2.15212075e+00  
32      1.02948564e-02   9.60545019e-02   -2.21666724e+00  -2.12564326e+00  
33      1.03022508e-02   9.46591328e-02   -2.18719838e+00  -2.09780131e+00  
34      1.03096453e-02   9.30594709e-02   -2.15298032e+00  -2.06545914e+00  
35      1.03244341e-02   8.92615117e-02   -2.06943459e+00  -1.98643549e+00  
36      1.03358911e-02   8.57878549e-02   -1.99336404e+00  -1.91441534e+00  
37      1.03473480e-02   8.18698355e-02   -1.90671988e+00  -1.83231225e+00  
38      1.03588050e-02   7.75277481e-02   -1.81008190e+00  -1.74065548e+00  
39      1.03702620e-02   7.27922740e-02   -1.70471328e+00  -1.64062237e+00  
40      1.03817189e-02   6.76634133e-02   -1.59061402e+00  -1.53221293e+00  
41      1.03980097e-02   5.97856337e-02   -1.41136455e+00  -1.36171811e+00  
42      1.04126713e-02   5.21580565e-02   -1.23873053e+00  -1.19734171e+00  
43      1.04273329e-02   4.40881566e-02   -1.05573349e+00  -1.02294430e+00  
44      1.04419946e-02   3.56443704e-02   -8.63799549e-01  -8.39891409e-01  
45      1.04530047e-02   2.91008027e-02   -7.14941480e-01  -6.97841766e-01  
46      1.04575233e-02   2.63731756e-02   -6.52975256e-01  -6.38692486e-01  
47      1.04620419e-02   2.36242913e-02   -5.90329163e-01  -5.78885127e-01  
48      1.04710792e-02   1.80716288e-02   -4.63299915e-01  -4.57587092e-01  
49      1.04801165e-02   1.24607139e-02   -3.34815392e-01  -3.34870579e-01  
50      1.04981910e-02   1.13660154e-03   -7.48424106e-02  -8.65035072e-02  
51      1.05162655e-02   -1.02021540e-02  1.85971592e-01   1.62717131e-01   
52      1.05343401e-02   -2.14094722e-02  4.44540639e-01   4.09800309e-01   
53      1.05524146e-02   -3.23409659e-02  6.97621560e-01   6.51607243e-01   
54      1.05614519e-02   -3.76504660e-02  8.21203924e-01   7.69658957e-01   
55      1.05704891e-02   -4.28558015e-02  9.42814224e-01   8.85809503e-01   
56      1.05795264e-02   -4.79061728e-02  1.06089334e+00   9.98559113e-01   
57      1.05885636e-02   -5.28185132e-02  1.17596097e+00   1.10840771e+00   
58      1.06066382e-02   -6.21007485e-02  1.39260981e+00   1.31513498e+00   
59      1.06229053e-02   -6.97739089e-02  1.57359983e+00   1.48772236e+00   
60      1.06391723e-02   -7.67187973e-02  1.73849718e+00   1.64485275e+00   
61      1.06554394e-02   -8.28629256e-02  1.88552500e+00   1.78484880e+00   
62      1.06717065e-02   -8.81237963e-02  2.01336736e+00   1.90649259e+00   
63      1.06879736e-02   -9.25014096e-02  2.12202427e+00   2.00978412e+00   
64      1.07036441e-02   -9.57882113e-02  2.20259609e+00   2.08633363e+00   
65      1.07193147e-02   -9.81471341e-02  2.26316913e+00   2.14385178e+00   
66      1.07334183e-02   -9.94577527e-02  2.29952258e+00   2.17835839e+00   
67      1.07475218e-02   -9.99878773e-02  2.31777066e+00   2.19567556e+00   
68      1.07616253e-02   -9.97333476e-02  2.31785183e+00   2.19575269e+00   
69      1.07633882e-02   -9.96463928e-02  2.31731292e+00   2.19524134e+00   
70      1.07648663e-02   -9.95640681e-02  2.31650811e+00   2.19447766e+00   
71      1.07663443e-02   -9.94731565e-02  2.31538732e+00   2.19341415e+00   
72      1.07678224e-02   -9.93736661e-02  2.31397919e+00   2.19207794e+00   
73      1.07693004e-02   -9.92656085e-02  2.31235558e+00   2.19053724e+00   
74      1.07707784e-02   -9.91489837e-02  2.31051650e+00   2.18879205e+00   
75      1.07736643e-02   -9.88966445e-02  2.30590486e+00   2.18441571e+00   
76      1.07765501e-02   -9.86117911e-02  2.30053001e+00   2.17931489e+00   
77      1.07823218e-02   -9.79449266e-02  2.28716993e+00   2.16663491e+00   
78      1.07880935e-02   -9.71492671e-02  2.27099686e+00   2.15128327e+00   
79      1.07996368e-02   -9.51759162e-02  2.22911059e+00   2.11151500e+00   
80      1.08096885e-02   -9.30495245e-02  2.18390204e+00   2.06857776e+00   
81      1.08197401e-02   -9.05521074e-02  2.13006587e+00   2.01742726e+00   
82      1.08297918e-02   -8.76936229e-02  2.06780368e+00   1.95824644e+00   
83      1.08398434e-02   -8.44897331e-02  1.99794606e+00   1.89181376e+00   
84      1.08498951e-02   -8.09404379e-02  1.92049299e+00   1.81812920e+00   
85      1.08655263e-02   -7.47919928e-02  1.78193306e+00   1.68622399e+00   
86      1.08795945e-02   -6.86402157e-02  1.64419126e+00   1.55500468e+00   
87      1.08936627e-02   -6.19524815e-02  1.49397809e+00   1.41181334e+00   
88      1.09077308e-02   -5.47810095e-02  1.33235076e+00   1.25765100e+00   
89      1.09217990e-02   -4.72015746e-02  1.16149355e+00   1.09460169e+00   
90      1.09358671e-02   -3.92141770e-02  9.81406480e-01   9.22665417e-01   
91      1.09526395e-02   -2.93202513e-02  7.55056300e-01   7.06477177e-01   
92      1.09591811e-02   -2.53670246e-02  6.65176976e-01   6.20613360e-01   
93      1.09657227e-02   -2.13709493e-02  5.74056104e-01   5.33554959e-01   
94      1.09722643e-02   -1.73387753e-02  4.81939171e-01   4.45538100e-01   
95      1.09788059e-02   -1.32796003e-02  3.89151816e-01   3.56876249e-01   
96      1.09853475e-02   -9.19342443e-03  2.95694038e-01   2.67569405e-01   
97      1.09984307e-02   -9.85983675e-04  1.07079855e-01   8.73318584e-02   
98      1.10115139e-02   7.22811616e-03   -8.18747846e-02  -9.32203646e-02  
99      1.10245972e-02   1.53933992e-02   -2.70108946e-01  -2.73057418e-01  
100     1.10376804e-02   2.34547194e-02   -4.56419400e-01  -4.51013692e-01  
101     1.10507636e-02   3.13398412e-02   -6.39260285e-01  -6.25592405e-01  
102     1.10638468e-02   3.90487647e-02   -8.18631602e-01  -7.96793555e-01  
103     1.10754938e-02   4.56752528e-02   -9.73037864e-01  -9.44088383e-01  
104     1.10871407e-02   5.20572446e-02   -1.12230935e+00  -1.08640560e+00  
105     1.10987877e-02   5.81605779e-02   -1.26558559e+00  -1.22291986e+00  
106     1.11104346e-02   6.39422472e-02   -1.40214675e+00  -1.35294301e+00  
107     1.11220816e-02   6.94022526e-02   -1.53199282e+00  -1.47647505e+00  
108     1.11337286e-02   7.44665781e-02   -1.65274637e+00  -1.59126272e+00  
109     1.11453755e-02   7.91598956e-02   -1.76519989e+00  -1.69805712e+00  
110     1.11655242e-02   8.62413942e-02   -1.93375617e+00  -1.85793770e+00  
111     1.11831172e-02   9.12992231e-02   -2.05745337e+00  -1.97509482e+00  
112     1.11989509e-02   9.48998883e-02   -2.14747165e+00  -2.06024977e+00  
113     1.12147846e-02   9.75620594e-02   -2.21583888e+00  -2.12485981e+00  
114     1.12306183e-02   9.92594092e-02   -2.26196415e+00  -2.16841743e+00  
115     1.12433988e-02   9.99139962e-02   -2.28312484e+00  -2.18839106e+00  
116     1.12561793e-02   9.99246385e-02   -2.28899161e+00  -2.19392779e+00  
117     1.12689598e-02   9.92912674e-02   -2.27977305e+00  -2.18522802e+00  
118     1.12817403e-02   9.80179651e-02   -2.25559751e+00  -2.16240746e+00  
119     1.12927439e-02   9.64151885e-02   -2.22320372e+00  -2.13181737e+00  
120     1.13037476e-02   9.43517262e-02   -2.17983740e+00  -2.09084502e+00  
121     1.13147512e-02   9.18374377e-02   -2.12585561e+00  -2.03981134e+00  
122     1.13257548e-02   8.88890402e-02   -2.06225968e+00  -1.97963928e+00  
123     1.13367585e-02   8.55065337e-02   -1.98904961e+00  -1.91032886e+00  
124     1.13514913e-02   8.03473817e-02   -1.87289175e+00  -1.80023744e+00  
125     1.13647509e-02   7.51145118e-02   -1.75594369e+00  -1.68927216e+00  
126     1.13780105e-02   6.93605765e-02   -1.62692511e+00  -1.56672486e+00  
127     1.13912701e-02   6.31254906e-02   -1.48662554e+00  -1.43332771e+00  
128     1.14045297e-02   5.64679365e-02   -1.33687172e+00  -1.29080632e+00  
129     1.14177893e-02   4.93879143e-02   -1.17766365e+00  -1.13916070e+00  
130     1.14340867e-02   4.02407798e-02   -9.68582022e-01  -9.39841261e-01  
131     1.14503841e-02   3.06720600e-02   -7.50511606e-01  -7.31790540e-01  
132     1.14554240e-02   2.76432011e-02   -6.81839186e-01  -6.66245443e-01  
133     1.14604638e-02   2.45866253e-02   -6.12246697e-01  -5.99810486e-01  
134     1.14655036e-02   2.15053975e-02   -5.41924389e-01  -5.32667973e-01  
135     1.14705435e-02   1.84036440e-02   -4.71096659e-01  -4.65033231e-01  
136     1.14755833e-02   1.52813649e-02   -3.99763508e-01  -3.96906260e-01  
137     1.14856629e-02   8.99605936e-03   -2.55479087e-01  -2.59083977e-01  
138     1.14957426e-02   2.67468283e-03   -1.10327806e-01  -1.20408645e-01  
139     1.15159019e-02   -9.97485436e-03  1.80706970e-01   1.57686308e-01   
140     1.15360612e-02   -2.24645693e-02  4.68879721e-01   4.33057154e-01   
141     1.15542046e-02   -3.34031636e-02  7.22251548e-01   6.75136879e-01   
142     1.15587405e-02   -3.60754955e-02  7.84706386e-01   7.34798255e-01   
143     1.15632763e-02   -3.87185279e-02  8.46373533e-01   7.93702057e-01   
144     1.15678122e-02   -4.13301143e-02  9.07287918e-01   8.51881231e-01   
145     1.15723480e-02   -4.39074357e-02  9.67506065e-01   9.09389231e-01   
146     1.15768839e-02   -4.64504920e-02  1.02702798e+00   9.66226057e-01   
147     1.15859555e-02   -5.14199977e-02  1.14281200e+00   1.07676578e+00   
148     1.15950272e-02   -5.62224901e-02  1.25521949e+00   1.18405171e+00   
149     1.16040989e-02   -6.08423706e-02  1.36372057e+00   1.28757665e+00   
150     1.16131706e-02   -6.52598461e-02  1.46803284e+00   1.38707052e+00   
151     1.16222423e-02   -6.94749164e-02  1.56815628e+00   1.48253331e+00   
152     1.16313140e-02   -7.34529802e-02  1.66275804e+00   1.57269661e+00   
153     1.16403857e-02   -7.72055713e-02  1.75228239e+00   1.65798323e+00   
154     1.16585291e-02   -8.39339795e-02  1.91149113e+00   1.80956140e+00   
155     1.16748581e-02   -8.90601477e-02  2.03550261e+00   1.92753282e+00   
156     1.16911872e-02   -9.32496519e-02  2.13843490e+00   2.02537914e+00   
157     1.17075162e-02   -9.64584304e-02  2.21907049e+00   2.10197987e+00   
158     1.17238453e-02   -9.86450431e-02  2.27716856e+00   2.15715065e+00   
159     1.17401743e-02   -9.98094900e-02  2.31272909e+00   2.19089146e+00   
160     1.17514014e-02   -9.99961231e-02  2.32067558e+00   2.19843207e+00   
161     1.17533216e-02   -9.99782222e-02  2.32152292e+00   2.19923612e+00   
162     1.17553807e-02   -9.99428568e-02  2.32189909e+00   2.19959308e+00   
163     1.17574398e-02   -9.98907632e-02  2.32178756e+00   2.19948727e+00   
164     1.17594988e-02   -9.98219501e-02  2.32121944e+00   2.19894821e+00   
165     1.17615579e-02   -9.97364338e-02  2.32028504e+00   2.19806160e+00   
166     1.17636170e-02   -9.96342143e-02  2.31898437e+00   2.19682743e+00   
167     1.17677351e-02   -9.93797752e-02  2.31461042e+00   2.19267695e+00   
168     1.17710275e-02   -9.91284880e-02  2.31014907e+00   2.18844338e+00   
169     1.17776123e-02   -9.84987819e-02  2.29789705e+00   2.17681606e+00   
170     1.17835385e-02   -9.77878737e-02  2.28381707e+00   2.16345250e+00   
171     1.17894648e-02   -9.69413972e-02  2.26663371e+00   2.14714141e+00   
172     1.18013173e-02   -9.48466201e-02  2.22208615e+00   2.10484446e+00   
173     1.18107183e-02   -9.28105569e-02  2.17884376e+00   2.06377269e+00   
174     1.18201193e-02   -9.04507688e-02  2.12797563e+00   2.01544089e+00   
175     1.18295203e-02   -8.77754867e-02  2.06971303e+00   1.96006167e+00   
176     1.18389212e-02   -8.47975084e-02  2.00480793e+00   1.89834077e+00   
177     1.18483222e-02   -8.15168341e-02  1.93326034e+00   1.83027818e+00   
178     1.18638419e-02   -7.54903238e-02  1.79751766e+00   1.70106502e+00   
179     1.18777830e-02   -6.94634864e-02  1.66265266e+00   1.57259680e+00   
180     1.18917241e-02   -6.29040122e-02  1.51539722e+00   1.43223650e+00   
181     1.19056651e-02   -5.58621981e-02  1.35676788e+00   1.28094577e+00   
182     1.19196062e-02   -4.84111334e-02  1.18889089e+00   1.12075213e+00   
183     1.19335473e-02   -4.05508181e-02  1.01176624e+00   9.51655592e-01   
184     1.19503647e-02   -3.06836838e-02  7.86096265e-01   7.36128112e-01   
185     1.19603159e-02   -2.46766794e-02  6.49309234e-01   6.05453616e-01   
186     1.19702671e-02   -1.85732349e-02  5.09981969e-01   4.72333337e-01   
187     1.19802183e-02   -1.23972036e-02  3.68717992e-01   3.37349724e-01   
188     1.19901696e-02   -6.18083103e-03  2.26381033e-01   2.01336693e-01   
189     1.20001208e-02   7.58828808e-05   8.29710937e-02   6.42942421e-02   
190     1.20013647e-02   8.57438865e-04   6.49563060e-02   4.70799734e-02   
191     1.20038525e-02   2.42034597e-03   2.89458350e-02   1.26700919e-02   
192     1.20088281e-02   5.54400433e-03   -4.30136517e-02  -5.60889575e-02  
193     1.20129599e-02   8.13392712e-03   -1.02704531e-01  -1.13122510e-01  
194     1.20170916e-02   1.07183683e-02   -1.62303265e-01  -1.70065164e-01  
195     1.20253552e-02   1.58638437e-02   -2.81030885e-01  -2.83490966e-01  
196     1.20336188e-02   2.09665623e-02   -3.98969745e-01  -3.96145688e-01  
197     1.20501459e-02   3.09888692e-02   -6.30919872e-01  -6.17635073e-01  
198     1.20650203e-02   3.97264998e-02   -8.34035269e-01  -8.11491112e-01  
199     1.20776720e-02   4.68884560e-02   -1.00121918e+00  -9.70963185e-01  
200     1.20890082e-02   5.30554792e-02   -1.14568387e+00  -1.10868316e+00  
201     1.21003444e-02   5.89534472e-02   -1.28425613e+00  -1.24070220e+00  
202     1.21116806e-02   6.45524501e-02   -1.41628593e+00  -1.36639949e+00  
203     1.21230168e-02   6.98151832e-02   -1.54124992e+00  -1.48527921e+00  
204     1.21343530e-02   7.47416463e-02   -1.65914812e+00  -1.59734136e+00  
205     1.21493893e-02   8.06755674e-02   -1.80000294e+00  -1.73108933e+00  
206     1.21644256e-02   8.58899370e-02   -1.92564973e+00  -1.85025448e+00  
207     1.21794620e-02   9.03382477e-02   -2.03423403e+00  -1.95311531e+00  
208     1.21944983e-02   9.39699953e-02   -2.12500618e+00  -2.03902211e+00  
209     1.22095346e-02   9.67851797e-02   -2.19796617e+00  -2.10797488e+00  
210     1.22244092e-02   9.87100817e-02   -2.24727260e+00  -2.15454667e+00  
211     1.22392838e-02   9.97734052e-02   -2.27793736e+00  -2.18349512e+00  
212     1.22524211e-02   9.99884298e-02   -2.28876392e+00  -2.19371288e+00  
213     1.22655584e-02   9.95225656e-02   -2.28361638e+00  -2.18885522e+00  
214     1.22786957e-02   9.83789850e-02   -2.26262868e+00  -2.16904534e+00  
215     1.22891226e-02   9.69939407e-02   -2.23520955e+00  -2.14315629e+00  
216     1.22995495e-02   9.51927372e-02   -2.19777134e+00  -2.10779178e+00  
217     1.23099764e-02   9.29831029e-02   -2.15068232e+00  -2.06328649e+00  
218     1.23204033e-02   9.03782489e-02   -2.09485348e+00  -2.01048190e+00  
219     1.23308302e-02   8.73781755e-02   -2.03028481e+00  -1.94937800e+00  
220     1.23451141e-02   8.26677329e-02   -1.92449684e+00  -1.84916351e+00  
221     1.23579696e-02   7.78582047e-02   -1.81729506e+00  -1.74749970e+00  
222     1.23708251e-02   7.25409767e-02   -1.69834299e+00  -1.63457633e+00  
223     1.23836807e-02   6.67507217e-02   -1.56831409e+00  -1.51101334e+00  
224     1.23965362e-02   6.05387288e-02   -1.42887295e+00  -1.37837779e+00  
225     1.24093917e-02   5.39049980e-02   -1.28001957e+00  -1.23666967e+00  
226     1.24257651e-02   4.49701776e-02   -1.07598675e+00  -1.04225267e+00  
227     1.24421386e-02   3.55598237e-02   -8.61804358e-01  -8.37987896e-01  
228     1.24585120e-02   2.57734453e-02   -6.38741828e-01  -6.25104797e-01  
229     1.24695827e-02   1.89956335e-02   -4.84158699e-01  -4.77506886e-01  
230     1.24806533e-02   1.21259492e-02   -3.27007071e-01  -3.27411988e-01  
231     1.24917240e-02   5.19761760e-03   -1.68172224e-01  -1.75674826e-01  
232     1.25027947e-02   -1.74464213e-03  -8.79689170e-03  -2.34000533e-02  
233     1.25138653e-02   -8.70083002e-03  1.51118925e-01   1.29412328e-01   
234     1.25360067e-02   -2.24311546e-02  4.68026088e-01   4.32241481e-01   
235     1.25559339e-02   -3.44252759e-02  7.45885012e-01   6.97713841e-01   
236     1.25609157e-02   -3.73467646e-02  8.14222015e-01   7.62991939e-01   
237     1.25658975e-02   -4.02316644e-02  8.81573641e-01   8.27322308e-01   
238     1.25708793e-02   -4.30771489e-02  9.47984725e-01   8.90747243e-01   
239     1.25758611e-02   -4.58795148e-02  1.01351600e+00   9.53324087e-01   
240     1.25808428e-02   -4.86387624e-02  1.07816747e+00   1.01505284e+00   
241     1.25908064e-02   -5.40098154e-02  1.20339552e+00   1.13459296e+00   
242     1.26007700e-02   -5.91692649e-02  1.32432532e+00   1.24999215e+00   
243     1.26107336e-02   -6.40968968e-02  1.44027032e+00   1.36059393e+00   
244     1.26206972e-02   -6.87672980e-02  1.55084812e+00   1.46603383e+00   
245     1.26306608e-02   -7.31804684e-02  1.65605872e+00   1.56631187e+00   
246     1.26406244e-02   -7.72926079e-02  1.75424183e+00   1.65985149e+00   
247     1.26505880e-02   -8.11183165e-02  1.84595089e+00   1.74717821e+00   
248     1.26705152e-02   -8.77861649e-02  2.00437770e+00   1.89793247e+00   
249     1.26872111e-02   -9.23183247e-02  2.11530053e+00   2.00339397e+00   
250     1.27022373e-02   -9.55306368e-02  2.19567712e+00   2.07976186e+00   
251     1.27172635e-02   -9.78920447e-02  2.25643450e+00   2.13745816e+00   
252     1.27322898e-02   -9.93815150e-02  2.29714375e+00   2.17610073e+00   
253     1.27446771e-02   -9.99440771e-02  2.31577979e+00   2.19378637e+00   
254     1.27570644e-02   -9.99015072e-02  2.32014202e+00   2.19792581e+00   
255     1.27694517e-02   -9.92540631e-02  2.31041506e+00   2.18869575e+00   
256     1.27818389e-02   -9.80056650e-02  2.28671728e+00   2.16620524e+00   
257     1.27930377e-02   -9.63660360e-02  2.25358067e+00   2.13474934e+00   
