Index         TIME              V(VOUT)          {V(IN)+1.0}           V(1)
0       0.0000000000e+00   2.0000000000e+00   1.0000000000e+00   2.0000000000e+00   
1       2.9296875000e-11   1.8567510187e+00   1.9576828105e+00   2.0000000000e+00   
2       2.9310709002e-11   1.8576041696e+00   1.9595200727e+00   2.0000000000e+00   
3       2.9311789880e-11   1.8576691557e+00   1.9596619066e+00   2.0000000000e+00   
4       2.9312870758e-11   1.8577329404e+00   1.9598023101e+00   2.0000000000e+00   
5       2.9313951636e-11   1.8577955480e+00   1.9599412956e+00   2.0000000000e+00   
6       2.9315032514e-11   1.8578570019e+00   1.9600788736e+00   2.0000000000e+00   
7       2.9316113392e-11   1.8579173252e+00   1.9602150551e+00   2.0000000000e+00   
8       2.9317194270e-11   1.8579765403e+00   1.9603498516e+00   2.0000000000e+00   
9       2.9318275148e-11   1.8580346690e+00   1.9604832750e+00   2.0000000000e+00   
10      2.9319356026e-11   1.8580917327e+00   1.9606153378e+00   2.0000000000e+00   
11      2.9320436905e-11   1.8581477523e+00   1.9607460527e+00   2.0000000000e+00   
12      2.9321517783e-11   1.8582027480e+00   1.9608754329e+00   2.0000000000e+00   
13      2.9323679539e-11   1.8583088496e+00   1.9611287373e+00   2.0000000000e+00   
14      2.9328003051e-11   1.8585065543e+00   1.9616146788e+00   2.0000000000e+00   
15      2.9332326564e-11   1.8586905946e+00   1.9620817325e+00   2.0000000000e+00   
16      2.9340973589e-11   1.8590115544e+00   1.9629450999e+00   2.0000000000e+00   
17      2.9349620613e-11   1.8592908766e+00   1.9637465736e+00   2.0000000000e+00   
18      2.9358267638e-11   1.8595338467e+00   1.9644919054e+00   2.0000000000e+00   
19      2.9366914663e-11   1.8597449820e+00   1.9651864605e+00   2.0000000000e+00   
20      2.9375561688e-11   1.8599281600e+00   1.9658351713e+00   2.0000000000e+00   
21      2.9384208713e-11   1.8600867230e+00   1.9664425360e+00   2.0000000000e+00   
22      2.9392855738e-11   1.8602235627e+00   1.9670126364e+00   2.0000000000e+00   
23      2.9401502762e-11   1.8603411898e+00   1.9675491659e+00   2.0000000000e+00   
24      2.9410149787e-11   1.8604417911e+00   1.9680554604e+00   2.0000000000e+00   
25      2.9418796812e-11   1.8605272772e+00   1.9685345302e+00   2.0000000000e+00   
26      2.9427443837e-11   1.8605993221e+00   1.9689890896e+00   2.0000000000e+00   
27      2.9436090862e-11   1.8606593959e+00   1.9694215856e+00   2.0000000000e+00   
28      2.9444737887e-11   1.8607087935e+00   1.9698342237e+00   2.0000000000e+00   
29      2.9453384911e-11   1.8607486573e+00   1.9702289919e+00   2.0000000000e+00   
30      2.9462031936e-11   1.8607799979e+00   1.9706076818e+00   2.0000000000e+00   
31      2.9470678961e-11   1.8608037106e+00   1.9709719084e+00   2.0000000000e+00   
32      2.9479325986e-11   1.8608205902e+00   1.9713231274e+00   2.0000000000e+00   
33      2.9487973011e-11   1.8608313432e+00   1.9716626516e+00   2.0000000000e+00   
34      2.9496620036e-11   1.8608365990e+00   1.9719916641e+00   2.0000000000e+00   
35      2.9505267060e-11   1.8608369188e+00   1.9723112322e+00   2.0000000000e+00   
36      2.9513914085e-11   1.8608328035e+00   1.9726223182e+00   2.0000000000e+00   
37      2.9522561110e-11   1.8608247012e+00   1.9729257898e+00   2.0000000000e+00   
38      2.9531208135e-11   1.8608130128e+00   1.9732224300e+00   2.0000000000e+00   
39      2.9539855160e-11   1.8607980973e+00   1.9735129446e+00   2.0000000000e+00   
40      2.9548502185e-11   1.8607802768e+00   1.9737979705e+00   2.0000000000e+00   
41      2.9557149209e-11   1.8607598403e+00   1.9740780820e+00   2.0000000000e+00   
42      2.9565796234e-11   1.8607370474e+00   1.9743537971e+00   2.0000000000e+00   
43      2.9574443259e-11   1.8607121314e+00   1.9746255831e+00   2.0000000000e+00   
44      2.9583090284e-11   1.8606853021e+00   1.9748938614e+00   2.0000000000e+00   
45      2.9591737309e-11   1.8606567483e+00   1.9751590119e+00   2.0000000000e+00   
46      2.9600384334e-11   1.8606266400e+00   1.9754213774e+00   2.0000000000e+00   
47      2.9609031358e-11   1.8605951304e+00   1.9756812666e+00   2.0000000000e+00   
48      2.9617678383e-11   1.8605623575e+00   1.9759389580e+00   2.0000000000e+00   
49      2.9625054759e-11   1.8605335592e+00   1.9761573412e+00   2.0000000000e+00   
50      2.9628385815e-11   1.8605203894e+00   1.9762556793e+00   2.0000000000e+00   
51      2.9630604457e-11   1.8605115466e+00   1.9763210569e+00   2.0000000000e+00   
52      2.9632823099e-11   1.8605026348e+00   1.9763863183e+00   2.0000000000e+00   
53      2.9635041741e-11   1.8604936558e+00   1.9764514671e+00   2.0000000000e+00   
54      2.9637260383e-11   1.8604846115e+00   1.9765165072e+00   2.0000000000e+00   
55      2.9641697667e-11   1.8604662757e+00   1.9766461805e+00   2.0000000000e+00   
56      2.9646134951e-11   1.8604477054e+00   1.9767754732e+00   2.0000000000e+00   
57      2.9650572235e-11   1.8604289133e+00   1.9769044101e+00   2.0000000000e+00   
58      2.9655009520e-11   1.8604099111e+00   1.9770330152e+00   2.0000000000e+00   
59      2.9663884088e-11   1.8603711520e+00   1.9772890692e+00   2.0000000000e+00   
60      2.9672758656e-11   1.8603317142e+00   1.9775441184e+00   2.0000000000e+00   
61      2.9681633224e-11   1.8602916670e+00   1.9777982998e+00   2.0000000000e+00   
62      2.9690507792e-11   1.8602510724e+00   1.9780517365e+00   2.0000000000e+00   
63      2.9699382361e-11   1.8602099868e+00   1.9783045383e+00   2.0000000000e+00   
64      2.9708256929e-11   1.8601684608e+00   1.9785568039e+00   2.0000000000e+00   
65      2.9726006065e-11   1.8600839816e+00   1.9790598327e+00   2.0000000000e+00   
66      2.9743755202e-11   1.8599983466e+00   1.9795618675e+00   2.0000000000e+00   
67      2.9761504338e-11   1.8599117803e+00   1.9800633210e+00   2.0000000000e+00   
68      2.9779253474e-11   1.8598244673e+00   1.9805645232e+00   2.0000000000e+00   
69      2.9797002611e-11   1.8597365592e+00   1.9810657362e+00   2.0000000000e+00   
70      2.9832500884e-11   1.8595592188e+00   1.9820695624e+00   2.0000000000e+00   
71      2.9867999156e-11   1.8593809379e+00   1.9830756061e+00   2.0000000000e+00   
72      2.9903497429e-11   1.8592021282e+00   1.9840843476e+00   2.0000000000e+00   
73      2.9938995702e-11   1.8590230756e+00   1.9850960274e+00   2.0000000000e+00   
74      3.0009992247e-11   1.8586652577e+00   1.9871311475e+00   2.0000000000e+00   
75      3.0080988793e-11   1.8583083180e+00   1.9891771173e+00   2.0000000000e+00   
76      3.0222981884e-11   1.8575996741e+00   1.9933020543e+00   2.0000000000e+00   
77      3.0364974975e-11   1.8568961939e+00   1.9974502655e+00   2.0000000000e+00   
78      3.0648961158e-11   1.8555069459e+00   2.0057831800e+00   2.0000000000e+00   
79      3.1216933522e-11   1.8527620333e+00   2.0223712195e+00   2.0000000000e+00   
80      3.1784905887e-11   1.8500038977e+00   2.0387740760e+00   2.0000000000e+00   
81      3.2352878252e-11   1.8471958688e+00   2.0549351298e+00   2.0000000000e+00   
82      3.2920850616e-11   1.8443088837e+00   2.0708260170e+00   2.0000000000e+00   
83      3.3488822981e-11   1.8413199890e+00   2.0864333980e+00   2.0000000000e+00   
84      3.4056795346e-11   1.8382109778e+00   2.1017522668e+00   2.0000000000e+00   
85      3.4624767710e-11   1.8349672838e+00   2.1167825136e+00   2.0000000000e+00   
86      3.5192740075e-11   1.8315771104e+00   2.1315271066e+00   2.0000000000e+00   
87      3.5760712440e-11   1.8280307483e+00   2.1459910880e+00   2.0000000000e+00   
88      3.6328684804e-11   1.8243200371e+00   2.1601809907e+00   2.0000000000e+00   
89      3.6896657169e-11   1.8204379403e+00   2.1741044792e+00   2.0000000000e+00   
90      3.7464629534e-11   1.8163782066e+00   2.1877701106e+00   2.0000000000e+00   
91      3.8032601898e-11   1.8121351020e+00   2.2011871630e+00   2.0000000000e+00   
92      3.8600574263e-11   1.8077032015e+00   2.2143654938e+00   2.0000000000e+00   
93      3.9168546628e-11   1.8030772347e+00   2.2273154052e+00   2.0000000000e+00   
94      3.9736518992e-11   1.7982519832e+00   2.2400474946e+00   2.0000000000e+00   
95      4.0304491357e-11   1.7932222316e+00   2.2525724707e+00   2.0000000000e+00   
96      4.0872463722e-11   1.7879827754e+00   2.2649009172e+00   2.0000000000e+00   
97      4.1440436086e-11   1.7825284896e+00   2.2770429905e+00   2.0000000000e+00   
98      4.2008408451e-11   1.7768544551e+00   2.2890080508e+00   2.0000000000e+00   
99      4.2576380816e-11   1.7709561328e+00   2.3008042413e+00   2.0000000000e+00   
100     4.3144353180e-11   1.7648295554e+00   2.3124380631e+00   2.0000000000e+00   
101     4.3712325545e-11   1.7584714917e+00   2.3239140146e+00   2.0000000000e+00   
102     4.4280297910e-11   1.7518795503e+00   2.3352343474e+00   2.0000000000e+00   
103     4.4848270274e-11   1.7450523082e+00   2.3463988644e+00   2.0000000000e+00   
104     4.5416242639e-11   1.7379896785e+00   2.3574046477e+00   2.0000000000e+00   
105     4.5984215004e-11   1.7306934371e+00   2.3682461356e+00   2.0000000000e+00   
106     4.6552187368e-11   1.7231674279e+00   2.3789160606e+00   2.0000000000e+00   
107     4.7120159733e-11   1.7154172976e+00   2.3894067383e+00   2.0000000000e+00   
108     4.7688132098e-11   1.7074500075e+00   2.3997110398e+00   2.0000000000e+00   
109     4.8824076827e-11   1.6907303629e+00   2.4195115629e+00   2.0000000000e+00   
110     4.9960021556e-11   1.6732661278e+00   2.4385274533e+00   2.0000000000e+00   
111     5.1095966286e-11   1.6551222346e+00   2.4567532712e+00   2.0000000000e+00   
112     5.2231911015e-11   1.6363606217e+00   2.4741958056e+00   2.0000000000e+00   
113     5.3367855744e-11   1.6170392696e+00   2.4908721699e+00   2.0000000000e+00   
114     5.5639745203e-11   1.5765736607e+00   2.5213707162e+00   2.0000000000e+00   
115     5.7911634662e-11   1.5346206306e+00   2.5492679457e+00   2.0000000000e+00   
116     6.0183524120e-11   1.4914899291e+00   2.5747948427e+00   2.0000000000e+00   
117     6.2455413579e-11   1.4474511851e+00   2.5981739424e+00   2.0000000000e+00   
118     6.4727303038e-11   1.4027392794e+00   2.6196124708e+00   2.0000000000e+00   
119     6.6999192496e-11   1.3575594414e+00   2.6393001627e+00   2.0000000000e+00   
120     6.9271081955e-11   1.3120913486e+00   2.6574075701e+00   2.0000000000e+00   
121     7.3814860872e-11   1.2211234274e+00   2.6884307177e+00   2.0000000000e+00   
122     7.8358639789e-11   1.1310110288e+00   2.7151095835e+00   2.0000000000e+00   
123     8.2902418707e-11   1.0425052158e+00   2.7381026001e+00   2.0000000000e+00   
124     8.7446197624e-11   9.5627218095e-01   2.7578778457e+00   2.0000000000e+00   
125     9.1989976541e-11   8.7291077270e-01   2.7747958261e+00   2.0000000000e+00   
126     9.6533755459e-11   7.9292788511e-01   2.7892501108e+00   2.0000000000e+00   
127     1.0107753438e-10   7.1679812162e-01   2.8017339291e+00   2.0000000000e+00   
128     1.0562131329e-10   6.4532208287e-01   2.8128331938e+00   2.0000000000e+00   
129     1.1016509221e-10   5.8056683012e-01   2.8233443256e+00   2.0000000000e+00   
130     1.1351784957e-10   5.3870621087e-01   2.8313482975e+00   2.0000000000e+00   
131     1.1594763590e-10   5.1278525125e-01   2.8376197554e+00   2.0000000000e+00   
132     1.1788727863e-10   4.9547840429e-01   2.8430755842e+00   2.0000000000e+00   
133     1.1982692137e-10   4.8173108673e-01   2.8490331677e+00   2.0000000000e+00   
134     1.2176656410e-10   4.7138102459e-01   2.8554525247e+00   2.0000000000e+00   
135     1.2346054422e-10   4.6466762696e-01   2.8613440085e+00   2.0000000000e+00   
136     1.2515452435e-10   4.5988445779e-01   2.8674236930e+00   2.0000000000e+00   
137     1.2684850448e-10   4.5661251480e-01   2.8735841330e+00   2.0000000000e+00   
138     1.2821553201e-10   4.5475026820e-01   2.8785540364e+00   2.0000000000e+00   
139     1.2958255955e-10   4.5347992268e-01   2.8834750346e+00   2.0000000000e+00   
140     1.3075994223e-10   4.5272424532e-01   2.8876510376e+00   2.0000000000e+00   
141     1.3193732491e-10   4.5222360535e-01   2.8917441170e+00   2.0000000000e+00   
142     1.3311470760e-10   4.5191165278e-01   2.8957384677e+00   2.0000000000e+00   
143     1.3429209028e-10   4.5173675279e-01   2.8996227630e+00   2.0000000000e+00   
144     1.3546947296e-10   4.5165944964e-01   2.9033894667e+00   2.0000000000e+00   
145     1.3664685565e-10   4.5165005970e-01   2.9070341149e+00   2.0000000000e+00   
146     1.3782423833e-10   4.5168655926e-01   2.9105546524e+00   2.0000000000e+00   
147     1.3900162102e-10   4.5175281969e-01   2.9139508584e+00   2.0000000000e+00   
148     1.4135638638e-10   4.5193433214e-01   2.9202623106e+00   2.0000000000e+00   
149     1.4371115175e-10   4.5212539736e-01   2.9261153879e+00   2.0000000000e+00   
150     1.4606591712e-10   4.5230564810e-01   2.9315377586e+00   2.0000000000e+00   
151     1.5077544786e-10   4.5258892055e-01   2.9408874892e+00   2.0000000000e+00   
152     1.5548497859e-10   4.5278842216e-01   2.9489437338e+00   2.0000000000e+00   
153     1.6490404006e-10   4.5297182190e-01   2.9611565341e+00   2.0000000000e+00   
154     1.7432310153e-10   4.5301138257e-01   2.9704209966e+00   2.0000000000e+00   
155     1.8374216301e-10   4.5297349076e-01   2.9774588144e+00   2.0000000000e+00   
156     1.9316122448e-10   4.5290176564e-01   2.9828120195e+00   2.0000000000e+00   
157     2.0258028595e-10   4.5282094749e-01   2.9868880728e+00   2.0000000000e+00   
158     2.1199934742e-10   4.5274361709e-01   2.9899941506e+00   2.0000000000e+00   
159     2.3083747036e-10   4.5262840605e-01   2.9938234897e+00   2.0000000000e+00   
160     2.4967559331e-10   4.5254720320e-01   2.9961857290e+00   2.0000000000e+00   
161     2.6851371625e-10   4.5249288071e-01   2.9976438769e+00   2.0000000000e+00   
162     3.0618996213e-10   4.5244155923e-01   2.9989468043e+00   2.0000000000e+00   
163     3.4386620802e-10   4.5241786931e-01   2.9995291463e+00   2.0000000000e+00   
164     4.1921869979e-10   4.5240415032e-01   2.9998644538e+00   2.0000000000e+00   
165     4.9457119156e-10   4.5240037761e-01   2.9999610050e+00   2.0000000000e+00   
166     6.4527617511e-10   4.5239948429e-01   2.9999934803e+00   2.0000000000e+00   
167     9.4668614219e-10   4.5240020460e-01   2.9999994459e+00   2.0000000000e+00   
168     1.5495060764e-09   4.5240214998e-01   3.0000000206e+00   2.0000000000e+00   
169     2.7551459447e-09   4.5240608723e-01   3.0000000489e+00   2.0000000000e+00   
170     5.1664256814e-09   4.5241394236e-01   3.0000000495e+00   2.0000000000e+00   
171     9.9889851548e-09   4.5242956565e-01   3.0000000492e+00   2.0000000000e+00   
172     1.9634104102e-08   4.5246043972e-01   3.0000000487e+00   2.0000000000e+00   
173     2.9279223048e-08   4.5249096913e-01   3.0000000481e+00   2.0000000000e+00   
174     4.8569460942e-08   4.5255065820e-01   3.0000000471e+00   2.0000000000e+00   
175     6.7859698835e-08   4.5260900307e-01   3.0000000460e+00   2.0000000000e+00   
176     1.0644017462e-07   4.5272057497e-01   3.0000000440e+00   2.0000000000e+00   
177     1.4502065041e-07   4.5282723766e-01   3.0000000421e+00   2.0000000000e+00   
178     1.8360112620e-07   4.5292921046e-01   3.0000000403e+00   2.0000000000e+00   
179     2.2218160198e-07   4.5302670285e-01   3.0000000386e+00   2.0000000000e+00   
180     2.9934255356e-07   4.5320533566e-01   3.0000000354e+00   2.0000000000e+00   
181     3.7650350513e-07   4.5336895828e-01   3.0000000324e+00   2.0000000000e+00   
182     4.5366445671e-07   4.5351884598e-01   3.0000000297e+00   2.0000000000e+00   
183     5.3082540828e-07   4.5365616472e-01   3.0000000273e+00   2.0000000000e+00   
184     6.0798635985e-07   4.5378197936e-01   3.0000000250e+00   2.0000000000e+00   
185     6.8514731143e-07   4.5389726277e-01   3.0000000229e+00   2.0000000000e+00   
186     8.3514731143e-07   4.5408764965e-01   3.0000000195e+00   2.0000000000e+00   
187     9.8514731143e-07   4.5424938089e-01   3.0000000166e+00   2.0000000000e+00   
188     1.1351473114e-06   4.5438678985e-01   3.0000000141e+00   2.0000000000e+00   
189     1.2851473114e-06   4.5450355276e-01   3.0000000120e+00   2.0000000000e+00   
190     1.4351473114e-06   4.5460278502e-01   3.0000000102e+00   2.0000000000e+00   
191     1.5000000000e-06   4.5464290411e-01   3.0000000095e+00   2.0000000000e+00   
192     1.5000250000e-06   4.5476070240e-01   2.9952253886e+00   1.9900000000e+00   
193     1.5000585733e-06   4.5500158575e-01   2.9851334987e+00   1.9765706805e+00   
194     1.5000921466e-06   4.5517603902e-01   2.9732923804e+00   1.9631413610e+00   
195     1.5001257199e-06   4.5522151523e-01   2.9606143795e+00   1.9497120415e+00   
196     1.5001928665e-06   4.5487452101e-01   2.9342082565e+00   1.9228534025e+00   
197     1.5002600131e-06   4.5402908126e-01   2.9074665980e+00   1.8959947635e+00   
198     1.5003943063e-06   4.5139909806e-01   2.8537556295e+00   1.8422774855e+00   
199     1.5006628927e-06   4.4728248049e-01   2.7463363806e+00   1.7348429296e+00   
200     1.5009314791e-06   4.5949620835e-01   2.6392818477e+00   1.6274083736e+00   
201     1.5010484097e-06   4.7932249977e-01   2.5932486378e+00   1.5806361078e+00   
202     1.5011653404e-06   5.2091491336e-01   2.5476643579e+00   1.5338638419e+00   
203     1.5012619753e-06   5.7859561545e-01   2.5104280719e+00   1.4952098993e+00   
204     1.5013478688e-06   6.4707303341e-01   2.4771781239e+00   1.4608524684e+00   
205     1.5014337624e-06   7.2706457689e-01   2.4434323407e+00   1.4264950374e+00   
206     1.5015110014e-06   8.0454726056e-01   2.4127315913e+00   1.3955994558e+00   
207     1.5015882403e-06   8.8484146013e-01   2.3818785843e+00   1.3647038742e+00   
208     1.5017427182e-06   1.0485538303e+00   2.3200797453e+00   1.3029127110e+00   
209     1.5018971961e-06   1.2124519225e+00   2.2582502001e+00   1.2411215478e+00   
210     1.5020824516e-06   1.4060647950e+00   2.1840939691e+00   1.1670193689e+00   
211     1.5021596280e-06   1.4845513780e+00   2.1532155845e+00   1.1361487956e+00   
212     1.5021982162e-06   1.5227640651e+00   2.1378084958e+00   1.1207135090e+00   
213     1.5022368044e-06   1.5596658715e+00   2.1224126128e+00   1.1052782224e+00   
214     1.5022753927e-06   1.5946897675e+00   2.1070342728e+00   1.0898429358e+00   
215     1.5023042559e-06   1.6192833962e+00   2.0955409078e+00   1.0782976572e+00   
216     1.5023275872e-06   1.6378052492e+00   2.0862175743e+00   1.0689651215e+00   
217     1.5023479857e-06   1.6527626023e+00   2.0780104568e+00   1.0608057222e+00   
218     1.5023683842e-06   1.6663696354e+00   2.0697285013e+00   1.0526463230e+00   
219     1.5023887827e-06   1.6786014363e+00   2.0613779659e+00   1.0444869238e+00   
220     1.5024091812e-06   1.6895640600e+00   2.0529828800e+00   1.0363275245e+00   
221     1.5024295797e-06   1.6994332583e+00   2.0445717560e+00   1.0281681253e+00   
222     1.5024499782e-06   1.7083807535e+00   2.0361646440e+00   1.0200087260e+00   
223     1.5024703767e-06   1.7165456240e+00   2.0277712591e+00   1.0118493268e+00   
224     1.5024907752e-06   1.7240337154e+00   2.0193942623e+00   1.0036899275e+00   
225     1.5025111737e-06   1.7309246780e+00   2.0110326487e+00   9.9553052830e-01   
226     1.5025315722e-06   1.7372790377e+00   2.0026839626e+00   9.8737112906e-01   
227     1.5025519707e-06   1.7431436726e+00   1.9943454927e+00   9.7921172981e-01   
228     1.5025723692e-06   1.7485557707e+00   1.9860148265e+00   9.7105233057e-01   
229     1.5025927677e-06   1.7535456416e+00   1.9776900519e+00   9.6289293133e-01   
230     1.5026131662e-06   1.7581387153e+00   1.9693697834e+00   9.5473353208e-01   
231     1.5026335647e-06   1.7623569676e+00   1.9610531080e+00   9.4657413284e-01   
232     1.5026539632e-06   1.7662199345e+00   1.9527395032e+00   9.3841473359e-01   
233     1.5026743617e-06   1.7697454299e+00   1.9444287495e+00   9.3025533435e-01   
