Index          TIME              {V(2)+1.0}           {V(5)+1.0}
0       0.000000000000e+00   3.000000000000e+00   1.000000015475e+00   
1       1.000000000000e-11   2.562402696248e+00   9.990072509914e-01   
2       1.125000000000e-11   2.509488186950e+00   9.988940948392e-01   
3       1.250000000000e-11   2.458544142452e+00   9.987812639085e-01   
4       1.375000000000e-11   2.409291319219e+00   9.987246321831e-01   
5       1.500000000000e-11   2.361130304708e+00   9.987350207373e-01   
6       1.625000000000e-11   2.313795107945e+00   9.988123363419e-01   
7       1.750000000000e-11   2.267199887892e+00   9.989501966398e-01   
8       1.875000000000e-11   2.221322591442e+00   9.991395027256e-01   
9       2.000000000000e-11   2.176162099965e+00   9.993706380453e-01   
10      2.125000000000e-11   2.131725487589e+00   9.996343898462e-01   
11      2.250000000000e-11   2.088024717007e+00   9.999217115778e-01   
12      2.375000000000e-11   2.045076065275e+00   1.000216324270e+00   
13      2.500000000000e-11   2.002900665875e+00   1.000518431481e+00   
14      2.625000000000e-11   1.961524911799e+00   1.000826795568e+00   
15      2.750000000000e-11   1.920979822700e+00   1.001137569132e+00   
16      2.875000000000e-11   1.881304096663e+00   1.001459836631e+00   
17      3.000000000000e-11   1.842538889716e+00   1.001788839617e+00   
18      3.125000000000e-11   1.804728890696e+00   1.002110201000e+00   
19      3.250000000000e-11   1.767926700063e+00   1.002423303382e+00   
20      3.375000000000e-11   1.732187201545e+00   1.002728175555e+00   
21      3.500000000000e-11   1.697556733564e+00   1.003019597052e+00   
22      3.625000000000e-11   1.664058666318e+00   1.003281000029e+00   
23      3.750000000000e-11   1.631762378751e+00   1.003548536758e+00   
24      3.875000000000e-11   1.600679366807e+00   1.003827847830e+00   
25      4.000000000000e-11   1.570797812460e+00   1.004126491539e+00   
26      4.125000000000e-11   1.542106009359e+00   1.004451446948e+00   
27      4.250000000000e-11   1.514635166094e+00   1.004803267700e+00   
28      4.375000000000e-11   1.488444047347e+00   1.005176260935e+00   
29      4.500000000000e-11   1.463561358700e+00   1.005563544299e+00   
30      4.625000000000e-11   1.439971544595e+00   1.005957622031e+00   
31      4.750000000000e-11   1.417628222562e+00   1.006350100486e+00   
32      4.875000000000e-11   1.396468500806e+00   1.006731019737e+00   
33      5.000000000000e-11   1.376427972257e+00   1.007085692238e+00   
34      5.125000000000e-11   1.357453041430e+00   1.007392033413e+00   
35      5.250000000000e-11   1.339498826308e+00   1.007622859037e+00   
36      5.375000000000e-11   1.322521880750e+00   1.007751831380e+00   
37      5.500000000000e-11   1.306479339052e+00   1.007759111403e+00   
38      5.625000000000e-11   1.291331052075e+00   1.007634244452e+00   
39      5.750000000000e-11   1.277040158951e+00   1.007375687419e+00   
40      5.875000000000e-11   1.263571880086e+00   1.006988265033e+00   
41      6.000000000000e-11   1.250891893129e+00   1.006480328703e+00   
42      6.125000000000e-11   1.238965237199e+00   1.005861582061e+00   
43      6.250000000000e-11   1.227755955295e+00   1.005142692846e+00   
44      6.375000000000e-11   1.217227237530e+00   1.004332533354e+00   
45      6.500000000000e-11   1.207341833819e+00   1.003437952895e+00   
46      6.625000000000e-11   1.198062534098e+00   1.002465795467e+00   
47      6.750000000000e-11   1.189352546062e+00   1.001421698414e+00   
48      6.875000000000e-11   1.181175853124e+00   1.000310058029e+00   
49      7.000000000000e-11   1.173497443707e+00   9.990982197473e-01   
50      7.125000000000e-11   1.166283330352e+00   9.978114246905e-01   
51      7.250000000000e-11   1.159500677489e+00   9.964634832213e-01   
52      7.375000000000e-11   1.153118046337e+00   9.950523147375e-01   
53      7.500000000000e-11   1.147106037001e+00   9.935738915348e-01   
54      7.625000000000e-11   1.141438597799e+00   9.920219018176e-01   
55      7.750000000000e-11   1.136095424912e+00   9.903867545807e-01   
56      7.875000000000e-11   1.131109719732e+00   9.887224083592e-01   
57      8.000000000000e-11   1.126471759958e+00   9.868972957434e-01   
58      8.125000000000e-11   1.122226910035e+00   9.848040751403e-01   
59      8.250000000000e-11   1.118421886795e+00   9.823630801647e-01   
60      8.375000000000e-11   1.115014178330e+00   9.796384636484e-01   
61      8.500000000000e-11   1.111942171573e+00   9.767296856695e-01   
62      8.625000000000e-11   1.109152856665e+00   9.736905246216e-01   
63      8.750000000000e-11   1.106568850065e+00   9.705605931377e-01   
64      8.875000000000e-11   1.104102213068e+00   9.673759920111e-01   
65      9.000000000000e-11   1.101682165618e+00   9.641653659712e-01   
66      9.125000000000e-11   1.099262905338e+00   9.609482869895e-01   
67      9.250000000000e-11   1.096818513997e+00   9.577359250893e-01   
68      9.375000000000e-11   1.094336723403e+00   9.545298797872e-01   
69      9.500000000000e-11   1.091815178976e+00   9.513159383325e-01   
70      9.625000000000e-11   1.089260247322e+00   9.480512445015e-01   
71      9.750000000000e-11   1.086686463643e+00   9.446587864432e-01   
72      9.875000000000e-11   1.084110843098e+00   9.410783867749e-01   
73      1.000000000000e-10   1.081541122615e+00   9.373700666155e-01   
74      1.012500000000e-10   1.078973971180e+00   9.337182464675e-01   
75      1.025000000000e-10   1.076405338484e+00   9.303303818589e-01   
76      1.037500000000e-10   1.073836345052e+00   9.273764010771e-01   
77      1.050000000000e-10   1.071272420286e+00   9.249831661626e-01   
78      1.062500000000e-10   1.068721058095e+00   9.232427182586e-01   
79      1.075000000000e-10   1.066190321263e+00   9.222204636467e-01   
80      1.087500000000e-10   1.063688092622e+00   9.219624010434e-01   
81      1.100000000000e-10   1.061221741074e+00   9.225011527230e-01   
82      1.112500000000e-10   1.058797983952e+00   9.238605977121e-01   
83      1.125000000000e-10   1.056422837482e+00   9.260590323533e-01   
84      1.137500000000e-10   1.054101609652e+00   9.291113992130e-01   
85      1.150000000000e-10   1.051838919732e+00   9.330316884094e-01   
86      1.162500000000e-10   1.049638733896e+00   9.378358105426e-01   
87      1.175000000000e-10   1.047504403552e+00   9.435440906783e-01   
88      1.187500000000e-10   1.045438650799e+00   9.501756043364e-01   
89      1.200000000000e-10   1.043443472927e+00   9.577291413582e-01   
90      1.212500000000e-10   1.041520417445e+00   9.662181489673e-01   
91      1.225000000000e-10   1.039670491920e+00   9.756581362107e-01   
92      1.237500000000e-10   1.037894165490e+00   9.860677369195e-01   
93      1.250000000000e-10   1.036191353555e+00   9.974699857991e-01   
94      1.262500000000e-10   1.034561042623e+00   1.009551936908e+00   
95      1.275000000000e-10   1.033002383229e+00   1.022627366024e+00   
96      1.287500000000e-10   1.031513814335e+00   1.036872749697e+00   
97      1.300000000000e-10   1.030093269480e+00   1.052392932213e+00   
98      1.312500000000e-10   1.028738524846e+00   1.069322892674e+00   
99      1.325000000000e-10   1.027447703994e+00   1.087815126357e+00   
100     1.337500000000e-10   1.026220286824e+00   1.107984929019e+00   
101     1.350000000000e-10   1.025057238346e+00   1.129865340805e+00   
102     1.362500000000e-10   1.023959238490e+00   1.153434676356e+00   
103     1.375000000000e-10   1.022925343601e+00   1.178636681522e+00   
104     1.387500000000e-10   1.021953080485e+00   1.205371078567e+00   
105     1.400000000000e-10   1.021038995980e+00   1.233495713954e+00   
106     1.412500000000e-10   1.020179111800e+00   1.262838464320e+00   
107     1.425000000000e-10   1.019369330079e+00   1.293224128321e+00   
108     1.437500000000e-10   1.018605840211e+00   1.324515514274e+00   
109     1.450000000000e-10   1.017885287860e+00   1.356626069312e+00   
110     1.462500000000e-10   1.017204651433e+00   1.389490871686e+00   
111     1.475000000000e-10   1.016561110086e+00   1.423040040356e+00   
112     1.487500000000e-10   1.015952012316e+00   1.457195419831e+00   
113     1.500000000000e-10   1.015374861539e+00   1.491877584683e+00   
114     1.512500000000e-10   1.014827280302e+00   1.527011471624e+00   
115     1.525000000000e-10   1.014306975512e+00   1.562528243420e+00   
116     1.537500000000e-10   1.013811726137e+00   1.598364796813e+00   
117     1.550000000000e-10   1.013339393947e+00   1.634462484117e+00   
118     1.562500000000e-10   1.012887946704e+00   1.670765913472e+00   
119     1.575000000000e-10   1.012455480910e+00   1.707221766963e+00   
120     1.587500000000e-10   1.012040242623e+00   1.743778356859e+00   
121     1.600000000000e-10   1.011640638249e+00   1.780385003570e+00   
122     1.612500000000e-10   1.011255238724e+00   1.816991565175e+00   
123     1.625000000000e-10   1.010882777675e+00   1.853547945752e+00   
124     1.637500000000e-10   1.010522145584e+00   1.890003586929e+00   
125     1.650000000000e-10   1.010172377211e+00   1.926306219708e+00   
126     1.662500000000e-10   1.009832641192e+00   1.962400905722e+00   
127     1.675000000000e-10   1.009502227914e+00   1.998228643288e+00   
128     1.687500000000e-10   1.009180540823e+00   2.033725127948e+00   
129     1.700000000000e-10   1.008867096761e+00   2.068820523468e+00   
130     1.712500000000e-10   1.008561541538e+00   2.103441471692e+00   
131     1.725000000000e-10   1.008264732297e+00   2.137680595054e+00   
132     1.750000000000e-10   1.007695466836e+00   2.204588121035e+00   
133     1.772500000000e-10   1.007216369374e+00   2.263451551467e+00   
134     1.791428009362e-10   1.006840786345e+00   2.312215824600e+00   
135     1.808463217788e-10   1.006519167897e+00   2.354800031987e+00   
136     1.825498426214e-10   1.006210751658e+00   2.395869091691e+00   
137     1.842533634640e-10   1.005913222913e+00   2.435284948032e+00   
138     1.859568843065e-10   1.005622033385e+00   2.472706805921e+00   
139     1.876604051491e-10   1.005333247054e+00   2.507810862208e+00   
140     1.893639259917e-10   1.005045651316e+00   2.540477075248e+00   
141     1.910674468343e-10   1.004760329228e+00   2.570759637481e+00   
142     1.927709676769e-10   1.004479733906e+00   2.598829074573e+00   
143     1.944744885195e-10   1.004206890400e+00   2.624928129643e+00   
144     1.961780093620e-10   1.003943877901e+00   2.649240448512e+00   
145     1.978815302046e-10   1.003691219291e+00   2.671818087869e+00   
146     1.995850510472e-10   1.003449313778e+00   2.692699798392e+00   
147     2.012885718898e-10   1.003218975257e+00   2.711969129436e+00   
148     2.029920927324e-10   1.003001065595e+00   2.729734275916e+00   
149     2.046956135750e-10   1.002796224935e+00   2.746108401024e+00   
150     2.063991344175e-10   1.002604798334e+00   2.761201703903e+00   
151     2.081026552601e-10   1.002426850326e+00   2.775119061934e+00   
152     2.098061761027e-10   1.002262206492e+00   2.787959535604e+00   
153     2.115096969453e-10   1.002110500090e+00   2.799816454945e+00   
154     2.132132177879e-10   1.001971216601e+00   2.810777706621e+00   
155     2.149167386305e-10   1.001843734635e+00   2.820926185800e+00   
156     2.166202594731e-10   1.001727338670e+00   2.830338086805e+00   
157     2.183237803156e-10   1.001621271716e+00   2.839084925568e+00   
158     2.200273011582e-10   1.001524745743e+00   2.847232618832e+00   
159     2.217308220008e-10   1.001436951280e+00   2.854840510393e+00   
160     2.234343428434e-10   1.001357060382e+00   2.861959803828e+00   
161     2.251378636860e-10   1.001284285682e+00   2.868637246254e+00   
162     2.268413845286e-10   1.001217826951e+00   2.874909681406e+00   
163     2.285449053711e-10   1.001156951594e+00   2.880809736568e+00   
164     2.302484262137e-10   1.001101105868e+00   2.886376763599e+00   
165     2.319519470563e-10   1.001049981173e+00   2.891667068245e+00   
166     2.336554678989e-10   1.001003249309e+00   2.896735275385e+00   
167     2.353589887415e-10   1.000960389814e+00   2.901616948131e+00   
168     2.370625095841e-10   1.000920783712e+00   2.906330943770e+00   
169     2.387660304266e-10   1.000883826124e+00   2.910885771827e+00   
170     2.404695512692e-10   1.000849007503e+00   2.915286092656e+00   
171     2.421730721118e-10   1.000815947414e+00   2.919537237352e+00   
172     2.438765929544e-10   1.000784361148e+00   2.923644698935e+00   
173     2.455801137970e-10   1.000754028598e+00   2.927613168908e+00   
174     2.472836346396e-10   1.000724780911e+00   2.931446549427e+00   
175     2.489871554822e-10   1.000696485691e+00   2.935147595996e+00   
176     2.506906763247e-10   1.000669035390e+00   2.938717544896e+00   
177     2.523941971673e-10   1.000642343712e+00   2.942156230019e+00   
178     2.540977180099e-10   1.000616346372e+00   2.945462564219e+00   
179     2.558012388525e-10   1.000591001847e+00   2.948635100216e+00   
180     2.575047596951e-10   1.000566290117e+00   2.951672491379e+00   
181     2.592082805377e-10   1.000542209486e+00   2.954573803013e+00   
182     2.609118013802e-10   1.000518772338e+00   2.957338693145e+00   
183     2.626153222228e-10   1.000496000427e+00   2.959967475476e+00   
184     2.643188430654e-10   1.000473920716e+00   2.962461137304e+00   
185     2.660223639080e-10   1.000452562417e+00   2.964821369887e+00   
186     2.677258847506e-10   1.000431956673e+00   2.967050774562e+00   
187     2.694294055932e-10   1.000412202183e+00   2.969159198447e+00   
188     2.711329264357e-10   1.000393302642e+00   2.971150931563e+00   
189     2.728364472783e-10   1.000375361620e+00   2.973040252246e+00   
190     2.745399681209e-10   1.000358502685e+00   2.974847245334e+00   
191     2.762434889635e-10   1.000342589214e+00   2.976572882613e+00   
192     2.779470098061e-10   1.000327419567e+00   2.978209520976e+00   
193     2.796505306487e-10   1.000312930834e+00   2.979757419070e+00   
194     2.813540514912e-10   1.000299003184e+00   2.981210368554e+00   
195     2.830575723338e-10   1.000285466546e+00   2.982554403439e+00   
196     2.847610931764e-10   1.000272246299e+00   2.983779388454e+00   
197     2.864646140190e-10   1.000259394456e+00   2.984884374505e+00   
198     2.881681348616e-10   1.000247030345e+00   2.985875858530e+00   
199     2.898716557042e-10   1.000235290419e+00   2.986765457918e+00   
200     2.915751765468e-10   1.000224283060e+00   2.987566714580e+00   
201     2.932786973893e-10   1.000214027868e+00   2.988289122058e+00   
202     2.949822182319e-10   1.000204483306e+00   2.988938345623e+00   
203     2.966857390745e-10   1.000195618212e+00   2.989521075119e+00   
204     2.983892599171e-10   1.000187413951e+00   2.990045494315e+00   
205     3.000927807597e-10   1.000179845856e+00   2.990519934494e+00   
206     3.017963016023e-10   1.000172876686e+00   2.990952096628e+00   
207     3.034998224448e-10   1.000166458240e+00   2.991348799501e+00   
208     3.052033432874e-10   1.000160535352e+00   2.991715950207e+00   
209     3.069068641300e-10   1.000155049800e+00   2.992058592455e+00   
210     3.086103849726e-10   1.000149943511e+00   2.992380983629e+00   
211     3.103139058152e-10   1.000145161010e+00   2.992686681769e+00   
212     3.120174266578e-10   1.000140650758e+00   2.992978603980e+00   
213     3.137209475003e-10   1.000136365968e+00   2.993259080064e+00   
214     3.154244683429e-10   1.000132265818e+00   2.993529968763e+00   
215     3.171279891855e-10   1.000128315087e+00   2.993792683972e+00   
216     3.188315100281e-10   1.000124483399e+00   2.994048187545e+00   
217     3.205350308707e-10   1.000120745945e+00   2.994297102532e+00   
218     3.222385517133e-10   1.000117082926e+00   2.994539749624e+00   
219     3.239420725559e-10   1.000113478438e+00   2.994776133736e+00   
220     3.256455933984e-10   1.000109923316e+00   2.995006265474e+00   
221     3.273491142410e-10   1.000106419174e+00   2.995230699978e+00   
222     3.290526350836e-10   1.000102974826e+00   2.995450517893e+00   
223     3.307561559262e-10   1.000099592102e+00   2.995666250292e+00   
224     3.324596767688e-10   1.000096264607e+00   2.995877578619e+00   
225     3.341631976114e-10   1.000092984430e+00   2.996083708454e+00   
226     3.358667184539e-10   1.000089746737e+00   2.996283729352e+00   
227     3.375702392965e-10   1.000086552109e+00   2.996476906797e+00   
228     3.392737601391e-10   1.000083405790e+00   2.996662769027e+00   
229     3.409772809817e-10   1.000080314996e+00   2.996841008069e+00   
230     3.426808018243e-10   1.000077287471e+00   2.997011429211e+00   
231     3.443843226669e-10   1.000074330716e+00   2.997173928268e+00   
232     3.460878435094e-10   1.000071451406e+00   2.997328455796e+00   
233     3.477913643520e-10   1.000068654998e+00   2.997474996581e+00   
234     3.494948851946e-10   1.000065945936e+00   2.997613573573e+00   
235     3.511984060372e-10   1.000063327683e+00   2.997744261390e+00   
236     3.529019268798e-10   1.000060803104e+00   2.997867197220e+00   
237     3.546054477224e-10   1.000058374419e+00   2.997982583264e+00   
238     3.563089685649e-10   1.000056043117e+00   2.998090682226e+00   
239     3.580124894075e-10   1.000053810004e+00   2.998191807639e+00   
240     3.597160102501e-10   1.000051675112e+00   2.998286311868e+00   
241     3.614195310927e-10   1.000049637610e+00   2.998374574674e+00   
242     3.631230519353e-10   1.000047695963e+00   2.998456996132e+00   
243     3.648265727779e-10   1.000045848528e+00   2.998534035312e+00   
244     3.665300936205e-10   1.000044095538e+00   2.998606392132e+00   
245     3.682336144630e-10   1.000042431579e+00   2.998674412535e+00   
246     3.699371353056e-10   1.000040857787e+00   2.998738999482e+00   
247     3.716406561482e-10   1.000039371150e+00   2.998800835449e+00   
248     3.733441769908e-10   1.000037957306e+00   2.998859576654e+00   
249     3.750476978334e-10   1.000036606728e+00   2.998915028832e+00   
250     3.767512186760e-10   1.000035314482e+00   2.998967248648e+00   
251     3.784547395185e-10   1.000034072511e+00   2.999015935862e+00   
252     3.801582603611e-10   1.000032873850e+00   2.999060710270e+00   
253     3.818617812037e-10   1.000031717652e+00   2.999101589857e+00   
254     3.835653020463e-10   1.000030607446e+00   2.999139004171e+00   
255     3.852688228889e-10   1.000029547540e+00   2.999173604658e+00   
256     3.869723437315e-10   1.000028541095e+00   2.999206119965e+00   
257     3.886758645740e-10   1.000027588284e+00   2.999237153679e+00   
258     3.903793854166e-10   1.000026685270e+00   2.999266989710e+00   
259     3.920829062592e-10   1.000025827061e+00   2.999295777954e+00   
260     3.937864271018e-10   1.000025009643e+00   2.999323717548e+00   
261     3.954899479444e-10   1.000024229609e+00   2.999351019501e+00   
262     3.971934687870e-10   1.000023483188e+00   2.999377850388e+00   
263     3.988969896296e-10   1.000022766756e+00   2.999404316188e+00   
264     4.006005104721e-10   1.000022076620e+00   2.999430467342e+00   
265     4.023040313147e-10   1.000021409904e+00   2.999456310026e+00   
266     4.040075521573e-10   1.000020763994e+00   2.999481817833e+00   
267     4.057110729999e-10   1.000020136735e+00   2.999506942279e+00   
268     4.074145938425e-10   1.000019526846e+00   2.999531621661e+00   
269     4.091181146851e-10   1.000018932593e+00   2.999555785639e+00   
270     4.108216355276e-10   1.000018352889e+00   2.999579362301e+00   
271     4.125251563702e-10   1.000017787355e+00   2.999602282202e+00   
272     4.142286772128e-10   1.000017235798e+00   2.999624479912e+00   
273     4.159321980554e-10   1.000016697578e+00   2.999645892290e+00   
274     4.176357188980e-10   1.000016173837e+00   2.999666468605e+00   
275     4.193392397406e-10   1.000015664649e+00   2.999686161880e+00   
