Index       V(D,DA)          V(G,GA)        I(VDPROBE)       I(VGPROBE)       I(VSPROBE)       I(VBPROBE)
0       0.00000000e+00   5.00000000e-02   -4.01452105e-18  8.02904210e-18   -4.01452105e-18  -7.26580428e-39  
1       1.00000000e-02   5.00000000e-02   1.46535784e-11   1.68161597e-17   -1.46535952e-11  2.03354414e-50   
2       2.00000000e-02   5.00000000e-02   2.52428668e-11   1.46827932e-17   -2.52428815e-11  2.62384148e-50   
3       3.00000000e-02   5.00000000e-02   3.29105267e-11   1.32282921e-17   -3.29105399e-11  2.47224372e-50   
4       4.00000000e-02   5.00000000e-02   3.85247206e-11   1.23275489e-17   -3.85247329e-11  2.03550675e-50   
5       5.00000000e-02   5.00000000e-02   4.27223150e-11   1.18870835e-17   -4.27223269e-11  1.55219277e-50   
6       6.00000000e-02   5.00000000e-02   4.59598422e-11   1.15857379e-17   -4.59598538e-11  1.12375149e-50   
7       7.00000000e-02   5.00000000e-02   4.85590352e-11   1.11207841e-17   -4.85590463e-11  7.80995552e-51   
8       8.00000000e-02   5.00000000e-02   5.07428297e-11   1.04548013e-17   -5.07428402e-11  5.23791867e-51   
9       9.00000000e-02   5.00000000e-02   5.26624212e-11   9.55950066e-18   -5.26624307e-11  3.40383904e-51   
10      1.00000000e-01   5.00000000e-02   5.44175444e-11   8.41301189e-18   -5.44175528e-11  2.15591935e-51   
11      1.10000000e-01   5.00000000e-02   5.60719973e-11   6.99790464e-18   -5.60720043e-11  1.34077286e-51   
12      1.20000000e-01   5.00000000e-02   5.76656407e-11   5.29974150e-18   -5.76656460e-11  8.21210114e-52   
13      1.30000000e-01   5.00000000e-02   5.92231742e-11   3.30604030e-18   -5.92231775e-11  4.91847538e-52   
14      1.40000000e-01   5.00000000e-02   6.07599939e-11   1.00555487e-18   -6.07599949e-11  2.81031835e-52   
15      1.50000000e-01   5.00000000e-02   6.22858744e-11   -1.61220732e-18  -6.22858728e-11  1.42868673e-52   
16      1.60000000e-01   5.00000000e-02   6.38072136e-11   -4.55730147e-18  -6.38072090e-11  4.88887187e-53   
17      1.70000000e-01   5.00000000e-02   6.53283759e-11   -7.83955084e-18  -6.53283681e-11  -1.81926417e-53  
18      1.80000000e-01   5.00000000e-02   6.68524870e-11   -1.14686802e-17  -6.68524755e-11  -6.87355224e-53  
19      1.90000000e-01   5.00000000e-02   6.83819011e-11   -1.54544035e-17  -6.83818856e-11  -1.08921061e-52  
20      2.00000000e-01   5.00000000e-02   6.99184776e-11   -1.98064822e-17  -6.99184578e-11  -1.42448362e-52  
21      2.10000000e-01   5.00000000e-02   7.14637462e-11   -2.45347651e-17  -7.14637217e-11  -1.71554297e-52  
22      2.20000000e-01   5.00000000e-02   7.30190067e-11   -2.96492164e-17  -7.30189770e-11  -1.97615446e-52  
23      2.30000000e-01   5.00000000e-02   7.45853923e-11   -3.51599353e-17  -7.45853571e-11  -2.21500499e-52  
24      2.40000000e-01   5.00000000e-02   7.61639097e-11   -4.10771710e-17  -7.61638686e-11  -2.43775234e-52  
25      2.50000000e-01   5.00000000e-02   7.77554664e-11   -4.74113341e-17  -7.77554190e-11  -2.64822575e-52  
26      2.60000000e-01   5.00000000e-02   7.93608897e-11   -5.41730054e-17  -7.93608355e-11  -2.84912465e-52  
27      2.70000000e-01   5.00000000e-02   8.09809403e-11   -6.13729437e-17  -8.09808789e-11  -3.04243616e-52  
28      2.80000000e-01   5.00000000e-02   8.26163231e-11   -6.90220917e-17  -8.26162541e-11  -3.22968119e-52  
29      2.90000000e-01   5.00000000e-02   8.42676954e-11   -7.71315815e-17  -8.42676183e-11  -3.41206769e-52  
30      3.00000000e-01   5.00000000e-02   8.59356733e-11   -8.57127399e-17  -8.59355876e-11  -3.59058449e-52  
31      3.10000000e-01   5.00000000e-02   8.76208376e-11   -9.47770925e-17  -8.76207429e-11  -3.76605902e-52  
32      3.20000000e-01   5.00000000e-02   8.93237381e-11   -1.04336369e-16  -8.93236337e-11  -3.93919966e-52  
33      3.30000000e-01   5.00000000e-02   9.10448974e-11   -1.14402505e-16  -9.10447830e-11  -4.11061883e-52  
34      3.40000000e-01   5.00000000e-02   9.27848149e-11   -1.24987648e-16  -9.27846899e-11  -4.28085585e-52  
35      3.50000000e-01   5.00000000e-02   9.45439689e-11   -1.36104163e-16  -9.45438328e-11  -4.45038669e-52  
36      3.60000000e-01   5.00000000e-02   9.63228196e-11   -1.47764632e-16  -9.63226719e-11  -4.61963799e-52  
37      3.70000000e-01   5.00000000e-02   9.81218114e-11   -1.59981858e-16  -9.81216514e-11  -4.78899120e-52  
38      3.80000000e-01   5.00000000e-02   9.99413743e-11   -1.72768876e-16  -9.99412016e-11  -4.95879359e-52  
39      3.90000000e-01   5.00000000e-02   1.01781926e-10   -1.86138946e-16  -1.01781740e-10  -5.12935962e-52  
40      4.00000000e-01   5.00000000e-02   1.03643874e-10   -2.00105566e-16  -1.03643674e-10  -5.30097639e-52  
41      4.10000000e-01   5.00000000e-02   1.05527616e-10   -2.14682469e-16  -1.05527401e-10  -5.47390769e-52  
42      4.20000000e-01   5.00000000e-02   1.07433540e-10   -2.29883634e-16  -1.07433310e-10  -5.64839860e-52  
43      4.30000000e-01   5.00000000e-02   1.09362028e-10   -2.45723281e-16  -1.09361783e-10  -5.82467492e-52  
44      4.40000000e-01   5.00000000e-02   1.11313457e-10   -2.62215884e-16  -1.11313195e-10  -6.00294696e-52  
45      4.50000000e-01   5.00000000e-02   1.13288196e-10   -2.79376167e-16  -1.13287916e-10  -6.18341390e-52  
46      4.60000000e-01   5.00000000e-02   1.15286609e-10   -2.97219114e-16  -1.15286312e-10  -6.36626152e-52  
47      4.70000000e-01   5.00000000e-02   1.17309059e-10   -3.15759971e-16  -1.17308743e-10  -6.55166571e-52  
48      4.80000000e-01   5.00000000e-02   1.19355903e-10   -3.35014247e-16  -1.19355568e-10  -6.73979391e-52  
49      4.90000000e-01   5.00000000e-02   1.21427495e-10   -3.54997724e-16  -1.21427140e-10  -6.93080697e-52  
50      5.00000000e-01   5.00000000e-02   1.23524188e-10   -3.75726457e-16  -1.23523812e-10  -7.12485657e-52  
51      5.10000000e-01   5.00000000e-02   1.25646332e-10   -3.97216779e-16  -1.25645934e-10  -7.32209198e-52  
52      5.20000000e-01   5.00000000e-02   1.27794274e-10   -4.19485306e-16  -1.27793855e-10  -7.52265376e-52  
53      5.30000000e-01   5.00000000e-02   1.29968364e-10   -4.42548942e-16  -1.29967921e-10  -7.72668350e-52  
54      5.40000000e-01   5.00000000e-02   1.32168946e-10   -4.66424880e-16  -1.32168480e-10  -7.93431394e-52  
55      5.50000000e-01   5.00000000e-02   1.34396367e-10   -4.91130613e-16  -1.34395876e-10  -8.14567965e-52  
56      5.60000000e-01   5.00000000e-02   1.36650972e-10   -5.16683932e-16  -1.36650455e-10  -8.36090644e-52  
57      5.70000000e-01   5.00000000e-02   1.38933106e-10   -5.43102933e-16  -1.38932562e-10  -8.58012567e-52  
58      5.80000000e-01   5.00000000e-02   1.41243114e-10   -5.70406023e-16  -1.41242543e-10  -8.80346085e-52  
59      5.90000000e-01   5.00000000e-02   1.43581342e-10   -5.98611924e-16  -1.43580744e-10  -9.03103619e-52  
60      6.00000000e-01   5.00000000e-02   1.45948138e-10   -6.27739677e-16  -1.45947510e-10  -9.26297684e-52  
61      6.10000000e-01   5.00000000e-02   1.48343846e-10   -6.57808647e-16  -1.48343188e-10  -9.49940527e-52  
62      6.20000000e-01   5.00000000e-02   1.50768816e-10   -6.88838529e-16  -1.50768128e-10  -9.74044403e-52  
63      6.30000000e-01   5.00000000e-02   1.53223397e-10   -7.20849353e-16  -1.53222676e-10  -9.98621468e-52  
64      6.40000000e-01   5.00000000e-02   1.55707938e-10   -7.53861488e-16  -1.55707184e-10  -1.02368383e-51  
65      6.50000000e-01   5.00000000e-02   1.58222792e-10   -7.87895648e-16  -1.58222004e-10  -1.04924389e-51  
66      6.60000000e-01   5.00000000e-02   1.60768310e-10   -8.22972896e-16  -1.60767487e-10  -1.07531388e-51  
67      6.70000000e-01   5.00000000e-02   1.63344849e-10   -8.59114652e-16  -1.63343989e-10  -1.10190627e-51  
68      6.80000000e-01   5.00000000e-02   1.65952763e-10   -8.96342697e-16  -1.65951867e-10  -1.12903308e-51  
69      6.90000000e-01   5.00000000e-02   1.68592411e-10   -9.34679176e-16  -1.68591477e-10  -1.15670721e-51  
70      7.00000000e-01   5.00000000e-02   1.71264154e-10   -9.74146607e-16  -1.71263180e-10  -1.18494090e-51  
71      7.10000000e-01   5.00000000e-02   1.73968353e-10   -1.01476789e-15  -1.73967338e-10  -1.21374694e-51  
72      7.20000000e-01   5.00000000e-02   1.76705372e-10   -1.05656630e-15  -1.76704315e-10  -1.24313815e-51  
73      7.30000000e-01   5.00000000e-02   1.79475577e-10   -1.09956550e-15  -1.79474478e-10  -1.27312765e-51  
74      7.40000000e-01   5.00000000e-02   1.82279338e-10   -1.14378956e-15  -1.82278194e-10  -1.30372813e-51  
75      7.50000000e-01   5.00000000e-02   1.85117024e-10   -1.18926295e-15  -1.85115835e-10  -1.33495320e-51  
76      7.60000000e-01   5.00000000e-02   1.87989009e-10   -1.23601053e-15  -1.87987773e-10  -1.36681591e-51  
77      7.70000000e-01   5.00000000e-02   1.90895670e-10   -1.28405759e-15  -1.90894386e-10  -1.39932991e-51  
78      7.80000000e-01   5.00000000e-02   1.93837383e-10   -1.33342984e-15  -1.93836050e-10  -1.43250925e-51  
79      7.90000000e-01   5.00000000e-02   1.96814530e-10   -1.38415340e-15  -1.96813146e-10  -1.46636719e-51  
80      8.00000000e-01   5.00000000e-02   1.99827495e-10   -1.43625483e-15  -1.99826059e-10  -1.50091842e-51  
81      8.10000000e-01   5.00000000e-02   2.02876664e-10   -1.48976114e-15  -2.02875174e-10  -1.53617698e-51  
82      8.20000000e-01   5.00000000e-02   2.05962426e-10   -1.54469977e-15  -2.05960881e-10  -1.57215747e-51  
83      8.30000000e-01   5.00000000e-02   2.09085172e-10   -1.60109863e-15  -2.09083571e-10  -1.60887467e-51  
84      8.40000000e-01   5.00000000e-02   2.12245298e-10   -1.65898606e-15  -2.12243639e-10  -1.64634315e-51  
85      8.50000000e-01   5.00000000e-02   2.15443201e-10   -1.71839090e-15  -2.15441483e-10  -1.68457846e-51  
86      8.60000000e-01   5.00000000e-02   2.18679282e-10   -1.77934243e-15  -2.18677503e-10  -1.72359567e-51  
87      8.70000000e-01   5.00000000e-02   2.21953945e-10   -1.84187045e-15  -2.21952103e-10  -1.76341089e-51  
88      8.80000000e-01   5.00000000e-02   2.25267597e-10   -1.90600519e-15  -2.25265691e-10  -1.80403947e-51  
89      8.90000000e-01   5.00000000e-02   2.28620648e-10   -1.97177744e-15  -2.28618676e-10  -1.84549789e-51  
90      9.00000000e-01   5.00000000e-02   2.32013511e-10   -2.03921844e-15  -2.32011471e-10  -1.88780242e-51  
91      9.10000000e-01   5.00000000e-02   2.35446602e-10   -2.10835997e-15  -2.35444494e-10  -1.93096964e-51  
92      9.20000000e-01   5.00000000e-02   2.38920342e-10   -2.17923432e-15  -2.38918163e-10  -1.97501668e-51  
93      9.30000000e-01   5.00000000e-02   2.42435153e-10   -2.25187429e-15  -2.42432901e-10  -2.01996041e-51  
94      9.40000000e-01   5.00000000e-02   2.45991462e-10   -2.32631322e-15  -2.45989136e-10  -2.06581854e-51  
95      9.50000000e-01   5.00000000e-02   2.49589699e-10   -2.40258502e-15  -2.49587296e-10  -2.11260884e-51  
96      9.60000000e-01   5.00000000e-02   2.53230297e-10   -2.48072410e-15  -2.53227816e-10  -2.16034928e-51  
97      9.70000000e-01   5.00000000e-02   2.56913693e-10   -2.56076547e-15  -2.56911133e-10  -2.20905842e-51  
98      9.80000000e-01   5.00000000e-02   2.60640328e-10   -2.64274467e-15  -2.60637685e-10  -2.25875463e-51  
99      9.90000000e-01   5.00000000e-02   2.64410645e-10   -2.72669785e-15  -2.64407919e-10  -2.30945692e-51  
100     1.00000000e+00   5.00000000e-02   2.68225093e-10   -2.81266170e-15  -2.68222280e-10  -2.36118464e-51  
101     1.01000000e+00   5.00000000e-02   2.72084122e-10   -2.90067354e-15  -2.72081221e-10  -2.41395765e-51  
102     1.02000000e+00   5.00000000e-02   2.75988187e-10   -2.99077128e-15  -2.75985196e-10  -2.46779515e-51  
103     1.03000000e+00   5.00000000e-02   2.79937748e-10   -3.08299342e-15  -2.79934665e-10  -2.52271792e-51  
104     1.04000000e+00   5.00000000e-02   2.83933266e-10   -3.17737910e-15  -2.83930089e-10  -2.57874723e-51  
105     1.05000000e+00   5.00000000e-02   2.87975208e-10   -3.27396807e-15  -2.87971934e-10  -2.63590255e-51  
106     1.06000000e+00   5.00000000e-02   2.92064045e-10   -3.37280073e-15  -2.92060672e-10  -2.69420651e-51  
107     1.07000000e+00   5.00000000e-02   2.96200251e-10   -3.47391813e-15  -2.96196777e-10  -2.75368028e-51  
108     1.08000000e+00   5.00000000e-02   3.00384303e-10   -3.57736196e-15  -3.00380725e-10  -2.81434585e-51  
109     1.09000000e+00   5.00000000e-02   3.04616683e-10   -3.68317458e-15  -3.04613000e-10  -2.87622566e-51  
110     1.10000000e+00   5.00000000e-02   3.08897879e-10   -3.79139904e-15  -3.08894087e-10  -2.93934218e-51  
111     1.11000000e+00   5.00000000e-02   3.13228379e-10   -3.90207905e-15  -3.13224477e-10  -3.00371926e-51  
112     1.12000000e+00   5.00000000e-02   3.17608679e-10   -4.01525903e-15  -3.17604664e-10  -3.06937999e-51  
113     1.13000000e+00   5.00000000e-02   3.22039277e-10   -4.13098412e-15  -3.22035146e-10  -3.13634858e-51  
114     1.14000000e+00   5.00000000e-02   3.26520674e-10   -4.24930015e-15  -3.26516425e-10  -3.20464883e-51  
115     1.15000000e+00   5.00000000e-02   3.31053379e-10   -4.37025369e-15  -3.31049009e-10  -3.27430659e-51  
116     1.16000000e+00   5.00000000e-02   3.35637902e-10   -4.49389206e-15  -3.35633408e-10  -3.34534586e-51  
117     1.17000000e+00   5.00000000e-02   3.40274758e-10   -4.62026330e-15  -3.40270138e-10  -3.41779308e-51  
118     1.18000000e+00   5.00000000e-02   3.44964468e-10   -4.74941623e-15  -3.44959719e-10  -3.49167373e-51  
119     1.19000000e+00   5.00000000e-02   3.49707555e-10   -4.88140044e-15  -3.49702673e-10  -3.56701495e-51  
120     1.20000000e+00   5.00000000e-02   3.54504547e-10   -5.01626629e-15  -3.54499531e-10  -3.64384325e-51  
121     1.21000000e+00   5.00000000e-02   3.59355978e-10   -5.15406497e-15  -3.59350824e-10  -3.72218656e-51  
122     1.22000000e+00   5.00000000e-02   3.64262386e-10   -5.29484842e-15  -3.64257091e-10  -3.80207191e-51  
123     1.23000000e+00   5.00000000e-02   3.69224311e-10   -5.43866945e-15  -3.69218872e-10  -3.88352748e-51  
124     1.24000000e+00   5.00000000e-02   3.74242301e-10   -5.58558167e-15  -3.74236715e-10  -3.96658347e-51  
125     1.25000000e+00   5.00000000e-02   3.79316906e-10   -5.73563954e-15  -3.79311170e-10  -4.05126782e-51  
126     1.26000000e+00   5.00000000e-02   3.84448683e-10   -5.88889838e-15  -3.84442794e-10  -4.13761088e-51  
127     1.27000000e+00   5.00000000e-02   3.89638191e-10   -6.04541437e-15  -3.89632146e-10  -4.22564235e-51  
128     1.28000000e+00   5.00000000e-02   3.94885997e-10   -6.20524457e-15  -3.94879792e-10  -4.31539415e-51  
129     1.29000000e+00   5.00000000e-02   4.00192670e-10   -6.36844695e-15  -4.00186301e-10  -4.40689662e-51  
130     1.30000000e+00   5.00000000e-02   4.05558784e-10   -6.53508036e-15  -4.05552249e-10  -4.50018139e-51  
131     1.31000000e+00   5.00000000e-02   4.10984920e-10   -6.70520459e-15  -4.10978215e-10  -4.59528158e-51  
132     1.32000000e+00   5.00000000e-02   4.16471662e-10   -6.87888035e-15  -4.16464783e-10  -4.69223003e-51  
133     1.33000000e+00   5.00000000e-02   4.22019599e-10   -7.05616932e-15  -4.22012542e-10  -4.79106011e-51  
134     1.34000000e+00   5.00000000e-02   4.27629325e-10   -7.23713411e-15  -4.27622088e-10  -4.89180532e-51  
135     1.35000000e+00   5.00000000e-02   4.33301441e-10   -7.42183832e-15  -4.33294019e-10  -4.99450012e-51  
136     1.36000000e+00   5.00000000e-02   4.39036550e-10   -7.61034656e-15  -4.39028939e-10  -5.09918022e-51  
137     1.37000000e+00   5.00000000e-02   4.44835262e-10   -7.80272440e-15  -4.44827459e-10  -5.20588139e-51  
138     1.38000000e+00   5.00000000e-02   4.50698192e-10   -7.99903848e-15  -4.50690193e-10  -5.31463963e-51  
139     1.39000000e+00   5.00000000e-02   4.56625959e-10   -8.19935643e-15  -4.56617760e-10  -5.42549218e-51  
140     1.40000000e+00   5.00000000e-02   4.62619189e-10   -8.40374696e-15  -4.62610785e-10  -5.53847624e-51  
141     1.41000000e+00   5.00000000e-02   4.68678512e-10   -8.61227982e-15  -4.68669900e-10  -5.65362998e-51  
142     1.42000000e+00   5.00000000e-02   4.74804563e-10   -8.82502587e-15  -4.74795738e-10  -5.77099200e-51  
143     1.43000000e+00   5.00000000e-02   4.80997984e-10   -9.04205704e-15  -4.80988942e-10  -5.89060160e-51  
144     1.44000000e+00   5.00000000e-02   4.87259421e-10   -9.26344639e-15  -4.87250158e-10  -6.01249982e-51  
145     1.45000000e+00   5.00000000e-02   4.93589525e-10   -9.48926810e-15  -4.93580036e-10  -6.13672655e-51  
146     1.46000000e+00   5.00000000e-02   4.99988955e-10   -9.71959750e-15  -4.99979235e-10  -6.26332396e-51  
147     1.47000000e+00   5.00000000e-02   5.06458372e-10   -9.95451108e-15  -5.06448417e-10  -6.39233277e-51  
148     1.48000000e+00   5.00000000e-02   5.12998445e-10   -1.01940865e-14  -5.12988250e-10  -6.52379728e-51  
149     1.49000000e+00   5.00000000e-02   5.19609847e-10   -1.04384027e-14  -5.19599409e-10  -6.65776010e-51  
150     1.50000000e+00   5.00000000e-02   5.26293260e-10   -1.06875396e-14  -5.26282572e-10  -6.79426477e-51  
151     1.51000000e+00   5.00000000e-02   5.33049367e-10   -1.09415787e-14  -5.33038425e-10  -6.93335766e-51  
152     1.52000000e+00   5.00000000e-02   5.39878860e-10   -1.12006024e-14  -5.39867659e-10  -7.07508342e-51  
153     1.53000000e+00   5.00000000e-02   5.46782435e-10   -1.14646947e-14  -5.46770971e-10  -7.21948930e-51  
154     1.54000000e+00   5.00000000e-02   5.53760796e-10   -1.17339406e-14  -5.53749062e-10  -7.36662130e-51  
155     1.55000000e+00   5.00000000e-02   5.60814650e-10   -1.20084265e-14  -5.60802642e-10  -7.51652779e-51  
156     1.56000000e+00   5.00000000e-02   5.67944713e-10   -1.22882403e-14  -5.67932424e-10  -7.66925735e-51  
157     1.57000000e+00   5.00000000e-02   5.75151703e-10   -1.25734710e-14  -5.75139130e-10  -7.82485983e-51  
158     1.58000000e+00   5.00000000e-02   5.82436349e-10   -1.28642091e-14  -5.82423485e-10  -7.98338585e-51  
159     1.59000000e+00   5.00000000e-02   5.89799382e-10   -1.31605464e-14  -5.89786221e-10  -8.14488533e-51  
160     1.60000000e+00   5.00000000e-02   5.97241540e-10   -1.34625762e-14  -5.97228078e-10  -8.30941135e-51  
161     1.61000000e+00   5.00000000e-02   6.04763569e-10   -1.37703932e-14  -6.04749799e-10  -8.47701599e-51  
162     1.62000000e+00   5.00000000e-02   6.12366219e-10   -1.40840935e-14  -6.12352135e-10  -8.64775246e-51  
163     1.63000000e+00   5.00000000e-02   6.20050248e-10   -1.44037747e-14  -6.20035844e-10  -8.82167634e-51  
164     1.64000000e+00   5.00000000e-02   6.27816419e-10   -1.47295359e-14  -6.27801689e-10  -8.99884229e-51  
165     1.65000000e+00   5.00000000e-02   6.35665501e-10   -1.50614776e-14  -6.35650439e-10  -9.17930613e-51  
166     1.66000000e+00   5.00000000e-02   6.43598271e-10   -1.53997020e-14  -6.43582871e-10  -9.36312624e-51  
167     1.67000000e+00   5.00000000e-02   6.51615511e-10   -1.57443129e-14  -6.51599767e-10  -9.55035912e-51  
168     1.68000000e+00   5.00000000e-02   6.59718011e-10   -1.60954154e-14  -6.59701915e-10  -9.74106545e-51  
169     1.69000000e+00   5.00000000e-02   6.67906565e-10   -1.64531164e-14  -6.67890112e-10  -9.93530379e-51  
170     1.70000000e+00   5.00000000e-02   6.76181977e-10   -1.68175245e-14  -6.76165160e-10  -1.01331357e-50  
171     1.71000000e+00   5.00000000e-02   6.84545055e-10   -1.71887497e-14  -6.84527866e-10  -1.03346223e-50  
172     1.72000000e+00   5.00000000e-02   6.92996614e-10   -1.75669039e-14  -6.92979047e-10  -1.05398276e-50  
173     1.73000000e+00   5.00000000e-02   7.01537477e-10   -1.79521006e-14  -7.01519525e-10  -1.07488146e-50  
174     1.74000000e+00   5.00000000e-02   7.10168473e-10   -1.83444551e-14  -7.10150128e-10  -1.09616492e-50  
175     1.75000000e+00   5.00000000e-02   7.18890437e-10   -1.87440843e-14  -7.18871693e-10  -1.11783953e-50  
176     1.76000000e+00   5.00000000e-02   7.27704213e-10   -1.91511069e-14  -7.27685061e-10  -1.13991221e-50  
177     1.77000000e+00   5.00000000e-02   7.36610649e-10   -1.95656436e-14  -7.36591083e-10  -1.16238956e-50  
178     1.78000000e+00   5.00000000e-02   7.45610603e-10   -1.99878167e-14  -7.45590616e-10  -1.18527860e-50  
