Index       V(D,DA)          V(G,GA)        I(VDPROBE)       I(VGPROBE)       I(VSPROBE)       I(VBPROBE)
0       0.00000000e+00   -5.00000000e-02  1.81106954e-15   -3.62213909e-15  1.81106954e-15   7.41483397e-50   
1       -1.00000000e-02  -5.00000000e-02  -1.72269044e-09  -3.16674523e-15  1.72269361e-09   -4.80385884e-45  
2       -2.00000000e-02  -5.00000000e-02  -2.98664973e-09  -2.84655227e-15  2.98665257e-09   -6.60630987e-45  
3       -3.00000000e-02  -5.00000000e-02  -3.90936808e-09  -2.62731770e-15  3.90937070e-09   -6.53991631e-45  
4       -4.00000000e-02  -5.00000000e-02  -4.58522289e-09  -2.48163689e-15  4.58522538e-09   -5.60116879e-45  
5       -5.00000000e-02  -5.00000000e-02  -5.08629839e-09  -2.38864913e-15  5.08630078e-09   -4.41567805e-45  
6       -6.00000000e-02  -5.00000000e-02  -5.46587866e-09  -2.33297079e-15  5.46588099e-09   -3.29554119e-45  
7       -7.00000000e-02  -5.00000000e-02  -5.76248454e-09  -2.30349146e-15  5.76248684e-09   -2.36065901e-45  
8       -8.00000000e-02  -5.00000000e-02  -6.00346207e-09  -2.29230375e-15  6.00346436e-09   -1.63464689e-45  
9       -9.00000000e-02  -5.00000000e-02  -6.20784534e-09  -2.29383978e-15  6.20784763e-09   -1.09989176e-45  
10      -1.00000000e-01  -5.00000000e-02  -6.38857485e-09  -2.30423011e-15  6.38857716e-09   -7.23199388e-46  
11      -1.10000000e-01  -5.00000000e-02  -6.55423183e-09  -2.32082378e-15  6.55423415e-09   -4.67489225e-46  
12      -1.20000000e-01  -5.00000000e-02  -6.71038667e-09  -2.34182615e-15  6.71038901e-09   -2.98489685e-46  
13      -1.30000000e-01  -5.00000000e-02  -6.86060603e-09  -2.36602931e-15  6.86060840e-09   -1.88469024e-46  
14      -1.40000000e-01  -5.00000000e-02  -7.00716263e-09  -2.39261888e-15  7.00716502e-09   -1.17139572e-46  
15      -1.50000000e-01  -5.00000000e-02  -7.15150954e-09  -2.42104097e-15  7.15151196e-09   -7.06669685e-47  
16      -1.60000000e-01  -5.00000000e-02  -7.29458515e-09  -2.45091360e-15  7.29458760e-09   -4.00225054e-47  
17      -1.70000000e-01  -5.00000000e-02  -7.43700472e-09  -2.48196872e-15  7.43700720e-09   -1.94533010e-47  
18      -1.80000000e-01  -5.00000000e-02  -7.57917960e-09  -2.51401463e-15  7.57918211e-09   -5.33154270e-48  
19      -1.90000000e-01  -5.00000000e-02  -7.72139118e-09  -2.54691153e-15  7.72139373e-09   4.62660883e-48   
20      -2.00000000e-01  -5.00000000e-02  -7.86383704e-09  -2.58055541e-15  7.86383962e-09   1.18640897e-47   
21      -2.10000000e-01  -5.00000000e-02  -8.00665984e-09  -2.61486745e-15  8.00666245e-09   1.72987833e-47   
22      -2.20000000e-01  -5.00000000e-02  -8.14996565e-09  -2.64978685e-15  8.14996830e-09   2.15197764e-47   
23      -2.30000000e-01  -5.00000000e-02  -8.29383574e-09  -2.68526587e-15  8.29383843e-09   2.49090687e-47   
24      -2.40000000e-01  -5.00000000e-02  -8.43833416e-09  -2.72126648e-15  8.43833688e-09   2.77172602e-47   
25      -2.50000000e-01  -5.00000000e-02  -8.58351274e-09  -2.75775790e-15  8.58351550e-09   3.01108679e-47   
26      -2.60000000e-01  -5.00000000e-02  -8.72941445e-09  -2.79471493e-15  8.72941725e-09   3.22021039e-47   
27      -2.70000000e-01  -5.00000000e-02  -8.87607566e-09  -2.83211664e-15  8.87607850e-09   3.40677574e-47   
28      -2.80000000e-01  -5.00000000e-02  -9.02352771e-09  -2.86994551e-15  9.02353058e-09   3.57612614e-47   
29      -2.90000000e-01  -5.00000000e-02  -9.17179798e-09  -2.90818665e-15  9.17180089e-09   3.73204709e-47   
30      -3.00000000e-01  -5.00000000e-02  -9.32091074e-09  -2.94682738e-15  9.32091369e-09   3.87727188e-47   
31      -3.10000000e-01  -5.00000000e-02  -9.47088770e-09  -2.98585672e-15  9.47089068e-09   4.01381343e-47   
32      -3.20000000e-01  -5.00000000e-02  -9.62174842e-09  -3.02526516e-15  9.62175144e-09   4.14318422e-47   
33      -3.30000000e-01  -5.00000000e-02  -9.77351069e-09  -3.06504437e-15  9.77351375e-09   4.26654345e-47   
34      -3.40000000e-01  -5.00000000e-02  -9.92619077e-09  -3.10518702e-15  9.92619388e-09   4.38479675e-47   
35      -3.50000000e-01  -5.00000000e-02  -1.00798036e-08  -3.14568661e-15  1.00798068e-08   4.49866458e-47   
36      -3.60000000e-01  -5.00000000e-02  -1.02343630e-08  -3.18653734e-15  1.02343662e-08   4.60872959e-47   
37      -3.70000000e-01  -5.00000000e-02  -1.03898817e-08  -3.22773405e-15  1.03898849e-08   4.71547005e-47   
38      -3.80000000e-01  -5.00000000e-02  -1.05463716e-08  -3.26927208e-15  1.05463748e-08   4.81928373e-47   
39      -3.90000000e-01  -5.00000000e-02  -1.07038437e-08  -3.31114720e-15  1.07038470e-08   4.92050522e-47   
40      -4.00000000e-01  -5.00000000e-02  -1.08623085e-08  -3.35335560e-15  1.08623118e-08   5.01941869e-47   
41      -4.10000000e-01  -5.00000000e-02  -1.10217756e-08  -3.39589379e-15  1.10217790e-08   5.11626750e-47   
42      -4.20000000e-01  -5.00000000e-02  -1.11822542e-08  -3.43875858e-15  1.11822576e-08   5.21126149e-47   
43      -4.30000000e-01  -5.00000000e-02  -1.13437528e-08  -3.48194703e-15  1.13437563e-08   5.30458262e-47   
44      -4.40000000e-01  -5.00000000e-02  -1.15062796e-08  -3.52545645e-15  1.15062832e-08   5.39638949e-47   
45      -4.50000000e-01  -5.00000000e-02  -1.16698423e-08  -3.56928431e-15  1.16698459e-08   5.48682084e-47   
46      -4.60000000e-01  -5.00000000e-02  -1.18344480e-08  -3.61342830e-15  1.18344517e-08   5.57599846e-47   
47      -4.70000000e-01  -5.00000000e-02  -1.20001038e-08  -3.65788622e-15  1.20001075e-08   5.66402955e-47   
48      -4.80000000e-01  -5.00000000e-02  -1.21668161e-08  -3.70265605e-15  1.21668198e-08   5.75100867e-47   
49      -4.90000000e-01  -5.00000000e-02  -1.23345912e-08  -3.74773585e-15  1.23345949e-08   5.83701941e-47   
50      -5.00000000e-01  -5.00000000e-02  -1.25034349e-08  -3.79312382e-15  1.25034387e-08   5.92213574e-47   
51      -5.10000000e-01  -5.00000000e-02  -1.26733530e-08  -3.83881822e-15  1.26733568e-08   6.00642321e-47   
52      -5.20000000e-01  -5.00000000e-02  -1.28443509e-08  -3.88481744e-15  1.28443547e-08   6.08993993e-47   
53      -5.30000000e-01  -5.00000000e-02  -1.30164336e-08  -3.93111989e-15  1.30164375e-08   6.17273749e-47   
54      -5.40000000e-01  -5.00000000e-02  -1.31896062e-08  -3.97772408e-15  1.31896102e-08   6.25486167e-47   
55      -5.50000000e-01  -5.00000000e-02  -1.33638733e-08  -4.02462857e-15  1.33638773e-08   6.33635312e-47   
56      -5.60000000e-01  -5.00000000e-02  -1.35392395e-08  -4.07183196e-15  1.35392436e-08   6.41724791e-47   
57      -5.70000000e-01  -5.00000000e-02  -1.37157091e-08  -4.11933290e-15  1.37157132e-08   6.49757806e-47   
58      -5.80000000e-01  -5.00000000e-02  -1.38932862e-08  -4.16713008e-15  1.38932904e-08   6.57737193e-47   
59      -5.90000000e-01  -5.00000000e-02  -1.40719749e-08  -4.21522221e-15  1.40719792e-08   6.65665467e-47   
60      -6.00000000e-01  -5.00000000e-02  -1.42517790e-08  -4.26360804e-15  1.42517833e-08   6.73544852e-47   
61      -6.10000000e-01  -5.00000000e-02  -1.44327021e-08  -4.31228633e-15  1.44327064e-08   6.81377312e-47   
62      -6.20000000e-01  -5.00000000e-02  -1.46147477e-08  -4.36125588e-15  1.46147521e-08   6.89164580e-47   
63      -6.30000000e-01  -5.00000000e-02  -1.47979194e-08  -4.41051549e-15  1.47979238e-08   6.96908180e-47   
64      -6.40000000e-01  -5.00000000e-02  -1.49822202e-08  -4.46006397e-15  1.49822246e-08   7.04609447e-47   
65      -6.50000000e-01  -5.00000000e-02  -1.51676534e-08  -4.50990015e-15  1.51676579e-08   7.12269550e-47   
66      -6.60000000e-01  -5.00000000e-02  -1.53542219e-08  -4.56002285e-15  1.53542264e-08   7.19889505e-47   
67      -6.70000000e-01  -5.00000000e-02  -1.55419287e-08  -4.61043092e-15  1.55419333e-08   7.27470194e-47   
68      -6.80000000e-01  -5.00000000e-02  -1.57307765e-08  -4.66112320e-15  1.57307811e-08   7.35012376e-47   
69      -6.90000000e-01  -5.00000000e-02  -1.59207680e-08  -4.71209852e-15  1.59207727e-08   7.42516699e-47   
70      -7.00000000e-01  -5.00000000e-02  -1.61119057e-08  -4.76335572e-15  1.61119105e-08   7.49983712e-47   
71      -7.10000000e-01  -5.00000000e-02  -1.63041923e-08  -4.81489363e-15  1.63041971e-08   7.57413878e-47   
72      -7.20000000e-01  -5.00000000e-02  -1.64976299e-08  -4.86671108e-15  1.64976348e-08   7.64807577e-47   
73      -7.30000000e-01  -5.00000000e-02  -1.66922209e-08  -4.91880689e-15  1.66922258e-08   7.72165120e-47   
74      -7.40000000e-01  -5.00000000e-02  -1.68879675e-08  -4.97117989e-15  1.68879725e-08   7.79486752e-47   
75      -7.50000000e-01  -5.00000000e-02  -1.70848717e-08  -5.02382886e-15  1.70848768e-08   7.86772659e-47   
76      -7.60000000e-01  -5.00000000e-02  -1.72829357e-08  -5.07675261e-15  1.72829408e-08   7.94022980e-47   
77      -7.70000000e-01  -5.00000000e-02  -1.74821612e-08  -5.12994992e-15  1.74821664e-08   8.01237803e-47   
78      -7.80000000e-01  -5.00000000e-02  -1.76825503e-08  -5.18341956e-15  1.76825554e-08   8.08417178e-47   
79      -7.90000000e-01  -5.00000000e-02  -1.78841045e-08  -5.23716029e-15  1.78841097e-08   8.15561118e-47   
80      -8.00000000e-01  -5.00000000e-02  -1.80868257e-08  -5.29117085e-15  1.80868310e-08   8.22669605e-47   
81      -8.10000000e-01  -5.00000000e-02  -1.82907154e-08  -5.34544996e-15  1.82907208e-08   8.29742590e-47   
82      -8.20000000e-01  -5.00000000e-02  -1.84957752e-08  -5.39999636e-15  1.84957806e-08   8.36780001e-47   
83      -8.30000000e-01  -5.00000000e-02  -1.87020066e-08  -5.45480872e-15  1.87020120e-08   8.43781743e-47   
84      -8.40000000e-01  -5.00000000e-02  -1.89094109e-08  -5.50988573e-15  1.89094165e-08   8.50747705e-47   
85      -8.50000000e-01  -5.00000000e-02  -1.91179896e-08  -5.56522605e-15  1.91179952e-08   8.57677757e-47   
86      -8.60000000e-01  -5.00000000e-02  -1.93277439e-08  -5.62082832e-15  1.93277495e-08   8.64571755e-47   
87      -8.70000000e-01  -5.00000000e-02  -1.95386749e-08  -5.67669118e-15  1.95386806e-08   8.71429545e-47   
88      -8.80000000e-01  -5.00000000e-02  -1.97507839e-08  -5.73281323e-15  1.97507896e-08   8.78250966e-47   
89      -8.90000000e-01  -5.00000000e-02  -1.99640719e-08  -5.78919305e-15  1.99640777e-08   8.85035843e-47   
90      -9.00000000e-01  -5.00000000e-02  -2.01785399e-08  -5.84582922e-15  2.01785458e-08   8.91784002e-47   
91      -9.10000000e-01  -5.00000000e-02  -2.03941890e-08  -5.90272028e-15  2.03941949e-08   8.98495260e-47   
92      -9.20000000e-01  -5.00000000e-02  -2.06110200e-08  -5.95986475e-15  2.06110260e-08   9.05169433e-47   
93      -9.30000000e-01  -5.00000000e-02  -2.08290338e-08  -6.01726115e-15  2.08290398e-08   9.11806337e-47   
94      -9.40000000e-01  -5.00000000e-02  -2.10482311e-08  -6.07490795e-15  2.10482372e-08   9.18405784e-47   
95      -9.50000000e-01  -5.00000000e-02  -2.12686128e-08  -6.13280363e-15  2.12686189e-08   9.24967592e-47   
96      -9.60000000e-01  -5.00000000e-02  -2.14901795e-08  -6.19094661e-15  2.14901857e-08   9.31491573e-47   
97      -9.70000000e-01  -5.00000000e-02  -2.17129318e-08  -6.24933532e-15  2.17129380e-08   9.37977550e-47   
98      -9.80000000e-01  -5.00000000e-02  -2.19368703e-08  -6.30796817e-15  2.19368767e-08   9.44425344e-47   
99      -9.90000000e-01  -5.00000000e-02  -2.21619957e-08  -6.36684351e-15  2.21620020e-08   9.50834783e-47   
100     -1.00000000e+00  -5.00000000e-02  -2.23883083e-08  -6.42595970e-15  2.23883147e-08   9.57205698e-47   
101     -1.01000000e+00  -5.00000000e-02  -2.26158086e-08  -6.48531507e-15  2.26158151e-08   9.63537926e-47   
102     -1.02000000e+00  -5.00000000e-02  -2.28444970e-08  -6.54490792e-15  2.28445035e-08   9.69831310e-47   
103     -1.03000000e+00  -5.00000000e-02  -2.30743739e-08  -6.60473654e-15  2.30743805e-08   9.76085699e-47   
104     -1.04000000e+00  -5.00000000e-02  -2.33054395e-08  -6.66479918e-15  2.33054461e-08   9.82300951e-47   
105     -1.05000000e+00  -5.00000000e-02  -2.35376941e-08  -6.72509408e-15  2.35377008e-08   9.88476928e-47   
106     -1.06000000e+00  -5.00000000e-02  -2.37711380e-08  -6.78561944e-15  2.37711448e-08   9.94613502e-47   
107     -1.07000000e+00  -5.00000000e-02  -2.40057713e-08  -6.84637345e-15  2.40057781e-08   1.00071055e-46   
108     -1.08000000e+00  -5.00000000e-02  -2.42415941e-08  -6.90735428e-15  2.42416011e-08   1.00676796e-46   
109     -1.09000000e+00  -5.00000000e-02  -2.44786066e-08  -6.96856005e-15  2.44786136e-08   1.01278562e-46   
110     -1.10000000e+00  -5.00000000e-02  -2.47168088e-08  -7.02998889e-15  2.47168159e-08   1.01876343e-46   
111     -1.11000000e+00  -5.00000000e-02  -2.49562007e-08  -7.09163887e-15  2.49562078e-08   1.02470132e-46   
112     -1.12000000e+00  -5.00000000e-02  -2.51967824e-08  -7.15350806e-15  2.51967895e-08   1.03059919e-46   
113     -1.13000000e+00  -5.00000000e-02  -2.54385536e-08  -7.21559450e-15  2.54385608e-08   1.03645696e-46   
114     -1.14000000e+00  -5.00000000e-02  -2.56815144e-08  -7.27789620e-15  2.56815217e-08   1.04227459e-46   
115     -1.15000000e+00  -5.00000000e-02  -2.59256646e-08  -7.34041114e-15  2.59256719e-08   1.04805199e-46   
116     -1.16000000e+00  -5.00000000e-02  -2.61710040e-08  -7.40313728e-15  2.61710114e-08   1.05378914e-46   
117     -1.17000000e+00  -5.00000000e-02  -2.64175325e-08  -7.46607256e-15  2.64175400e-08   1.05948598e-46   
118     -1.18000000e+00  -5.00000000e-02  -2.66652498e-08  -7.52921489e-15  2.66652573e-08   1.06514248e-46   
119     -1.19000000e+00  -5.00000000e-02  -2.69141556e-08  -7.59256216e-15  2.69141632e-08   1.07075861e-46   
120     -1.20000000e+00  -5.00000000e-02  -2.71642497e-08  -7.65611220e-15  2.71642573e-08   1.07633435e-46   
121     -1.21000000e+00  -5.00000000e-02  -2.74155317e-08  -7.71986287e-15  2.74155394e-08   1.08186968e-46   
122     -1.22000000e+00  -5.00000000e-02  -2.76680012e-08  -7.78381195e-15  2.76680090e-08   1.08736461e-46   
123     -1.23000000e+00  -5.00000000e-02  -2.79216579e-08  -7.84795723e-15  2.79216657e-08   1.09281912e-46   
124     -1.24000000e+00  -5.00000000e-02  -2.81765013e-08  -7.91229646e-15  2.81765092e-08   1.09823323e-46   
125     -1.25000000e+00  -5.00000000e-02  -2.84325310e-08  -7.97682736e-15  2.84325390e-08   1.10360693e-46   
126     -1.26000000e+00  -5.00000000e-02  -2.86897465e-08  -8.04154762e-15  2.86897545e-08   1.10894025e-46   
127     -1.27000000e+00  -5.00000000e-02  -2.89481473e-08  -8.10645491e-15  2.89481554e-08   1.11423322e-46   
128     -1.28000000e+00  -5.00000000e-02  -2.92077329e-08  -8.17154688e-15  2.92077410e-08   1.11948584e-46   
129     -1.29000000e+00  -5.00000000e-02  -2.94685026e-08  -8.23682113e-15  2.94685108e-08   1.12469815e-46   
130     -1.30000000e+00  -5.00000000e-02  -2.97304560e-08  -8.30227526e-15  2.97304643e-08   1.12987019e-46   
131     -1.31000000e+00  -5.00000000e-02  -2.99935924e-08  -8.36790681e-15  2.99936007e-08   1.13500198e-46   
132     -1.32000000e+00  -5.00000000e-02  -3.02579111e-08  -8.43371332e-15  3.02579195e-08   1.14009357e-46   
133     -1.33000000e+00  -5.00000000e-02  -3.05234115e-08  -8.49969228e-15  3.05234200e-08   1.14514500e-46   
134     -1.34000000e+00  -5.00000000e-02  -3.07900930e-08  -8.56584117e-15  3.07901015e-08   1.15015630e-46   
135     -1.35000000e+00  -5.00000000e-02  -3.10579547e-08  -8.63215742e-15  3.10579633e-08   1.15512753e-46   
136     -1.36000000e+00  -5.00000000e-02  -3.13269960e-08  -8.69863846e-15  3.13270047e-08   1.16005872e-46   
137     -1.37000000e+00  -5.00000000e-02  -3.15972161e-08  -8.76528166e-15  3.15972249e-08   1.16494992e-46   
138     -1.38000000e+00  -5.00000000e-02  -3.18686143e-08  -8.83208438e-15  3.18686231e-08   1.16980118e-46   
139     -1.39000000e+00  -5.00000000e-02  -3.21411897e-08  -8.89904394e-15  3.21411986e-08   1.17461253e-46   
140     -1.40000000e+00  -5.00000000e-02  -3.24149415e-08  -8.96615764e-15  3.24149504e-08   1.17938404e-46   
141     -1.41000000e+00  -5.00000000e-02  -3.26898688e-08  -9.03342273e-15  3.26898779e-08   1.18411572e-46   
142     -1.42000000e+00  -5.00000000e-02  -3.29659709e-08  -9.10083646e-15  3.29659800e-08   1.18880763e-46   
143     -1.43000000e+00  -5.00000000e-02  -3.32432468e-08  -9.16839601e-15  3.32432560e-08   1.19345980e-46   
144     -1.44000000e+00  -5.00000000e-02  -3.35216956e-08  -9.23609857e-15  3.35217049e-08   1.19807227e-46   
145     -1.45000000e+00  -5.00000000e-02  -3.38013165e-08  -9.30394127e-15  3.38013258e-08   1.20264506e-46   
146     -1.46000000e+00  -5.00000000e-02  -3.40821083e-08  -9.37192122e-15  3.40821177e-08   1.20717821e-46   
147     -1.47000000e+00  -5.00000000e-02  -3.43640703e-08  -9.44003549e-15  3.43640798e-08   1.21167174e-46   
148     -1.48000000e+00  -5.00000000e-02  -3.46472014e-08  -9.50828112e-15  3.46472109e-08   1.21612566e-46   
149     -1.49000000e+00  -5.00000000e-02  -3.49315007e-08  -9.57665513e-15  3.49315102e-08   1.22053999e-46   
150     -1.50000000e+00  -5.00000000e-02  -3.52169670e-08  -9.64515449e-15  3.52169766e-08   1.22491474e-46   
151     -1.51000000e+00  -5.00000000e-02  -3.55035994e-08  -9.71377615e-15  3.55036091e-08   1.22924990e-46   
152     -1.52000000e+00  -5.00000000e-02  -3.57913969e-08  -9.78251701e-15  3.57914067e-08   1.23354547e-46   
153     -1.53000000e+00  -5.00000000e-02  -3.60803583e-08  -9.85137395e-15  3.60803682e-08   1.23780145e-46   
154     -1.54000000e+00  -5.00000000e-02  -3.63704826e-08  -9.92034380e-15  3.63704925e-08   1.24201780e-46   
155     -1.55000000e+00  -5.00000000e-02  -3.66617687e-08  -9.98942339e-15  3.66617787e-08   1.24619450e-46   
156     -1.56000000e+00  -5.00000000e-02  -3.69542155e-08  -1.00586095e-14  3.69542256e-08   1.25033152e-46   
157     -1.57000000e+00  -5.00000000e-02  -3.72478218e-08  -1.01278988e-14  3.72478319e-08   1.25442881e-46   
158     -1.58000000e+00  -5.00000000e-02  -3.75425865e-08  -1.01972880e-14  3.75425967e-08   1.25848632e-46   
159     -1.59000000e+00  -5.00000000e-02  -3.78385085e-08  -1.02667739e-14  3.78385187e-08   1.26250400e-46   
160     -1.60000000e+00  -5.00000000e-02  -3.81355865e-08  -1.03363529e-14  3.81355968e-08   1.26648175e-46   
161     -1.61000000e+00  -5.00000000e-02  -3.84338193e-08  -1.04060218e-14  3.84338297e-08   1.27041951e-46   
162     -1.62000000e+00  -5.00000000e-02  -3.87332058e-08  -1.04757771e-14  3.87332163e-08   1.27431719e-46   
163     -1.63000000e+00  -5.00000000e-02  -3.90337448e-08  -1.05456152e-14  3.90337553e-08   1.27817468e-46   
164     -1.64000000e+00  -5.00000000e-02  -3.93354349e-08  -1.06155326e-14  3.93354455e-08   1.28199188e-46   
165     -1.65000000e+00  -5.00000000e-02  -3.96382749e-08  -1.06855259e-14  3.96382856e-08   1.28576866e-46   
166     -1.66000000e+00  -5.00000000e-02  -3.99422636e-08  -1.07555913e-14  3.99422744e-08   1.28950488e-46   
167     -1.67000000e+00  -5.00000000e-02  -4.02473997e-08  -1.08257253e-14  4.02474106e-08   1.29320041e-46   
168     -1.68000000e+00  -5.00000000e-02  -4.05536819e-08  -1.08959241e-14  4.05536928e-08   1.29685509e-46   
169     -1.69000000e+00  -5.00000000e-02  -4.08611089e-08  -1.09661841e-14  4.08611198e-08   1.30046875e-46   
170     -1.70000000e+00  -5.00000000e-02  -4.11696792e-08  -1.10365014e-14  4.11696903e-08   1.30404123e-46   
171     -1.71000000e+00  -5.00000000e-02  -4.14793917e-08  -1.11068723e-14  4.14794028e-08   1.30757231e-46   
172     -1.72000000e+00  -5.00000000e-02  -4.17902449e-08  -1.11772929e-14  4.17902561e-08   1.31106182e-46   
173     -1.73000000e+00  -5.00000000e-02  -4.21022375e-08  -1.12477593e-14  4.21022487e-08   1.31450953e-46   
174     -1.74000000e+00  -5.00000000e-02  -4.24153680e-08  -1.13182675e-14  4.24153793e-08   1.31791523e-46   
175     -1.75000000e+00  -5.00000000e-02  -4.27296351e-08  -1.13888137e-14  4.27296465e-08   1.32127867e-46   
176     -1.76000000e+00  -5.00000000e-02  -4.30450374e-08  -1.14593937e-14  4.30450489e-08   1.32459963e-46   
177     -1.77000000e+00  -5.00000000e-02  -4.33615734e-08  -1.15300035e-14  4.33615849e-08   1.32787782e-46   
178     -1.78000000e+00  -5.00000000e-02  -4.36792417e-08  -1.16006390e-14  4.36792533e-08   1.33111299e-46   
