Index   V(2)           V(1)           I(VDS)           
0       0.00000000e+00   0.00000000e+00   0.00000000e+00   
1       5.00000000e-02   0.00000000e+00   -1.41386693e-11  
2       1.00000000e-01   0.00000000e+00   -1.63420311e-11  
3       1.50000000e-01   0.00000000e+00   -1.77716475e-11  
4       2.00000000e-01   0.00000000e+00   -1.90248871e-11  
5       2.50000000e-01   0.00000000e+00   -2.02097872e-11  
6       3.00000000e-01   0.00000000e+00   -2.13678523e-11  
7       3.50000000e-01   0.00000000e+00   -2.25205855e-11  
8       4.00000000e-01   0.00000000e+00   -2.36810553e-11  
9       4.50000000e-01   0.00000000e+00   -2.48578747e-11  
10      5.00000000e-01   0.00000000e+00   -2.60572965e-11  
11      5.50000000e-01   0.00000000e+00   -2.72840800e-11  
12      6.00000000e-01   0.00000000e+00   -2.85420548e-11  
13      6.50000000e-01   0.00000000e+00   -2.98344437e-11  
14      7.00000000e-01   0.00000000e+00   -3.11640653e-11  
15      7.50000000e-01   0.00000000e+00   -3.25334651e-11  
16      8.00000000e-01   0.00000000e+00   -3.39450052e-11  
17      8.50000000e-01   0.00000000e+00   -3.54009246e-11  
18      9.00000000e-01   0.00000000e+00   -3.69033839e-11  
19      9.50000000e-01   0.00000000e+00   -3.84544969e-11  
20      1.00000000e+00   0.00000000e+00   -4.00563544e-11  
21      1.05000000e+00   0.00000000e+00   -4.17110424e-11  
22      1.10000000e+00   0.00000000e+00   -4.34206563e-11  
23      1.15000000e+00   0.00000000e+00   -4.51873124e-11  
24      1.20000000e+00   0.00000000e+00   -4.70131568e-11  
25      1.25000000e+00   0.00000000e+00   -4.89003733e-11  
26      1.30000000e+00   0.00000000e+00   -5.08511898e-11  
27      1.35000000e+00   0.00000000e+00   -5.28678839e-11  
28      1.40000000e+00   0.00000000e+00   -5.49527880e-11  
29      1.45000000e+00   0.00000000e+00   -5.71082938e-11  
30      1.50000000e+00   0.00000000e+00   -5.93368566e-11  
31      1.55000000e+00   0.00000000e+00   -6.16409985e-11  
32      1.60000000e+00   0.00000000e+00   -6.40233132e-11  
33      1.65000000e+00   0.00000000e+00   -6.64864683e-11  
34      1.70000000e+00   0.00000000e+00   -6.90332098e-11  
35      1.75000000e+00   0.00000000e+00   -7.16663645e-11  
36      1.80000000e+00   0.00000000e+00   -7.43888441e-11  
37      1.85000000e+00   0.00000000e+00   -7.72036481e-11  
38      1.90000000e+00   0.00000000e+00   -8.01138671e-11  
39      1.95000000e+00   0.00000000e+00   -8.31226861e-11  
40      2.00000000e+00   0.00000000e+00   -8.62333881e-11  
41      2.05000000e+00   0.00000000e+00   -8.94493573e-11  
42      2.10000000e+00   0.00000000e+00   -9.27740825e-11  
43      2.15000000e+00   0.00000000e+00   -9.62111609e-11  
44      2.20000000e+00   0.00000000e+00   -9.97643011e-11  
45      2.25000000e+00   0.00000000e+00   -1.03437328e-10  
46      2.30000000e+00   0.00000000e+00   -1.07234184e-10  
47      2.35000000e+00   0.00000000e+00   -1.11158936e-10  
48      2.40000000e+00   0.00000000e+00   -1.15215778e-10  
49      2.45000000e+00   0.00000000e+00   -1.19409034e-10  
50      2.50000000e+00   0.00000000e+00   -1.23743164e-10  
51      2.55000000e+00   0.00000000e+00   -1.28222766e-10  
52      2.60000000e+00   0.00000000e+00   -1.32852585e-10  
53      2.65000000e+00   0.00000000e+00   -1.37637510e-10  
54      2.70000000e+00   0.00000000e+00   -1.42582586e-10  
55      2.75000000e+00   0.00000000e+00   -1.47693014e-10  
56      2.80000000e+00   0.00000000e+00   -1.52974159e-10  
57      2.85000000e+00   0.00000000e+00   -1.58431553e-10  
58      2.90000000e+00   0.00000000e+00   -1.64070900e-10  
59      2.95000000e+00   0.00000000e+00   -1.69898083e-10  
60      3.00000000e+00   0.00000000e+00   -1.75919168e-10  
61      3.05000000e+00   0.00000000e+00   -1.82140410e-10  
62      3.10000000e+00   0.00000000e+00   -1.88568260e-10  
63      3.15000000e+00   0.00000000e+00   -1.95209370e-10  
64      3.20000000e+00   0.00000000e+00   -2.02070597e-10  
65      3.25000000e+00   0.00000000e+00   -2.09159015e-10  
66      3.30000000e+00   0.00000000e+00   -2.16481914e-10  
67      3.35000000e+00   0.00000000e+00   -2.24046815e-10  
68      3.40000000e+00   0.00000000e+00   -2.31861469e-10  
69      3.45000000e+00   0.00000000e+00   -2.39933869e-10  
70      3.50000000e+00   0.00000000e+00   -2.48272257e-10  
71      0.00000000e+00   5.00000000e-01   -6.77626358e-21  
72      5.00000000e-02   5.00000000e-01   -3.68556325e-05  
73      1.00000000e-01   5.00000000e-01   -5.31380329e-05  
74      1.50000000e-01   5.00000000e-01   -5.98225785e-05  
75      2.00000000e-01   5.00000000e-01   -6.38277130e-05  
76      2.50000000e-01   5.00000000e-01   -6.68808530e-05  
77      3.00000000e-01   5.00000000e-01   -6.94418037e-05  
78      3.50000000e-01   5.00000000e-01   -7.17008557e-05  
79      4.00000000e-01   5.00000000e-01   -7.37588063e-05  
80      4.50000000e-01   5.00000000e-01   -7.56761501e-05  
81      5.00000000e-01   5.00000000e-01   -7.74919868e-05  
82      5.50000000e-01   5.00000000e-01   -7.92329017e-05  
83      6.00000000e-01   5.00000000e-01   -8.09176710e-05  
84      6.50000000e-01   5.00000000e-01   -8.25599615e-05  
85      7.00000000e-01   5.00000000e-01   -8.41699713e-05  
86      7.50000000e-01   5.00000000e-01   -8.57554713e-05  
87      8.00000000e-01   5.00000000e-01   -8.73224907e-05  
88      8.50000000e-01   5.00000000e-01   -8.88757815e-05  
89      9.00000000e-01   5.00000000e-01   -9.04191413e-05  
90      9.50000000e-01   5.00000000e-01   -9.19556430e-05  
91      1.00000000e+00   5.00000000e-01   -9.34878005e-05  
92      1.05000000e+00   5.00000000e-01   -9.50176910e-05  
93      1.10000000e+00   5.00000000e-01   -9.65470468e-05  
94      1.15000000e+00   5.00000000e-01   -9.80773246e-05  
95      1.20000000e+00   5.00000000e-01   -9.96097584e-05  
96      1.25000000e+00   5.00000000e-01   -1.01145401e-04  
97      1.30000000e+00   5.00000000e-01   -1.02685158e-04  
98      1.35000000e+00   5.00000000e-01   -1.04229809e-04  
99      1.40000000e+00   5.00000000e-01   -1.05780034e-04  
100     1.45000000e+00   5.00000000e-01   -1.07336426e-04  
101     1.50000000e+00   5.00000000e-01   -1.08899506e-04  
102     1.55000000e+00   5.00000000e-01   -1.10469732e-04  
103     1.60000000e+00   5.00000000e-01   -1.12047512e-04  
104     1.65000000e+00   5.00000000e-01   -1.13633208e-04  
105     1.70000000e+00   5.00000000e-01   -1.15227141e-04  
106     1.75000000e+00   5.00000000e-01   -1.16829603e-04  
107     1.80000000e+00   5.00000000e-01   -1.18440852e-04  
108     1.85000000e+00   5.00000000e-01   -1.20061125e-04  
109     1.90000000e+00   5.00000000e-01   -1.21690634e-04  
110     1.95000000e+00   5.00000000e-01   -1.23329572e-04  
111     2.00000000e+00   5.00000000e-01   -1.24978116e-04  
112     2.05000000e+00   5.00000000e-01   -1.26636425e-04  
113     2.10000000e+00   5.00000000e-01   -1.28304648e-04  
114     2.15000000e+00   5.00000000e-01   -1.29982919e-04  
115     2.20000000e+00   5.00000000e-01   -1.31671364e-04  
116     2.25000000e+00   5.00000000e-01   -1.33370096e-04  
117     2.30000000e+00   5.00000000e-01   -1.35079222e-04  
118     2.35000000e+00   5.00000000e-01   -1.36798840e-04  
119     2.40000000e+00   5.00000000e-01   -1.38529042e-04  
120     2.45000000e+00   5.00000000e-01   -1.40269914e-04  
121     2.50000000e+00   5.00000000e-01   -1.42021534e-04  
122     2.55000000e+00   5.00000000e-01   -1.43783976e-04  
123     2.60000000e+00   5.00000000e-01   -1.45557310e-04  
124     2.65000000e+00   5.00000000e-01   -1.47341602e-04  
125     2.70000000e+00   5.00000000e-01   -1.49136911e-04  
126     2.75000000e+00   5.00000000e-01   -1.50943297e-04  
127     2.80000000e+00   5.00000000e-01   -1.52760813e-04  
128     2.85000000e+00   5.00000000e-01   -1.54589511e-04  
129     2.90000000e+00   5.00000000e-01   -1.56429438e-04  
130     2.95000000e+00   5.00000000e-01   -1.58280642e-04  
131     3.00000000e+00   5.00000000e-01   -1.60143165e-04  
132     3.05000000e+00   5.00000000e-01   -1.62017049e-04  
133     3.10000000e+00   5.00000000e-01   -1.63902333e-04  
134     3.15000000e+00   5.00000000e-01   -1.65799055e-04  
135     3.20000000e+00   5.00000000e-01   -1.67707250e-04  
136     3.25000000e+00   5.00000000e-01   -1.69626953e-04  
137     3.30000000e+00   5.00000000e-01   -1.71558195e-04  
138     3.35000000e+00   5.00000000e-01   -1.73501009e-04  
139     3.40000000e+00   5.00000000e-01   -1.75455425e-04  
140     3.45000000e+00   5.00000000e-01   -1.77421470e-04  
141     3.50000000e+00   5.00000000e-01   -1.79399173e-04  
142     -1.97215226e-31  1.00000000e+00   1.08420217e-19   
143     5.00000000e-02   1.00000000e+00   -1.84865302e-04  
144     1.00000000e-01   1.00000000e+00   -3.38000995e-04  
145     1.50000000e-01   1.00000000e+00   -4.62826626e-04  
146     2.00000000e-01   1.00000000e+00   -5.62377551e-04  
147     2.50000000e-01   1.00000000e+00   -6.39509955e-04  
148     3.00000000e-01   1.00000000e+00   -6.97312740e-04  
149     3.50000000e-01   1.00000000e+00   -7.39699677e-04  
150     4.00000000e-01   1.00000000e+00   -7.71189818e-04  
151     4.50000000e-01   1.00000000e+00   -7.95538445e-04  
152     5.00000000e-01   1.00000000e+00   -8.15172622e-04  
153     5.50000000e-01   1.00000000e+00   -8.31568345e-04  
154     6.00000000e-01   1.00000000e+00   -8.45650235e-04  
155     6.50000000e-01   1.00000000e+00   -8.58023705e-04  
156     7.00000000e-01   1.00000000e+00   -8.69101218e-04  
157     7.50000000e-01   1.00000000e+00   -8.79173326e-04  
158     8.00000000e-01   1.00000000e+00   -8.88450549e-04  
159     8.50000000e-01   1.00000000e+00   -8.97089111e-04  
160     9.00000000e-01   1.00000000e+00   -9.05207367e-04  
161     9.50000000e-01   1.00000000e+00   -9.12896605e-04  
162     1.00000000e+00   1.00000000e+00   -9.20228359e-04  
163     1.05000000e+00   1.00000000e+00   -9.27259472e-04  
164     1.10000000e+00   1.00000000e+00   -9.34035682e-04  
165     1.15000000e+00   1.00000000e+00   -9.40594204e-04  
166     1.20000000e+00   1.00000000e+00   -9.46965624e-04  
167     1.25000000e+00   1.00000000e+00   -9.53175315e-04  
168     1.30000000e+00   1.00000000e+00   -9.59244500e-04  
169     1.35000000e+00   1.00000000e+00   -9.65191066e-04  
170     1.40000000e+00   1.00000000e+00   -9.71030197e-04  
171     1.45000000e+00   1.00000000e+00   -9.76774862e-04  
172     1.50000000e+00   1.00000000e+00   -9.82436210e-04  
173     1.55000000e+00   1.00000000e+00   -9.88023873e-04  
174     1.60000000e+00   1.00000000e+00   -9.93546219e-04  
175     1.65000000e+00   1.00000000e+00   -9.99010551e-04  
176     1.70000000e+00   1.00000000e+00   -1.00442327e-03  
177     1.75000000e+00   1.00000000e+00   -1.00979003e-03  
178     1.80000000e+00   1.00000000e+00   -1.01511579e-03  
179     1.85000000e+00   1.00000000e+00   -1.02040499e-03  
180     1.90000000e+00   1.00000000e+00   -1.02566156e-03  
181     1.95000000e+00   1.00000000e+00   -1.03088902e-03  
182     2.00000000e+00   1.00000000e+00   -1.03609052e-03  
183     2.05000000e+00   1.00000000e+00   -1.04126888e-03  
184     2.10000000e+00   1.00000000e+00   -1.04642668e-03  
185     2.15000000e+00   1.00000000e+00   -1.05156620e-03  
186     2.20000000e+00   1.00000000e+00   -1.05668954e-03  
187     2.25000000e+00   1.00000000e+00   -1.06179860e-03  
188     2.30000000e+00   1.00000000e+00   -1.06689511e-03  
189     2.35000000e+00   1.00000000e+00   -1.07198063e-03  
190     2.40000000e+00   1.00000000e+00   -1.07705662e-03  
191     2.45000000e+00   1.00000000e+00   -1.08212439e-03  
192     2.50000000e+00   1.00000000e+00   -1.08718514e-03  
193     2.55000000e+00   1.00000000e+00   -1.09224001e-03  
194     2.60000000e+00   1.00000000e+00   -1.09729000e-03  
195     2.65000000e+00   1.00000000e+00   -1.10233607e-03  
196     2.70000000e+00   1.00000000e+00   -1.10737910e-03  
197     2.75000000e+00   1.00000000e+00   -1.11241988e-03  
198     2.80000000e+00   1.00000000e+00   -1.11745917e-03  
199     2.85000000e+00   1.00000000e+00   -1.12249767e-03  
200     2.90000000e+00   1.00000000e+00   -1.12753603e-03  
201     2.95000000e+00   1.00000000e+00   -1.13257484e-03  
202     3.00000000e+00   1.00000000e+00   -1.13761468e-03  
203     3.05000000e+00   1.00000000e+00   -1.14265606e-03  
204     3.10000000e+00   1.00000000e+00   -1.14769947e-03  
205     3.15000000e+00   1.00000000e+00   -1.15274538e-03  
206     3.20000000e+00   1.00000000e+00   -1.15779421e-03  
207     3.25000000e+00   1.00000000e+00   -1.16284637e-03  
208     3.30000000e+00   1.00000000e+00   -1.16790224e-03  
209     3.35000000e+00   1.00000000e+00   -1.17296216e-03  
210     3.40000000e+00   1.00000000e+00   -1.17802648e-03  
211     3.45000000e+00   1.00000000e+00   -1.18309551e-03  
212     3.50000000e+00   1.00000000e+00   -1.18816954e-03  
213     0.00000000e+00   1.50000000e+00   0.00000000e+00   
214     5.00000000e-02   1.50000000e+00   -2.64493805e-04  
215     1.00000000e-01   1.50000000e+00   -4.99687130e-04  
216     1.50000000e-01   1.50000000e+00   -7.07977558e-04  
217     2.00000000e-01   1.50000000e+00   -8.91511454e-04  
218     2.50000000e-01   1.50000000e+00   -1.05221768e-03  
219     3.00000000e-01   1.50000000e+00   -1.19183668e-03  
220     3.50000000e-01   1.50000000e+00   -1.31194564e-03  
221     4.00000000e-01   1.50000000e+00   -1.41398128e-03  
222     4.50000000e-01   1.50000000e+00   -1.49927977e-03  
223     5.00000000e-01   1.50000000e+00   -1.56925137e-03  
224     5.50000000e-01   1.50000000e+00   -1.62582618e-03  
225     6.00000000e-01   1.50000000e+00   -1.67160649e-03  
226     6.50000000e-01   1.50000000e+00   -1.70923086e-03  
227     7.00000000e-01   1.50000000e+00   -1.74081663e-03  
228     7.50000000e-01   1.50000000e+00   -1.76789848e-03  
229     8.00000000e-01   1.50000000e+00   -1.79156351e-03  
230     8.50000000e-01   1.50000000e+00   -1.81258762e-03  
231     9.00000000e-01   1.50000000e+00   -1.83153405e-03  
232     9.50000000e-01   1.50000000e+00   -1.84881951e-03  
233     1.00000000e+00   1.50000000e+00   -1.86475801e-03  
234     1.05000000e+00   1.50000000e+00   -1.87959023e-03  
235     1.10000000e+00   1.50000000e+00   -1.89350358e-03  
236     1.15000000e+00   1.50000000e+00   -1.90664597e-03  
237     1.20000000e+00   1.50000000e+00   -1.91913571e-03  
238     1.25000000e+00   1.50000000e+00   -1.93106848e-03  
239     1.30000000e+00   1.50000000e+00   -1.94252247e-03  
240     1.35000000e+00   1.50000000e+00   -1.95356222e-03  
241     1.40000000e+00   1.50000000e+00   -1.96424144e-03  
242     1.45000000e+00   1.50000000e+00   -1.97460517e-03  
243     1.50000000e+00   1.50000000e+00   -1.98469151e-03  
244     1.55000000e+00   1.50000000e+00   -1.99453284e-03  
245     1.60000000e+00   1.50000000e+00   -2.00415690e-03  
246     1.65000000e+00   1.50000000e+00   -2.01358758e-03  
247     1.70000000e+00   1.50000000e+00   -2.02284554e-03  
248     1.75000000e+00   1.50000000e+00   -2.03194878e-03  
249     1.80000000e+00   1.50000000e+00   -2.04091302e-03  
250     1.85000000e+00   1.50000000e+00   -2.04975206e-03  
251     1.90000000e+00   1.50000000e+00   -2.05847807e-03  
252     1.95000000e+00   1.50000000e+00   -2.06710182e-03  
253     2.00000000e+00   1.50000000e+00   -2.07563287e-03  
254     2.05000000e+00   1.50000000e+00   -2.08407974e-03  
255     2.10000000e+00   1.50000000e+00   -2.09245005e-03  
256     2.15000000e+00   1.50000000e+00   -2.10075063e-03  
257     2.20000000e+00   1.50000000e+00   -2.10898764e-03  
258     2.25000000e+00   1.50000000e+00   -2.11716660e-03  
259     2.30000000e+00   1.50000000e+00   -2.12529253e-03  
260     2.35000000e+00   1.50000000e+00   -2.13336998e-03  
261     2.40000000e+00   1.50000000e+00   -2.14140306e-03  
262     2.45000000e+00   1.50000000e+00   -2.14939554e-03  
263     2.50000000e+00   1.50000000e+00   -2.15735085e-03  
264     2.55000000e+00   1.50000000e+00   -2.16527212e-03  
265     2.60000000e+00   1.50000000e+00   -2.17316222e-03  
266     2.65000000e+00   1.50000000e+00   -2.18102379e-03  
267     2.70000000e+00   1.50000000e+00   -2.18885927e-03  
268     2.75000000e+00   1.50000000e+00   -2.19667087e-03  
269     2.80000000e+00   1.50000000e+00   -2.20446067e-03  
270     2.85000000e+00   1.50000000e+00   -2.21223056e-03  
271     2.90000000e+00   1.50000000e+00   -2.21998232e-03  
272     2.95000000e+00   1.50000000e+00   -2.22771758e-03  
273     3.00000000e+00   1.50000000e+00   -2.23543785e-03  
274     3.05000000e+00   1.50000000e+00   -2.24314455e-03  
275     3.10000000e+00   1.50000000e+00   -2.25083900e-03  
276     3.15000000e+00   1.50000000e+00   -2.25852240e-03  
277     3.20000000e+00   1.50000000e+00   -2.26619592e-03  
278     3.25000000e+00   1.50000000e+00   -2.27386061e-03  
279     3.30000000e+00   1.50000000e+00   -2.28151747e-03  
280     3.35000000e+00   1.50000000e+00   -2.28916745e-03  
281     3.40000000e+00   1.50000000e+00   -2.29681140e-03  
282     3.45000000e+00   1.50000000e+00   -2.30445017e-03  
283     3.50000000e+00   1.50000000e+00   -2.31208451e-03  
284     0.00000000e+00   2.00000000e+00   4.33680869e-19   
285     5.00000000e-02   2.00000000e+00   -3.12149185e-04  
286     1.00000000e-01   2.00000000e+00   -5.98347622e-04  
287     1.50000000e-01   2.00000000e+00   -8.60312645e-04  
288     2.00000000e-01   2.00000000e+00   -1.09961368e-03  
289     2.50000000e-01   2.00000000e+00   -1.31768777e-03  
290     3.00000000e-01   2.00000000e+00   -1.51585302e-03  
291     3.50000000e-01   2.00000000e+00   -1.69531992e-03  
292     4.00000000e-01   2.00000000e+00   -1.85720033e-03  
293     4.50000000e-01   2.00000000e+00   -2.00251277e-03  
294     5.00000000e-01   2.00000000e+00   -2.13218144e-03  
295     5.50000000e-01   2.00000000e+00   -2.24702369e-03  
296     6.00000000e-01   2.00000000e+00   -2.34772962e-03  
297     6.50000000e-01   2.00000000e+00   -2.43489912e-03  
298     7.00000000e-01   2.00000000e+00   -2.50929657e-03  
299     7.50000000e-01   2.00000000e+00   -2.57223524e-03  
300     8.00000000e-01   2.00000000e+00   -2.62555325e-03  
301     8.50000000e-01   2.00000000e+00   -2.67116265e-03  
302     9.00000000e-01   2.00000000e+00   -2.71070717e-03  
303     9.50000000e-01   2.00000000e+00   -2.74548021e-03  
304     1.00000000e+00   2.00000000e+00   -2.77646833e-03  
305     1.05000000e+00   2.00000000e+00   -2.80442027e-03  
306     1.10000000e+00   2.00000000e+00   -2.82990777e-03  
307     1.15000000e+00   2.00000000e+00   -2.85337191e-03  
308     1.20000000e+00   2.00000000e+00   -2.87515702e-03  
309     1.25000000e+00   2.00000000e+00   -2.89553511e-03  
310     1.30000000e+00   2.00000000e+00   -2.91472354e-03  
311     1.35000000e+00   2.00000000e+00   -2.93289784e-03  
312     1.40000000e+00   2.00000000e+00   -2.95020124e-03  
313     1.45000000e+00   2.00000000e+00   -2.96675165e-03  
314     1.50000000e+00   2.00000000e+00   -2.98264703e-03  
315     1.55000000e+00   2.00000000e+00   -2.99796933e-03  
316     1.60000000e+00   2.00000000e+00   -3.01278771e-03  
317     1.65000000e+00   2.00000000e+00   -3.02716084e-03  
318     1.70000000e+00   2.00000000e+00   -3.04113886e-03  
319     1.75000000e+00   2.00000000e+00   -3.05476487e-03  
320     1.80000000e+00   2.00000000e+00   -3.06807608e-03  
321     1.85000000e+00   2.00000000e+00   -3.08110483e-03  
322     1.90000000e+00   2.00000000e+00   -3.09387932e-03  
323     1.95000000e+00   2.00000000e+00   -3.10642428e-03  
324     2.00000000e+00   2.00000000e+00   -3.11876146e-03  
325     2.05000000e+00   2.00000000e+00   -3.13091008e-03  
326     2.10000000e+00   2.00000000e+00   -3.14288719e-03  
327     2.15000000e+00   2.00000000e+00   -3.15470797e-03  
328     2.20000000e+00   2.00000000e+00   -3.16638595e-03  
329     2.25000000e+00   2.00000000e+00   -3.17793327e-03  
330     2.30000000e+00   2.00000000e+00   -3.18936082e-03  
331     2.35000000e+00   2.00000000e+00   -3.20067841e-03  
