#H
SOURCE='Xyce' VERSION='1.1'
TITLE='spice probe data'
SUBTITLE='spice probe data'
TIME='0:00:00 AM' DATE='Jan 1, 2000' TEMPERATURE='2.700e+01'
ANALYSIS='Transient Analysis' SERIALNO='12345'
ALLVALUES='YES' COMPLEXVALUES='NO' NODES='2'
SWEEPVAR='Time' SWEEPMODE='VAR_STEP'
XBEGIN='0' XEND='1e-04'
FORMAT='0 VOLTSorAMPS;EFLOAT : NODEorBRANCH;NODE'  
DGTLDATA='NO'
#N
'V(1)' 'V(2)' 
#C 0.00000000e+00 2
0.00000000e+00:1   0.00000000e+00:2   
#C 5.00000000e-08 2
0.00000000e+00:1   0.00000000e+00:2   
#C 1.50000000e-07 2
0.00000000e+00:1   0.00000000e+00:2   
#C 3.50000000e-07 2
0.00000000e+00:1   0.00000000e+00:2   
#C 7.50000000e-07 2
0.00000000e+00:1   0.00000000e+00:2   
#C 1.55000000e-06 2
0.00000000e+00:1   0.00000000e+00:2   
#C 2.55000000e-06 2
0.00000000e+00:1   0.00000000e+00:2   
#C 3.55000000e-06 2
0.00000000e+00:1   0.00000000e+00:2   
#C 4.55000000e-06 2
0.00000000e+00:1   0.00000000e+00:2   
#C 5.55000000e-06 2
0.00000000e+00:1   0.00000000e+00:2   
#C 6.55000000e-06 2
0.00000000e+00:1   0.00000000e+00:2   
#C 7.55000000e-06 2
0.00000000e+00:1   0.00000000e+00:2   
#C 8.55000000e-06 2
0.00000000e+00:1   0.00000000e+00:2   
#C 9.55000000e-06 2
0.00000000e+00:1   0.00000000e+00:2   
#C 1.00000000e-05 2
0.00000000e+00:1   0.00000000e+00:2   
#C 1.00050000e-05 2
5.00000000e-03:1   1.24968758e-06:2   
#C 1.00101307e-05 2
1.01306700e-02:1   3.84755678e-06:2   
#C 1.00152613e-05 2
1.52613400e-02:1   7.76061089e-06:2   
#C 1.00203920e-05 2
2.03920100e-02:1   1.29885126e-05:2   
#C 1.00255227e-05 2
2.55226800e-02:1   1.95309247e-05:2   
#C 1.00306533e-05 2
3.06533500e-02:1   2.73875100e-05:2   
#C 1.00357840e-05 2
3.57840200e-02:1   3.65579316e-05:2   
#C 1.00409147e-05 2
4.09146900e-02:1   4.70418524e-05:2   
#C 1.00460454e-05 2
4.60453600e-02:1   5.88389356e-05:2   
#C 1.00511760e-05 2
5.11760300e-02:1   7.19488444e-05:2   
#C 1.00563067e-05 2
5.63067000e-02:1   8.63712421e-05:2   
#C 1.00614374e-05 2
6.14373700e-02:1   1.02105792e-04:2   
#C 1.00665680e-05 2
6.65680400e-02:1   1.19152158e-04:2   
#C 1.00716987e-05 2
7.16987100e-02:1   1.37510003e-04:2   
#C 1.00768294e-05 2
7.68293800e-02:1   1.57178991e-04:2   
#C 1.00819600e-05 2
8.19600500e-02:1   1.78158786e-04:2   
#C 1.00870907e-05 2
8.70907200e-02:1   2.00449051e-04:2   
#C 1.00922214e-05 2
9.22213900e-02:1   2.24049451e-04:2   
#C 1.00973521e-05 2
9.73520600e-02:1   2.48959649e-04:2   
#C 1.01076134e-05 2
1.07613400e-01:1   3.04016553e-04:2   
#C 1.01178747e-05 2
1.17874740e-01:1   3.64307278e-04:2   
#C 1.01281361e-05 2
1.28136080e-01:1   4.29829141e-04:2   
#C 1.01383974e-05 2
1.38397420e-01:1   5.00579459e-04:2   
#C 1.01486588e-05 2
1.48658760e-01:1   5.76555551e-04:2   
#C 1.01589201e-05 2
1.58920100e-01:1   6.57754738e-04:2   
#C 1.01691814e-05 2
1.69181440e-01:1   7.44174341e-04:2   
#C 1.01794428e-05 2
1.79442780e-01:1   8.35811682e-04:2   
#C 1.01897041e-05 2
1.89704120e-01:1   9.32664087e-04:2   
#C 1.01999655e-05 2
1.99965460e-01:1   1.03472888e-03:2   
#C 1.02102268e-05 2
2.10226800e-01:1   1.14200339e-03:2   
#C 1.02204881e-05 2
2.20488140e-01:1   1.25448494e-03:2   
#C 1.02410108e-05 2
2.41010820e-01:1   1.50025488e-03:2   
#C 1.02615335e-05 2
2.61533500e-01:1   1.76681031e-03:2   
#C 1.02820562e-05 2
2.82056180e-01:1   2.05412993e-03:2   
#C 1.03025789e-05 2
3.02578860e-01:1   2.36219246e-03:2   
#C 1.03231015e-05 2
3.23101540e-01:1   2.69097664e-03:2   
#C 1.03436242e-05 2
3.43624220e-01:1   3.04046121e-03:2   
#C 1.03641469e-05 2
3.64146900e-01:1   3.41062497e-03:2   
#C 1.03846696e-05 2
3.84669580e-01:1   3.80144671e-03:2   
#C 1.04051923e-05 2
4.05192260e-01:1   4.21290526e-03:2   
#C 1.04257149e-05 2
4.25714940e-01:1   4.64497946e-03:2   
#C 1.04462376e-05 2
4.46237620e-01:1   5.09764818e-03:2   
#C 1.04667603e-05 2
4.66760300e-01:1   5.57089032e-03:2   
#C 1.05078057e-05 2
5.07805660e-01:1   6.59949968e-03:2   
#C 1.05488510e-05 2
5.48851020e-01:1   7.71006595e-03:2   
#C 1.05898964e-05 2
5.89896380e-01:1   8.90242125e-03:2   
#C 1.06309417e-05 2
6.30941740e-01:1   1.01763981e-02:2   
#C 1.06719871e-05 2
6.71987100e-01:1   1.15318293e-02:2   
#C 1.07130325e-05 2
7.13032460e-01:1   1.29685481e-02:2   
#C 1.07540778e-05 2
7.54077820e-01:1   1.44863879e-02:2   
#C 1.07951232e-05 2
7.95123180e-01:1   1.60851827e-02:2   
#C 1.08361685e-05 2
8.36168540e-01:1   1.77647665e-02:2   
#C 1.08772139e-05 2
8.77213900e-01:1   1.95249741e-02:2   
#C 1.09182593e-05 2
9.18259260e-01:1   2.13656402e-02:2   
#C 1.10000000e-05 2
1.00000000e+00:1   2.53490745e-02:2   
#C 1.10410454e-05 2
1.00000000e+00:1   2.73452228e-02:2   
#C 1.10820907e-05 2
1.00000000e+00:1   2.93372829e-02:2   
#C 1.11641814e-05 2
1.00000000e+00:1   3.33051168e-02:2   
#C 1.13283629e-05 2
1.00000000e+00:1   4.11761707e-02:2   
#C 1.16567258e-05 2
1.00000000e+00:1   5.66639970e-02:2   
#C 1.19850886e-05 2
1.00000000e+00:1   7.19016494e-02:2   
#C 1.23134515e-05 2
1.00000000e+00:1   8.68931688e-02:2   
#C 1.29701773e-05 2
1.00000000e+00:1   1.15922977e-01:2   
#C 1.36269030e-05 2
1.00000000e+00:1   1.44029859e-01:2   
#C 1.42836288e-05 2
1.00000000e+00:1   1.71243157e-01:2   
#C 1.49403546e-05 2
1.00000000e+00:1   1.97591281e-01:2   
#C 1.55970803e-05 2
1.00000000e+00:1   2.23101736e-01:2   
#C 1.62538061e-05 2
1.00000000e+00:1   2.47801154e-01:2   
#C 1.75672576e-05 2
1.00000000e+00:1   2.94155763e-01:2   
#C 1.88807091e-05 2
1.00000000e+00:1   3.37653748e-01:2   
#C 2.01941606e-05 2
1.00000000e+00:1   3.78471148e-01:2   
#C 2.15076122e-05 2
1.00000000e+00:1   4.16773158e-01:2   
#C 2.28210637e-05 2
1.00000000e+00:1   4.52714787e-01:2   
#C 2.41345152e-05 2
1.00000000e+00:1   4.86441497e-01:2   
#C 2.54479667e-05 2
1.00000000e+00:1   5.18089783e-01:2   
#C 2.67614182e-05 2
1.00000000e+00:1   5.47787727e-01:2   
#C 2.80748698e-05 2
1.00000000e+00:1   5.75655522e-01:2   
#C 2.93883213e-05 2
1.00000000e+00:1   6.01805951e-01:2   
#C 3.07017728e-05 2
1.00000000e+00:1   6.26344848e-01:2   
#C 3.33286758e-05 2
1.00000000e+00:1   6.69724883e-01:2   
#C 3.59555789e-05 2
1.00000000e+00:1   7.08068651e-01:2   
#C 3.85824819e-05 2
1.00000000e+00:1   7.41960843e-01:2   
#C 4.12093850e-05 2
1.00000000e+00:1   7.71918272e-01:2   
#C 4.38362880e-05 2
1.00000000e+00:1   7.98397750e-01:2   
#C 4.64631910e-05 2
1.00000000e+00:1   8.21803055e-01:2   
#C 4.90900941e-05 2
1.00000000e+00:1   8.42491087e-01:2   
#C 5.17169971e-05 2
1.00000000e+00:1   8.60777312e-01:2   
#C 5.43439002e-05 2
1.00000000e+00:1   8.76940572e-01:2   
#C 5.69708032e-05 2
1.00000000e+00:1   8.91227334e-01:2   
#C 5.95977062e-05 2
1.00000000e+00:1   9.03855454e-01:2   
#C 6.22246093e-05 2
1.00000000e+00:1   9.15017494e-01:2   
#C 6.48515123e-05 2
1.00000000e+00:1   9.24883661e-01:2   
#C 6.74784154e-05 2
1.00000000e+00:1   9.33604401e-01:2   
#C 7.01053184e-05 2
1.00000000e+00:1   9.41312694e-01:2   
#C 7.27322214e-05 2
1.00000000e+00:1   9.48126082e-01:2   
#C 7.53591245e-05 2
1.00000000e+00:1   9.54148459e-01:2   
#C 7.79860275e-05 2
1.00000000e+00:1   9.59471660e-01:2   
#C 8.06129306e-05 2
1.00000000e+00:1   9.64176857e-01:2   
#C 8.32398336e-05 2
1.00000000e+00:1   9.68335796e-01:2   
#C 8.84936397e-05 2
1.00000000e+00:1   9.74923223e-01:2   
#C 9.10000000e-05 2
1.00000000e+00:1   9.77715830e-01:2   
#C 9.10050000e-05 2
9.95000000e-01:1   9.77720150e-01:2   
#C 9.10150000e-05 2
9.85000000e-01:1   9.77723789e-01:2   
#C 9.10350000e-05 2
9.65000000e-01:1   9.77711077e-01:2   
#C 9.10750000e-05 2
9.25000000e-01:1   9.77605866e-01:2   
#C 9.11550000e-05 2
8.45000000e-01:1   9.77077555e-01:2   
#C 9.13150000e-05 2
6.85000000e-01:1   9.74759480e-01:2   
#C 9.14750000e-05 2
5.25000000e-01:1   9.71189960e-01:2   
#C 9.17950000e-05 2
2.05000000e-01:1   9.59123976e-01:2   
#C 9.20000000e-05 2
5.50574126e-15:1   9.49392701e-01:2   
#C 9.20400000e-05 2
0.00000000e+00:1   9.47497706e-01:2   
#C 9.21200000e-05 2
0.00000000e+00:1   9.43722814e-01:2   
#C 9.22800000e-05 2
0.00000000e+00:1   9.36232951e-01:2   
#C 9.26000000e-05 2
0.00000000e+00:1   9.21489125e-01:2   
#C 9.32400000e-05 2
0.00000000e+00:1   8.92915819e-01:2   
#C 9.45200000e-05 2
0.00000000e+00:1   8.39206597e-01:2   
#C 9.58000000e-05 2
0.00000000e+00:1   7.88728004e-01:2   
#C 9.70800000e-05 2
0.00000000e+00:1   7.41285718e-01:2   
#C 9.83600000e-05 2
0.00000000e+00:1   6.96697104e-01:2   
#C 9.96400000e-05 2
0.00000000e+00:1   6.54790511e-01:2   
#C 1.00000000e-04 2
0.00000000e+00:1   6.43212683e-01:2   
#;
