
Circuit: ** PMOSFET: Benchmarking Implementation of BSIM4.6.0 by Mohan V. Dunga 12/13/2006.

Circuit: ** PMOSFET: Benchmarking Implementation of BSIM4.6.0 by Mohan V. Dunga 12/13/2006.
Date: Fri Apr  8 01:35:56  2011


** PMOSFET: Benchmarking Implementation of BSIM4.6.0 by Mohan V. Dunga 12/13/2006.
DC transfer characteristic  Fri Apr  8 01:35:56  2011
--------------------------------------------------------------------------------
Index   v-sweep         v(1)            v(3)            vds_branch      
--------------------------------------------------------------------------------
0	6.000000e-01	6.000000e-01	0.000000e+00	4.308277e-12	
1	5.800000e-01	5.800000e-01	0.000000e+00	4.788567e-12	
2	5.600000e-01	5.600000e-01	0.000000e+00	5.419584e-12	
3	5.400000e-01	5.400000e-01	0.000000e+00	6.111829e-12	
4	5.200000e-01	5.200000e-01	0.000000e+00	6.924242e-12	
5	5.000000e-01	5.000000e-01	0.000000e+00	7.890637e-12	
6	4.800000e-01	4.800000e-01	0.000000e+00	9.061080e-12	
7	4.600000e-01	4.600000e-01	0.000000e+00	1.051137e-11	
8	4.400000e-01	4.400000e-01	0.000000e+00	1.235826e-11	
9	4.200000e-01	4.200000e-01	0.000000e+00	1.478379e-11	
10	4.000000e-01	4.000000e-01	0.000000e+00	1.807437e-11	
11	3.800000e-01	3.800000e-01	0.000000e+00	2.268326e-11	
12	3.600000e-01	3.600000e-01	0.000000e+00	2.933064e-11	
13	3.400000e-01	3.400000e-01	0.000000e+00	3.916373e-11	
14	3.200000e-01	3.200000e-01	0.000000e+00	5.401268e-11	
15	3.000000e-01	3.000000e-01	0.000000e+00	7.679941e-11	
16	2.800000e-01	2.800000e-01	0.000000e+00	1.121900e-10	
17	2.600000e-01	2.600000e-01	0.000000e+00	1.676344e-10	
18	2.400000e-01	2.400000e-01	0.000000e+00	2.550214e-10	
19	2.200000e-01	2.200000e-01	0.000000e+00	3.933071e-10	
20	2.000000e-01	2.000000e-01	0.000000e+00	6.126818e-10	
21	1.800000e-01	1.800000e-01	0.000000e+00	9.611550e-10	
22	1.600000e-01	1.600000e-01	0.000000e+00	1.514928e-09	
23	1.400000e-01	1.400000e-01	0.000000e+00	2.394662e-09	
24	1.200000e-01	1.200000e-01	0.000000e+00	3.790857e-09	
25	1.000000e-01	1.000000e-01	0.000000e+00	6.003194e-09	
26	8.000000e-02	8.000000e-02	0.000000e+00	9.501035e-09	
27	6.000000e-02	6.000000e-02	0.000000e+00	1.501561e-08	
28	4.000000e-02	4.000000e-02	0.000000e+00	2.367884e-08	
29	2.000000e-02	2.000000e-02	0.000000e+00	3.722978e-08	
30	-1.734723e-16	-1.734723e-16	0.000000e+00	5.831681e-08	
31	-2.000000e-02	-2.000000e-02	0.000000e+00	9.093285e-08	
32	-4.000000e-02	-4.000000e-02	0.000000e+00	1.410310e-07	
33	-6.000000e-02	-6.000000e-02	0.000000e+00	2.173810e-07	
34	-8.000000e-02	-8.000000e-02	0.000000e+00	3.327421e-07	
35	-1.000000e-01	-1.000000e-01	0.000000e+00	5.054533e-07	
36	-1.200000e-01	-1.200000e-01	0.000000e+00	7.615731e-07	
37	-1.400000e-01	-1.400000e-01	0.000000e+00	1.137745e-06	
38	-1.600000e-01	-1.600000e-01	0.000000e+00	1.684988e-06	
39	-1.800000e-01	-1.800000e-01	0.000000e+00	2.473551e-06	
40	-2.000000e-01	-2.000000e-01	0.000000e+00	3.598745e-06	
41	-2.200000e-01	-2.200000e-01	0.000000e+00	5.187065e-06	
42	-2.400000e-01	-2.400000e-01	0.000000e+00	7.401045e-06	
43	-2.600000e-01	-2.600000e-01	0.000000e+00	1.044007e-05	
44	-2.800000e-01	-2.800000e-01	0.000000e+00	1.453346e-05	
45	-3.000000e-01	-3.000000e-01	0.000000e+00	1.992227e-05	
46	-3.200000e-01	-3.200000e-01	0.000000e+00	2.682809e-05	
47	-3.400000e-01	-3.400000e-01	0.000000e+00	3.541229e-05	
48	-3.600000e-01	-3.600000e-01	0.000000e+00	4.573654e-05	
49	-3.800000e-01	-3.800000e-01	0.000000e+00	5.774095e-05	
50	-4.000000e-01	-4.000000e-01	0.000000e+00	7.125198e-05	
51	-4.200000e-01	-4.200000e-01	0.000000e+00	8.601667e-05	
52	-4.400000e-01	-4.400000e-01	0.000000e+00	1.017462e-04	
53	-4.600000e-01	-4.600000e-01	0.000000e+00	1.181529e-04	
54	-4.800000e-01	-4.800000e-01	0.000000e+00	1.349740e-04	

Index   v-sweep         v(1)            v(3)            vds_branch      
--------------------------------------------------------------------------------
55	-5.000000e-01	-5.000000e-01	0.000000e+00	1.519827e-04	
56	-5.200000e-01	-5.200000e-01	0.000000e+00	1.689923e-04	
57	-5.400000e-01	-5.400000e-01	0.000000e+00	1.858533e-04	
58	-5.600000e-01	-5.600000e-01	0.000000e+00	2.024504e-04	
59	-5.800000e-01	-5.800000e-01	0.000000e+00	2.186963e-04	
60	-6.000000e-01	-6.000000e-01	0.000000e+00	2.345274e-04	
61	-6.200000e-01	-6.200000e-01	0.000000e+00	2.498989e-04	
62	-6.400000e-01	-6.400000e-01	0.000000e+00	2.647805e-04	
63	-6.600000e-01	-6.600000e-01	0.000000e+00	2.791535e-04	
64	-6.800000e-01	-6.800000e-01	0.000000e+00	2.930079e-04	
65	-7.000000e-01	-7.000000e-01	0.000000e+00	3.063403e-04	
66	-7.200000e-01	-7.200000e-01	0.000000e+00	3.191522e-04	
67	-7.400000e-01	-7.400000e-01	0.000000e+00	3.314490e-04	
68	-7.600000e-01	-7.600000e-01	0.000000e+00	3.432384e-04	
69	-7.800000e-01	-7.800000e-01	0.000000e+00	3.545302e-04	
70	-8.000000e-01	-8.000000e-01	0.000000e+00	3.653358e-04	
71	-8.200000e-01	-8.200000e-01	0.000000e+00	3.756673e-04	
72	-8.400000e-01	-8.400000e-01	0.000000e+00	3.855373e-04	
73	-8.600000e-01	-8.600000e-01	0.000000e+00	3.949589e-04	
74	-8.800000e-01	-8.800000e-01	0.000000e+00	4.039453e-04	
75	-9.000000e-01	-9.000000e-01	0.000000e+00	4.125097e-04	
76	-9.200000e-01	-9.200000e-01	0.000000e+00	4.206652e-04	
77	-9.400000e-01	-9.400000e-01	0.000000e+00	4.284246e-04	
78	-9.600000e-01	-9.600000e-01	0.000000e+00	4.358004e-04	
79	-9.800000e-01	-9.800000e-01	0.000000e+00	4.428046e-04	
80	-1.000000e+00	-1.000000e+00	0.000000e+00	4.494490e-04	
81	-1.020000e+00	-1.020000e+00	0.000000e+00	4.557447e-04	
82	-1.040000e+00	-1.040000e+00	0.000000e+00	4.617023e-04	
83	-1.060000e+00	-1.060000e+00	0.000000e+00	4.673317e-04	
84	-1.080000e+00	-1.080000e+00	0.000000e+00	4.726423e-04	
85	-1.100000e+00	-1.100000e+00	0.000000e+00	4.776425e-04	
86	-1.120000e+00	-1.120000e+00	0.000000e+00	4.823401e-04	
87	-1.140000e+00	-1.140000e+00	0.000000e+00	4.867420e-04	
88	-1.160000e+00	-1.160000e+00	0.000000e+00	4.908541e-04	
89	-1.180000e+00	-1.180000e+00	0.000000e+00	4.946812e-04	
90	-1.200000e+00	-1.200000e+00	0.000000e+00	1.252089e-11	
91	6.000000e-01	6.000000e-01	3.000000e-01	1.298125e-11	
92	5.800000e-01	5.800000e-01	3.000000e-01	1.356608e-11	
93	5.600000e-01	5.600000e-01	3.000000e-01	1.419326e-11	
94	5.400000e-01	5.400000e-01	3.000000e-01	1.490163e-11	
95	5.200000e-01	5.200000e-01	3.000000e-01	1.570163e-11	
96	5.000000e-01	5.000000e-01	3.000000e-01	1.660601e-11	
97	4.800000e-01	4.800000e-01	3.000000e-01	1.763089e-11	
98	4.600000e-01	4.600000e-01	3.000000e-01	1.879762e-11	
99	4.400000e-01	4.400000e-01	3.000000e-01	2.013586e-11	
100	4.200000e-01	4.200000e-01	3.000000e-01	2.168846e-11	
101	4.000000e-01	4.000000e-01	3.000000e-01	2.351968e-11	
102	3.800000e-01	3.800000e-01	3.000000e-01	2.572848e-11	
103	3.600000e-01	3.600000e-01	3.000000e-01	2.847030e-11	
104	3.400000e-01	3.400000e-01	3.000000e-01	3.199264e-11	
105	3.200000e-01	3.200000e-01	3.000000e-01	3.669306e-11	
106	3.000000e-01	3.000000e-01	3.000000e-01	4.321363e-11	
107	2.800000e-01	2.800000e-01	3.000000e-01	5.259472e-11	
108	2.600000e-01	2.600000e-01	3.000000e-01	6.652483e-11	
109	2.400000e-01	2.400000e-01	3.000000e-01	8.774637e-11	
110	2.200000e-01	2.200000e-01	3.000000e-01	1.207135e-10	
111	2.000000e-01	2.000000e-01	3.000000e-01	1.726570e-10	
112	1.800000e-01	1.800000e-01	3.000000e-01	2.553057e-10	

Index   v-sweep         v(1)            v(3)            vds_branch      
--------------------------------------------------------------------------------
113	1.600000e-01	1.600000e-01	3.000000e-01	3.876617e-10	
114	1.400000e-01	1.400000e-01	3.000000e-01	6.004636e-10	
115	1.200000e-01	1.200000e-01	3.000000e-01	9.433403e-10	
116	1.000000e-01	1.000000e-01	3.000000e-01	1.496231e-09	
117	8.000000e-02	8.000000e-02	3.000000e-01	2.387519e-09	
118	6.000000e-02	6.000000e-02	3.000000e-01	3.822653e-09	
119	4.000000e-02	4.000000e-02	3.000000e-01	6.128955e-09	
120	2.000000e-02	2.000000e-02	3.000000e-01	9.825125e-09	
121	-1.734723e-16	-1.734723e-16	3.000000e-01	1.572780e-08	
122	-2.000000e-02	-2.000000e-02	3.000000e-01	2.511268e-08	
123	-4.000000e-02	-4.000000e-02	3.000000e-01	3.995432e-08	
124	-6.000000e-02	-6.000000e-02	3.000000e-01	6.327637e-08	
125	-8.000000e-02	-8.000000e-02	3.000000e-01	9.965312e-08	
126	-1.000000e-01	-1.000000e-01	3.000000e-01	1.559130e-07	
127	-1.200000e-01	-1.200000e-01	3.000000e-01	2.421068e-07	
128	-1.400000e-01	-1.400000e-01	3.000000e-01	3.728194e-07	
129	-1.600000e-01	-1.600000e-01	3.000000e-01	5.689311e-07	
130	-1.800000e-01	-1.800000e-01	3.000000e-01	8.599704e-07	
131	-2.000000e-01	-2.000000e-01	3.000000e-01	1.287236e-06	
132	-2.200000e-01	-2.200000e-01	3.000000e-01	1.907853e-06	
133	-2.400000e-01	-2.400000e-01	3.000000e-01	2.799788e-06	
134	-2.600000e-01	-2.600000e-01	3.000000e-01	4.067403e-06	
135	-2.800000e-01	-2.800000e-01	3.000000e-01	5.846413e-06	
136	-3.000000e-01	-3.000000e-01	3.000000e-01	8.305984e-06	
137	-3.200000e-01	-3.200000e-01	3.000000e-01	1.164473e-05	
138	-3.400000e-01	-3.400000e-01	3.000000e-01	1.607697e-05	
139	-3.600000e-01	-3.600000e-01	3.000000e-01	2.180705e-05	
140	-3.800000e-01	-3.800000e-01	3.000000e-01	2.899337e-05	
141	-4.000000e-01	-4.000000e-01	3.000000e-01	3.771090e-05	
142	-4.200000e-01	-4.200000e-01	3.000000e-01	4.792718e-05	
143	-4.400000e-01	-4.400000e-01	3.000000e-01	5.950467e-05	
144	-4.600000e-01	-4.600000e-01	3.000000e-01	7.222890e-05	
145	-4.800000e-01	-4.800000e-01	3.000000e-01	8.584777e-05	
146	-5.000000e-01	-5.000000e-01	3.000000e-01	1.001064e-04	
147	-5.200000e-01	-5.200000e-01	3.000000e-01	1.147702e-04	
148	-5.400000e-01	-5.400000e-01	3.000000e-01	1.296359e-04	
149	-5.600000e-01	-5.600000e-01	3.000000e-01	1.445357e-04	
150	-5.800000e-01	-5.800000e-01	3.000000e-01	1.593355e-04	
151	-6.000000e-01	-6.000000e-01	3.000000e-01	1.739315e-04	
152	-6.200000e-01	-6.200000e-01	3.000000e-01	1.882453e-04	
153	-6.400000e-01	-6.400000e-01	3.000000e-01	2.022194e-04	
154	-6.600000e-01	-6.600000e-01	3.000000e-01	2.158132e-04	
155	-6.800000e-01	-6.800000e-01	3.000000e-01	2.289989e-04	
156	-7.000000e-01	-7.000000e-01	3.000000e-01	2.417591e-04	
157	-7.200000e-01	-7.200000e-01	3.000000e-01	2.540840e-04	
158	-7.400000e-01	-7.400000e-01	3.000000e-01	2.659694e-04	
159	-7.600000e-01	-7.600000e-01	3.000000e-01	2.774157e-04	
160	-7.800000e-01	-7.800000e-01	3.000000e-01	2.884264e-04	
161	-8.000000e-01	-8.000000e-01	3.000000e-01	2.990072e-04	
162	-8.200000e-01	-8.200000e-01	3.000000e-01	3.091658e-04	
163	-8.400000e-01	-8.400000e-01	3.000000e-01	3.189108e-04	
164	-8.600000e-01	-8.600000e-01	3.000000e-01	3.282517e-04	
165	-8.800000e-01	-8.800000e-01	3.000000e-01	3.371983e-04	
166	-9.000000e-01	-9.000000e-01	3.000000e-01	3.457611e-04	
167	-9.200000e-01	-9.200000e-01	3.000000e-01	3.539501e-04	
168	-9.400000e-01	-9.400000e-01	3.000000e-01	3.617759e-04	
169	-9.600000e-01	-9.600000e-01	3.000000e-01	3.692483e-04	
170	-9.800000e-01	-9.800000e-01	3.000000e-01	3.763773e-04	

Index   v-sweep         v(1)            v(3)            vds_branch      
--------------------------------------------------------------------------------
171	-1.000000e+00	-1.000000e+00	3.000000e-01	3.831724e-04	
172	-1.020000e+00	-1.020000e+00	3.000000e-01	3.896425e-04	
173	-1.040000e+00	-1.040000e+00	3.000000e-01	3.957963e-04	
174	-1.060000e+00	-1.060000e+00	3.000000e-01	4.016417e-04	
175	-1.080000e+00	-1.080000e+00	3.000000e-01	4.071860e-04	
176	-1.100000e+00	-1.100000e+00	3.000000e-01	4.124360e-04	
177	-1.120000e+00	-1.120000e+00	3.000000e-01	4.173973e-04	
178	-1.140000e+00	-1.140000e+00	3.000000e-01	4.220749e-04	
179	-1.160000e+00	-1.160000e+00	3.000000e-01	4.264728e-04	
180	-1.180000e+00	-1.180000e+00	3.000000e-01	3.612259e-11	
181	-1.200000e+00	-1.200000e+00	3.000000e-01	3.658098e-11	
182	6.000000e-01	6.000000e-01	6.000000e-01	3.716113e-11	
183	5.800000e-01	5.800000e-01	6.000000e-01	3.778163e-11	
184	5.600000e-01	5.600000e-01	6.000000e-01	3.847912e-11	
185	5.400000e-01	5.400000e-01	6.000000e-01	3.926146e-11	
186	5.200000e-01	5.200000e-01	6.000000e-01	4.013713e-11	
187	5.000000e-01	5.000000e-01	6.000000e-01	4.111536e-11	
188	4.800000e-01	4.800000e-01	6.000000e-01	4.220630e-11	
189	4.600000e-01	4.600000e-01	6.000000e-01	4.342138e-11	
190	4.400000e-01	4.400000e-01	6.000000e-01	4.477388e-11	
191	4.200000e-01	4.200000e-01	6.000000e-01	4.628001e-11	
192	4.000000e-01	4.000000e-01	6.000000e-01	4.796071e-11	
193	3.800000e-01	3.800000e-01	6.000000e-01	4.984472e-11	
194	3.600000e-01	3.600000e-01	6.000000e-01	5.197384e-11	
195	3.400000e-01	3.400000e-01	6.000000e-01	5.441178e-11	
196	3.200000e-01	3.200000e-01	6.000000e-01	5.725887e-11	
197	3.000000e-01	3.000000e-01	6.000000e-01	6.067671e-11	
198	2.800000e-01	2.800000e-01	6.000000e-01	6.492903e-11	
199	2.600000e-01	2.600000e-01	6.000000e-01	7.044933e-11	
200	2.400000e-01	2.400000e-01	6.000000e-01	7.795268e-11	
201	2.200000e-01	2.200000e-01	6.000000e-01	8.862000e-11	
202	2.000000e-01	2.000000e-01	6.000000e-01	1.044013e-10	
203	1.800000e-01	1.800000e-01	6.000000e-01	1.285139e-10	
204	1.600000e-01	1.600000e-01	6.000000e-01	1.662591e-10	
205	1.400000e-01	1.400000e-01	6.000000e-01	2.263589e-10	
206	1.200000e-01	1.200000e-01	6.000000e-01	3.231375e-10	
207	1.000000e-01	1.000000e-01	6.000000e-01	4.800732e-10	
208	8.000000e-02	8.000000e-02	6.000000e-01	7.355590e-10	
209	6.000000e-02	6.000000e-02	6.000000e-01	1.152210e-09	
210	4.000000e-02	4.000000e-02	6.000000e-01	1.831819e-09	
211	2.000000e-02	2.000000e-02	6.000000e-01	2.939232e-09	
212	-1.734723e-16	-1.734723e-16	6.000000e-01	4.740165e-09	
213	-2.000000e-02	-2.000000e-02	6.000000e-01	7.660499e-09	
214	-4.000000e-02	-4.000000e-02	6.000000e-01	1.237815e-08	
215	-6.000000e-02	-6.000000e-02	6.000000e-01	1.996336e-08	
216	-8.000000e-02	-8.000000e-02	6.000000e-01	3.208919e-08	
217	-1.000000e-01	-1.000000e-01	6.000000e-01	5.134133e-08	
218	-1.200000e-01	-1.200000e-01	6.000000e-01	8.166397e-08	
219	-1.400000e-01	-1.400000e-01	6.000000e-01	1.289871e-07	
220	-1.600000e-01	-1.600000e-01	6.000000e-01	2.020899e-07	
221	-1.800000e-01	-1.800000e-01	6.000000e-01	3.137693e-07	
222	-2.000000e-01	-2.000000e-01	6.000000e-01	4.824023e-07	
223	-2.200000e-01	-2.200000e-01	6.000000e-01	7.340298e-07	
224	-2.400000e-01	-2.400000e-01	6.000000e-01	1.105119e-06	
225	-2.600000e-01	-2.600000e-01	6.000000e-01	1.646171e-06	
226	-2.800000e-01	-2.800000e-01	6.000000e-01	2.426202e-06	
227	-3.000000e-01	-3.000000e-01	6.000000e-01	3.537786e-06	
228	-3.200000e-01	-3.200000e-01	6.000000e-01	5.101618e-06	

Index   v-sweep         v(1)            v(3)            vds_branch      
--------------------------------------------------------------------------------
229	-3.400000e-01	-3.400000e-01	6.000000e-01	7.268595e-06	
230	-3.600000e-01	-3.600000e-01	6.000000e-01	1.021640e-05	
231	-3.800000e-01	-3.800000e-01	6.000000e-01	1.413720e-05	
232	-4.000000e-01	-4.000000e-01	6.000000e-01	1.921429e-05	
233	-4.200000e-01	-4.200000e-01	6.000000e-01	2.558923e-05	
234	-4.400000e-01	-4.400000e-01	6.000000e-01	3.332781e-05	
235	-4.600000e-01	-4.600000e-01	6.000000e-01	4.239869e-05	
236	-4.800000e-01	-4.800000e-01	6.000000e-01	5.267660e-05	
237	-5.000000e-01	-5.000000e-01	6.000000e-01	6.396879e-05	
238	-5.200000e-01	-5.200000e-01	6.000000e-01	7.605074e-05	
239	-5.400000e-01	-5.400000e-01	6.000000e-01	8.869708e-05	
240	-5.600000e-01	-5.600000e-01	6.000000e-01	1.017015e-04	
241	-5.800000e-01	-5.800000e-01	6.000000e-01	1.148865e-04	
242	-6.000000e-01	-6.000000e-01	6.000000e-01	1.281059e-04	
243	-6.200000e-01	-6.200000e-01	6.000000e-01	1.412435e-04	
244	-6.400000e-01	-6.400000e-01	6.000000e-01	1.542096e-04	
245	-6.600000e-01	-6.600000e-01	6.000000e-01	1.669365e-04	
246	-6.800000e-01	-6.800000e-01	6.000000e-01	1.793748e-04	
247	-7.000000e-01	-7.000000e-01	6.000000e-01	1.914893e-04	
248	-7.200000e-01	-7.200000e-01	6.000000e-01	2.032561e-04	
249	-7.400000e-01	-7.400000e-01	6.000000e-01	2.146598e-04	
250	-7.600000e-01	-7.600000e-01	6.000000e-01	2.256917e-04	
251	-7.800000e-01	-7.800000e-01	6.000000e-01	2.363479e-04	
252	-8.000000e-01	-8.000000e-01	6.000000e-01	2.466280e-04	
253	-8.200000e-01	-8.200000e-01	6.000000e-01	2.565346e-04	
254	-8.400000e-01	-8.400000e-01	6.000000e-01	2.660719e-04	
255	-8.600000e-01	-8.600000e-01	6.000000e-01	2.752458e-04	
256	-8.800000e-01	-8.800000e-01	6.000000e-01	2.840629e-04	
257	-9.000000e-01	-9.000000e-01	6.000000e-01	2.925306e-04	
258	-9.200000e-01	-9.200000e-01	6.000000e-01	3.006564e-04	
259	-9.400000e-01	-9.400000e-01	6.000000e-01	3.084484e-04	
260	-9.600000e-01	-9.600000e-01	6.000000e-01	3.159143e-04	
261	-9.800000e-01	-9.800000e-01	6.000000e-01	3.230618e-04	
262	-1.000000e+00	-1.000000e+00	6.000000e-01	3.298984e-04	
263	-1.020000e+00	-1.020000e+00	6.000000e-01	3.364312e-04	
264	-1.040000e+00	-1.040000e+00	6.000000e-01	3.426670e-04	
265	-1.060000e+00	-1.060000e+00	6.000000e-01	3.486118e-04	
266	-1.080000e+00	-1.080000e+00	6.000000e-01	3.542711e-04	
267	-1.100000e+00	-1.100000e+00	6.000000e-01	3.596499e-04	
268	-1.120000e+00	-1.120000e+00	6.000000e-01	3.647520e-04	
269	-1.140000e+00	-1.140000e+00	6.000000e-01	3.695806e-04	
270	-1.160000e+00	-1.160000e+00	6.000000e-01	8.986356e-11	
271	-1.180000e+00	-1.180000e+00	6.000000e-01	9.032171e-11	
272	-1.200000e+00	-1.200000e+00	6.000000e-01	9.090127e-11	
273	6.000000e-01	6.000000e-01	9.000000e-01	9.152092e-11	
274	5.800000e-01	5.800000e-01	9.000000e-01	9.221701e-11	
275	5.600000e-01	5.600000e-01	9.000000e-01	9.299705e-11	
276	5.400000e-01	5.400000e-01	9.000000e-01	9.386895e-11	
277	5.200000e-01	5.200000e-01	9.000000e-01	9.484096e-11	
278	5.000000e-01	5.000000e-01	9.000000e-01	9.592169e-11	
279	4.800000e-01	4.800000e-01	9.000000e-01	9.711998e-11	
280	4.600000e-01	4.600000e-01	9.000000e-01	9.844488e-11	
281	4.400000e-01	4.400000e-01	9.000000e-01	9.990565e-11	
282	4.200000e-01	4.200000e-01	9.000000e-01	1.015118e-10	
283	4.000000e-01	4.000000e-01	9.000000e-01	1.032732e-10	
284	3.800000e-01	3.800000e-01	9.000000e-01	1.052009e-10	
285	3.600000e-01	3.600000e-01	9.000000e-01	1.073078e-10	
286	3.400000e-01	3.400000e-01	9.000000e-01	1.096108e-10	

Index   v-sweep         v(1)            v(3)            vds_branch      
--------------------------------------------------------------------------------
287	3.200000e-01	3.200000e-01	9.000000e-01	1.121348e-10	
288	3.000000e-01	3.000000e-01	9.000000e-01	1.149185e-10	
289	2.800000e-01	2.800000e-01	9.000000e-01	1.180265e-10	
290	2.600000e-01	2.600000e-01	9.000000e-01	1.215679e-10	
291	2.400000e-01	2.400000e-01	9.000000e-01	1.257300e-10	
292	2.200000e-01	2.200000e-01	9.000000e-01	1.308333e-10	
293	2.000000e-01	2.000000e-01	9.000000e-01	1.374251e-10	
294	1.800000e-01	1.800000e-01	9.000000e-01	1.464353e-10	
295	1.600000e-01	1.600000e-01	9.000000e-01	1.594364e-10	
296	1.400000e-01	1.400000e-01	9.000000e-01	1.790747e-10	
297	1.200000e-01	1.200000e-01	9.000000e-01	2.097856e-10	
298	1.000000e-01	1.000000e-01	9.000000e-01	2.589755e-10	
299	8.000000e-02	8.000000e-02	9.000000e-01	3.389687e-10	
300	6.000000e-02	6.000000e-02	9.000000e-01	4.702064e-10	
301	4.000000e-02	4.000000e-02	9.000000e-01	6.864812e-10	
302	2.000000e-02	2.000000e-02	9.000000e-01	1.043465e-09	
303	-1.734723e-16	-1.734723e-16	9.000000e-01	1.632519e-09	
304	-2.000000e-02	-2.000000e-02	9.000000e-01	2.602919e-09	
305	-4.000000e-02	-4.000000e-02	9.000000e-01	4.197283e-09	
306	-6.000000e-02	-6.000000e-02	9.000000e-01	6.807491e-09	
307	-8.000000e-02	-8.000000e-02	9.000000e-01	1.106177e-08	
308	-1.000000e-01	-1.000000e-01	9.000000e-01	1.795824e-08	
309	-1.200000e-01	-1.200000e-01	9.000000e-01	2.906583e-08	
310	-1.400000e-01	-1.400000e-01	9.000000e-01	4.682031e-08	
311	-1.600000e-01	-1.600000e-01	9.000000e-01	7.494998e-08	
312	-1.800000e-01	-1.800000e-01	9.000000e-01	1.190731e-07	
313	-2.000000e-01	-2.000000e-01	9.000000e-01	1.875168e-07	
314	-2.200000e-01	-2.200000e-01	9.000000e-01	2.924204e-07	
315	-2.400000e-01	-2.400000e-01	9.000000e-01	4.512061e-07	
316	-2.600000e-01	-2.600000e-01	9.000000e-01	6.885346e-07	
317	-2.800000e-01	-2.800000e-01	9.000000e-01	1.038900e-06	
318	-3.000000e-01	-3.000000e-01	9.000000e-01	1.550007e-06	
319	-3.200000e-01	-3.200000e-01	9.000000e-01	2.286949e-06	
320	-3.400000e-01	-3.400000e-01	9.000000e-01	3.336816e-06	
