Index        TIME          {V(4)+1.5}          V(6)             V(7)
0       1.00000000e-03   1.49954041e+00   -2.44921271e-16  1.08420217e-12   
1       1.00000050e-03   1.49954356e+00   3.14159265e-06   5.00000000e-03   
2       1.00000083e-03   1.49954562e+00   5.19813630e-06   8.27309088e-03   
3       1.00000115e-03   1.49954768e+00   7.25467996e-06   1.15461818e-02   
4       1.00000148e-03   1.49954975e+00   9.31122361e-06   1.48192726e-02   
5       1.00000181e-03   1.49955183e+00   1.13677673e-05   1.80923635e-02   
6       1.00000214e-03   1.49955392e+00   1.34243109e-05   2.13654544e-02   
7       1.00000246e-03   1.49955604e+00   1.54808546e-05   2.46385453e-02   
8       1.00000279e-03   1.49955818e+00   1.75373982e-05   2.79116361e-02   
9       1.00000306e-03   1.49955994e+00   1.92038303e-05   3.05638453e-02   
10      1.00000332e-03   1.49956173e+00   2.08702625e-05   3.32160544e-02   
11      1.00000359e-03   1.49956356e+00   2.25366946e-05   3.58682635e-02   
12      1.00000385e-03   1.49956542e+00   2.42031267e-05   3.85204726e-02   
13      1.00000412e-03   1.49956733e+00   2.58695589e-05   4.11726817e-02   
14      1.00000438e-03   1.49956930e+00   2.75359910e-05   4.38248908e-02   
15      1.00000465e-03   1.49957134e+00   2.92024231e-05   4.64770999e-02   
16      1.00000518e-03   1.49957575e+00   3.25352874e-05   5.17815181e-02   
17      1.00000571e-03   1.49958060e+00   3.58681516e-05   5.70859364e-02   
18      1.00000624e-03   1.49958599e+00   3.92010159e-05   6.23903546e-02   
19      1.00000677e-03   1.49959203e+00   4.25338802e-05   6.76947728e-02   
20      1.00000730e-03   1.49959885e+00   4.58667444e-05   7.29991910e-02   
21      1.00000783e-03   1.49960659e+00   4.91996087e-05   7.83036092e-02   
22      1.00000836e-03   1.49961539e+00   5.25324729e-05   8.36080275e-02   
23      1.00000889e-03   1.49962541e+00   5.58653372e-05   8.89124457e-02   
24      1.00000942e-03   1.49963682e+00   5.91982015e-05   9.42168639e-02   
25      1.00000995e-03   1.49964979e+00   6.25310657e-05   9.95212821e-02   
26      1.00001048e-03   1.49966450e+00   6.58639300e-05   1.04825700e-01   
27      1.00001101e-03   1.49968113e+00   6.91967942e-05   1.10130119e-01   
28      1.00001154e-03   1.49969990e+00   7.25296585e-05   1.15434537e-01   
29      1.00001207e-03   1.49972099e+00   7.58625227e-05   1.20738955e-01   
30      1.00001260e-03   1.49974461e+00   7.91953870e-05   1.26043373e-01   
31      1.00001313e-03   1.49977098e+00   8.25282512e-05   1.31347791e-01   
32      1.00001367e-03   1.49980031e+00   8.58611155e-05   1.36652210e-01   
33      1.00001420e-03   1.49983283e+00   8.91939797e-05   1.41956628e-01   
34      1.00001473e-03   1.49986876e+00   9.25268440e-05   1.47261046e-01   
35      1.00001526e-03   1.49990832e+00   9.58597082e-05   1.52565464e-01   
36      1.00001579e-03   1.49995175e+00   9.91925725e-05   1.57869883e-01   
37      1.00001632e-03   1.49999928e+00   1.02525437e-04   1.63174301e-01   
38      1.00001685e-03   1.50005114e+00   1.05858301e-04   1.68478719e-01   
39      1.00001738e-03   1.50010757e+00   1.09191165e-04   1.73783137e-01   
40      1.00001791e-03   1.50016881e+00   1.12524029e-04   1.79087555e-01   
41      1.00001844e-03   1.50023510e+00   1.15856894e-04   1.84391974e-01   
42      1.00001897e-03   1.50030667e+00   1.19189758e-04   1.89696392e-01   
43      1.00001950e-03   1.50038377e+00   1.22522622e-04   1.95000810e-01   
44      1.00002003e-03   1.50046662e+00   1.25855486e-04   2.00305228e-01   
45      1.00002056e-03   1.50055548e+00   1.29188351e-04   2.05609647e-01   
46      1.00002109e-03   1.50065059e+00   1.32521215e-04   2.10914065e-01   
47      1.00002162e-03   1.50075217e+00   1.35854079e-04   2.16218483e-01   
48      1.00002215e-03   1.50086046e+00   1.39186943e-04   2.21522901e-01   
49      1.00002268e-03   1.50097571e+00   1.42519808e-04   2.26827319e-01   
50      1.00002321e-03   1.50109815e+00   1.45852672e-04   2.32131738e-01   
51      1.00002374e-03   1.50122802e+00   1.49185536e-04   2.37436156e-01   
52      1.00002427e-03   1.50136554e+00   1.52518400e-04   2.42740574e-01   
53      1.00002480e-03   1.50151096e+00   1.55851264e-04   2.48044992e-01   
54      1.00002587e-03   1.50183518e+00   1.62516993e-04   2.58653829e-01   
55      1.00002693e-03   1.50219460e+00   1.69182721e-04   2.69262665e-01   
56      1.00002799e-03   1.50259100e+00   1.75848450e-04   2.79871502e-01   
57      1.00002905e-03   1.50302613e+00   1.82514178e-04   2.90480338e-01   
58      1.00003011e-03   1.50350172e+00   1.89179907e-04   3.01089174e-01   
59      1.00003117e-03   1.50401944e+00   1.95845635e-04   3.11698011e-01   
60      1.00003223e-03   1.50458096e+00   2.02511363e-04   3.22306847e-01   
61      1.00003329e-03   1.50518790e+00   2.09177092e-04   3.32915684e-01   
62      1.00003435e-03   1.50584184e+00   2.15842820e-04   3.43524520e-01   
63      1.00003541e-03   1.50654435e+00   2.22508549e-04   3.54133357e-01   
64      1.00003647e-03   1.50729695e+00   2.29174277e-04   3.64742193e-01   
65      1.00003754e-03   1.50810112e+00   2.35840005e-04   3.75351030e-01   
66      1.00003860e-03   1.50895831e+00   2.42505734e-04   3.85959866e-01   
67      1.00003966e-03   1.50986994e+00   2.49171462e-04   3.96568702e-01   
68      1.00004072e-03   1.51083740e+00   2.55837190e-04   4.07177539e-01   
69      1.00004284e-03   1.51300610e+00   2.69168647e-04   4.28395212e-01   
70      1.00004474e-03   1.51514733e+00   2.81129953e-04   4.47432223e-01   
71      1.00004665e-03   1.51749082e+00   2.93091259e-04   4.66469233e-01   
72      1.00004855e-03   1.52004305e+00   3.05052565e-04   4.85506244e-01   
73      1.00005045e-03   1.52281015e+00   3.17013871e-04   5.04543255e-01   
74      1.00005236e-03   1.52579789e+00   3.28975178e-04   5.23580266e-01   
75      1.00005426e-03   1.52901167e+00   3.40936484e-04   5.42617277e-01   
76      1.00005617e-03   1.53245655e+00   3.52897789e-04   5.61654288e-01   
77      1.00005807e-03   1.53613725e+00   3.64859095e-04   5.80691299e-01   
78      1.00005997e-03   1.54005815e+00   3.76820401e-04   5.99728309e-01   
79      1.00006188e-03   1.54422329e+00   3.88781707e-04   6.18765320e-01   
80      1.00006378e-03   1.54863640e+00   4.00743013e-04   6.37802331e-01   
81      1.00006568e-03   1.55330086e+00   4.12704319e-04   6.56839342e-01   
82      1.00006759e-03   1.55821977e+00   4.24665624e-04   6.75876353e-01   
83      1.00007140e-03   1.56909527e+00   4.48588235e-04   7.13950374e-01   
84      1.00007520e-03   1.58102382e+00   4.72510846e-04   7.52024396e-01   
85      1.00007901e-03   1.59401650e+00   4.96433457e-04   7.90098418e-01   
86      1.00008282e-03   1.60808033e+00   5.20356067e-04   8.28172440e-01   
87      1.00008662e-03   1.62321851e+00   5.44278677e-04   8.66246461e-01   
88      1.00009043e-03   1.63943069e+00   5.68201287e-04   9.04320483e-01   
89      1.00009424e-03   1.65671316e+00   5.92123896e-04   9.42394505e-01   
90      1.00009805e-03   1.67505913e+00   6.16046505e-04   9.80468526e-01   
91      1.00010000e-03   1.68474912e+00   6.28318489e-04   1.00000000e-00   
92      1.00010381e-03   1.70466646e+00   6.52241098e-04   1.00000000e+00   
93      1.00011142e-03   1.74804279e+00   7.00086314e-04   1.00000000e+00   
94      1.00011738e-03   1.78378881e+00   7.37505869e-04   1.00000000e+00   
95      1.00012333e-03   1.82098150e+00   7.74925423e-04   1.00000000e+00   
96      1.00012929e-03   1.85924334e+00   8.12344976e-04   1.00000000e+00   
97      1.00013524e-03   1.89821027e+00   8.49764528e-04   1.00000000e+00   
98      1.00014120e-03   1.93754022e+00   8.87184078e-04   1.00000000e+00   
99      1.00014716e-03   1.97691749e+00   9.24603628e-04   1.00000000e+00   
100     1.00015311e-03   2.01605471e+00   9.62023176e-04   1.00000000e+00   
101     1.00016502e-03   2.09152394e+00   1.03686227e-03   1.00000000e+00   
102     1.00017693e-03   2.16276989e+00   1.11170135e-03   1.00000000e+00   
103     1.00018884e-03   2.22876112e+00   1.18654043e-03   1.00000000e+00   
104     1.00020075e-03   2.28880671e+00   1.26137951e-03   1.00000000e+00   
105     1.00021267e-03   2.34250854e+00   1.33621857e-03   1.00000000e+00   
106     1.00022458e-03   2.38971435e+00   1.41105763e-03   1.00000000e+00   
107     1.00023649e-03   2.43047330e+00   1.48589668e-03   1.00000000e+00   
108     1.00024840e-03   2.46499478e+00   1.56073573e-03   1.00000000e+00   
109     1.00026031e-03   2.49361108e+00   1.63557476e-03   1.00000000e+00   
110     1.00027222e-03   2.51674420e+00   1.71041378e-03   1.00000000e+00   
111     1.00028413e-03   2.53487690e+00   1.78525280e-03   1.00000000e+00   
112     1.00029604e-03   2.54852784e+00   1.86009181e-03   1.00000000e+00   
113     1.00030795e-03   2.55823078e+00   1.93493080e-03   1.00000000e+00   
114     1.00031730e-03   2.56367317e+00   1.99367694e-03   1.00000000e+00   
115     1.00032545e-03   2.56693446e+00   2.04488502e-03   1.00000000e+00   
116     1.00033181e-03   2.56865525e+00   2.08483398e-03   1.00000000e+00   
117     1.00033441e-03   2.56922601e+00   2.10114925e-03   1.00000000e+00   
118     1.00033561e-03   2.56946215e+00   2.10869030e-03   1.00000000e+00   
119     1.00033681e-03   2.56967113e+00   2.11623136e-03   1.00000000e+00   
120     1.00033801e-03   2.56985348e+00   2.12377242e-03   1.00000000e+00   
121     1.00034041e-03   2.57011575e+00   2.13885454e-03   1.00000000e+00   
122     1.00034281e-03   2.57027968e+00   2.15393666e-03   1.00000000e+00   
123     1.00034521e-03   2.57034929e+00   2.16901877e-03   1.00000000e+00   
124     1.00034761e-03   2.57032855e+00   2.18410089e-03   1.00000000e+00   
125     1.00034865e-03   2.57030295e+00   2.19063100e-03   1.00000000e+00   
126     1.00034969e-03   2.57026106e+00   2.19716112e-03   1.00000000e+00   
127     1.00035073e-03   2.57020319e+00   2.20369123e-03   1.00000000e+00   
128     1.00035281e-03   2.57002602e+00   2.21675145e-03   1.00000000e+00   
129     1.00035489e-03   2.56978990e+00   2.22981168e-03   1.00000000e+00   
130     1.00035696e-03   2.56949726e+00   2.24287190e-03   1.00000000e+00   
131     1.00035904e-03   2.56915050e+00   2.25593213e-03   1.00000000e+00   
132     1.00036320e-03   2.56825907e+00   2.28205258e-03   1.00000000e+00   
133     1.00036736e-03   2.56718767e+00   2.30817302e-03   1.00000000e+00   
134     1.00037151e-03   2.56595362e+00   2.33429347e-03   1.00000000e+00   
135     1.00037567e-03   2.56457354e+00   2.36041391e-03   1.00000000e+00   
136     1.00037983e-03   2.56306340e+00   2.38653435e-03   1.00000000e+00   
137     1.00038399e-03   2.56143846e+00   2.41265479e-03   1.00000000e+00   
138     1.00038814e-03   2.55971329e+00   2.43877523e-03   1.00000000e+00   
139     1.00039230e-03   2.55790178e+00   2.46489566e-03   1.00000000e+00   
140     1.00040062e-03   2.55403329e+00   2.51713653e-03   1.00000000e+00   
141     1.00040893e-03   2.55000839e+00   2.56937739e-03   1.00000000e+00   
142     1.00041724e-03   2.54590555e+00   2.62161824e-03   1.00000000e+00   
143     1.00042556e-03   2.54179311e+00   2.67385909e-03   1.00000000e+00   
144     1.00043387e-03   2.53772981e+00   2.72609993e-03   1.00000000e+00   
145     1.00044219e-03   2.53376530e+00   2.77834076e-03   1.00000000e+00   
146     1.00045050e-03   2.52994080e+00   2.83058158e-03   1.00000000e+00   
147     1.00045882e-03   2.52628969e+00   2.88282240e-03   1.00000000e+00   
148     1.00047544e-03   2.51984416e+00   2.98730400e-03   1.00000000e+00   
149     1.00049207e-03   2.51433442e+00   3.09178558e-03   1.00000000e+00   
150     1.00050870e-03   2.50977438e+00   3.19626712e-03   1.00000000e+00   
151     1.00052791e-03   2.50571284e+00   3.31697534e-03   1.00000000e+00   
152     1.00054713e-03   2.50274334e+00   3.43768351e-03   1.00000000e+00   
153     1.00056634e-03   2.50072055e+00   3.55839163e-03   1.00000000e+00   
154     1.00058019e-03   2.49969536e+00   3.64540763e-03   1.00000000e+00   
155     1.00059217e-03   2.49909332e+00   3.72069162e-03   1.00000000e+00   
156     1.00060146e-03   2.49877942e+00   3.77910690e-03   1.00000000e+00   
157     1.00060907e-03   2.49861524e+00   3.82691736e-03   1.00000000e+00   
158     1.00061280e-03   2.49855587e+00   3.85035724e-03   1.00000000e+00   
159     1.00061654e-03   2.49851649e+00   3.87379712e-03   1.00000000e+00   
160     1.00061979e-03   2.49849659e+00   3.89427586e-03   1.00000000e+00   
161     1.00062305e-03   2.49849043e+00   3.91475460e-03   1.00000000e+00   
162     1.00062631e-03   2.49849730e+00   3.93523334e-03   1.00000000e+00   
163     1.00062957e-03   2.49851646e+00   3.95571208e-03   1.00000000e+00   
164     1.00063283e-03   2.49854720e+00   3.97619082e-03   1.00000000e+00   
165     1.00063609e-03   2.49858884e+00   3.99666955e-03   1.00000000e+00   
166     1.00063935e-03   2.49864070e+00   4.01714828e-03   1.00000000e+00   
167     1.00064261e-03   2.49870210e+00   4.03762701e-03   1.00000000e+00   
168     1.00064587e-03   2.49877240e+00   4.05810574e-03   1.00000000e+00   
169     1.00065239e-03   2.49894370e+00   4.09906319e-03   1.00000000e+00   
170     1.00065891e-03   2.49914107e+00   4.14002064e-03   1.00000000e+00   
171     1.00066543e-03   2.49936019e+00   4.18097808e-03   1.00000000e+00   
172     1.00067194e-03   2.49959703e+00   4.22193551e-03   1.00000000e+00   
173     1.00067846e-03   2.49984787e+00   4.26289294e-03   1.00000000e+00   
174     1.00068498e-03   2.50010928e+00   4.30385035e-03   1.00000000e+00   
175     1.00069150e-03   2.50037814e+00   4.34480777e-03   1.00000000e+00   
176     1.00069802e-03   2.50065161e+00   4.38576517e-03   1.00000000e+00   
177     1.00070454e-03   2.50092712e+00   4.42672256e-03   1.00000000e+00   
178     1.00071106e-03   2.50120240e+00   4.46767995e-03   1.00000000e+00   
179     1.00072409e-03   2.50173769e+00   4.54959471e-03   1.00000000e+00   
180     1.00073713e-03   2.50224699e+00   4.63150943e-03   1.00000000e+00   
181     1.00075017e-03   2.50272266e+00   4.71342412e-03   1.00000000e+00   
182     1.00076320e-03   2.50315979e+00   4.79533879e-03   1.00000000e+00   
183     1.00078928e-03   2.50387055e+00   4.95916801e-03   1.00000000e+00   
184     1.00081535e-03   2.50442801e+00   5.12299710e-03   1.00000000e+00   
185     1.00084143e-03   2.50485325e+00   5.28682606e-03   1.00000000e+00   
186     1.00086480e-03   2.50514668e+00   5.43366993e-03   1.00000000e+00   
187     1.00088497e-03   2.50534700e+00   5.56042795e-03   1.00000000e+00   
188     1.00090515e-03   2.50550625e+00   5.68718588e-03   1.00000000e+00   
189     1.00092188e-03   2.50561642e+00   5.79233251e-03   1.00000000e+00   
190     1.00093862e-03   2.50571032e+00   5.89747908e-03   1.00000000e+00   
191     1.00095535e-03   2.50579285e+00   6.00262558e-03   1.00000000e+00   
192     1.00097209e-03   2.50586816e+00   6.10777202e-03   1.00000000e+00   
193     1.00098882e-03   2.50593959e+00   6.21291839e-03   1.00000000e+00   
194     1.00100556e-03   2.50600981e+00   6.31806469e-03   1.00000000e+00   
195     1.00102229e-03   2.50608079e+00   6.42321093e-03   1.00000000e+00   
196     1.00103903e-03   2.50615397e+00   6.52835709e-03   1.00000000e+00   
197     1.00105576e-03   2.50623026e+00   6.63350318e-03   1.00000000e+00   
198     1.00108923e-03   2.50639757e+00   6.84379513e-03   1.00000000e+00   
199     1.00115617e-03   2.50677784e+00   7.26437813e-03   1.00000000e+00   
200     1.00122311e-03   2.50718503e+00   7.68495984e-03   1.00000000e+00   
201     1.00129005e-03   2.50760479e+00   8.10554019e-03   1.00000000e+00   
202     1.00135699e-03   2.50802866e+00   8.52611911e-03   1.00000000e+00   
203     1.00142393e-03   2.50845275e+00   8.94669651e-03   1.00000000e+00   
204     1.00155781e-03   2.50929716e+00   9.78784651e-03   1.00000000e+00   
205     1.00182557e-03   2.51098043e+00   1.14701251e-02   1.00000000e+00   
206     1.00236108e-03   2.51434480e+00   1.48345802e-02   1.00000000e+00   
207     1.00343212e-03   2.52107299e+00   2.15629484e-02   1.00000000e+00   
208     1.00557418e-03   2.53452622e+00   3.50164507e-02   1.00000000e+00   
209     1.00985831e-03   2.56141141e+00   6.19019906e-02   1.00000000e+00   
210     1.01842657e-03   2.61502850e+00   1.15519073e-01   1.00000000e+00   
211     1.02842657e-03   2.67717273e+00   1.77661276e-01   1.00000000e+00   
212     1.03842657e-03   2.73861822e+00   2.39102331e-01   1.00000000e+00   
213     1.04842657e-03   2.79912228e+00   2.99599759e-01   1.00000000e+00   
214     1.05010000e-03   2.80914246e+00   3.09614500e-01   1.00000000e+00   
215     1.05010050e-03   2.80914546e+00   3.09617487e-01   9.95000000e-01   
216     1.05010086e-03   2.80914760e+00   3.09619627e-01   9.91417563e-01   
217     1.05010122e-03   2.80914973e+00   3.09621768e-01   9.87835125e-01   
218     1.05010157e-03   2.80915186e+00   3.09623908e-01   9.84252688e-01   
219     1.05010193e-03   2.80915397e+00   3.09626048e-01   9.80670251e-01   
220     1.05010229e-03   2.80915606e+00   3.09628188e-01   9.77087814e-01   
221     1.05010258e-03   2.80915775e+00   3.09629931e-01   9.74171558e-01   
222     1.05010287e-03   2.80915941e+00   3.09631673e-01   9.71255302e-01   
223     1.05010317e-03   2.80916103e+00   3.09633415e-01   9.68339046e-01   
224     1.05010346e-03   2.80916262e+00   3.09635158e-01   9.65422790e-01   
225     1.05010375e-03   2.80916416e+00   3.09636900e-01   9.62506534e-01   
226     1.05010404e-03   2.80916565e+00   3.09638642e-01   9.59590278e-01   
227     1.05010433e-03   2.80916707e+00   3.09640385e-01   9.56674022e-01   
228     1.05010462e-03   2.80916841e+00   3.09642127e-01   9.53757766e-01   
229     1.05010492e-03   2.80916966e+00   3.09643869e-01   9.50841510e-01   
230     1.05010521e-03   2.80917080e+00   3.09645611e-01   9.47925254e-01   
231     1.05010550e-03   2.80917183e+00   3.09647354e-01   9.45008998e-01   
232     1.05010579e-03   2.80917272e+00   3.09649096e-01   9.42092742e-01   
233     1.05010608e-03   2.80917346e+00   3.09650838e-01   9.39176486e-01   
234     1.05010637e-03   2.80917403e+00   3.09652580e-01   9.36260230e-01   
235     1.05010667e-03   2.80917441e+00   3.09654323e-01   9.33343974e-01   
236     1.05010696e-03   2.80917458e+00   3.09656065e-01   9.30427718e-01   
237     1.05010725e-03   2.80917453e+00   3.09657807e-01   9.27511462e-01   
238     1.05010754e-03   2.80917422e+00   3.09659550e-01   9.24595206e-01   
239     1.05010812e-03   2.80917241e+00   3.09663034e-01   9.18762694e-01   
240     1.05010871e-03   2.80916921e+00   3.09666519e-01   9.12930182e-01   
241     1.05010929e-03   2.80916439e+00   3.09670003e-01   9.07097670e-01   
242     1.05010987e-03   2.80915772e+00   3.09673488e-01   9.01265158e-01   
243     1.05011046e-03   2.80914897e+00   3.09676972e-01   8.95432647e-01   
244     1.05011104e-03   2.80913787e+00   3.09680457e-01   8.89600135e-01   
245     1.05011162e-03   2.80912418e+00   3.09683941e-01   8.83767623e-01   
246     1.05011221e-03   2.80910762e+00   3.09687426e-01   8.77935111e-01   
247     1.05011279e-03   2.80908791e+00   3.09690910e-01   8.72102599e-01   
248     1.05011396e-03   2.80903356e+00   3.09697879e-01   8.60437575e-01   
249     1.05011512e-03   2.80896188e+00   3.09704848e-01   8.48772551e-01   
250     1.05011629e-03   2.80887041e+00   3.09711817e-01   8.37107527e-01   
251     1.05011746e-03   2.80875666e+00   3.09718786e-01   8.25442503e-01   
252     1.05011862e-03   2.80861809e+00   3.09725755e-01   8.13777480e-01   
253     1.05011979e-03   2.80845220e+00   3.09732724e-01   8.02112456e-01   
254     1.05012096e-03   2.80825644e+00   3.09739693e-01   7.90447432e-01   
255     1.05012212e-03   2.80802830e+00   3.09746662e-01   7.78782408e-01   
256     1.05012329e-03   2.80776530e+00   3.09753631e-01   7.67117384e-01   
257     1.05012562e-03   2.80708039e+00   3.09767569e-01   7.43787336e-01   
