Index        TIME        {V(2)+11000.0}     {V(3)+1.0}
0       0.00000000e+00   1.00000000e+03   1.00000000e+00   
1       1.00000000e-09   1.03932880e+03   1.07121975e+00   
2       1.00781250e-09   1.03963845e+03   1.07177773e+00   
3       1.01458230e-09   1.03990858e+03   1.07226242e+00   
4       1.02135211e-09   1.04018050e+03   1.07274828e+00   
5       1.02812191e-09   1.04045423e+03   1.07323533e+00   
6       1.03489172e-09   1.04072936e+03   1.07372330e+00   
7       1.04166152e-09   1.04100588e+03   1.07421218e+00   
8       1.05054822e-09   1.04137303e+03   1.07485666e+00   
9       1.05943492e-09   1.04174328e+03   1.07550318e+00   
10      1.06832161e-09   1.04211663e+03   1.07615172e+00   
11      1.07720831e-09   1.04249239e+03   1.07680185e+00   
12      1.08609500e-09   1.04287057e+03   1.07745356e+00   
13      1.09502880e-09   1.04325527e+03   1.07811169e+00   
14      1.10396261e-09   1.04364310e+03   1.07877187e+00   
15      1.11289641e-09   1.04403407e+03   1.07943411e+00   
16      1.12183021e-09   1.04442747e+03   1.08009795e+00   
17      1.13076402e-09   1.04482331e+03   1.08076338e+00   
18      1.13975091e-09   1.04522608e+03   1.08143576e+00   
19      1.14873781e-09   1.04563202e+03   1.08211023e+00   
20      1.15772471e-09   1.04604112e+03   1.08278677e+00   
21      1.16671161e-09   1.04645270e+03   1.08346493e+00   
22      1.17569850e-09   1.04686674e+03   1.08414470e+00   
23      1.18473999e-09   1.04728792e+03   1.08483163e+00   
24      1.19378147e-09   1.04771230e+03   1.08552067e+00   
25      1.20282295e-09   1.04813990e+03   1.08621181e+00   
26      1.21186443e-09   1.04856999e+03   1.08690459e+00   
27      1.22090592e-09   1.04900258e+03   1.08759900e+00   
28      1.23000352e-09   1.04944254e+03   1.08830079e+00   
29      1.23910112e-09   1.04988574e+03   1.08900471e+00   
30      1.24819872e-09   1.05033219e+03   1.08971075e+00   
31      1.25729632e-09   1.05078117e+03   1.09041845e+00   
32      1.26639392e-09   1.05123267e+03   1.09112781e+00   
33      1.27554920e-09   1.05169178e+03   1.09184477e+00   
34      1.28470448e-09   1.05215418e+03   1.09256388e+00   
35      1.29385976e-09   1.05261986e+03   1.09328515e+00   
36      1.30301504e-09   1.05308810e+03   1.09400809e+00   
37      1.31217032e-09   1.05355890e+03   1.09473271e+00   
38      1.32138488e-09   1.05403755e+03   1.09546517e+00   
39      1.33059943e-09   1.05451952e+03   1.09619980e+00   
40      1.33981399e-09   1.05500483e+03   1.09693662e+00   
41      1.34902855e-09   1.05549273e+03   1.09767514e+00   
42      1.35824311e-09   1.05598322e+03   1.09841535e+00   
43      1.36751857e-09   1.05648182e+03   1.09916364e+00   
44      1.37679403e-09   1.05698378e+03   1.09991413e+00   
45      1.38606949e-09   1.05748912e+03   1.10066684e+00   
46      1.39534495e-09   1.05799709e+03   1.10142127e+00   
47      1.40462042e-09   1.05850768e+03   1.10217741e+00   
48      1.41395844e-09   1.05902664e+03   1.10294188e+00   
49      1.42329647e-09   1.05954902e+03   1.10370859e+00   
50      1.43263449e-09   1.06007482e+03   1.10447754e+00   
51      1.44197252e-09   1.06060327e+03   1.10524823e+00   
52      1.45131054e-09   1.06113439e+03   1.10602066e+00   
53      1.46071282e-09   1.06167415e+03   1.10680167e+00   
54      1.47011510e-09   1.06221738e+03   1.10758495e+00   
55      1.47951738e-09   1.06276407e+03   1.10837050e+00   
56      1.48891966e-09   1.06331346e+03   1.10915782e+00   
57      1.49832194e-09   1.06386554e+03   1.10994689e+00   
58      1.50779020e-09   1.06442656e+03   1.11074482e+00   
59      1.51725846e-09   1.06499110e+03   1.11154505e+00   
60      1.52672671e-09   1.06555914e+03   1.11234758e+00   
61      1.53619497e-09   1.06612992e+03   1.11315189e+00   
62      1.54566322e-09   1.06670342e+03   1.11395799e+00   
63      1.55519921e-09   1.06728617e+03   1.11477322e+00   
64      1.56473520e-09   1.06787248e+03   1.11559078e+00   
65      1.57427118e-09   1.06846234e+03   1.11641067e+00   
66      1.58380717e-09   1.06905498e+03   1.11723238e+00   
67      1.59334315e-09   1.06965039e+03   1.11805589e+00   
68      1.60294865e-09   1.07025535e+03   1.11888882e+00   
69      1.61255415e-09   1.07086392e+03   1.11972411e+00   
70      1.62215965e-09   1.07147610e+03   1.12056177e+00   
71      1.63176515e-09   1.07209109e+03   1.12140126e+00   
72      1.64137065e-09   1.07270889e+03   1.12224259e+00   
73      1.65104748e-09   1.07333657e+03   1.12309362e+00   
74      1.66072431e-09   1.07396791e+03   1.12394706e+00   
75      1.67040114e-09   1.07460291e+03   1.12480289e+00   
76      1.68007797e-09   1.07524076e+03   1.12566058e+00   
77      1.68975480e-09   1.07588147e+03   1.12652014e+00   
78      1.69950481e-09   1.07653238e+03   1.12738971e+00   
79      1.70925481e-09   1.07718702e+03   1.12826171e+00   
80      1.71900482e-09   1.07784537e+03   1.12913614e+00   
81      1.72875482e-09   1.07850661e+03   1.13001246e+00   
82      1.73850483e-09   1.07917075e+03   1.13089068e+00   
83      1.74832989e-09   1.07984545e+03   1.13177922e+00   
84      1.75815495e-09   1.08052392e+03   1.13267022e+00   
85      1.76798001e-09   1.08120616e+03   1.13356370e+00   
86      1.77780507e-09   1.08189134e+03   1.13445909e+00   
87      1.78763013e-09   1.08257946e+03   1.13535641e+00   
88      1.79753215e-09   1.08327850e+03   1.13626436e+00   
89      1.80743417e-09   1.08398137e+03   1.13717483e+00   
90      1.81733619e-09   1.08468807e+03   1.13808780e+00   
91      1.82723821e-09   1.08539776e+03   1.13900272e+00   
92      1.83714023e-09   1.08611043e+03   1.13991958e+00   
93      1.84712115e-09   1.08683439e+03   1.14084743e+00   
94      1.85710208e-09   1.08756224e+03   1.14177782e+00   
95      1.86708300e-09   1.08829399e+03   1.14271075e+00   
96      1.87706392e-09   1.08902876e+03   1.14364566e+00   
97      1.88704484e-09   1.08976657e+03   1.14458256e+00   
98      1.89710664e-09   1.09051605e+03   1.14553077e+00   
99      1.90716843e-09   1.09126949e+03   1.14648156e+00   
100     1.91723022e-09   1.09202689e+03   1.14743494e+00   
101     1.92729202e-09   1.09278736e+03   1.14839033e+00   
102     1.93735381e-09   1.09355091e+03   1.14934773e+00   
103     1.94749847e-09   1.09432654e+03   1.15031681e+00   
104     1.95764314e-09   1.09510619e+03   1.15128850e+00   
105     1.96778780e-09   1.09588986e+03   1.15226283e+00   
106     1.97793247e-09   1.09667666e+03   1.15323920e+00   
107     1.98807713e-09   1.09746658e+03   1.15421761e+00   
108     1.99830670e-09   1.09826900e+03   1.15520805e+00   
109     2.00853626e-09   1.09907551e+03   1.15620116e+00   
110     2.01876583e-09   1.09988611e+03   1.15719695e+00   
111     2.02899540e-09   1.10069988e+03   1.15819480e+00   
112     2.03922496e-09   1.10151683e+03   1.15919474e+00   
113     2.04954150e-09   1.10234671e+03   1.16020708e+00   
114     2.05985803e-09   1.10318074e+03   1.16122214e+00   
115     2.07017456e-09   1.10401893e+03   1.16223991e+00   
116     2.08049109e-09   1.10486034e+03   1.16325979e+00   
117     2.09080762e-09   1.10570499e+03   1.16428178e+00   
118     2.10121321e-09   1.10656302e+03   1.16531656e+00   
119     2.11161880e-09   1.10742527e+03   1.16635411e+00   
120     2.12202439e-09   1.10829174e+03   1.16739441e+00   
121     2.13242998e-09   1.10916150e+03   1.16843686e+00   
122     2.14283557e-09   1.11003455e+03   1.16948145e+00   
123     2.15333234e-09   1.11092143e+03   1.17053924e+00   
124     2.16382911e-09   1.11181262e+03   1.17159983e+00   
125     2.17432588e-09   1.11270809e+03   1.17266322e+00   
126     2.18482265e-09   1.11360691e+03   1.17372880e+00   
127     2.19531942e-09   1.11450907e+03   1.17479656e+00   
128     2.20590953e-09   1.11542556e+03   1.17587793e+00   
129     2.21649963e-09   1.11634641e+03   1.17696214e+00   
130     2.22708974e-09   1.11727163e+03   1.17804921e+00   
131     2.23767985e-09   1.11820026e+03   1.17913850e+00   
132     2.24826995e-09   1.11913228e+03   1.18023001e+00   
133     2.25895558e-09   1.12007912e+03   1.18133555e+00   
134     2.26964121e-09   1.12103041e+03   1.18244399e+00   
135     2.28032684e-09   1.12198614e+03   1.18355533e+00   
136     2.29101247e-09   1.12294534e+03   1.18466893e+00   
137     2.30169810e-09   1.12390799e+03   1.18578478e+00   
138     2.31248147e-09   1.12488597e+03   1.18691510e+00   
139     2.32326484e-09   1.12586848e+03   1.18804837e+00   
140     2.33404821e-09   1.12685552e+03   1.18918460e+00   
141     2.34483158e-09   1.12784608e+03   1.19032312e+00   
142     2.35561495e-09   1.12884016e+03   1.19146394e+00   
143     2.36649830e-09   1.12985010e+03   1.19261967e+00   
144     2.37738166e-09   1.13086465e+03   1.19377841e+00   
145     2.38826502e-09   1.13188381e+03   1.19494016e+00   
146     2.39914838e-09   1.13290656e+03   1.19610424e+00   
147     2.41003174e-09   1.13393289e+03   1.19727066e+00   
148     2.42101736e-09   1.13497563e+03   1.19845245e+00   
149     2.43200299e-09   1.13602306e+03   1.19963731e+00   
150     2.44298862e-09   1.13707518e+03   1.20082522e+00   
151     2.45397425e-09   1.13813096e+03   1.20201552e+00   
152     2.46495988e-09   1.13919039e+03   1.20320819e+00   
153     2.47605009e-09   1.14026679e+03   1.20441671e+00   
154     2.48714030e-09   1.14134797e+03   1.20562835e+00   
155     2.49823051e-09   1.14243394e+03   1.20684311e+00   
156     2.50932072e-09   1.14352362e+03   1.20806029e+00   
157     2.52041093e-09   1.14461703e+03   1.20927989e+00   
158     2.53160807e-09   1.14572799e+03   1.21051583e+00   
159     2.54280521e-09   1.14684382e+03   1.21175495e+00   
160     2.55400235e-09   1.14796453e+03   1.21299724e+00   
161     2.56519949e-09   1.14908902e+03   1.21424200e+00   
162     2.57639663e-09   1.15021730e+03   1.21548922e+00   
163     2.58770307e-09   1.15136375e+03   1.21675329e+00   
164     2.59900952e-09   1.15251517e+03   1.21802059e+00   
165     2.61031596e-09   1.15367154e+03   1.21929112e+00   
166     2.62162241e-09   1.15483178e+03   1.22056417e+00   
167     2.63292885e-09   1.15599588e+03   1.22183973e+00   
168     2.64434702e-09   1.15717876e+03   1.22313265e+00   
169     2.65576518e-09   1.15836671e+03   1.22442887e+00   
170     2.66718334e-09   1.15955972e+03   1.22572838e+00   
171     2.67860151e-09   1.16075667e+03   1.22703045e+00   
172     2.69001967e-09   1.16195754e+03   1.22833509e+00   
173     2.70155200e-09   1.16317786e+03   1.22965761e+00   
174     2.71308432e-09   1.16440333e+03   1.23098349e+00   
175     2.72461665e-09   1.16563396e+03   1.23231273e+00   
176     2.73614898e-09   1.16686861e+03   1.23364459e+00   
177     2.74768130e-09   1.16810726e+03   1.23497905e+00   
178     2.75933027e-09   1.16936602e+03   1.23633195e+00   
179     2.77097924e-09   1.17063004e+03   1.23768828e+00   
180     2.78262821e-09   1.17189932e+03   1.23904803e+00   
181     2.79427718e-09   1.17317269e+03   1.24041044e+00   
182     2.80592614e-09   1.17445015e+03   1.24177551e+00   
183     2.81769427e-09   1.17574840e+03   1.24315958e+00   
184     2.82946239e-09   1.17705202e+03   1.24454715e+00   
185     2.84123052e-09   1.17836100e+03   1.24593820e+00   
186     2.85299864e-09   1.17967415e+03   1.24733197e+00   
187     2.86476676e-09   1.18099148e+03   1.24872846e+00   
188     2.87665659e-09   1.18233031e+03   1.25014452e+00   
189     2.88854642e-09   1.18367462e+03   1.25156414e+00   
190     2.90043625e-09   1.18502439e+03   1.25298732e+00   
191     2.91232607e-09   1.18637842e+03   1.25441328e+00   
192     2.92421590e-09   1.18773671e+03   1.25584200e+00   
193     2.93623002e-09   1.18911724e+03   1.25729089e+00   
194     2.94824414e-09   1.19050335e+03   1.25874341e+00   
195     2.96025825e-09   1.19189504e+03   1.26019957e+00   
196     2.97227237e-09   1.19329108e+03   1.26165855e+00   
197     2.98428649e-09   1.19469146e+03   1.26312036e+00   
198     2.99642751e-09   1.19611483e+03   1.26460295e+00   
199     3.00856854e-09   1.19754391e+03   1.26608925e+00   
200     3.02070956e-09   1.19897868e+03   1.26757925e+00   
201     3.03285059e-09   1.20041789e+03   1.26907213e+00   
202     3.04499162e-09   1.20186152e+03   1.27056790e+00   
203     3.05726221e-09   1.20332894e+03   1.27208508e+00   
204     3.06953280e-09   1.20480217e+03   1.27360604e+00   
205     3.08180340e-09   1.20628122e+03   1.27513078e+00   
206     3.09407399e-09   1.20776479e+03   1.27665847e+00   
207     3.10634459e-09   1.20925289e+03   1.27818909e+00   
208     3.11874744e-09   1.21076557e+03   1.27974178e+00   
209     3.13115030e-09   1.21228419e+03   1.28129832e+00   
210     3.14355316e-09   1.21380875e+03   1.28285873e+00   
211     3.15595601e-09   1.21533793e+03   1.28442214e+00   
212     3.16835887e-09   1.21687172e+03   1.28598854e+00   
213     3.18089673e-09   1.21843094e+03   1.28757768e+00   
214     3.19343458e-09   1.21999622e+03   1.28917076e+00   
215     3.20597243e-09   1.22156757e+03   1.29076777e+00   
216     3.21851029e-09   1.22314363e+03   1.29236786e+00   
217     3.23104814e-09   1.22472440e+03   1.29397100e+00   
218     3.24372377e-09   1.22633146e+03   1.29559756e+00   
219     3.25639939e-09   1.22794471e+03   1.29722814e+00   
220     3.26907502e-09   1.22956415e+03   1.29886274e+00   
221     3.28175065e-09   1.23118841e+03   1.30050048e+00   
222     3.29442627e-09   1.23281748e+03   1.30214134e+00   
223     3.30724248e-09   1.23447372e+03   1.30380632e+00   
224     3.32005869e-09   1.23613629e+03   1.30547540e+00   
225     3.33287490e-09   1.23780519e+03   1.30714860e+00   
226     3.34569111e-09   1.23947900e+03   1.30882499e+00   
227     3.35850732e-09   1.24115773e+03   1.31050458e+00   
228     3.37146698e-09   1.24286455e+03   1.31220900e+00   
229     3.38442663e-09   1.24457784e+03   1.31391763e+00   
230     3.39738628e-09   1.24629758e+03   1.31563045e+00   
231     3.41034593e-09   1.24802235e+03   1.31734654e+00   
232     3.42330558e-09   1.24975214e+03   1.31906588e+00   
233     3.43641157e-09   1.25151097e+03   1.32081082e+00   
234     3.44951756e-09   1.25327641e+03   1.32256004e+00   
235     3.46262355e-09   1.25504844e+03   1.32431355e+00   
236     3.47572954e-09   1.25682561e+03   1.32607039e+00   
237     3.48883552e-09   1.25860791e+03   1.32783057e+00   
238     3.50209079e-09   1.26042023e+03   1.32961710e+00   
239     3.51534606e-09   1.26223929e+03   1.33140801e+00   
240     3.52860133e-09   1.26406510e+03   1.33320330e+00   
241     3.54185659e-09   1.26589616e+03   1.33500200e+00   
242     3.55511186e-09   1.26773246e+03   1.33680410e+00   
243     3.56851939e-09   1.26959979e+03   1.33863335e+00   
244     3.58192692e-09   1.27147402e+03   1.34046708e+00   
245     3.59533445e-09   1.27335514e+03   1.34230528e+00   
246     3.60874198e-09   1.27524162e+03   1.34414696e+00   
247     3.62214951e-09   1.27713346e+03   1.34599212e+00   
248     3.63571234e-09   1.27905737e+03   1.34786523e+00   
249     3.64927516e-09   1.28098833e+03   1.34974293e+00   
250     3.66283799e-09   1.28292633e+03   1.35162519e+00   
251     3.67640081e-09   1.28486982e+03   1.35351102e+00   
252     3.68996364e-09   1.28681879e+03   1.35540039e+00   
253     3.70368483e-09   1.28880090e+03   1.35731857e+00   
254     3.71740603e-09   1.29079022e+03   1.35924142e+00   
255     3.73112723e-09   1.29278674e+03   1.36116894e+00   
256     3.74484842e-09   1.29478887e+03   1.36310010e+00   
257     3.75856962e-09   1.29679660e+03   1.36503490e+00   
258     3.77245231e-09   1.29883858e+03   1.36699934e+00   
259     3.78633500e-09   1.30088793e+03   1.36896858e+00   
260     3.80021769e-09   1.30294465e+03   1.37094258e+00   
261     3.81410039e-09   1.30500710e+03   1.37292031e+00   
262     3.82798308e-09   1.30707529e+03   1.37490175e+00   
263     3.84203044e-09   1.30917886e+03   1.37691373e+00   
264     3.85607781e-09   1.31128997e+03   1.37893060e+00   
265     3.87012517e-09   1.31340861e+03   1.38095236e+00   
266     3.88417253e-09   1.31553312e+03   1.38297791e+00   
267     3.89821990e-09   1.31766349e+03   1.38500727e+00   
268     3.91243516e-09   1.31983043e+03   1.38706807e+00   
269     3.92665042e-09   1.32200508e+03   1.38913388e+00   
270     3.94086568e-09   1.32418744e+03   1.39120468e+00   
271     3.95508094e-09   1.32637580e+03   1.39327937e+00   
272     3.96929620e-09   1.32857015e+03   1.39535794e+00   
273     3.98368263e-09   1.33080228e+03   1.39746890e+00   
274     3.99806906e-09   1.33304231e+03   1.39958497e+00   
275     4.01245550e-09   1.33529022e+03   1.40170616e+00   
276     4.02684193e-09   1.33754427e+03   1.40383132e+00   
277     4.04122836e-09   1.33980445e+03   1.40596045e+00   
278     4.05578930e-09   1.34210368e+03   1.40812293e+00   
279     4.07035024e-09   1.34441097e+03   1.41029065e+00   
280     4.08491118e-09   1.34672634e+03   1.41246359e+00   
281     4.09947212e-09   1.34904798e+03   1.41464059e+00   
282     4.11403306e-09   1.35137590e+03   1.41682166e+00   
283     4.12877189e-09   1.35374415e+03   1.41903708e+00   
284     4.14351072e-09   1.35612066e+03   1.42125785e+00   
285     4.15824955e-09   1.35850544e+03   1.42348396e+00   
286     4.17298838e-09   1.36089663e+03   1.42571424e+00   
287     4.18772721e-09   1.36329425e+03   1.42794867e+00   
288     4.20264738e-09   1.36573354e+03   1.43021847e+00   
289     4.21756755e-09   1.36818129e+03   1.43249374e+00   
290     4.23248771e-09   1.37063749e+03   1.43477449e+00   
291     4.24740788e-09   1.37310027e+03   1.43705949e+00   
292     4.26232804e-09   1.37556961e+03   1.43934874e+00   
293     4.27743305e-09   1.37808201e+03   1.44167442e+00   
294     4.29253805e-09   1.38060307e+03   1.44400570e+00   
295     4.30764306e-09   1.38313278e+03   1.44634257e+00   
296     4.32274806e-09   1.38566921e+03   1.44868380e+00   
297     4.33785307e-09   1.38821237e+03   1.45102938e+00   
298     4.35314647e-09   1.39080002e+03   1.45341247e+00   
299     4.36843988e-09   1.39339652e+03   1.45580129e+00   
300     4.38373329e-09   1.39600188e+03   1.45819585e+00   
301     4.39902669e-09   1.39861413e+03   1.46059485e+00   
302     4.41432010e-09   1.40123326e+03   1.46299831e+00   
303     4.42980553e-09   1.40389834e+03   1.46544039e+00   
304     4.44529097e-09   1.40657250e+03   1.46788835e+00   
305     4.46077640e-09   1.40925572e+03   1.47034216e+00   
306     4.47626183e-09   1.41194600e+03   1.47280053e+00   
307     4.49174727e-09   1.41464333e+03   1.47526347e+00   
308     4.50742842e-09   1.41738812e+03   1.47776617e+00   
309     4.52310957e-09   1.42014220e+03   1.48027489e+00   
310     4.53879072e-09   1.42290558e+03   1.48278960e+00   
311     4.55447187e-09   1.42567617e+03   1.48530898e+00   
312     4.57015303e-09   1.42845398e+03   1.48783303e+00   
313     4.58603365e-09   1.43128082e+03   1.49039804e+00   
314     4.60191428e-09   1.43411718e+03   1.49296920e+00   
315     4.61779491e-09   1.43696305e+03   1.49554650e+00   
316     4.63367553e-09   1.43981631e+03   1.49812858e+00   
317     4.64955616e-09   1.44267697e+03   1.50071543e+00   
318     4.66564009e-09   1.44558828e+03   1.50334446e+00   
319     4.68172402e-09   1.44850933e+03   1.50597979e+00   
320     4.69780795e-09   1.45144013e+03   1.50862141e+00   
321     4.71389188e-09   1.45437850e+03   1.51126793e+00   
322     4.72997581e-09   1.45732444e+03   1.51391933e+00   
323     4.74626694e-09   1.46032270e+03   1.51661417e+00   
324     4.76255806e-09   1.46333094e+03   1.51931545e+00   
325     4.77884919e-09   1.46634916e+03   1.52202318e+00   
326     4.79514032e-09   1.46937514e+03   1.52473591e+00   
327     4.81143145e-09   1.47240888e+03   1.52745366e+00   
328     4.82793375e-09   1.47549666e+03   1.53021613e+00   
329     4.84443605e-09   1.47859467e+03   1.53298521e+00   
330     4.86093835e-09   1.48170289e+03   1.53576088e+00   
331     4.87744065e-09   1.48481907e+03   1.53854168e+00   
