Index       TIME              V(1)              I(V1)         {I(V1)*V(1)}          P(V1)            {P(V1)}            W(V1)            {W(V1)}          P(X1:V2)         {P(X1:V2)}         W(X1:V2)         {W(X1:V2)}           P(R1)            {P(R1)}            W(R1)            {W(R1)}          P(X1:R2)         {P(X1:R2)}         W(X1:R2)         {W(X1:R2)}           P(C1)            {P(C1)}            W(C1)            {W(C1)}          P(X1:C2)         {P(X1:C2)}         W(X1:C2)         {W(X1:C2)}    
0        0.00000000e+00    0.00000000e+00    0.00000000e+00    0.00000000e+00    0.00000000e+00    0.00000000e+00    0.00000000e+00    0.00000000e+00    0.00000000e+00    0.00000000e+00    0.00000000e+00    0.00000000e+00    0.00000000e+00    0.00000000e+00    0.00000000e+00    0.00000000e+00    0.00000000e+00    0.00000000e+00    0.00000000e+00    0.00000000e+00    0.00000000e+00    0.00000000e+00    0.00000000e+00    0.00000000e+00    0.00000000e+00    0.00000000e+00    0.00000000e+00    0.00000000e+00
1        1.00000000e-03    1.25579413e-01   -1.25486273e-04   -1.57584926e-05   -1.57584926e-05   -1.57584926e-05   -1.57584926e-05   -1.57584926e-05   -1.57584926e-05   -1.57584926e-05   -1.57584926e-05   -1.57584926e-05    1.57468048e-08    1.57468048e-08    1.57468048e-08    1.57468048e-08    1.57468048e-08    1.57468048e-08    1.57468048e-08    1.57468048e-08    1.57427458e-05    1.57427458e-05    1.57427458e-05    1.57427458e-05    1.57427458e-05    1.57427458e-05    1.57427458e-05    1.57427458e-05
2        2.00000000e-03    2.50656119e-01   -1.24757563e-04   -3.12712464e-05   -3.12712464e-05   -3.12712464e-05   -3.12712464e-05   -3.12712464e-05   -3.12712464e-05   -3.12712464e-05   -3.12712464e-05   -3.12712464e-05    1.55644494e-08    1.55644494e-08    1.55644494e-08    1.55644494e-08    1.55644494e-08    1.55644494e-08    1.55644494e-08    1.55644494e-08    3.12556820e-05    3.12556820e-05    3.12556820e-05    3.12556820e-05    3.12556820e-05    3.12556820e-05    3.12556820e-05    3.12556820e-05
3        3.00000000e-03    3.74731753e-01   -1.23755652e-04   -4.63751725e-05   -4.63751725e-05   -4.63751725e-05   -4.63751725e-05   -4.63751725e-05   -4.63751725e-05   -4.63751725e-05   -4.63751725e-05   -4.63751725e-05    1.53154615e-08    1.53154615e-08    1.53154615e-08    1.53154615e-08    1.53154615e-08    1.53154615e-08    1.53154615e-08    1.53154615e-08    4.63598570e-05    4.63598570e-05    4.63598570e-05    4.63598570e-05    4.63598570e-05    4.63598570e-05    4.63598570e-05    4.63598570e-05
4        4.00000000e-03    4.97363448e-01   -1.21971760e-04   -6.06642953e-05   -6.06642953e-05   -6.06642953e-05   -6.06642953e-05   -6.06642953e-05   -6.06642953e-05   -6.06642953e-05   -6.06642953e-05   -6.06642953e-05    1.48771103e-08    1.48771103e-08    1.48771103e-08    1.48771103e-08    1.48771103e-08    1.48771103e-08    1.48771103e-08    1.48771103e-08    6.06494182e-05    6.06494182e-05    6.06494182e-05    6.06494182e-05    6.06494182e-05    6.06494182e-05    6.06494182e-05    6.06494182e-05
5        5.00000000e-03    6.18023030e-01   -1.19619582e-04   -7.39276567e-05   -7.39276567e-05   -7.39276567e-05   -7.39276567e-05   -7.39276567e-05   -7.39276567e-05   -7.39276567e-05   -7.39276567e-05   -7.39276567e-05    1.43088444e-08    1.43088444e-08    1.43088444e-08    1.43088444e-08    1.43088444e-08    1.43088444e-08    1.43088444e-08    1.43088444e-08    7.39133478e-05    7.39133478e-05    7.39133478e-05    7.39133478e-05    7.39133478e-05    7.39133478e-05    7.39133478e-05    7.39133478e-05
6        6.00000000e-03    7.36246574e-01   -1.16951520e-04   -8.61051556e-05   -8.61051556e-05   -8.61051556e-05   -8.61051556e-05   -8.61051556e-05   -8.61051556e-05   -8.61051556e-05   -8.61051556e-05   -8.61051556e-05    1.36776579e-08    1.36776579e-08    1.36776579e-08    1.36776579e-08    1.36776579e-08    1.36776579e-08    1.36776579e-08    1.36776579e-08    8.60914780e-05    8.60914780e-05    8.60914780e-05    8.60914780e-05    8.60914780e-05    8.60914780e-05    8.60914780e-05    8.60914780e-05
7        7.00000000e-03    8.51548223e-01   -1.13814315e-04   -9.69183773e-05   -9.69183773e-05   -9.69183773e-05   -9.69183773e-05   -9.69183773e-05   -9.69183773e-05   -9.69183773e-05   -9.69183773e-05   -9.69183773e-05    1.29536982e-08    1.29536982e-08    1.29536982e-08    1.29536982e-08    1.29536982e-08    1.29536982e-08    1.29536982e-08    1.29536982e-08    9.69054236e-05    9.69054236e-05    9.69054236e-05    9.69054236e-05    9.69054236e-05    9.69054236e-05    9.69054236e-05    9.69054236e-05
8        8.00000000e-03    9.63508059e-01   -1.10220045e-04   -1.06197901e-04   -1.06197901e-04   -1.06197901e-04   -1.06197901e-04   -1.06197901e-04   -1.06197901e-04   -1.06197901e-04   -1.06197901e-04   -1.06197901e-04    1.21484582e-08    1.21484582e-08    1.21484582e-08    1.21484582e-08    1.21484582e-08    1.21484582e-08    1.21484582e-08    1.21484582e-08    1.06185753e-04    1.06185753e-04    1.06185753e-04    1.06185753e-04    1.06185753e-04    1.06185753e-04    1.06185753e-04    1.06185753e-04
9        9.00000000e-03    1.07165528e+00   -1.06131199e-04   -1.13736060e-04   -1.13736060e-04   -1.13736060e-04   -1.13736060e-04   -1.13736060e-04   -1.13736060e-04   -1.13736060e-04   -1.13736060e-04   -1.13736060e-04    1.12638314e-08    1.12638314e-08    1.12638314e-08    1.12638314e-08    1.12638314e-08    1.12638314e-08    1.12638314e-08    1.12638314e-08    1.13724796e-04    1.13724796e-04    1.13724796e-04    1.13724796e-04    1.13724796e-04    1.13724796e-04    1.13724796e-04    1.13724796e-04
10       1.00000000e-02    1.17557409e+00   -1.01619727e-04   -1.19461519e-04   -1.19461519e-04   -1.19461519e-04   -1.19461519e-04   -1.19461519e-04   -1.19461519e-04   -1.19461519e-04   -1.19461519e-04   -1.19461519e-04    1.03265689e-08    1.03265689e-08    1.03265689e-08    1.03265689e-08    1.03265689e-08    1.03265689e-08    1.03265689e-08    1.03265689e-08    1.19451192e-04    1.19451192e-04    1.19451192e-04    1.19451192e-04    1.19451192e-04    1.19451192e-04    1.19451192e-04    1.19451192e-04
11       1.10000000e-02    1.27484816e+00   -9.68112209e-05   -1.23419606e-04   -1.23419606e-04   -1.23419606e-04   -1.23419606e-04   -1.23419606e-04   -1.23419606e-04   -1.23419606e-04   -1.23419606e-04   -1.23419606e-04    9.37241249e-09    9.37241249e-09    9.37241249e-09    9.37241249e-09    9.37241249e-09    9.37241249e-09    9.37241249e-09    9.37241249e-09    1.23410234e-04    1.23410234e-04    1.23410234e-04    1.23410234e-04    1.23410234e-04    1.23410234e-04    1.23410234e-04    1.23410234e-04
12       1.20000000e-02    1.36910047e+00   -9.15964115e-05   -1.25404690e-04   -1.25404690e-04   -1.25404690e-04   -1.25404690e-04   -1.25404690e-04   -1.25404690e-04   -1.25404690e-04   -1.25404690e-04   -1.25404690e-04    8.38990261e-09    8.38990261e-09    8.38990261e-09    8.38990261e-09    8.38990261e-09    8.38990261e-09    8.38990261e-09    8.38990261e-09    1.25396300e-04    1.25396300e-04    1.25396300e-04    1.25396300e-04    1.25396300e-04    1.25396300e-04    1.25396300e-04    1.25396300e-04
13       1.30000000e-02    1.45794439e+00   -8.60021320e-05   -1.25386326e-04   -1.25386326e-04   -1.25386326e-04   -1.25386326e-04   -1.25386326e-04   -1.25386326e-04   -1.25386326e-04   -1.25386326e-04   -1.25386326e-04    7.39636671e-09    7.39636671e-09    7.39636671e-09    7.39636671e-09    7.39636671e-09    7.39636671e-09    7.39636671e-09    7.39636671e-09    1.25378930e-04    1.25378930e-04    1.25378930e-04    1.25378930e-04    1.25378930e-04    1.25378930e-04    1.25378930e-04    1.25378930e-04
14       1.40000000e-02    1.54106181e+00   -8.00579437e-05   -1.23374240e-04   -1.23374240e-04   -1.23374240e-04   -1.23374240e-04   -1.23374240e-04   -1.23374240e-04   -1.23374240e-04   -1.23374240e-04   -1.23374240e-04    6.40927434e-09    6.40927434e-09    6.40927434e-09    6.40927434e-09    6.40927434e-09    6.40927434e-09    6.40927434e-09    6.40927434e-09    1.23367830e-04    1.23367830e-04    1.23367830e-04    1.23367830e-04    1.23367830e-04    1.23367830e-04    1.23367830e-04    1.23367830e-04
15       1.50000000e-02    1.61808421e+00   -7.37712572e-05   -1.19368107e-04   -1.19368107e-04   -1.19368107e-04   -1.19368107e-04   -1.19368107e-04   -1.19368107e-04   -1.19368107e-04   -1.19368107e-04   -1.19368107e-04    5.44219839e-09    5.44219839e-09    5.44219839e-09    5.44219839e-09    5.44219839e-09    5.44219839e-09    5.44219839e-09    5.44219839e-09    1.19362665e-04    1.19362665e-04    1.19362665e-04    1.19362665e-04    1.19362665e-04    1.19362665e-04    1.19362665e-04    1.19362665e-04
16       1.60000000e-02    1.68865587e+00   -6.71551074e-05   -1.13401867e-04   -1.13401867e-04   -1.13401867e-04   -1.13401867e-04   -1.13401867e-04   -1.13401867e-04   -1.13401867e-04   -1.13401867e-04   -1.13401867e-04    4.50980845e-09    4.50980845e-09    4.50980845e-09    4.50980845e-09    4.50980845e-09    4.50980845e-09    4.50980845e-09    4.50980845e-09    1.13397357e-04    1.13397357e-04    1.13397357e-04    1.13397357e-04    1.13397357e-04    1.13397357e-04    1.13397357e-04    1.13397357e-04
17       1.70000000e-02    1.75266213e+00   -6.03424435e-05   -1.05759915e-04   -1.05759915e-04   -1.05759915e-04   -1.05759915e-04   -1.05759915e-04   -1.05759915e-04   -1.05759915e-04   -1.05759915e-04   -1.05759915e-04    3.64121049e-09    3.64121049e-09    3.64121049e-09    3.64121049e-09    3.64121049e-09    3.64121049e-09    3.64121049e-09    3.64121049e-09    1.05756274e-04    1.05756274e-04    1.05756274e-04    1.05756274e-04    1.05756274e-04    1.05756274e-04    1.05756274e-04    1.05756274e-04
18       1.80000000e-02    1.80971542e+00   -5.33304689e-05   -9.65129722e-05   -9.65129722e-05   -9.65129722e-05   -9.65129722e-05   -9.65129722e-05   -9.65129722e-05   -9.65129722e-05   -9.65129722e-05   -9.65129722e-05    2.84413892e-09    2.84413892e-09    2.84413892e-09    2.84413892e-09    2.84413892e-09    2.84413892e-09    2.84413892e-09    2.84413892e-09    9.65101280e-05    9.65101280e-05    9.65101280e-05    9.65101280e-05    9.65101280e-05    9.65101280e-05    9.65101280e-05    9.65101280e-05
19       1.90000000e-02    1.85956589e+00   -4.61421646e-05   -8.58043955e-05   -8.58043955e-05   -8.58043955e-05   -8.58043955e-05   -8.58043955e-05   -8.58043955e-05   -8.58043955e-05   -8.58043955e-05   -8.58043955e-05    2.12909935e-09    2.12909935e-09    2.12909935e-09    2.12909935e-09    2.12909935e-09    2.12909935e-09    2.12909935e-09    2.12909935e-09    8.58022664e-05    8.58022664e-05    8.58022664e-05    8.58022664e-05    8.58022664e-05    8.58022664e-05    8.58022664e-05    8.58022664e-05
20       2.00000000e-02    1.90217785e+00   -3.87265521e-05   -7.36647896e-05   -7.36647896e-05   -7.36647896e-05   -7.36647896e-05   -7.36647896e-05   -7.36647896e-05   -7.36647896e-05   -7.36647896e-05   -7.36647896e-05    1.49974584e-09    1.49974584e-09    1.49974584e-09    1.49974584e-09    1.49974584e-09    1.49974584e-09    1.49974584e-09    1.49974584e-09    7.36632899e-05    7.36632899e-05    7.36632899e-05    7.36632899e-05    7.36632899e-05    7.36632899e-05    7.36632899e-05    7.36632899e-05
21       2.10000000e-02    1.93722505e+00   -3.11329834e-05   -6.03115953e-05   -6.03115953e-05   -6.03115953e-05   -6.03115953e-05   -6.03115953e-05   -6.03115953e-05   -6.03115953e-05   -6.03115953e-05   -6.03115953e-05    9.69262655e-10    9.69262655e-10    9.69262655e-10    9.69262655e-10    9.69262655e-10    9.69262655e-10    9.69262655e-10    9.69262655e-10    6.03106260e-05    6.03106260e-05    6.03106260e-05    6.03106260e-05    6.03106260e-05    6.03106260e-05    6.03106260e-05    6.03106260e-05
22       2.20000000e-02    1.96460019e+00   -2.34030122e-05   -4.59775622e-05   -4.59775622e-05   -4.59775622e-05   -4.59775622e-05   -4.59775622e-05   -4.59775622e-05   -4.59775622e-05   -4.59775622e-05   -4.59775622e-05    5.47700978e-10    5.47700978e-10    5.47700978e-10    5.47700978e-10    5.47700978e-10    5.47700978e-10    5.47700978e-10    5.47700978e-10    4.59770145e-05    4.59770145e-05    4.59770145e-05    4.59770145e-05    4.59770145e-05    4.59770145e-05    4.59770145e-05    4.59770145e-05
23       2.30000000e-02    1.98430009e+00   -1.55991107e-05   -3.09533169e-05   -3.09533169e-05   -3.09533169e-05   -3.09533169e-05   -3.09533169e-05   -3.09533169e-05   -3.09533169e-05   -3.09533169e-05   -3.09533169e-05    2.43332256e-10    2.43332256e-10    2.43332256e-10    2.43332256e-10    2.43332256e-10    2.43332256e-10    2.43332256e-10    2.43332256e-10    3.09530736e-05    3.09530736e-05    3.09530736e-05    3.09530736e-05    3.09530736e-05    3.09530736e-05    3.09530736e-05    3.09530736e-05
24       2.40000000e-02    1.99609320e+00   -7.73786999e-06   -1.54455097e-05   -1.54455097e-05   -1.54455097e-05   -1.54455097e-05   -1.54455097e-05   -1.54455097e-05   -1.54455097e-05   -1.54455097e-05   -1.54455097e-05    5.98746320e-11    5.98746320e-11    5.98746320e-11    5.98746320e-11    5.98746320e-11    5.98746320e-11    5.98746320e-11    5.98746320e-11    1.54454498e-05    1.54454498e-05    1.54454498e-05    1.54454498e-05    1.54454498e-05    1.54454498e-05    1.54454498e-05    1.54454498e-05
25       2.50000000e-02    2.00003994e+00    1.53524922e-07    3.07055975e-07    3.07055975e-07    3.07055975e-07    3.07055975e-07    3.07055975e-07    3.07055975e-07    3.07055975e-07    3.07055975e-07    3.07055975e-07    2.35699017e-14    2.35699017e-14    2.35699017e-14    2.35699017e-14    2.35699017e-14    2.35699017e-14    2.35699017e-14    2.35699017e-14   -3.07055999e-07   -3.07055999e-07   -3.07055999e-07   -3.07055999e-07   -3.07055999e-07   -3.07055999e-07   -3.07055999e-07   -3.07055999e-07
26       2.60000000e-02    1.99612930e+00    8.04578064e-06    1.60604184e-05    1.60604184e-05    1.60604184e-05    1.60604184e-05    1.60604184e-05    1.60604184e-05    1.60604184e-05    1.60604184e-05    1.60604184e-05    6.47345861e-11    6.47345861e-11    6.47345861e-11    6.47345861e-11    6.47345861e-11    6.47345861e-11    6.47345861e-11    6.47345861e-11   -1.60604832e-05   -1.60604832e-05   -1.60604832e-05   -1.60604832e-05   -1.60604832e-05   -1.60604832e-05   -1.60604832e-05   -1.60604832e-05
27       2.70000000e-02    1.98424152e+00    1.59063939e-05    3.15621273e-05    3.15621273e-05    3.15621273e-05    3.15621273e-05    3.15621273e-05    3.15621273e-05    3.15621273e-05    3.15621273e-05    3.15621273e-05    2.53013368e-10    2.53013368e-10    2.53013368e-10    2.53013368e-10    2.53013368e-10    2.53013368e-10    2.53013368e-10    2.53013368e-10   -3.15623803e-05   -3.15623803e-05   -3.15623803e-05   -3.15623803e-05   -3.15623803e-05   -3.15623803e-05   -3.15623803e-05   -3.15623803e-05
28       2.80000000e-02    1.96462700e+00    2.37043317e-05    4.65701701e-05    4.65701701e-05    4.65701701e-05    4.65701701e-05    4.65701701e-05    4.65701701e-05    4.65701701e-05    4.65701701e-05    4.65701701e-05    5.61895340e-10    5.61895340e-10    5.61895340e-10    5.61895340e-10    5.61895340e-10    5.61895340e-10    5.61895340e-10    5.61895340e-10   -4.65707320e-05   -4.65707320e-05   -4.65707320e-05   -4.65707320e-05   -4.65707320e-05   -4.65707320e-05   -4.65707320e-05   -4.65707320e-05
29       2.90000000e-02    1.93723987e+00    3.14087176e-05    6.08462201e-05    6.08462201e-05    6.08462201e-05    6.08462201e-05    6.08462201e-05    6.08462201e-05    6.08462201e-05    6.08462201e-05    6.08462201e-05    9.86507542e-10    9.86507542e-10    9.86507542e-10    9.86507542e-10    9.86507542e-10    9.86507542e-10    9.86507542e-10    9.86507542e-10   -6.08472066e-05   -6.08472066e-05   -6.08472066e-05   -6.08472066e-05   -6.08472066e-05   -6.08472066e-05   -6.08472066e-05   -6.08472066e-05
30       3.00000000e-02    1.90211272e+00    3.89881848e-05    7.41599222e-05    7.41599222e-05    7.41599222e-05    7.41599222e-05    7.41599222e-05    7.41599222e-05    7.41599222e-05    7.41599222e-05    7.41599222e-05    1.52007855e-09    1.52007855e-09    1.52007855e-09    1.52007855e-09    1.52007855e-09    1.52007855e-09    1.52007855e-09    1.52007855e-09   -7.41614423e-05   -7.41614423e-05   -7.41614423e-05   -7.41614423e-05   -7.41614423e-05   -7.41614423e-05   -7.41614423e-05   -7.41614423e-05
31       3.10000000e-02    1.85954951e+00    4.64070416e-05    8.62961913e-05    8.62961913e-05    8.62961913e-05    8.62961913e-05    8.62961913e-05    8.62961913e-05    8.62961913e-05    8.62961913e-05    8.62961913e-05    2.15361351e-09    2.15361351e-09    2.15361351e-09    2.15361351e-09    2.15361351e-09    2.15361351e-09    2.15361351e-09    2.15361351e-09   -8.62983450e-05   -8.62983450e-05   -8.62983450e-05   -8.62983450e-05   -8.62983450e-05   -8.62983450e-05   -8.62983450e-05   -8.62983450e-05
32       3.20000000e-02    1.80964607e+00    5.36331184e-05    9.70569617e-05    9.70569617e-05    9.70569617e-05    9.70569617e-05    9.70569617e-05    9.70569617e-05    9.70569617e-05    9.70569617e-05    9.70569617e-05    2.87651139e-09    2.87651139e-09    2.87651139e-09    2.87651139e-09    2.87651139e-09    2.87651139e-09    2.87651139e-09    2.87651139e-09   -9.70598382e-05   -9.70598382e-05   -9.70598382e-05   -9.70598382e-05   -9.70598382e-05   -9.70598382e-05   -9.70598382e-05   -9.70598382e-05
33       3.30000000e-02    1.75260142e+00    6.06324993e-05    1.06264604e-04    1.06264604e-04    1.06264604e-04    1.06264604e-04    1.06264604e-04    1.06264604e-04    1.06264604e-04    1.06264604e-04    1.06264604e-04    3.67629997e-09    3.67629997e-09    3.67629997e-09    3.67629997e-09    3.67629997e-09    3.67629997e-09    3.67629997e-09    3.67629997e-09   -1.06268281e-04   -1.06268281e-04   -1.06268281e-04   -1.06268281e-04   -1.06268281e-04   -1.06268281e-04   -1.06268281e-04   -1.06268281e-04
34       3.40000000e-02    1.68864515e+00    6.73707514e-05    1.13765292e-04    1.13765292e-04    1.13765292e-04    1.13765292e-04    1.13765292e-04    1.13765292e-04    1.13765292e-04    1.13765292e-04    1.13765292e-04    4.53881815e-09    4.53881815e-09    4.53881815e-09    4.53881815e-09    4.53881815e-09    4.53881815e-09    4.53881815e-09    4.53881815e-09   -1.13769831e-04   -1.13769831e-04   -1.13769831e-04   -1.13769831e-04   -1.13769831e-04   -1.13769831e-04   -1.13769831e-04   -1.13769831e-04
35       3.50000000e-02    1.61803181e+00    7.38207899e-05    1.19444386e-04    1.19444386e-04    1.19444386e-04    1.19444386e-04    1.19444386e-04    1.19444386e-04    1.19444386e-04    1.19444386e-04    1.19444386e-04    5.44950901e-09    5.44950901e-09    5.44950901e-09    5.44950901e-09    5.44950901e-09    5.44950901e-09    5.44950901e-09    5.44950901e-09   -1.19449836e-04   -1.19449836e-04   -1.19449836e-04   -1.19449836e-04   -1.19449836e-04   -1.19449836e-04   -1.19449836e-04   -1.19449836e-04
36       3.60000000e-02    1.54100690e+00    8.00107868e-05    1.23297174e-04    1.23297174e-04    1.23297174e-04    1.23297174e-04    1.23297174e-04    1.23297174e-04    1.23297174e-04    1.23297174e-04    1.23297174e-04    6.40172600e-09    6.40172600e-09    6.40172600e-09    6.40172600e-09    6.40172600e-09    6.40172600e-09    6.40172600e-09    6.40172600e-09   -1.23303576e-04   -1.23303576e-04   -1.23303576e-04   -1.23303576e-04   -1.23303576e-04   -1.23303576e-04   -1.23303576e-04   -1.23303576e-04
37       3.70000000e-02    1.45789843e+00    8.58952660e-05    1.25226574e-04    1.25226574e-04    1.25226574e-04    1.25226574e-04    1.25226574e-04    1.25226574e-04    1.25226574e-04    1.25226574e-04    1.25226574e-04    7.37799673e-09    7.37799673e-09    7.37799673e-09    7.37799673e-09    7.37799673e-09    7.37799673e-09    7.37799673e-09    7.37799673e-09   -1.25233952e-04   -1.25233952e-04   -1.25233952e-04   -1.25233952e-04   -1.25233952e-04   -1.25233952e-04   -1.25233952e-04   -1.25233952e-04
