Index        TIME               V(VOUT)              V(IN)               V(1)           N(M:XINV1:N1_T)     N(M:XINV1:P1_T)  
0        0.0000000000e+00    1.4642517327e-30    2.0000000000e+00    2.0000000000e+00   -4.8760775590e-60   -1.2033097611e-78
1        5.0000000000e-13    5.4741050682e-04    2.0015722780e+00    2.0000000000e+00    3.4734180592e-11    2.2143976494e-27
2        1.5000000000e-12    1.7505467083e-03    2.0071678405e+00    2.0000000000e+00    7.4523361963e-10    3.4829391006e-26
3        2.5000000000e-12    2.9726413562e-03    2.0136978541e+00    2.0000000000e+00    2.1252933480e-09    8.8313452904e-26
4        4.5000000000e-12    5.3376002207e-03    2.0300917384e+00    2.0000000000e+00    1.0796428207e-08    3.7669106824e-25
5        6.5000000000e-12    7.3972282803e-03    2.0480315803e+00    2.0000000000e+00    3.0172481315e-08    1.1204794741e-24
6        1.0500000000e-11    1.0489274327e-02    2.0829322921e+00    2.0000000000e+00    1.0731606810e-07    7.6319462441e-24
7        1.4500000000e-11    1.2438349768e-02    2.1153272320e+00    2.0000000000e+00    2.3207470389e-07    3.8817591479e-23
8        1.8500000000e-11    1.3556724278e-02    2.1451566598e+00    2.0000000000e+00    3.9268817854e-07    1.8301930638e-22
9        2.6500000000e-11    1.4280166394e-02    2.1982382918e+00    2.0000000000e+00    7.6450688243e-07    5.4977460945e-21
10       3.4500000000e-11    1.3751941756e-02    2.2426998349e+00    2.0000000000e+00    1.1461606980e-06    1.3145218747e-19
11       4.2500000000e-11    1.2640323193e-02    2.2786730553e+00    2.0000000000e+00    1.4887542008e-06    3.4981930754e-18
12       5.0500000000e-11    1.1345151082e-02    2.3070483439e+00    2.0000000000e+00    1.7747188615e-06    1.0437943510e-16
13       5.8500000000e-11    9.9897660996e-03    2.3278239648e+00    2.0000000000e+00    2.0029437396e-06    3.5795166680e-15
14       6.6500000000e-11    8.5865580744e-03    2.3402249437e+00    2.0000000000e+00    2.1772303580e-06    1.4302126902e-13
15       7.4500000000e-11    7.2106630587e-03    2.3444702119e+00    2.0000000000e+00    2.3039710134e-06    6.5482789282e-12
16       8.2500000000e-11    6.0158479625e-03    2.3425156936e+00    2.0000000000e+00    2.3930363209e-06    3.2415232526e-10
17       9.8500000000e-11    7.9971108494e-03    2.3364309417e+00    2.0000000000e+00    2.5949610887e-06    1.2673039833e-06
18       1.0000000000e-10    9.0228539435e-03    2.3376175768e+00    2.0000000000e+00    2.6223888720e-06    1.6134679828e-06
19       1.0150000000e-10    9.5197860584e-03    2.3315329936e+00    2.0000000000e+00    2.6565101387e-06    2.1857414461e-06
20       1.0260995209e-10    1.0121728093e-02    2.3254638554e+00    2.0000000000e+00    2.6849934932e-06    2.6760425532e-06
21       1.0371990418e-10    1.0854553914e-02    2.3189196310e+00    2.0000000000e+00    2.7155749191e-06    3.2022916720e-06
22       1.0593980836e-10    1.3108283015e-02    2.3049825630e+00    2.0000000000e+00    2.7956288687e-06    4.4777971159e-06
23       1.1037961672e-10    2.0671225907e-02    2.2793178047e+00    2.0000000000e+00    3.1224194373e-06    8.0050723899e-06
24       1.1481942508e-10    3.1835306436e-02    2.2573044281e+00    2.0000000000e+00    3.8945173093e-06    1.2920876071e-05
25       1.1925923344e-10    4.5759206838e-02    2.2383048102e+00    2.0000000000e+00    5.5265925553e-06    1.9243238762e-05
26       1.2813885016e-10    7.8249897652e-02    2.2070780709e+00    2.0000000000e+00    1.3806160625e-05    3.5695365741e-05
27       1.3701846689e-10    1.1317053932e-01    2.1823312809e+00    2.0000000000e+00    3.2063863956e-05    5.6416898644e-05
28       1.4589808361e-10    1.4739809931e-01    2.1617944874e+00    2.0000000000e+00    6.3958312396e-05    8.0388864688e-05
29       1.5477770033e-10    1.7979256772e-01    2.1442767445e+00    2.0000000000e+00    1.1187004036e-04    1.0684254101e-04
30       1.7253693377e-10    2.3806987313e-01    2.1157376938e+00    2.0000000000e+00    2.6023796373e-04    1.6485446361e-04
31       1.9029616721e-10    2.8760451750e-01    2.0936903063e+00    2.0000000000e+00    4.7889199530e-04    2.2752039351e-04
32       2.0805540066e-10    3.2912466362e-01    2.0762536807e+00    2.0000000000e+00    7.6364877375e-04    2.9289189938e-04
33       2.2581463410e-10    3.6380813701e-01    2.0623046569e+00    2.0000000000e+00    1.1075455286e-03    3.5983414185e-04
34       2.4357386754e-10    3.9268849005e-01    2.0510504665e+00    2.0000000000e+00    1.5029606517e-03    4.2765762986e-04
35       2.6133310098e-10    4.1669976666e-01    2.0419139880e+00    2.0000000000e+00    1.9425153579e-03    4.9595145879e-04
36       2.7909233443e-10    4.3664272396e-01    2.0344690671e+00    2.0000000000e+00    2.4194981224e-03    5.6446948028e-04
37       3.1461080131e-10    4.5010037321e-01    2.0190936287e+00    2.0000000000e+00    3.4286796988e-03    7.0834414044e-04
38       3.4330441603e-10    4.4945959240e-01    2.0099356801e+00    2.0000000000e+00    4.2582113484e-03    8.3545929736e-04
39       3.7199803075e-10    4.5051692479e-01    2.0055973321e+00    2.0000000000e+00    5.0857972814e-03    9.7027400532e-04
40       4.0069164548e-10    4.4996577259e-01    2.0028194088e+00    2.0000000000e+00    5.9127601876e-03    1.1091497092e-03
41       4.2938526020e-10    4.5050218985e-01    2.0016461526e+00    2.0000000000e+00    6.7389306819e-03    1.2504064127e-03
42       4.5807887492e-10    4.5016540119e-01    2.0007914722e+00    2.0000000000e+00    7.5649825042e-03    1.3928177011e-03
43       5.1546610436e-10    4.5047284027e-01    2.0002506253e+00    2.0000000000e+00    9.2163921427e-03    1.6793458047e-03
44       5.7285333381e-10    4.5023392977e-01    2.0000177430e+00    2.0000000000e+00    1.0867598665e-02    1.9667511515e-03
45       6.8762779269e-10    4.5045264840e-01    2.0000253368e+00    2.0000000000e+00    1.4169391565e-02    2.5420854674e-03
46       8.0240225158e-10    4.5025339010e-01    1.9999736084e+00    2.0000000000e+00    1.7470819892e-02    3.1174280913e-03
47       1.0319511693e-09    4.5044197899e-01    2.0000250209e+00    2.0000000000e+00    2.4072218792e-02    4.2679268012e-03
48       1.2615000871e-09    4.5026291360e-01    1.9999763606e+00    2.0000000000e+00    3.0671954880e-02    5.4180960338e-03
49       1.7205979227e-09    4.5043940126e-01    2.0000228886e+00    2.0000000000e+00    4.3866028268e-02    7.7175999851e-03
50       2.1796957582e-09    4.5027042683e-01    1.9999777853e+00    2.0000000000e+00    5.7053174075e-02    1.0015890177e-02
51       3.0978914293e-09    4.5044266995e-01    2.0000218323e+00    2.0000000000e+00    8.3406302534e-02    1.4608981744e-02
52       4.0160871004e-09    4.5028003415e-01    1.9999784811e+00    2.0000000000e+00    1.0973149761e-01    1.9197326668e-02
53       5.8524784426e-09    4.5045320885e-01    2.0000213175e+00    2.0000000000e+00    1.6229782250e-01    2.8359943783e-02
54       7.6888697847e-09    4.5029658336e-01    1.9999788188e+00    2.0000000000e+00    2.1475250899e-01    3.7503730442e-02
55       1.1361652469e-08    4.5047614691e-01    2.0000210691e+00    2.0000000000e+00    3.1932760036e-01    5.5735126394e-02
56       1.5034435153e-08    4.5032819527e-01    1.9999789794e+00    2.0000000000e+00    4.2345872602e-01    7.3891758332e-02
57       2.2380000522e-08    4.5052254380e-01    2.0000209531e+00    2.0000000000e+00    6.3039698290e-01    1.0998223637e-01
58       2.9725565891e-08    4.5038997309e-01    1.9999790518e+00    2.0000000000e+00    8.3558170128e-01    1.4577741156e-01
59       4.4416696628e-08    4.5061400620e-01    2.0000209032e+00    2.0000000000e+00    1.2407561650e+00    2.1649278268e-01
60       5.9107827366e-08    4.5051002113e-01    1.9999790803e+00    2.0000000000e+00    1.6390933429e+00    2.8605574560e-01
61       7.3798958103e-08    4.5073063966e-01    2.0000208490e+00    2.0000000000e+00    2.0307140292e+00    3.5448541144e-01
62       8.8490088841e-08    4.5062312507e-01    1.9999791081e+00    2.0000000000e+00    2.4157370734e+00    4.2180043470e-01
63       1.0318121958e-07    4.5084046582e-01    2.0000207969e+00    2.0000000000e+00    2.7942788744e+00    4.8801929529e-01
64       1.1787235032e-07    4.5072960173e-01    1.9999791353e+00    2.0000000000e+00    3.1664539551e+00    5.5316002735e-01
65       1.4725461179e-07    4.5099930480e-01    2.0000208077e+00    2.0000000000e+00    3.8921614548e+00    6.8028454845e-01
66       1.7663687327e-07    4.5093674326e-01    1.9999791426e+00    2.0000000000e+00    4.5936283343e+00    8.0330137046e-01
67       2.0601913474e-07    4.5119716421e-01    2.0000207792e+00    2.0000000000e+00    5.2716852117e+00    9.2234428526e-01
68       2.3540139621e-07    4.5112490817e-01    1.9999791503e+00    2.0000000000e+00    5.9271336043e+00    1.0375425322e+00
69       2.6478365769e-07    4.5137682728e-01    2.0000207533e+00    2.0000000000e+00    6.5607466666e+00    1.1490212756e+00
70       2.9416591916e-07    4.5129574598e-01    1.9999791584e+00    2.0000000000e+00    7.1732704235e+00    1.2569014080e+00
71       3.2354818064e-07    4.5153992430e-01    2.0000207301e+00    2.0000000000e+00    7.7654243505e+00    1.3613000111e+00
72       3.8231270359e-07    4.5153569350e-01    1.9999792201e+00    2.0000000000e+00    8.8915168401e+00    1.5601445972e+00
73       4.4107722654e-07    4.5184862332e-01    2.0000207159e+00    2.0000000000e+00    9.9437570668e+00    1.7463492840e+00
74       4.9984174949e-07    4.5181899788e-01    1.9999792211e+00    2.0000000000e+00    1.0927055634e+01    1.9207206005e+00
75       5.5860627244e-07    4.5210989676e-01    2.0000207049e+00    2.0000000000e+00    1.1845991428e+01    2.0840136262e+00
76       6.1737079539e-07    4.5205880604e-01    1.9999792235e+00    2.0000000000e+00    1.2704833798e+01    2.2369347900e+00
77       6.7613531834e-07    4.5233112664e-01    2.0000206967e+00    2.0000000000e+00    1.3507563575e+01    2.3801454594e+00
78       7.3489984129e-07    4.5226203031e-01    1.9999792272e+00    2.0000000000e+00    1.4257892410e+01    2.5142643535e+00
79       7.9366436424e-07    4.5251882415e-01    2.0000206910e+00    2.0000000000e+00    1.4959280956e+01    2.6398707285e+00
80       8.5242888719e-07    4.5243476275e-01    1.9999792322e+00    2.0000000000e+00    1.5614955858e+01    2.7575064602e+00
81       9.6995793309e-07    4.5276671626e-01    2.0000207290e+00    2.0000000000e+00    1.6801820473e+01    2.9710555411e+00
82       1.0874869790e-06    4.5274021937e-01    1.9999792336e+00    2.0000000000e+00    1.7838286007e+01    3.1583066440e+00
83       1.2050160249e-06    4.5303004743e-01    2.0000207278e+00    2.0000000000e+00    1.8743535369e+01    3.3225048379e+00
84       1.3225450708e-06    4.5296631876e-01    1.9999792365e+00    2.0000000000e+00    1.9534280663e+01    3.4664932739e+00
85       1.4400741167e-06    4.5322549226e-01    2.0000207283e+00    2.0000000000e+00    2.0225083214e+01    3.5927636562e+00
86       1.5000000000e-06    4.5309105145e-01    1.9999792087e+00    2.0000000000e+00    2.0542741240e+01    3.6509854195e+00
87       1.5002326889e-06    4.5234919015e-01    1.9223293777e+00    1.9069244406e+00    2.0543681030e+01    3.6520525822e+00
88       1.5004388705e-06    4.4788187639e-01    1.8422210652e+00    1.8244517909e+00    2.0544209014e+01    3.6539466797e+00
89       1.5006450521e-06    4.4369459155e-01    1.7605051999e+00    1.7419791413e+00    2.0544585164e+01    3.6563750179e+00
90       1.5010574154e-06    4.6855669517e-01    1.5972517825e+00    1.5770338419e+00    2.0544938637e+01    3.6643212153e+00
91       1.5014697786e-06    6.9927835850e-01    1.4434371504e+00    1.4120885426e+00    2.0547535321e+01    3.6742995514e+00
92       1.5018409056e-06    1.0847518026e+00    1.2976069630e+00    1.2636377732e+00    2.0555556966e+01    3.6818230188e+00
93       1.5022120325e-06    1.4789219454e+00    1.1478384981e+00    1.1151870037e+00    2.0570719463e+01    3.6862697227e+00
94       1.5025831594e-06    1.7366351755e+00    9.9449424259e-01    9.6673623433e-01    2.0590926623e+01    3.6879682877e+00
95       1.5029542863e-06    1.7959458880e+00    8.3724427552e-01    8.1828546492e-01    2.0611117499e+01    3.6883062952e+00
96       1.5033254133e-06    1.7872239202e+00    6.8842587989e-01    6.6983469551e-01    2.0627521324e+01    3.6886129424e+00
97       1.5036965402e-06    1.7564621526e+00    5.3827053127e-01    5.2138392610e-01    2.0639157508e+01    3.6895275301e+00
98       1.5044387940e-06    1.6780397029e+00    2.4165021544e-01    2.2448238727e-01    2.0648169204e+01    3.6948040333e+00
99       1.5050000000e-06    1.8212858745e+00    2.9852784435e-02    1.9095836024e-14    2.0645127011e+01    3.6982764193e+00
100      1.5050742254e-06    1.8371483263e+00    1.4585106559e-02    0.0000000000e+00    2.0644305758e+01    3.6983410270e+00
101      1.5051484508e-06    1.8443718611e+00    7.0417777413e-03    0.0000000000e+00    2.0643460980e+01    3.6983773754e+00
102      1.5052226762e-06    1.8489783524e+00    2.1122862107e-03    0.0000000000e+00    2.0642608419e+01    3.6984049374e+00
103      1.5053711269e-06    1.8509780703e+00   -8.0012760556e-05    0.0000000000e+00    2.0640880826e+01    3.6984349686e+00
104      1.5056680285e-06    1.8508972435e+00    3.8902104683e-05    0.0000000000e+00    2.0637413281e+01    3.6984806491e+00
105      1.5059649300e-06    1.8509342542e+00   -8.6570951510e-06    0.0000000000e+00    2.0633947430e+01    3.6985267351e+00
106      1.5059649300e-06    1.8509335843e+00    1.9687324571e-03    0.0000000000e+00    2.0633947430e+01    3.6985267351e+00
107      1.5059649300e-06    1.8509326133e+00    2.0258126976e-03    0.0000000000e+00    2.0633947429e+01    3.6985267351e+00
108      1.5059649300e-06    1.8509322094e+00    2.0417520891e-03    0.0000000000e+00    2.0633947429e+01    3.6985267351e+00
109      1.5059649300e-06    1.8509319289e+00    2.0482786770e-03    0.0000000000e+00    2.0633947429e+01    3.6985267351e+00
110      1.5059649300e-06    1.8509314984e+00    2.0523267632e-03    0.0000000000e+00    2.0633947429e+01    3.6985267351e+00
111      1.5059649300e-06    1.8509308031e+00    2.0525563004e-03    0.0000000000e+00    2.0633947429e+01    3.6985267351e+00
112      1.5059649300e-06    1.8509296611e+00    2.0518885653e-03    0.0000000000e+00    2.0633947429e+01    3.6985267351e+00
113      1.5059649300e-06    1.8509280694e+00    2.0512834346e-03    0.0000000000e+00    2.0633947429e+01    3.6985267351e+00
114      1.5059649301e-06    1.8509265017e+00    2.0504978727e-03    0.0000000000e+00    2.0633947429e+01    3.6985267351e+00
115      1.5059649301e-06    1.8509257354e+00    2.0501902396e-03    0.0000000000e+00    2.0633947428e+01    3.6985267351e+00
116      1.5059649302e-06    1.8509257249e+00    2.0500306614e-03    0.0000000000e+00    2.0633947427e+01    3.6985267351e+00
117      1.5059649305e-06    1.8509256730e+00    2.0498970340e-03    0.0000000000e+00    2.0633947424e+01    3.6985267351e+00
118      1.5059649309e-06    1.8509255845e+00    2.0494423313e-03    0.0000000000e+00    2.0633947419e+01    3.6985267352e+00
119      1.5059649318e-06    1.8509253958e+00    2.0487206145e-03    0.0000000000e+00    2.0633947408e+01    3.6985267354e+00
120      1.5059649337e-06    1.8509250276e+00    2.0470934845e-03    0.0000000000e+00    2.0633947386e+01    3.6985267357e+00
121      1.5059649374e-06    1.8509242787e+00    2.0440365718e-03    0.0000000000e+00    2.0633947343e+01    3.6985267363e+00
122      1.5059649447e-06    1.8509227791e+00    2.0377817001e-03    0.0000000000e+00    2.0633947257e+01    3.6985267375e+00
123      1.5059649595e-06    1.8509197336e+00    2.0256397843e-03    0.0000000000e+00    2.0633947085e+01    3.6985267399e+00
124      1.5059649890e-06    1.8509135562e+00    2.0019065597e-03    0.0000000000e+00    2.0633946742e+01    3.6985267447e+00
125      1.5059650479e-06    1.8509010971e+00    1.9575665890e-03    0.0000000000e+00    2.0633946054e+01    3.6985267545e+00
126      1.5059651658e-06    1.8508769540e+00    1.8797859224e-03    0.0000000000e+00    2.0633944682e+01    3.6985267740e+00
127      1.5059654017e-06    1.8508339048e+00    1.7607793191e-03    0.0000000000e+00    2.0633941941e+01    3.6985268137e+00
128      1.5059658734e-06    1.8507647875e+00    1.6151206892e-03    0.0000000000e+00    2.0633936469e+01    3.6985268945e+00
129      1.5059668167e-06    1.8506618686e+00    1.4810499354e-03    0.0000000000e+00    2.0633925542e+01    3.6985270607e+00
130      1.5059687034e-06    1.8505237022e+00    1.3595861696e-03    0.0000000000e+00    2.0633903685e+01    3.6985274056e+00
131      1.5059724768e-06    1.8503997822e+00    1.2069261703e-03    0.0000000000e+00    2.0633859925e+01    3.6985281223e+00
132      1.5059800237e-06    1.8504052930e+00    1.0344768288e-03    0.0000000000e+00    2.0633772306e+01    3.6985295811e+00
133      1.5059951173e-06    1.8505856157e+00    8.2661496341e-04    0.0000000000e+00    2.0633596914e+01    3.6985324295e+00
134      1.5060253047e-06    1.8508612270e+00    5.2780631367e-04    0.0000000000e+00    2.0633245803e+01    3.6985377771e+00
135      1.5060856794e-06    1.8511542725e+00    2.0427312102e-04    0.0000000000e+00    2.0632542803e+01    3.6985476012e+00
136      1.5062064287e-06    1.8513301038e+00    1.2513482077e-05    0.0000000000e+00    2.0631135597e+01    3.6985658134e+00
137      1.5064479275e-06    1.8513432551e+00   -3.4060510657e-06    0.0000000000e+00    2.0628320667e+01    3.6986010754e+00
138      1.5069309249e-06    1.8513391466e+00    1.8740707457e-06    0.0000000000e+00    2.0622692967e+01    3.6986714606e+00
139      1.5078969199e-06    1.8513403238e+00   -1.3741710332e-06    0.0000000000e+00    2.0611446696e+01    3.6988121893e+00
140      1.5098289098e-06    1.8513375116e+00    1.1917615635e-06    0.0000000000e+00    2.0588990422e+01    3.6990932738e+00
141      1.5136928896e-06    1.8513356155e+00   -1.0908298889e-06    0.0000000000e+00    2.0544222691e+01    3.6996540957e+00
142      1.5214208491e-06    1.8513287632e+00    1.0622483434e-06    0.0000000000e+00    2.0455263272e+01    3.7007702496e+00
143      1.5368767682e-06    1.8513180681e+00   -1.0289580482e-06    0.0000000000e+00    2.0279624097e+01    3.7029808502e+00
144      1.5677886064e-06    1.8512946958e+00    1.0318337674e-06    0.0000000000e+00    1.9937271051e+01    3.7073162582e+00
145      1.6296122828e-06    1.8512532722e+00   -1.0142503688e-06    0.0000000000e+00    1.9286778474e+01    3.7156530448e+00
146      1.7532596355e-06    1.8511774722e+00    1.0237923565e-06    0.0000000000e+00    1.8111609934e+01    3.7310613210e+00
147      1.8769069883e-06    1.8511145956e+00   -1.0101968524e-06    0.0000000000e+00    1.7087963410e+01    3.7448931919e+00
148      2.0005543411e-06    1.8510593673e+00    1.0179294571e-06    0.0000000000e+00    1.6196291303e+01    3.7572906853e+00
149      2.1242016938e-06    1.8510137390e+00   -1.0062086469e-06    0.0000000000e+00    1.5419570410e+01    3.7683874518e+00
150      2.2478490466e-06    1.8509730397e+00    1.0121231501e-06    0.0000000000e+00    1.4742975264e+01    3.7783080418e+00
151      2.3714963994e-06    1.8509396772e+00   -1.0021690844e-06    0.0000000000e+00    1.4153593990e+01    3.7871677048e+00
152      2.4951437521e-06    1.8509093845e+00    1.0064458800e-06    0.0000000000e+00    1.3640180895e+01    3.7950723831e+00
153      2.6187911049e-06    1.8508848588e+00   -9.9803393984e-07    0.0000000000e+00    1.3192941253e+01    3.8021190382e+00
154      2.7424384576e-06    1.8508621116e+00    1.0009187163e-06    0.0000000000e+00    1.2803343823e+01    3.8083959800e+00
155      2.8660858104e-06    1.8508440234e+00   -9.9379544900e-07    0.0000000000e+00    1.2463957773e+01    3.8139834282e+00
156      2.9897331632e-06    1.8508268040e+00    9.9553790649e-07    0.0000000000e+00    1.2168310553e+01    3.8189539655e+00
