Index        TIME               V(VOUT)              V(IN)               V(1)           N(M:XINV1:N1_T)     N(M:XINV1:P1_T)  
0        0.0000000000e+00    4.2658905925e-10    1.9999999920e+00    2.0000000000e+00    3.7983564148e-17    9.3735152108e-36
1        5.0000000000e-13    5.6774190180e-04    2.0020273966e+00    2.0000000000e+00    3.7370275835e-11    2.1849830601e-27
2        1.5000000000e-12    1.8537148500e-03    2.0091767010e+00    2.0000000000e+00    8.3454953374e-10    3.3894348994e-26
3        2.4000000000e-12    3.0320019818e-03    2.0169863175e+00    2.0000000000e+00    2.7556822220e-09    9.5796010897e-26
4        3.3000000000e-12    4.2012631342e-03    2.0252730491e+00    2.0000000000e+00    5.5624789283e-09    1.7808341414e-25
5        5.1000000000e-12    6.3816267830e-03    2.0432024298e+00    2.0000000000e+00    1.7797953860e-08    5.2283976369e-25
6        8.7000000000e-12    9.7845472816e-03    2.0783356053e+00    2.0000000000e+00    7.5306211563e-08    3.1889874020e-24
7        1.2300000000e-11    1.1991354685e-02    2.1101163364e+00    2.0000000000e+00    1.7684423465e-07    1.4279111322e-23
8        1.5900000000e-11    1.3301306759e-02    2.1385461138e+00    2.0000000000e+00    3.1365263516e-07    5.8784501696e-23
9        2.3100000000e-11    1.4245830821e-02    2.1871300111e+00    2.0000000000e+00    6.4084259883e-07    1.3052446945e-21
10       3.0300000000e-11    1.3823329440e-02    2.2260589337e+00    2.0000000000e+00    9.8399158461e-07    2.3921841865e-20
11       3.7500000000e-11    1.2656654919e-02    2.2550266567e+00    2.0000000000e+00    1.2928764983e-06    5.1288025240e-19
12       4.4700000000e-11    1.1212123058e-02    2.2751398814e+00    2.0000000000e+00    1.5462491997e-06    1.2366480398e-17
13       5.1900000000e-11    9.7312764017e-03    2.2876092451e+00    2.0000000000e+00    1.7427330798e-06    3.4412954453e-16
14       5.9100000000e-11    8.1716366829e-03    2.2912244620e+00    2.0000000000e+00    1.8872407829e-06    1.1246345650e-14
15       6.6300000000e-11    6.5411696147e-03    2.2851948223e+00    2.0000000000e+00    1.9854670118e-06    4.3920742769e-13
16       7.3500000000e-11    4.9777170753e-03    2.2706617557e+00    2.0000000000e+00    2.0460174889e-06    1.9486291042e-11
17       8.0700000000e-11    3.7602513511e-03    2.2516500148e+00    2.0000000000e+00    2.0808102897e-06    8.9102596479e-10
18       9.5100000000e-11    9.2925448313e-03    2.2213274185e+00    2.0000000000e+00    2.2579460905e-06    2.1943677905e-06
19       1.0000000000e-10    2.8558081647e-02    2.2272528544e+00    2.0000000000e+00    2.7873046563e-06    7.5961228685e-06
20       1.0089564034e-10    3.4078782328e-02    2.2233748207e+00    2.0000000000e+00    3.0341023512e-06    9.4287399264e-06
21       1.0170171664e-10    3.9177729534e-02    2.2189387845e+00    2.0000000000e+00    3.3255370698e-06    1.1163213700e-05
22       1.0250779295e-10    4.4334350072e-02    2.2143475240e+00    2.0000000000e+00    3.6564820883e-06    1.2937820809e-05
23       1.0411994556e-10    5.4901220394e-02    2.2052944243e+00    2.0000000000e+00    4.5865422378e-06    1.6709765337e-05
24       1.0734425078e-10    7.6593064865e-02    2.1890801203e+00    2.0000000000e+00    7.8195467550e-06    2.5039260960e-05
25       1.1056855600e-10    9.8556967403e-02    2.1748258425e+00    2.0000000000e+00    1.3331214232e-05    3.4279619718e-05
26       1.1701716644e-10    1.4152136708e-01    2.1506919452e+00    2.0000000000e+00    3.3376491879e-05    5.4800063234e-05
27       1.2991438733e-10    2.1899187954e-01    2.1140414409e+00    2.0000000000e+00    1.1751752545e-04    1.0095838525e-04
28       1.4281160821e-10    2.8298018865e-01    2.0876808752e+00    2.0000000000e+00    2.6441277836e-04    1.5086419418e-04
29       1.5570882909e-10    3.3439977183e-01    2.0678870718e+00    2.0000000000e+00    4.7120708116e-04    2.0223801946e-04
30       1.6860604998e-10    3.7556243281e-01    2.0528322094e+00    2.0000000000e+00    7.3038193293e-04    2.5407199507e-04
31       1.8150327086e-10    4.0836363929e-01    2.0412447429e+00    2.0000000000e+00    1.0335902687e-03    3.0587591372e-04
32       1.9440049174e-10    4.3443904219e-01    2.0322768722e+00    2.0000000000e+00    1.3729800624e-03    3.5744010906e-04
33       2.0729771263e-10    4.4844675247e-01    2.0240194251e+00    2.0000000000e+00    1.7371590261e-03    4.0948933239e-04
34       2.2019493351e-10    4.4994252836e-01    2.0157940315e+00    2.0000000000e+00    2.1101832577e-03    4.6402979336e-04
35       2.3309215439e-10    4.4971534240e-01    2.0099421318e+00    2.0000000000e+00    2.4828604802e-03    5.2199257102e-04
36       2.4598937528e-10    4.5019047225e-01    2.0064886939e+00    2.0000000000e+00    2.8549117971e-03    5.8236437472e-04
37       2.5888659616e-10    4.5012725203e-01    2.0041092096e+00    2.0000000000e+00    3.2267360758e-03    6.4422961122e-04
38       2.7178381704e-10    4.5027746959e-01    2.0026633878e+00    2.0000000000e+00    3.5982886435e-03    7.0711328109e-04
39       2.9757825881e-10    4.5028839356e-01    2.0010323397e+00    2.0000000000e+00    4.3410676359e-03    8.3450043990e-04
40       3.2337270057e-10    4.5035029667e-01    2.0004122274e+00    2.0000000000e+00    5.0835385551e-03    9.6309034591e-04
41       3.7496158411e-10    4.5033549307e-01    2.0000237663e+00    2.0000000000e+00    6.5681947138e-03    1.2213350646e-03
42       4.7813935117e-10    4.5036275450e-01    1.9999956566e+00    2.0000000000e+00    9.5370203442e-03    1.7386792747e-03
43       6.8449488530e-10    4.5033932945e-01    2.0000011314e+00    2.0000000000e+00    1.5473601725e-02    2.7732817571e-03
44       8.9085041944e-10    4.5036332309e-01    2.0000003954e+00    2.0000000000e+00    2.1408757116e-02    3.8076277029e-03
45       1.3035614877e-09    4.5034284673e-01    1.9999990216e+00    2.0000000000e+00    3.3274821830e-02    5.8756179045e-03
46       2.1289836242e-09    4.5036832023e-01    2.0000010611e+00    2.0000000000e+00    5.6989910436e-02    1.0008727654e-02
47       3.7798278973e-09    4.5035384090e-01    1.9999987634e+00    2.0000000000e+00    1.0435205739e-01    1.8263513388e-02
48       7.0815164434e-09    4.5038981561e-01    2.0000011788e+00    2.0000000000e+00    1.9880478959e-01    3.4727428426e-02
49       1.3684893536e-08    4.5039687657e-01    1.9999987097e+00    2.0000000000e+00    3.8662922032e-01    6.7473492609e-02
50       2.6891647720e-08    4.5047498959e-01    2.0000012066e+00    2.0000000000e+00    7.5799502435e-01    1.3224520073e-01
51       4.0098401904e-08    4.5050840486e-01    1.9999986803e+00    2.0000000000e+00    1.1237177787e+00    1.9606704633e-01
52       5.3305156089e-08    4.5058347695e-01    2.0000012125e+00    2.0000000000e+00    1.4838877413e+00    2.5895316723e-01
53       7.9718664458e-08    4.5066774680e-01    1.9999986822e+00    2.0000000000e+00    2.1879445993e+00    3.8197942256e-01
54       1.0613217283e-07    4.5079049711e-01    2.0000012109e+00    2.0000000000e+00    2.8707867034e+00    5.0142452098e-01
55       1.3254568120e-07    4.5086580733e-01    1.9999986642e+00    2.0000000000e+00    3.5330715017e+00    6.1739355941e-01
56       1.5895918956e-07    4.5098002783e-01    2.0000012105e+00    2.0000000000e+00    4.1754355928e+00    7.2998851560e-01
57       1.8537269793e-07    4.5104703775e-01    1.9999986472e+00    2.0000000000e+00    4.7984954052e+00    8.3930837347e-01
58       2.1178620630e-07    4.5115337035e-01    2.0000012112e+00    2.0000000000e+00    5.4028477357e+00    9.4544917445e-01
59       2.3819971467e-07    4.5121273260e-01    1.9999986315e+00    2.0000000000e+00    5.9890703717e+00    1.0485041342e+00
60       2.6461322304e-07    4.5131181501e-01    2.0000012131e+00    2.0000000000e+00    6.5577226058e+00    1.1485636924e+00
61       2.9102673141e-07    4.5136417352e-01    1.9999986171e+00    2.0000000000e+00    7.1093458357e+00    1.2457156225e+00
62       3.4385374815e-07    4.5153636533e-01    2.0000012708e+00    2.0000000000e+00    8.1636766764e+00    1.4316667156e+00
63       3.9668076488e-07    4.5165376807e-01    1.9999986087e+00    2.0000000000e+00    9.1556377736e+00    1.6069574775e+00
64       4.4950778162e-07    4.5180472218e-01    2.0000012720e+00    2.0000000000e+00    1.0088975525e+01    1.7722017142e+00
65       5.0233479836e-07    4.5190228235e-01    1.9999986021e+00    2.0000000000e+00    1.0967207188e+01    1.9279777441e+00
66       5.5516181510e-07    4.5203500963e-01    2.0000012747e+00    2.0000000000e+00    1.1793634921e+01    2.0748303895e+00
67       6.0798883183e-07    4.5211560145e-01    1.9999985970e+00    2.0000000000e+00    1.2571358839e+01    2.2132729589e+00
68       6.6081584857e-07    4.5223280400e-01    2.0000012790e+00    2.0000000000e+00    1.3303289280e+01    2.3437890140e+00
69       7.1364286531e-07    4.5229900757e-01    1.9999985934e+00    2.0000000000e+00    1.3992158394e+01    2.4668341333e+00
70       7.6646988205e-07    4.5240310587e-01    2.0000012849e+00    2.0000000000e+00    1.4640530962e+01    2.5828374839e+00
71       8.7212391552e-07    4.5254526276e-01    1.9999986355e+00    2.0000000000e+00    1.5825895204e+01    2.7954666745e+00
72       9.7777794900e-07    4.5271036838e-01    2.0000012892e+00    2.0000000000e+00    1.6875349208e+01    2.9844091448e+00
73       1.0834319825e-06    4.5281296923e-01    1.9999986362e+00    2.0000000000e+00    1.7804591131e+01    3.1523094059e+00
74       1.1890860159e-06    4.5294394802e-01    2.0000012947e+00    2.0000000000e+00    1.8627486603e+01    3.3015157596e+00
75       1.2947400494e-06    4.5301691550e-01    1.9999986377e+00    2.0000000000e+00    1.9356283388e+01    3.4341135732e+00
76       1.4003940829e-06    4.5312248742e-01    2.0000013011e+00    2.0000000000e+00    2.0001800501e+01    3.5519546497e+00
77       1.5000000000e-06    4.5316881342e-01    1.9999986378e+00    2.0000000000e+00    2.0542648113e+01    3.6510046295e+00
78       1.5002224182e-06    4.5229663071e-01    1.9212354741e+00    1.9110327342e+00    2.0543542018e+01    3.6520384755e+00
79       1.5004163148e-06    4.4803601954e-01    1.8447902438e+00    1.8334740764e+00    2.0544047902e+01    3.6537901840e+00
80       1.5006102115e-06    4.4390066401e-01    1.7674845109e+00    1.7559154186e+00    2.0544417295e+01    3.6560156957e+00
81       1.5009980047e-06    4.6139647096e-01    1.6130236269e+00    1.6007981031e+00    2.0544716974e+01    3.6632543160e+00
82       1.5013857980e-06    6.5441125206e-01    1.4627491398e+00    1.4456807875e+00    2.0546670748e+01    3.6726358253e+00
83       1.5017735913e-06    1.0532709446e+00    1.3080338890e+00    1.2905634720e+00    2.0554303749e+01    3.6807846764e+00
84       1.5021613846e-06    1.4698617405e+00    1.1525985354e+00    1.1354461564e+00    2.0569763131e+01    3.6856087806e+00
85       1.5025491779e-06    1.7348110339e+00    9.9652681249e-01    9.8032884089e-01    2.0590812513e+01    3.6874283575e+00
86       1.5029369712e-06    1.7961876744e+00    8.3735244310e-01    8.2521152535e-01    2.0611917742e+01    3.6877893399e+00
87       1.5033247645e-06    1.7860622455e+00    6.8180692611e-01    6.7009420980e-01    2.0628947301e+01    3.6881240589e+00
88       1.5037125578e-06    1.7534261521e+00    5.2579967492e-01    5.1497689425e-01    2.0640775255e+01    3.6891409184e+00
89       1.5044881443e-06    1.6715832727e+00    2.1577277769e-01    2.0474226316e-01    2.0648992215e+01    3.6950173612e+00
90       1.5050000000e-06    1.8294396802e+00    2.0145794587e-02    1.9095836024e-14    2.0645597324e+01    3.6982485884e+00
91       1.5050775587e-06    1.8434660348e+00    7.4444753416e-03    0.0000000000e+00    2.0644714684e+01    3.6982903031e+00
92       1.5051551173e-06    1.8482367650e+00    2.7107143151e-03    0.0000000000e+00    2.0643817199e+01    3.6983128766e+00
93       1.5052326760e-06    1.8507335813e+00    1.8421821410e-04    0.0000000000e+00    2.0642915720e+01    3.6983305297e+00
