Index       TIME             V(GATE)           V(OUT)      
0        0.00000000e+00    0.00000000e+00    1.49999995e+00
1        5.00000000e-13    0.00000000e+00    1.49999995e+00
2        1.50000000e-12    0.00000000e+00    1.49999995e+00
3        3.50000000e-12    0.00000000e+00    1.49999995e+00
4        7.50000000e-12    0.00000000e+00    1.49999995e+00
5        1.55000000e-11    0.00000000e+00    1.49999995e+00
6        2.55000000e-11    0.00000000e+00    1.49999995e+00
7        3.55000000e-11    0.00000000e+00    1.49999995e+00
8        4.55000000e-11    0.00000000e+00    1.49999995e+00
9        5.55000000e-11    0.00000000e+00    1.49999995e+00
10       6.55000000e-11    0.00000000e+00    1.49999995e+00
11       7.55000000e-11    0.00000000e+00    1.49999995e+00
12       8.55000000e-11    0.00000000e+00    1.49999995e+00
13       9.55000000e-11    0.00000000e+00    1.49999995e+00
14       1.00000000e-10    0.00000000e+00    1.49999995e+00
15       1.00329260e-10    9.87780385e-03    1.50452011e+00
16       1.00594090e-10    1.78226969e-02    1.50805837e+00
17       1.00858920e-10    2.57675899e-02    1.51155266e+00
18       1.01388579e-10    4.16573759e-02    1.51826439e+00
19       1.02447898e-10    7.34369480e-02    1.53067682e+00
20       1.04566536e-10    1.36996092e-01    1.55214380e+00
21       1.06685175e-10    2.00555236e-01    1.57008689e+00
22       1.08803813e-10    2.64114380e-01    1.58558223e+00
23       1.10922451e-10    3.27673525e-01    1.59941974e+00
24       1.13041089e-10    3.91232669e-01    1.61215498e+00
25       1.15159727e-10    4.54791813e-01    1.62423289e+00
26       1.17278365e-10    5.18350957e-01    1.63583825e+00
27       1.21515642e-10    6.45469245e-01    1.65791358e+00
28       1.25752918e-10    7.72587534e-01    1.68166451e+00
29       1.29566466e-10    8.86993993e-01    1.70279756e+00
30       1.33380015e-10    1.00140045e+00    1.71126103e+00
31       1.34238064e-10    1.02714191e+00    1.70549589e+00
32       1.35096112e-10    1.05288336e+00    1.68685397e+00
33       1.35190799e-10    1.05572398e+00    1.68270193e+00
34       1.35380174e-10    1.06140523e+00    1.67188710e+00
35       1.35569549e-10    1.06708648e+00    1.65636959e+00
36       1.35758924e-10    1.07276772e+00    1.63486367e+00
37       1.35948299e-10    1.07844897e+00    1.60793607e+00
38       1.36137674e-10    1.08413022e+00    1.57781544e+00
39       1.36516424e-10    1.09549271e+00    1.51402054e+00
40       1.36895174e-10    1.10685521e+00    1.44842842e+00
41       1.37652673e-10    1.12958019e+00    1.31345234e+00
42       1.39167672e-10    1.17503017e+00    1.02851376e+00
43       1.40682672e-10    1.22048015e+00    7.21753848e-01
44       1.41422710e-10    1.24268129e+00    5.80772406e-01
45       1.41697659e-10    1.25092977e+00    5.34594424e-01
46       1.41972608e-10    1.25917825e+00    4.93710234e-01
47       1.42247557e-10    1.26742672e+00    4.59408219e-01
48       1.42522507e-10    1.27567520e+00    4.31176524e-01
49       1.42797456e-10    1.28392368e+00    4.07908119e-01
50       1.43072405e-10    1.29217216e+00    3.88449911e-01
51       1.43622304e-10    1.30866911e+00    3.57433688e-01
52       1.44722101e-10    1.34166303e+00    3.13420268e-01
53       1.45821898e-10    1.37465694e+00    2.81877373e-01
54       1.46921695e-10    1.40765085e+00    2.57116926e-01
55       1.49121289e-10    1.47363868e+00    2.19390458e-01
56       1.50000000e-10    1.50000000e+00    2.07378060e-01
57       1.50219959e-10    1.50000000e+00    2.01466515e-01
58       1.50417923e-10    1.50000000e+00    1.96304583e-01
59       1.50813850e-10    1.50000000e+00    1.86299241e-01
60       1.51605704e-10    1.50000000e+00    1.67936645e-01
61       1.53189411e-10    1.50000000e+00    1.36760696e-01
62       1.54773119e-10    1.50000000e+00    1.11680706e-01
63       1.56356827e-10    1.50000000e+00    9.14066038e-02
64       1.59524243e-10    1.50000000e+00    6.13217590e-02
65       1.65859074e-10    1.50000000e+00    2.71265167e-02
66       1.72193905e-10    1.50000000e+00    1.21441318e-02
67       1.78528736e-10    1.50000000e+00    5.46615051e-03
68       1.91198398e-10    1.50000000e+00    7.64700337e-04
69       2.03868060e-10    1.50000000e+00    1.15060474e-04
70       2.29207385e-10    1.50000000e+00   -1.19717643e-05
71       2.54546709e-10    1.50000000e+00    1.36183306e-05
72       3.04546709e-10    1.50000000e+00    6.15556904e-06
73       3.50000000e-10    1.50000000e+00    8.92742714e-06
74       3.50312500e-10    1.49062500e+00   -4.56456523e-03
75       3.50937500e-10    1.47187500e+00   -1.30971339e-02
76       3.51562500e-10    1.45312500e+00   -2.13607789e-02
77       3.52812500e-10    1.41562500e+00   -3.63061987e-02
78       3.55312500e-10    1.34062500e+00   -6.11366797e-02
79       3.57812500e-10    1.26562500e+00   -8.09091421e-02
80       3.60312500e-10    1.19062500e+00   -9.74577212e-02
81       3.65312500e-10    1.04062500e+00   -1.26579292e-01
82       3.70312500e-10    8.90625000e-01   -1.57006654e-01
83       3.75312500e-10    7.40625000e-01   -1.96413202e-01
84       3.79674062e-10    6.09778146e-01   -2.29260624e-01
85       3.80223879e-10    5.93283636e-01   -2.31429684e-01
86       3.80773696e-10    5.76789126e-01   -2.33263037e-01
87       3.81873330e-10    5.43800106e-01   -2.34449540e-01
88       3.82972964e-10    5.10811086e-01   -2.31859643e-01
89       3.84072598e-10    4.77822065e-01   -2.24722056e-01
90       3.85172232e-10    4.44833045e-01   -2.11652692e-01
91       3.86271866e-10    4.11844025e-01   -1.88566781e-01
92       3.86414589e-10    4.07562319e-01   -1.84115490e-01
93       3.86700036e-10    3.98998908e-01   -1.73495537e-01
94       3.86985483e-10    3.90435497e-01   -1.58895308e-01
95       3.87270930e-10    3.81872086e-01   -1.36750863e-01
96       3.87556378e-10    3.73308674e-01   -1.01447003e-01
97       3.87813280e-10    3.65601604e-01   -5.83432721e-02
98       3.88070182e-10    3.57894534e-01   -1.00692387e-02
99       3.88583987e-10    3.42480394e-01    9.27241125e-02
100      3.89097792e-10    3.27066254e-01    2.01649962e-01
101      3.89611596e-10    3.11652114e-01    3.16492208e-01
102      3.90125401e-10    2.96237973e-01    4.37940449e-01
103      3.90639206e-10    2.80823833e-01    5.66595383e-01
104      3.91153010e-10    2.65409693e-01    7.01443030e-01
105      3.91666815e-10    2.49995553e-01    8.38314796e-01
106      3.92180620e-10    2.34581412e-01    9.65096438e-01
107      3.92257206e-10    2.32283814e-01    9.81811808e-01
108      3.92333793e-10    2.29986215e-01    9.97759625e-01
109      3.92486966e-10    2.25391017e-01    1.02695555e+00
110      3.92640139e-10    2.20795820e-01    1.05241727e+00
111      3.92793313e-10    2.16200622e-01    1.07428109e+00
112      3.92946486e-10    2.11605424e-01    1.09294097e+00
113      3.93099659e-10    2.07010227e-01    1.10889879e+00
114      3.93406006e-10    1.97819831e-01    1.13462720e+00
115      3.93712352e-10    1.88629436e-01    1.15454336e+00
116      3.94018699e-10    1.79439041e-01    1.17062096e+00
117      3.94631392e-10    1.61058250e-01    1.19562444e+00
118      3.95856778e-10    1.24296669e-01    1.23051429e+00
119      3.97082164e-10    8.75350885e-02    1.25540402e+00
120      3.98307550e-10    5.07735075e-02    1.27498835e+00
121      4.00000000e-10    6.66133815e-16    1.29672532e+00
122      4.00162191e-10    0.00000000e+00    1.30105208e+00
123      4.00306810e-10    0.00000000e+00    1.30481400e+00
124      4.00451429e-10    0.00000000e+00    1.30851853e+00
125      4.00740668e-10    0.00000000e+00    1.31566541e+00
126      4.01319145e-10    0.00000000e+00    1.32899552e+00
127      4.02476099e-10    0.00000000e+00    1.35235525e+00
128      4.03633053e-10    0.00000000e+00    1.37206347e+00
129      4.04790007e-10    0.00000000e+00    1.38883569e+00
130      4.05946961e-10    0.00000000e+00    1.40320101e+00
131      4.08260869e-10    0.00000000e+00    1.42633855e+00
132      4.10574778e-10    0.00000000e+00    1.44367656e+00
133      4.12888686e-10    0.00000000e+00    1.45678951e+00
134      4.15202594e-10    0.00000000e+00    1.46676988e+00
135      4.17516502e-10    0.00000000e+00    1.47440006e+00
136      4.22144319e-10    0.00000000e+00    1.48488889e+00
137      4.31399952e-10    0.00000000e+00    1.49511472e+00
138      4.40655584e-10    0.00000000e+00    1.49841062e+00
139      4.49911217e-10    0.00000000e+00    1.49948170e+00
140      4.59166850e-10    0.00000000e+00    1.49983069e+00
141      4.77678116e-10    0.00000000e+00    1.50000095e+00
142      4.96189382e-10    0.00000000e+00    1.49999956e+00
143      5.33211913e-10    0.00000000e+00    1.49999960e+00
144      5.83211913e-10    0.00000000e+00    1.49999958e+00
145      6.00000000e-10    0.00000000e+00    1.49999959e+00
End of Xyce(TM) Simulation
