Index       TIME            V(OUT25)          V(OUT50)     
0        0.00000000e+00   -4.00602855e-33   -6.40834544e-03
1        5.00000000e-13    3.49997399e-04   -6.09434900e-03
2        1.50000000e-12    1.05003957e-03   -5.46957741e-03
3        3.50000000e-12    2.45031310e-03   -4.22566903e-03
4        7.50000000e-12    5.25161431e-03   -1.76547468e-03
5        1.55000000e-11    1.08572132e-02    3.09019274e-03
6        2.55000000e-11    1.78697716e-02    9.10522787e-03
7        3.55000000e-11    2.48884271e-02    1.51057571e-02
8        4.55000000e-11    3.19130971e-02    2.11089767e-02
9        5.55000000e-11    3.89437029e-02    2.71193419e-02
10       6.55000000e-11    4.59801707e-02    3.31376660e-02
11       7.55000000e-11    5.30222895e-02    3.91641505e-02
12       8.55000000e-11    6.00697054e-02    4.51989709e-02
13       9.55000000e-11    6.71224448e-02    5.12422026e-02
14       1.00000000e-10    7.02979009e-02    5.39644326e-02
15       1.01000000e-10    7.10037024e-02    5.46284481e-02
16       1.02000000e-10    7.17095563e-02    5.52930214e-02
17       1.04000000e-10    7.31214214e-02    5.66232580e-02
18       1.08000000e-10    7.59457793e-02    5.92888040e-02
19       1.16000000e-10    8.15969967e-02    6.46334208e-02
20       1.32000000e-10    9.29093756e-02    7.53523867e-02
21       1.64000000e-10    1.15573584e-01    9.68611588e-02
22       2.28000000e-10    1.61060980e-01    1.40203459e-01
23       3.56000000e-10    2.52885805e-01    2.31405588e-01
24       3.71092648e-10    2.63830353e-01    2.42974163e-01
25       3.86185296e-10    2.74814697e-01    2.54711359e-01
26       4.16370593e-10    2.97000747e-01    2.78663814e-01
27       4.46555889e-10    3.19649250e-01    3.03393161e-01
28       4.76741186e-10    3.43096240e-01    3.29217736e-01
29       5.03907952e-10    3.65259998e-01    3.53736555e-01
30       5.31074719e-10    3.88780170e-01    3.79773604e-01
31       5.55524809e-10    4.11205435e-01    4.04551216e-01
32       5.77529890e-10    4.32226848e-01    4.27811947e-01
33       5.99534971e-10    4.53641060e-01    4.51686002e-01
34       6.19339544e-10    4.72860378e-01    4.73337335e-01
35       6.37163660e-10    4.89891605e-01    4.92655222e-01
36       6.54987776e-10    5.06594128e-01    5.11571177e-01
37       6.70658881e-10    5.21022996e-01    5.27748191e-01
38       6.84762876e-10    5.33831389e-01    5.41904682e-01
39       6.97456471e-10    5.45232560e-01    5.54320428e-01
40       7.08880707e-10    5.55398719e-01    5.65244109e-01
41       7.20304943e-10    5.65477781e-01    5.75946603e-01
42       7.30586756e-10    5.74476752e-01    5.85405189e-01
43       7.40868568e-10    5.83409950e-01    5.94714408e-01
44       7.51150380e-10    5.92282450e-01    6.03890627e-01
45       7.60404011e-10    6.00222123e-01    6.12050171e-01
46       7.69657642e-10    6.08126768e-01    6.20130781e-01
47       7.77985910e-10    6.15218634e-01    6.27348138e-01
48       7.86314178e-10    6.22297601e-01    6.34525296e-01
49       7.94642446e-10    6.29371837e-01    6.41673804e-01
50       8.02137888e-10    6.35741205e-01    6.48092221e-01
51       8.09633329e-10    6.42119112e-01    6.54504744e-01
52       8.17128770e-10    6.48510794e-01    6.60918946e-01
53       8.23874667e-10    6.54278834e-01    6.66698859e-01
54       8.30620564e-10    6.60064580e-01    6.72490453e-01
55       8.37366461e-10    6.65869431e-01    6.78297798e-01
56       8.44112358e-10    6.71689580e-01    6.84124396e-01
57       8.50858255e-10    6.77498582e-01    6.89973161e-01
58       8.57604152e-10    6.83180033e-01    6.95846427e-01
59       8.64350049e-10    6.88308897e-01    7.01745970e-01
60       8.70421357e-10    6.91469549e-01    7.07079060e-01
61       8.76492664e-10    6.90950164e-01    7.12435061e-01
62       8.82563972e-10    6.82360915e-01    7.17814290e-01
63       8.88028148e-10    6.62374453e-01    7.22675522e-01
64       8.93492325e-10    6.20732150e-01    7.27555552e-01
65       8.98956501e-10    5.50048461e-01    7.32454181e-01
66       9.04420678e-10    4.65141339e-01    7.37371115e-01
67       9.09884855e-10    3.85474851e-01    7.42305978e-01
68       9.15349031e-10    3.23236880e-01    7.47258334e-01
69       9.20813208e-10    2.72525743e-01    7.52227695e-01
70       9.26277385e-10    2.29023173e-01    7.57213532e-01
71       9.31741561e-10    1.92002081e-01    7.62215293e-01
72       9.36659320e-10    1.63686731e-01    7.66730024e-01
73       9.41577079e-10    1.39667148e-01    7.71256761e-01
74       9.46494838e-10    1.19496043e-01    7.75795075e-01
75       9.51412597e-10    1.02674077e-01    7.80344538e-01
76       9.56330356e-10    8.87122217e-02    7.84904723e-01
77       9.61248115e-10    7.71601666e-02    7.89475213e-01
78       9.66165874e-10    6.76186732e-02    7.94055596e-01
79       9.71083633e-10    5.97454354e-02    7.98645473e-01
80       9.76001392e-10    5.32521027e-02    8.03244461e-01
81       9.80919151e-10    4.78982106e-02    8.07852208e-01
82       9.85836910e-10    4.34843314e-02    8.12468447e-01
83       9.90754669e-10    3.98453900e-02    8.17093186e-01
84       9.95672428e-10    3.68448360e-02    8.21727339e-01
85       1.00000000e-09    3.46437003e-02    8.25815760e-01
86       1.00049178e-09    3.39713416e-02    8.25799449e-01
87       1.00098355e-09    3.33099417e-02    8.25784620e-01
88       1.00196710e-09    3.20091122e-02    8.25757824e-01
89       1.00393421e-09    2.95375289e-02    8.25720377e-01
90       1.00786841e-09    2.50948421e-02    8.25706048e-01
91       1.01180262e-09    2.12762987e-02    8.25781308e-01
92       1.01573683e-09    1.80151536e-02    8.25992680e-01
93       1.01967104e-09    1.52410485e-02    8.26461318e-01
94       1.02360524e-09    1.28870980e-02    8.27447202e-01
95       1.02753945e-09    1.08928125e-02    8.29462983e-01
96       1.03147366e-09    9.20494753e-03    8.33454371e-01
97       1.03540786e-09    7.77736264e-03    8.41041947e-01
98       1.03934207e-09    6.57044643e-03    8.54755568e-01
99       1.04327628e-09    5.55038760e-03    8.78114963e-01
100      1.04721049e-09    4.68842938e-03    9.15681019e-01
101      1.05114469e-09    3.96016977e-03    9.74483376e-01
102      1.05507890e-09    3.34493259e-03    1.07193168e+00
103      1.05901311e-09    2.82521560e-03    1.20393614e+00
104      1.06294731e-09    2.38621278e-03    1.29088876e+00
105      1.06688152e-09    2.01540453e-03    1.34220219e+00
106      1.07081573e-09    1.70220778e-03    1.37741555e+00
107      1.07868414e-09    1.21129828e-03    1.42222004e+00
108      1.08655256e-09    8.61975971e-04    1.44723262e+00
109      1.09442097e-09    6.13419181e-04    1.46318426e+00
110      1.10228939e-09    4.36567553e-04    1.47415509e+00
111      1.11015780e-09    3.10738119e-04    1.48161580e+00
112      1.12589463e-09    1.54260380e-04    1.49039279e+00
113      1.14163146e-09    7.66933135e-05    1.49465664e+00
114      1.15736829e-09    3.82435814e-05    1.49693638e+00
115      1.18884194e-09    7.80068152e-06    1.49903373e+00
116      1.22031560e-09    1.87906965e-06    1.49965831e+00
117      1.28326292e-09    2.36482511e-07    1.49996797e+00
118      1.34621023e-09    4.80168831e-07    1.49998371e+00
119      1.40915755e-09    4.43984749e-07    1.50000066e+00
120      1.47210486e-09    4.49335225e-07    1.50002718e+00
121      1.53505218e-09    4.48522479e-07    1.50001292e+00
122      1.59799949e-09    4.48622389e-07    1.49998471e+00
123      1.66094680e-09    4.48589018e-07    1.49997950e+00
124      1.72389412e-09    4.48573450e-07    1.49997722e+00
125      1.84978875e-09    4.48539912e-07    1.49998440e+00
126      1.97568338e-09    4.48505154e-07    1.49998893e+00
127      2.10157801e-09    4.48471934e-07    1.49999631e+00
128      2.35336727e-09    4.48403287e-07    1.50000091e+00
129      2.60515653e-09    4.48336308e-07    1.50001135e+00
130      2.85694578e-09    4.48267998e-07    1.50000265e+00
131      2.88290126e-09    4.48261344e-07    1.50000195e+00
132      2.93481222e-09    4.48247520e-07    1.50000126e+00
133      2.98672318e-09    4.48233552e-07    1.50001038e+00
134      3.03863414e-09    4.48219703e-07    1.50002317e+00
135      3.09054510e-09    4.48205770e-07    1.50002276e+00
136      3.14245606e-09    4.48191913e-07    1.50001487e+00
137      3.16465857e-09    4.48185950e-07    1.50001560e+00
138      3.17223258e-09    4.48183924e-07    1.50001964e+00
139      3.17980658e-09    4.48181902e-07    1.50002672e+00
140      3.18738059e-09    4.48179880e-07    1.50002543e+00
141      3.19495459e-09    4.48177857e-07    1.50002082e+00
142      3.20252860e-09    4.48175834e-07    1.50002240e+00
143      3.21010260e-09    4.48173811e-07    1.50003702e+00
144      3.21767661e-09    4.48171787e-07    1.50005451e+00
145      3.22525062e-09    4.48169763e-07    1.50007466e+00
146      3.23282462e-09    4.48167739e-07    1.50008611e+00
147      3.24039863e-09    4.48165716e-07    1.50007889e+00
148      3.24720719e-09    4.48163897e-07    1.50006338e+00
149      3.25401575e-09    4.48162077e-07    1.50004228e+00
150      3.26082430e-09    4.48160258e-07    1.50002534e+00
151      3.26164078e-09    4.48160040e-07    1.50002485e+00
152      3.26245725e-09    4.48159822e-07    1.50002576e+00
153      3.26409019e-09    4.48159386e-07    1.50002822e+00
154      3.26572313e-09    4.48158950e-07    1.50002794e+00
155      3.26735607e-09    4.48158513e-07    1.50002467e+00
156      3.27062196e-09    4.48157641e-07    1.50001292e+00
157      3.27715372e-09    4.48155896e-07    1.49998627e+00
158      3.28272137e-09    4.48154409e-07    1.49996913e+00
159      3.28766431e-09    4.48153089e-07    1.49995792e+00
160      3.29260725e-09    4.48151768e-07    1.49995127e+00
161      3.29755020e-09    4.48150447e-07    1.49994751e+00
162      3.30199885e-09    4.48149259e-07    1.49994640e+00
163      3.30644749e-09    4.48148071e-07    1.49994642e+00
164      3.31045128e-09    4.48147002e-07    1.49994685e+00
165      3.31445506e-09    4.48145932e-07    1.49994703e+00
166      3.31845885e-09    4.48144862e-07    1.49994701e+00
167      3.32177597e-09    4.48143981e-07    1.49994624e+00
168      3.32509310e-09    4.48143094e-07    1.49994467e+00
169      3.32841022e-09    4.48142201e-07    1.49994339e+00
170      3.32932778e-09    4.48141957e-07    1.49994315e+00
171      3.33116290e-09    4.48141468e-07    1.49994283e+00
172      3.33299802e-09    4.48140979e-07    1.49994265e+00
173      3.33483314e-09    4.48140490e-07    1.49994255e+00
174      3.33850338e-09    4.48139513e-07    1.49994256e+00
175      3.34217362e-09    4.48138535e-07    1.49994283e+00
176      3.34584386e-09    4.48137553e-07    1.49994333e+00
177      3.34951410e-09    4.48136572e-07    1.49994398e+00
178      3.35318434e-09    4.48135581e-07    1.49994479e+00
179      3.35685458e-09    4.48134611e-07    1.49994575e+00
180      3.36052482e-09    4.48133635e-07    1.49994683e+00
181      3.36419506e-09    4.48132663e-07    1.49994802e+00
182      3.36786530e-09    4.48131668e-07    1.49994932e+00
183      3.37153554e-09    4.48130656e-07    1.49995070e+00
184      3.37483876e-09    4.48129806e-07    1.49995203e+00
185      3.37781165e-09    4.48129138e-07    1.49995323e+00
186      3.38078455e-09    4.48128259e-07    1.49995450e+00
187      3.38375744e-09    4.48127347e-07    1.49995584e+00
188      3.38464831e-09    4.48127103e-07    1.49995625e+00
189      3.38553917e-09    4.48126875e-07    1.49995667e+00
190      3.38732090e-09    4.48126413e-07    1.49995751e+00
191      3.39088437e-09    4.48125472e-07    1.49995920e+00
192      3.39444783e-09    4.48124593e-07    1.49996089e+00
193      3.39801129e-09    4.48123713e-07    1.49996257e+00
194      3.40157476e-09    4.48122761e-07    1.49996422e+00
195      3.40513822e-09    4.48121805e-07    1.49996583e+00
196      3.40870168e-09    4.48120584e-07    1.49996740e+00
197      3.41226515e-09    4.48119769e-07    1.49996892e+00
198      3.41582861e-09    4.48118907e-07    1.49997039e+00
199      3.41939207e-09    4.48118196e-07    1.49997180e+00
200      3.42295554e-09    4.48116967e-07    1.49997316e+00
201      3.42651900e-09    4.48115112e-07    1.49997447e+00
202      3.42972612e-09    4.48114519e-07    1.49997559e+00
203      3.43261252e-09    4.48116842e-07    1.49997656e+00
204      3.43549893e-09    4.48115605e-07    1.49997749e+00
205      3.43838533e-09    4.48112342e-07    1.49997838e+00
206      3.43929219e-09    4.48111565e-07    1.49997865e+00
207      3.44110591e-09    4.48110793e-07    1.49997919e+00
208      3.44291964e-09    4.48110016e-07    1.49997971e+00
209      3.44473336e-09    4.48109005e-07    1.49998022e+00
210      3.44836080e-09    4.48108698e-07    1.49998119e+00
211      3.45198825e-09    4.48109607e-07    1.49998210e+00
212      3.45561569e-09    4.48109743e-07    1.49998296e+00
213      3.45924314e-09    4.48110816e-07    1.49998376e+00
214      3.46287058e-09    4.48104405e-07    1.49998452e+00
215      3.46649803e-09    4.48103167e-07    1.49998523e+00
216      3.47012547e-09    4.48103363e-07    1.49998589e+00
217      3.47375292e-09    4.48108898e-07    1.49998652e+00
218      3.47738036e-09    4.48107810e-07    1.49998710e+00
219      3.48100781e-09    4.48084407e-07    1.49998765e+00
220      3.48463525e-09    4.48073483e-07    1.49998816e+00
221      3.48778398e-09    4.48143601e-07    1.49998857e+00
222      3.49093271e-09    4.48157228e-07    1.49998896e+00
223      3.49408144e-09    4.48110475e-07    1.49998933e+00
224      3.49497859e-09    4.48099402e-07    1.49998943e+00
225      3.49587574e-09    4.48095299e-07    1.49998953e+00
226      3.49767005e-09    4.48081169e-07    1.49998973e+00
227      3.50125866e-09    4.48042517e-07    1.49999010e+00
228      3.50484728e-09    4.48041629e-07    1.49999044e+00
229      3.50843589e-09    4.48075537e-07    1.49999076e+00
230      3.51202450e-09    4.48116181e-07    1.49999105e+00
231      3.51561311e-09    4.48156689e-07    1.49999133e+00
232      3.51920173e-09    4.48039067e-07    1.49999159e+00
233      3.52279034e-09    4.48034518e-07    1.49999183e+00
234      3.52637895e-09    4.48063181e-07    1.49999206e+00
235      3.52996756e-09    4.48246431e-07    1.49999226e+00
236      3.53355618e-09    4.48177211e-07    1.49999246e+00
237      3.53714479e-09    4.47521771e-07    1.49999264e+00
238      3.54037454e-09    4.47345686e-07    1.49999279e+00
239      3.54328132e-09    4.48995143e-07    1.49999292e+00
240      3.54618809e-09    4.49635234e-07    1.49999304e+00
241      3.54909487e-09    4.49154085e-07    1.49999315e+00
242      3.54997935e-09    4.48962021e-07    1.49999319e+00
243      3.55086384e-09    4.48902832e-07    1.49999322e+00
244      3.55263281e-09    4.48633037e-07    1.49999328e+00
245      3.55617076e-09    4.47508547e-07    1.49999341e+00
246      3.55970871e-09    4.46772075e-07    1.49999352e+00
247      3.56324665e-09    4.46899521e-07    1.49999362e+00
248      3.56678460e-09    4.47526839e-07    1.49999372e+00
249      3.57032255e-09    4.49124959e-07    1.49999381e+00
250      3.57386049e-09    4.46863388e-07    1.49999390e+00
251      3.57739844e-09    4.45975506e-07    1.49999397e+00
252      3.58093639e-09    4.45472920e-07    1.49999405e+00
253      3.58447433e-09    4.49520959e-07    1.49999412e+00
254      3.58801228e-09    4.51564113e-07    1.49999418e+00
255      3.59155022e-09    4.37830838e-07    1.49999424e+00
256      3.59473438e-09    4.20660534e-07    1.49999429e+00
257      3.59760011e-09    4.46990886e-07    1.49999433e+00
258      3.60046585e-09    4.76501127e-07    1.49999437e+00
259      3.60333159e-09    4.86506472e-07    1.49999441e+00
260      3.60425612e-09    4.85702717e-07    1.49999442e+00
261      3.60610518e-09    4.88417992e-07    1.49999444e+00
262      3.60795424e-09    4.88024839e-07    1.49999446e+00
263      3.60980330e-09    4.77823983e-07    1.49999448e+00
264      3.61350143e-09    4.52851894e-07    1.49999452e+00
265      3.61719955e-09    4.35988767e-07    1.49999456e+00
266      3.62089767e-09    4.28115453e-07    1.49999459e+00
267      3.62459580e-09    4.66381339e-07    1.49999462e+00
268      3.62829392e-09    4.29200513e-07    1.49999465e+00
269      3.63199205e-09    3.84871975e-07    1.49999467e+00
270      3.63569017e-09    3.32146440e-07    1.49999469e+00
271      3.63938829e-09    3.92861816e-07    1.49999471e+00
272      3.64308642e-09    4.66804488e-07    1.49999473e+00
273      3.64678454e-09    1.18418923e-07    1.49999475e+00
274      3.65011285e-09   -4.67157805e-07    1.49999476e+00
275      3.65310833e-09   -1.09455564e-08    1.49999477e+00
276      3.65610381e-09    7.20090186e-07    1.49999478e+00
277      3.65909929e-09    1.23012064e-06    1.49999479e+00
278      3.65999094e-09    1.35216568e-06    1.49999480e+00
279      3.66088259e-09    1.53171342e-06    1.49999480e+00
280      3.66266588e-09    1.84625616e-06    1.49999480e+00
281      3.66623247e-09    1.98438027e-06    1.49999481e+00
282      3.66979906e-09    1.75104449e-06    1.49999482e+00
283      3.67336564e-09    1.51068743e-06    1.49999482e+00
284      3.67693223e-09    1.45336852e-06    1.49999483e+00
285      3.68049882e-09    2.27606926e-06    1.49999483e+00
286      3.68406541e-09    1.33644450e-06    1.49999483e+00
287      3.68763199e-09   -1.14205435e-07    1.49999483e+00
288      3.69119858e-09   -2.28669093e-06    1.49999483e+00
289      3.69476517e-09   -2.08032070e-06    1.49999483e+00
290      3.69833176e-09   -1.39873555e-06    1.49999482e+00
291      3.70189834e-09   -1.12138648e-05    1.49999482e+00
292      3.70510827e-09   -3.08880571e-05    1.49999481e+00
293      3.70799721e-09   -3.13520420e-05    1.49999481e+00
294      3.71088614e-09   -2.04246762e-05    1.49999480e+00
295      3.71377508e-09   -6.94684456e-06    1.49999480e+00
296      3.71467756e-09   -2.27059619e-06    1.49999480e+00
297      3.71648251e-09    1.06069720e-05    1.49999479e+00
298      3.71828746e-09    2.44679912e-05    1.49999479e+00
299      3.72009241e-09    3.59070049e-05    1.49999478e+00
300      3.72370231e-09    5.48847950e-05    1.49999477e+00
301      3.72731221e-09    7.16560405e-05    1.49999476e+00
302      3.73092212e-09    8.68234690e-05    1.49999475e+00
303      3.73453202e-09    1.29452498e-04    1.49999473e+00
304      3.73814192e-09    1.49008431e-04    1.49999472e+00
305      3.74175182e-09    1.43286198e-04    1.49999470e+00
306      3.74536172e-09    9.53069127e-05    1.49999469e+00
307      3.74897163e-09    6.07164821e-05    1.49999467e+00
308      3.75258153e-09    6.43547794e-05    1.49999465e+00
309      3.75619143e-09   -1.37784743e-04    1.49999464e+00
310      3.75980133e-09   -8.21568351e-04    1.49999462e+00
311      3.76294540e-09   -1.27751855e-03    1.49999460e+00
312      3.76608947e-09   -1.42792363e-03    1.49999458e+00
313      3.76923354e-09   -1.38456652e-03    1.49999457e+00
314      3.77013255e-09   -1.31642378e-03    1.49999457e+00
315      3.77103156e-09   -1.20536555e-03    1.49999456e+00
316      3.77282957e-09   -8.94569981e-04    1.49999455e+00
317      3.77642560e-09   -1.19648422e-04    1.49999453e+00
318      3.78002163e-09    8.69881573e-04    1.49999451e+00
319      3.78361766e-09    2.14936735e-03    1.49999449e+00
320      3.78721369e-09    3.88799969e-03    1.49999447e+00
321      3.79080972e-09    6.65044010e-03    1.49999445e+00
322      3.79440575e-09    9.27367883e-03    1.49999442e+00
323      3.79800178e-09    1.15571957e-02    1.49999440e+00
324      3.80159781e-09    1.28484584e-02    1.49999438e+00
325      3.80519384e-09    1.45268104e-02    1.49999436e+00
326      3.80878987e-09    1.59463563e-02    1.49999434e+00
327      3.81238590e-09    8.76771531e-03    1.49999433e+00
328      3.81562232e-09   -1.17863298e-02    1.49999431e+00
329      3.81853511e-09   -3.15175680e-02    1.49999430e+00
330      3.82144789e-09   -5.02944826e-02    1.49999428e+00
331      3.82436068e-09   -6.78163176e-02    1.49999427e+00
