Index     V(DRAIN)           V(GATE)           ID(M1)            N(M1_T)     
0        0.00000000e+00    2.00000000e-01   -4.34586706e-18    0.00000000e+00
1        1.00000000e-02    2.00000000e-01    9.47505963e-12    2.39545974e-11
2        2.00000000e-02    2.00000000e-01    1.74998904e-11    8.84835662e-11
3        3.00000000e-02    2.00000000e-01    2.40397979e-11    1.82320317e-10
4        4.00000000e-02    2.00000000e-01    2.92058044e-11    2.95340484e-10
5        5.00000000e-02    2.00000000e-01    3.32581185e-11    4.20343840e-10
6        6.00000000e-02    2.00000000e-01    3.65055208e-11    5.53697387e-10
7        7.00000000e-02    2.00000000e-01    3.92463839e-11    6.94494963e-10
8        8.00000000e-02    2.00000000e-01    4.16888746e-11    8.43210377e-10
9        9.00000000e-02    2.00000000e-01    4.39925874e-11    1.00077245e-09
10       1.00000000e-01    2.00000000e-01    4.62130334e-11    1.16817070e-09
11       1.10000000e-01    2.00000000e-01    4.84196017e-11    1.34634760e-09
12       1.20000000e-01    2.00000000e-01    5.06400477e-11    1.53619235e-09
13       1.30000000e-01    2.00000000e-01    5.29021271e-11    1.73855799e-09
14       1.40000000e-01    2.00000000e-01    5.52335955e-11    1.95427864e-09
15       1.50000000e-01    2.00000000e-01    5.75928194e-11    2.18418218e-09
16       1.60000000e-01    2.00000000e-01    6.00630656e-11    2.42909904e-09
17       1.70000000e-01    2.00000000e-01    6.25888230e-11    2.68986820e-09
18       1.80000000e-01    2.00000000e-01    6.52256027e-11    2.96734152e-09
19       1.90000000e-01    2.00000000e-01    6.79178935e-11    3.26238693e-09
20       2.00000000e-01    2.00000000e-01    7.07212067e-11    3.57589103e-09
21       2.10000000e-01    2.00000000e-01    7.36355421e-11    3.90876117e-09
22       2.20000000e-01    2.00000000e-01    7.66331443e-11    4.26192722e-09
23       2.30000000e-01    2.00000000e-01    7.97417687e-11    4.63634316e-09
24       2.40000000e-01    2.00000000e-01    8.29614155e-11    5.03298839e-09
25       2.50000000e-01    2.00000000e-01    8.62920846e-11    5.45286894e-09
26       2.60000000e-01    2.00000000e-01    8.97060204e-11    5.89701856e-09
27       2.70000000e-01    2.00000000e-01    9.32587341e-11    6.36649963e-09
28       2.80000000e-01    2.00000000e-01    9.69779812e-11    6.86240399e-09
29       2.90000000e-01    2.00000000e-01    1.00752739e-10    7.38585370e-09
30       3.00000000e-01    2.00000000e-01    1.04694031e-10    7.93800170e-09
31       3.10000000e-01    2.00000000e-01    1.08746345e-10    8.52003236e-09
32       3.20000000e-01    2.00000000e-01    1.12909682e-10    9.13316197e-09
33       3.30000000e-01    2.00000000e-01    1.17239551e-10    9.77863921e-09
34       3.40000000e-01    2.00000000e-01    1.21680443e-10    1.04577455e-08
35       3.50000000e-01    2.00000000e-01    1.26287869e-10    1.11717952e-08
36       3.60000000e-01    2.00000000e-01    1.31006317e-10    1.19221362e-08
37       3.70000000e-01    2.00000000e-01    1.35891298e-10    1.27101497e-08
38       3.80000000e-01    2.00000000e-01    1.40942813e-10    1.35372507e-08
39       3.90000000e-01    2.00000000e-01    1.46160861e-10    1.44048877e-08
40       4.00000000e-01    2.00000000e-01    1.51489932e-10    1.53145434e-08
41       4.10000000e-01    2.00000000e-01    1.56985536e-10    1.62677341e-08
42       4.20000000e-01    2.00000000e-01    1.62647673e-10    1.72660099e-08
43       4.30000000e-01    2.00000000e-01    1.68476344e-10    1.83109548e-08
44       4.40000000e-01    2.00000000e-01    1.74527059e-10    1.94041862e-08
45       4.50000000e-01    2.00000000e-01    1.80688797e-10    2.05473553e-08
46       4.60000000e-01    2.00000000e-01    1.87017068e-10    2.17421464e-08
47       4.70000000e-01    2.00000000e-01    1.93567384e-10    2.29902767e-08
48       4.80000000e-01    2.00000000e-01    2.00284234e-10    2.42934966e-08
49       4.90000000e-01    2.00000000e-01    2.07167616e-10    2.56535885e-08
50       5.00000000e-01    2.00000000e-01    2.14273044e-10    2.70723673e-08
51       5.10000000e-01    2.00000000e-01    2.21600516e-10    2.85516796e-08
52       5.20000000e-01    2.00000000e-01    2.29039010e-10    3.00934032e-08
53       5.30000000e-01    2.00000000e-01    2.36699549e-10    3.16994469e-08
54       5.40000000e-01    2.00000000e-01    2.44582132e-10    3.33717499e-08
55       5.50000000e-01    2.00000000e-01    2.52686760e-10    3.51122812e-08
56       5.60000000e-01    2.00000000e-01    2.60902411e-10    3.69230393e-08
57       5.70000000e-01    2.00000000e-01    2.69451128e-10    3.88060518e-08
58       5.80000000e-01    2.00000000e-01    2.78221890e-10    4.07633765e-08
59       5.90000000e-01    2.00000000e-01    2.87103674e-10    4.27970934e-08
60       6.00000000e-01    2.00000000e-01    2.96318525e-10    4.49093122e-08
61       6.10000000e-01    2.00000000e-01    3.05644399e-10    4.71021689e-08
62       6.20000000e-01    2.00000000e-01    3.15303339e-10    4.93778250e-08
63       6.30000000e-01    2.00000000e-01    3.25073302e-10    5.17384668e-08
64       6.40000000e-01    2.00000000e-01    3.35176331e-10    5.41863044e-08
65       6.50000000e-01    2.00000000e-01    3.45501405e-10    5.67235715e-08
66       6.60000000e-01    2.00000000e-01    3.56048524e-10    5.93525239e-08
67       6.70000000e-01    2.00000000e-01    3.66817687e-10    6.20754394e-08
68       6.80000000e-01    2.00000000e-01    3.77808895e-10    6.48946165e-08
69       6.90000000e-01    2.00000000e-01    3.89133170e-10    6.78123736e-08
70       7.00000000e-01    2.00000000e-01    4.00679490e-10    7.08310486e-08
71       7.10000000e-01    2.00000000e-01    4.12447854e-10    7.39529976e-08
72       7.20000000e-01    2.00000000e-01    4.24438262e-10    7.71805944e-08
73       7.30000000e-01    2.00000000e-01    4.36761738e-10    8.05162293e-08
74       7.40000000e-01    2.00000000e-01    4.49307258e-10    8.39623088e-08
75       7.50000000e-01    2.00000000e-01    4.62185845e-10    8.75212541e-08
76       7.60000000e-01    2.00000000e-01    4.75286477e-10    9.11955007e-08
77       7.70000000e-01    2.00000000e-01    4.88609153e-10    9.49874976e-08
78       7.80000000e-01    2.00000000e-01    5.02264896e-10    9.88997063e-08
79       7.90000000e-01    2.00000000e-01    5.16142684e-10    1.02934600e-07
80       8.00000000e-01    2.00000000e-01    5.30353539e-10    1.07094662e-07
81       8.10000000e-01    2.00000000e-01    5.44786438e-10    1.11382388e-07
82       8.20000000e-01    2.00000000e-01    5.59441382e-10    1.15800280e-07
83       8.30000000e-01    2.00000000e-01    5.74540415e-10    1.20350851e-07
84       8.40000000e-01    2.00000000e-01    5.89750471e-10    1.25036621e-07
85       8.50000000e-01    2.00000000e-01    6.05404615e-10    1.29860117e-07
86       8.60000000e-01    2.00000000e-01    6.21280805e-10    1.34823871e-07
87       8.70000000e-01    2.00000000e-01    6.37379038e-10    1.39930424e-07
88       8.80000000e-01    2.00000000e-01    6.53810339e-10    1.45182318e-07
89       8.90000000e-01    2.00000000e-01    6.70574707e-10    1.50582103e-07
90       9.00000000e-01    2.00000000e-01    6.87672141e-10    1.56132329e-07
91       9.10000000e-01    2.00000000e-01    7.04991621e-10    1.61835553e-07
92       9.20000000e-01    2.00000000e-01    7.22644167e-10    1.67694332e-07
93       9.30000000e-01    2.00000000e-01    7.40518757e-10    1.73711224e-07
94       9.40000000e-01    2.00000000e-01    7.58837437e-10    1.79888791e-07
95       9.50000000e-01    2.00000000e-01    7.77267140e-10    1.86229594e-07
96       9.60000000e-01    2.00000000e-01    7.96140931e-10    1.92736195e-07
97       9.70000000e-01    2.00000000e-01    8.15347789e-10    1.99411156e-07
98       9.80000000e-01    2.00000000e-01    8.34776692e-10    2.06257038e-07
99       9.90000000e-01    2.00000000e-01    8.54538662e-10    2.13276401e-07
100      1.00000000e+00    2.00000000e-01    8.74633699e-10    2.20471805e-07
101      1.01000000e+00    2.00000000e-01    8.95061802e-10    2.27845807e-07
102      1.02000000e+00    2.00000000e-01    9.15711951e-10    2.35400962e-07
103      1.03000000e+00    2.00000000e-01    9.36806188e-10    2.43139824e-07
104      1.04000000e+00    2.00000000e-01    9.58122470e-10    2.51064944e-07
105      1.05000000e+00    2.00000000e-01    9.79660797e-10    2.59178869e-07
106      1.06000000e+00    2.00000000e-01    1.00164321e-09    2.67484145e-07
107      1.07000000e+00    2.00000000e-01    1.02384767e-09    2.75983314e-07
108      1.08000000e+00    2.00000000e-01    1.04649622e-09    2.84678917e-07
109      1.09000000e+00    2.00000000e-01    1.06936682e-09    2.93573488e-07
110      1.10000000e+00    2.00000000e-01    1.09268150e-09    3.02669562e-07
111      1.11000000e+00    2.00000000e-01    1.11621823e-09    3.11969670e-07
112      1.12000000e+00    2.00000000e-01    1.13997700e-09    3.21476337e-07
113      1.13000000e+00    2.00000000e-01    1.16417986e-09    3.31192091e-07
114      1.14000000e+00    2.00000000e-01    1.18882681e-09    3.41119452e-07
115      1.15000000e+00    2.00000000e-01    1.21369581e-09    3.51260941e-07
116      1.16000000e+00    2.00000000e-01    1.23878685e-09    3.61619076e-07
117      1.17000000e+00    2.00000000e-01    1.26432198e-09    3.72196375e-07
118      1.18000000e+00    2.00000000e-01    1.29007915e-09    3.82995354e-07
119      1.19000000e+00    2.00000000e-01    1.31628042e-09    3.94018528e-07
120      1.20000000e+00    2.00000000e-01    1.34292577e-09    4.05268415e-07
121      0.00000000e+00    3.00000000e-01   -9.66062978e-18   -2.57522568e-73
122      1.00000000e-02    3.00000000e-01    1.18191915e-10    2.98798173e-10
123      2.00000000e-02    3.00000000e-01    2.17794532e-10    1.10120043e-09
124      3.00000000e-02    3.00000000e-01    2.98514685e-10    2.26401865e-09
125      4.00000000e-02    3.00000000e-01    3.61891073e-10    3.65958867e-09
126      5.00000000e-02    3.00000000e-01    4.11184975e-10    5.19753384e-09
127      6.00000000e-02    3.00000000e-01    4.50424420e-10    6.83224720e-09
128      7.00000000e-02    3.00000000e-01    4.83266205e-10    8.55205983e-09
129      8.00000000e-02    3.00000000e-01    5.12367926e-10    1.03623378e-08
130      9.00000000e-02    3.00000000e-01    5.39457368e-10    1.22739640e-08
131      1.00000000e-01    3.00000000e-01    5.65589242e-10    1.42984569e-08
132      1.10000000e-01    3.00000000e-01    5.91415805e-10    1.64466522e-08
133      1.20000000e-01    3.00000000e-01    6.17353391e-10    1.87286364e-08
134      1.30000000e-01    3.00000000e-01    6.43651799e-10    2.11539675e-08
135      1.40000000e-01    3.00000000e-01    6.70519196e-10    2.37318918e-08
136      1.50000000e-01    3.00000000e-01    6.98080482e-10    2.64715037e-08
137      1.60000000e-01    3.00000000e-01    7.26391169e-10    2.93818546e-08
138      1.70000000e-01    3.00000000e-01    7.55562279e-10    3.24720271e-08
139      1.80000000e-01    3.00000000e-01    7.85649323e-10    3.57511874e-08
140      1.90000000e-01    3.00000000e-01    8.16707812e-10    3.92286238e-08
141      2.00000000e-01    3.00000000e-01    8.48737747e-10    4.29137762e-08
142      2.10000000e-01    3.00000000e-01    8.81850148e-10    4.68162599e-08
143      2.20000000e-01    3.00000000e-01    9.16017262e-10    5.09458856e-08
144      2.30000000e-01    3.00000000e-01    9.51294599e-10    5.53126755e-08
145      2.40000000e-01    3.00000000e-01    9.87709914e-10    5.99268775e-08
146      2.50000000e-01    3.00000000e-01    1.02529096e-09    6.47989774e-08
147      2.60000000e-01    3.00000000e-01    1.06403775e-09    6.99397090e-08
148      2.70000000e-01    3.00000000e-01    1.10406129e-09    7.53600630e-08
149      2.80000000e-01    3.00000000e-01    1.14530607e-09    8.10712947e-08
150      2.90000000e-01    3.00000000e-01    1.18782761e-09    8.70849299e-08
151      3.00000000e-01    3.00000000e-01    1.23168142e-09    9.34127705e-08
152      3.10000000e-01    3.00000000e-01    1.27686750e-09    1.00066899e-07
153      3.20000000e-01    3.00000000e-01    1.32338585e-09    1.07059680e-07
154      3.30000000e-01    3.00000000e-01    1.37134748e-09    1.14403767e-07
155      3.40000000e-01    3.00000000e-01    1.42069689e-09    1.22112100e-07
156      3.50000000e-01    3.00000000e-01    1.47148960e-09    1.30197910e-07
157      3.60000000e-01    3.00000000e-01    1.52372559e-09    1.38674717e-07
158      3.70000000e-01    3.00000000e-01    1.57751590e-09    1.47556331e-07
159      3.80000000e-01    3.00000000e-01    1.63280500e-09    1.56856854e-07
160      3.90000000e-01    3.00000000e-01    1.68970393e-09    1.66590676e-07
161      4.00000000e-01    3.00000000e-01    1.74815717e-09    1.76772475e-07
162      4.10000000e-01    3.00000000e-01    1.80822024e-09    1.87417214e-07
163      4.20000000e-01    3.00000000e-01    1.86989313e-09    1.98540141e-07
164      4.30000000e-01    3.00000000e-01    1.93328686e-09    2.10156784e-07
165      4.40000000e-01    3.00000000e-01    1.99834593e-09    2.22282949e-07
166      4.50000000e-01    3.00000000e-01    2.06518136e-09    2.34934716e-07
167      4.60000000e-01    3.00000000e-01    2.13373763e-09    2.48128438e-07
168      4.70000000e-01    3.00000000e-01    2.20407026e-09    2.61880731e-07
169      4.80000000e-01    3.00000000e-01    2.27623476e-09    2.76208476e-07
170      4.90000000e-01    3.00000000e-01    2.35023112e-09    2.91128809e-07
171      5.00000000e-01    3.00000000e-01    2.42611486e-09    3.06659119e-07
172      5.10000000e-01    3.00000000e-01    2.50388599e-09    3.22817042e-07
173      5.20000000e-01    3.00000000e-01    2.58360000e-09    3.39620449e-07
174      5.30000000e-01    3.00000000e-01    2.66520139e-09    3.57087455e-07
175      5.40000000e-01    3.00000000e-01    2.74880119e-09    3.75236400e-07
176      5.50000000e-01    3.00000000e-01    2.83439938e-09    3.94085847e-07
177      5.60000000e-01    3.00000000e-01    2.92199598e-09    4.13654572e-07
178      5.70000000e-01    3.00000000e-01    3.01170200e-09    4.33961562e-07
179      5.80000000e-01    3.00000000e-01    3.10340642e-09    4.55026002e-07
180      5.90000000e-01    3.00000000e-01    3.19722027e-09    4.76867274e-07
181      6.00000000e-01    3.00000000e-01    3.29325456e-09    4.99504945e-07
182      6.10000000e-01    3.00000000e-01    3.39139827e-09    5.22958761e-07
183      6.20000000e-01    3.00000000e-01    3.49165141e-09    5.47248639e-07
184      6.30000000e-01    3.00000000e-01    3.59412500e-09    5.72394660e-07
185      6.40000000e-01    3.00000000e-01    3.69881903e-09    5.98417059e-07
186      6.50000000e-01    3.00000000e-01    3.80573351e-09    6.25336219e-07
187      6.60000000e-01    3.00000000e-01    3.91497945e-09    6.53172662e-07
188      6.70000000e-01    3.00000000e-01    4.02644584e-09    6.81947041e-07
189      6.80000000e-01    3.00000000e-01    4.14024370e-09    7.11680133e-07
190      6.90000000e-01    3.00000000e-01    4.25626201e-09    7.42392828e-07
191      7.00000000e-01    3.00000000e-01    4.37472281e-09    7.74106125e-07
192      7.10000000e-01    3.00000000e-01    4.49551507e-09    8.06841121e-07
193      7.20000000e-01    3.00000000e-01    4.61863880e-09    8.40619004e-07
194      7.30000000e-01    3.00000000e-01    4.74420503e-09    8.75461046e-07
195      7.40000000e-01    3.00000000e-01    4.87221374e-09    9.11388595e-07
196      7.50000000e-01    3.00000000e-01    5.00266495e-09    9.48423065e-07
197      7.60000000e-01    3.00000000e-01    5.13544762e-09    9.86585934e-07
198      7.70000000e-01    3.00000000e-01    5.27078381e-09    1.02589873e-06
199      7.80000000e-01    3.00000000e-01    5.40856249e-09    1.06638303e-06
200      7.90000000e-01    3.00000000e-01    5.54889468e-09    1.10806046e-06
201      8.00000000e-01    3.00000000e-01    5.69166936e-09    1.15095266e-06
202      8.10000000e-01    3.00000000e-01    5.83688653e-09    1.19508130e-06
203      8.20000000e-01    3.00000000e-01    5.98476824e-09    1.24046810e-06
204      8.30000000e-01    3.00000000e-01    6.13509243e-09    1.28713476e-06
205      8.40000000e-01    3.00000000e-01    6.28797014e-09    1.33510301e-06
206      8.50000000e-01    3.00000000e-01    6.44351239e-09    1.38439458e-06
207      8.60000000e-01    3.00000000e-01    6.60149713e-09    1.43503120e-06
208      8.70000000e-01    3.00000000e-01    6.76214640e-09    1.48703460e-06
209      8.80000000e-01    3.00000000e-01    6.92546021e-09    1.54042650e-06
210      8.90000000e-01    3.00000000e-01    7.09121650e-09    1.59522862e-06
211      9.00000000e-01    3.00000000e-01    7.25974836e-09    1.65146264e-06
212      9.10000000e-01    3.00000000e-01    7.43083373e-09    1.70915025e-06
213      9.20000000e-01    3.00000000e-01    7.60447261e-09    1.76831312e-06
214      9.30000000e-01    3.00000000e-01    7.78088705e-09    1.82897290e-06
215      9.40000000e-01    3.00000000e-01    7.95985500e-09    1.89115120e-06
216      9.50000000e-01    3.00000000e-01    8.14148748e-09    1.95486963e-06
217      9.60000000e-01    3.00000000e-01    8.32578451e-09    2.02014978e-06
218      9.70000000e-01    3.00000000e-01    8.51274606e-09    2.08701323e-06
219      9.80000000e-01    3.00000000e-01    8.70237216e-09    2.15548151e-06
220      9.90000000e-01    3.00000000e-01    8.89477381e-09    2.22557618e-06
221      1.00000000e+00    3.00000000e-01    9.08972897e-09    2.29731877e-06
222      1.01000000e+00    3.00000000e-01    9.28745969e-09    2.37073081e-06
223      1.02000000e+00    3.00000000e-01    9.48774392e-09    2.44583381e-06
224      1.03000000e+00    3.00000000e-01    9.69091474e-09    2.52264932e-06
225      1.04000000e+00    3.00000000e-01    9.89652804e-09    2.60119888e-06
226      1.05000000e+00    3.00000000e-01    1.01050279e-08    2.68150407e-06
227      1.06000000e+00    3.00000000e-01    1.03161923e-08    2.76358650e-06
228      1.07000000e+00    3.00000000e-01    1.05302433e-08    2.84746782e-06
229      1.08000000e+00    3.00000000e-01    1.07467368e-08    2.93316976e-06
230      1.09000000e+00    3.00000000e-01    1.09661169e-08    3.02071411e-06
231      1.10000000e+00    3.00000000e-01    1.11881615e-08    3.11012275e-06
232      1.11000000e+00    3.00000000e-01    1.14128706e-08    3.20141769e-06
233      1.12000000e+00    3.00000000e-01    1.16404664e-08    3.29462106e-06
234      1.13000000e+00    3.00000000e-01    1.18707266e-08    3.38975516e-06
235      1.14000000e+00    3.00000000e-01    1.21038735e-08    3.48684247e-06
236      1.15000000e+00    3.00000000e-01    1.23396848e-08    3.58590568e-06
237      1.16000000e+00    3.00000000e-01    1.25781607e-08    3.68696774e-06
238      1.17000000e+00    3.00000000e-01    1.28195232e-08    3.79005190e-06
239      1.18000000e+00    3.00000000e-01    1.30635502e-08    3.89518170e-06
240      1.19000000e+00    3.00000000e-01    1.33104638e-08    4.00238109e-06
241      1.20000000e+00    3.00000000e-01    1.35602640e-08    4.11167444e-06
242      0.00000000e+00    4.00000000e-01   -1.87833033e-17    0.00000000e+00
243      1.00000000e-02    4.00000000e-01    1.39640383e-09    3.53022373e-09
244      2.00000000e-02    4.00000000e-01    2.56643665e-09    1.29763378e-08
245      3.00000000e-02    4.00000000e-01    3.50879048e-09    2.66115520e-08
246      4.00000000e-02    4.00000000e-01    4.24326546e-09    4.29092856e-08
247      5.00000000e-02    4.00000000e-01    4.80936124e-09    6.07923452e-08
248      6.00000000e-02    4.00000000e-01    5.25528926e-09    7.97148107e-08
249      7.00000000e-02    4.00000000e-01    5.62432045e-09    9.95312881e-08
250      8.00000000e-02    4.00000000e-01    5.94800598e-09    1.20296557e-07
251      9.00000000e-02    4.00000000e-01    6.24668373e-09    1.42129320e-07
252      1.00000000e-01    4.00000000e-01    6.53280208e-09    1.65154501e-07
253      1.10000000e-01    4.00000000e-01    6.81392442e-09    1.89487718e-07
254      1.20000000e-01    4.00000000e-01    7.09478309e-09    2.15234598e-07
