Index     V(DRAIN)           V(GATE)            I(VD)      
0        0.00000000e+00   -4.00000000e-01   -4.00016314e-13
1       -2.00000000e-02   -4.00000000e-01    2.30667633e-09
2       -4.00000000e-02   -4.00000000e-01    3.81376761e-09
3       -6.00000000e-02   -4.00000000e-01    4.72314876e-09
4       -8.00000000e-02   -4.00000000e-01    5.34550480e-09
5       -1.00000000e-01   -4.00000000e-01    5.87081059e-09
6       -1.20000000e-01   -4.00000000e-01    6.37557384e-09
7       -1.40000000e-01   -4.00000000e-01    6.88940077e-09
8       -1.60000000e-01   -4.00000000e-01    7.42531110e-09
9       -1.80000000e-01   -4.00000000e-01    7.99000134e-09
10      -2.00000000e-01   -4.00000000e-01    8.58746637e-09
11      -2.20000000e-01   -4.00000000e-01    9.22044034e-09
12      -2.40000000e-01   -4.00000000e-01    9.89103630e-09
13      -2.60000000e-01   -4.00000000e-01    1.06010535e-08
14      -2.80000000e-01   -4.00000000e-01    1.13521321e-08
15      -3.00000000e-01   -4.00000000e-01    1.21458319e-08
16      -3.20000000e-01   -4.00000000e-01    1.29836729e-08
17      -3.40000000e-01   -4.00000000e-01    1.38671533e-08
18      -3.60000000e-01   -4.00000000e-01    1.47977576e-08
19      -3.80000000e-01   -4.00000000e-01    1.57769571e-08
20      -4.00000000e-01   -4.00000000e-01    1.68062084e-08
21      -4.20000000e-01   -4.00000000e-01    1.78869489e-08
22      -4.40000000e-01   -4.00000000e-01    1.90205921e-08
23      -4.60000000e-01   -4.00000000e-01    2.02085228e-08
24      -4.80000000e-01   -4.00000000e-01    2.14520919e-08
25      -5.00000000e-01   -4.00000000e-01    2.27526115e-08
26      -5.20000000e-01   -4.00000000e-01    2.41113502e-08
27      -5.40000000e-01   -4.00000000e-01    2.55295291e-08
28      -5.60000000e-01   -4.00000000e-01    2.70083176e-08
29      -5.80000000e-01   -4.00000000e-01    2.85488306e-08
30      -6.00000000e-01   -4.00000000e-01    3.01521251e-08
31      -6.20000000e-01   -4.00000000e-01    3.18192010e-08
32      -6.40000000e-01   -4.00000000e-01    3.35509881e-08
33      -6.60000000e-01   -4.00000000e-01    3.53483610e-08
34      -6.80000000e-01   -4.00000000e-01    3.72121285e-08
35      -7.00000000e-01   -4.00000000e-01    3.91430356e-08
36      -7.20000000e-01   -4.00000000e-01    4.11417645e-08
37      -7.40000000e-01   -4.00000000e-01    4.32089365e-08
38      -7.60000000e-01   -4.00000000e-01    4.53451136e-08
39      -7.80000000e-01   -4.00000000e-01    4.75508022e-08
40      -8.00000000e-01   -4.00000000e-01    4.98264565e-08
41      -8.20000000e-01   -4.00000000e-01    5.21724839e-08
42      -8.40000000e-01   -4.00000000e-01    5.45892506e-08
43      -8.60000000e-01   -4.00000000e-01    5.70770884e-08
44      -8.80000000e-01   -4.00000000e-01    5.96363037e-08
45      -9.00000000e-01   -4.00000000e-01    6.22671862e-08
46      -9.20000000e-01   -4.00000000e-01    6.49700209e-08
47      -9.40000000e-01   -4.00000000e-01    6.77451007e-08
48      -9.60000000e-01   -4.00000000e-01    7.05927418e-08
49      -9.80000000e-01   -4.00000000e-01    7.35133013e-08
50      -1.00000000e+00   -4.00000000e-01    7.65071978e-08
51      -1.02000000e+00   -4.00000000e-01    7.95749357e-08
52      -1.04000000e+00   -4.00000000e-01    8.27171333e-08
53      -1.06000000e+00   -4.00000000e-01    8.59345560e-08
54      -1.08000000e+00   -4.00000000e-01    8.92281553e-08
55      -1.10000000e+00   -4.00000000e-01    9.25991151e-08
56      -1.12000000e+00   -4.00000000e-01    9.60489063e-08
57      -1.14000000e+00   -4.00000000e-01    9.95793511e-08
58      -1.16000000e+00   -4.00000000e-01    1.03192700e-07
59      -1.18000000e+00   -4.00000000e-01    1.06891722e-07
60      -1.20000000e+00   -4.00000000e-01    1.10679814e-07
0        0.00000000e+00   -5.00000000e-01   -5.00029607e-13
1       -2.00000000e-02   -5.00000000e-01    2.39983556e-08
2       -4.00000000e-02   -5.00000000e-01    3.96009174e-08
3       -6.00000000e-02   -5.00000000e-01    4.88915512e-08
4       -8.00000000e-02   -5.00000000e-01    5.50546125e-08
5       -1.00000000e-01   -5.00000000e-01    6.00982344e-08
6       -1.20000000e-01   -5.00000000e-01    6.48450357e-08
7       -1.40000000e-01   -5.00000000e-01    6.96100998e-08
8       -1.60000000e-01   -5.00000000e-01    7.45272725e-08
9       -1.80000000e-01   -5.00000000e-01    7.96615767e-08
10      -2.00000000e-01   -5.00000000e-01    8.50488528e-08
11      -2.20000000e-01   -5.00000000e-01    9.07113891e-08
12      -2.40000000e-01   -5.00000000e-01    9.66647772e-08
13      -2.60000000e-01   -5.00000000e-01    1.02921170e-07
14      -2.80000000e-01   -5.00000000e-01    1.09490906e-07
15      -3.00000000e-01   -5.00000000e-01    1.16383344e-07
16      -3.20000000e-01   -5.00000000e-01    1.23607282e-07
17      -3.40000000e-01   -5.00000000e-01    1.31171171e-07
18      -3.60000000e-01   -5.00000000e-01    1.39083203e-07
19      -3.80000000e-01   -5.00000000e-01    1.47351349e-07
20      -4.00000000e-01   -5.00000000e-01    1.55983356e-07
21      -4.20000000e-01   -5.00000000e-01    1.64986731e-07
22      -4.40000000e-01   -5.00000000e-01    1.74368717e-07
23      -4.60000000e-01   -5.00000000e-01    1.84136272e-07
24      -4.80000000e-01   -5.00000000e-01    1.94296041e-07
25      -5.00000000e-01   -5.00000000e-01    2.04854353e-07
26      -5.20000000e-01   -5.00000000e-01    2.15817141e-07
27      -5.40000000e-01   -5.00000000e-01    2.27190024e-07
28      -5.60000000e-01   -5.00000000e-01    2.38978233e-07
29      -5.80000000e-01   -5.00000000e-01    2.51186631e-07
30      -6.00000000e-01   -5.00000000e-01    2.63819714e-07
31      -6.20000000e-01   -5.00000000e-01    2.76881619e-07
32      -6.40000000e-01   -5.00000000e-01    2.90376146e-07
33      -6.60000000e-01   -5.00000000e-01    3.04306783e-07
34      -6.80000000e-01   -5.00000000e-01    3.18676738e-07
35      -7.00000000e-01   -5.00000000e-01    3.33488984e-07
36      -7.20000000e-01   -5.00000000e-01    3.48746314e-07
37      -7.40000000e-01   -5.00000000e-01    3.64451407e-07
38      -7.60000000e-01   -5.00000000e-01    3.80606906e-07
39      -7.80000000e-01   -5.00000000e-01    3.97215515e-07
40      -8.00000000e-01   -5.00000000e-01    4.14280111e-07
41      -8.20000000e-01   -5.00000000e-01    4.31803872e-07
42      -8.40000000e-01   -5.00000000e-01    4.49790438e-07
43      -8.60000000e-01   -5.00000000e-01    4.68244088e-07
44      -8.80000000e-01   -5.00000000e-01    4.87169954e-07
45      -9.00000000e-01   -5.00000000e-01    5.06574270e-07
46      -9.20000000e-01   -5.00000000e-01    5.26464663e-07
47      -9.40000000e-01   -5.00000000e-01    5.46850494e-07
48      -9.60000000e-01   -5.00000000e-01    5.67743253e-07
49      -9.80000000e-01   -5.00000000e-01    5.89157032e-07
50      -1.00000000e+00   -5.00000000e-01    6.11109067e-07
51      -1.02000000e+00   -5.00000000e-01    6.33620376e-07
52      -1.04000000e+00   -5.00000000e-01    6.56716504e-07
53      -1.06000000e+00   -5.00000000e-01    6.80428395e-07
54      -1.08000000e+00   -5.00000000e-01    7.04793395e-07
55      -1.10000000e+00   -5.00000000e-01    7.29856427e-07
56      -1.12000000e+00   -5.00000000e-01    7.55671332e-07
57      -1.14000000e+00   -5.00000000e-01    7.82302413e-07
58      -1.16000000e+00   -5.00000000e-01    8.09826181e-07
59      -1.18000000e+00   -5.00000000e-01    8.38333324e-07
60      -1.20000000e+00   -5.00000000e-01    8.67930875e-07
0        0.00000000e+00   -6.00000000e-01   -6.00055428e-13
1       -2.00000000e-02   -6.00000000e-01    1.88063250e-07
2       -4.00000000e-02   -6.00000000e-01    3.18881613e-07
3       -6.00000000e-02   -6.00000000e-01    4.01817836e-07
4       -8.00000000e-02   -6.00000000e-01    4.55792599e-07
5       -1.00000000e-01   -6.00000000e-01    4.97028136e-07
6       -1.20000000e-01   -6.00000000e-01    5.33810532e-07
7       -1.40000000e-01   -6.00000000e-01    5.69573900e-07
8       -1.60000000e-01   -6.00000000e-01    6.05751987e-07
9       -1.80000000e-01   -6.00000000e-01    6.42996610e-07
10      -2.00000000e-01   -6.00000000e-01    6.81633109e-07
11      -2.20000000e-01   -6.00000000e-01    7.21838747e-07
12      -2.40000000e-01   -6.00000000e-01    7.63718748e-07
13      -2.60000000e-01   -6.00000000e-01    8.07341402e-07
14      -2.80000000e-01   -6.00000000e-01    8.52755183e-07
15      -3.00000000e-01   -6.00000000e-01    8.99997443e-07
16      -3.20000000e-01   -6.00000000e-01    9.49098937e-07
17      -3.40000000e-01   -6.00000000e-01    1.00008598e-06
18      -3.60000000e-01   -6.00000000e-01    1.05298190e-06
19      -3.80000000e-01   -6.00000000e-01    1.10780746e-06
20      -4.00000000e-01   -6.00000000e-01    1.16458119e-06
21      -4.20000000e-01   -6.00000000e-01    1.22331952e-06
22      -4.40000000e-01   -6.00000000e-01    1.28403687e-06
23      -4.60000000e-01   -6.00000000e-01    1.34674567e-06
24      -4.80000000e-01   -6.00000000e-01    1.41145646e-06
25      -5.00000000e-01   -6.00000000e-01    1.47817798e-06
26      -5.20000000e-01   -6.00000000e-01    1.54691734e-06
27      -5.40000000e-01   -6.00000000e-01    1.61768016e-06
28      -5.60000000e-01   -6.00000000e-01    1.69047089e-06
29      -5.80000000e-01   -6.00000000e-01    1.76529305e-06
30      -6.00000000e-01   -6.00000000e-01    1.84214968e-06
31      -6.20000000e-01   -6.00000000e-01    1.92104372e-06
32      -6.40000000e-01   -6.00000000e-01    2.00197858e-06
33      -6.60000000e-01   -6.00000000e-01    2.08495879e-06
34      -6.80000000e-01   -6.00000000e-01    2.16999066e-06
35      -7.00000000e-01   -6.00000000e-01    2.25708316e-06
36      -7.20000000e-01   -6.00000000e-01    2.34624887e-06
37      -7.40000000e-01   -6.00000000e-01    2.43750508e-06
38      -7.60000000e-01   -6.00000000e-01    2.53087507e-06
39      -7.80000000e-01   -6.00000000e-01    2.62638954e-06
40      -8.00000000e-01   -6.00000000e-01    2.72408827e-06
41      -8.20000000e-01   -6.00000000e-01    2.82402200e-06
42      -8.40000000e-01   -6.00000000e-01    2.92625455e-06
43      -8.60000000e-01   -6.00000000e-01    3.03086525e-06
44      -8.80000000e-01   -6.00000000e-01    3.13795170e-06
45      -9.00000000e-01   -6.00000000e-01    3.24763276e-06
46      -9.20000000e-01   -6.00000000e-01    3.36005204e-06
47      -9.40000000e-01   -6.00000000e-01    3.47538164e-06
48      -9.60000000e-01   -6.00000000e-01    3.59382628e-06
49      -9.80000000e-01   -6.00000000e-01    3.71562777e-06
50      -1.00000000e+00   -6.00000000e-01    3.84106967e-06
51      -1.02000000e+00   -6.00000000e-01    3.97048217e-06
52      -1.04000000e+00   -6.00000000e-01    4.10424680e-06
53      -1.06000000e+00   -6.00000000e-01    4.24280095e-06
54      -1.08000000e+00   -6.00000000e-01    4.38664165e-06
55      -1.10000000e+00   -6.00000000e-01    4.53632819e-06
56      -1.12000000e+00   -6.00000000e-01    4.69248308e-06
57      -1.14000000e+00   -6.00000000e-01    4.85579067e-06
58      -1.16000000e+00   -6.00000000e-01    5.02699264e-06
59      -1.18000000e+00   -6.00000000e-01    5.20687997e-06
60      -1.20000000e+00   -6.00000000e-01    5.39628065e-06
0        0.00000000e+00   -7.00000000e-01   -7.00133708e-13
1       -2.00000000e-02   -7.00000000e-01    9.10244869e-07
2       -4.00000000e-02   -7.00000000e-01    1.65256819e-06
3       -6.00000000e-02   -7.00000000e-01    2.22822906e-06
4       -8.00000000e-02   -7.00000000e-01    2.65525766e-06
5       -1.00000000e-01   -7.00000000e-01    2.96986171e-06
6       -1.20000000e-01   -7.00000000e-01    3.21541613e-06
7       -1.40000000e-01   -7.00000000e-01    3.42621034e-06
8       -1.60000000e-01   -7.00000000e-01    3.62229289e-06
9       -1.80000000e-01   -7.00000000e-01    3.81370928e-06
10      -2.00000000e-01   -7.00000000e-01    4.00529225e-06
11      -2.20000000e-01   -7.00000000e-01    4.19940021e-06
12      -2.40000000e-01   -7.00000000e-01    4.39721680e-06
13      -2.60000000e-01   -7.00000000e-01    4.59934844e-06
14      -2.80000000e-01   -7.00000000e-01    4.80610596e-06
15      -3.00000000e-01   -7.00000000e-01    5.01764248e-06
16      -3.20000000e-01   -7.00000000e-01    5.23402390e-06
17      -3.40000000e-01   -7.00000000e-01    5.45526620e-06
18      -3.60000000e-01   -7.00000000e-01    5.68135590e-06
19      -3.80000000e-01   -7.00000000e-01    5.91226165e-06
20      -4.00000000e-01   -7.00000000e-01    6.14794112e-06
21      -4.20000000e-01   -7.00000000e-01    6.38834533e-06
22      -4.40000000e-01   -7.00000000e-01    6.63342153e-06
23      -4.60000000e-01   -7.00000000e-01    6.88311542e-06
24      -4.80000000e-01   -7.00000000e-01    7.13737294e-06
25      -5.00000000e-01   -7.00000000e-01    7.39614201e-06
26      -5.20000000e-01   -7.00000000e-01    7.65937417e-06
27      -5.40000000e-01   -7.00000000e-01    7.92702633e-06
28      -5.60000000e-01   -7.00000000e-01    8.19906266e-06
29      -5.80000000e-01   -7.00000000e-01    8.47545660e-06
30      -6.00000000e-01   -7.00000000e-01    8.75619315e-06
31      -6.20000000e-01   -7.00000000e-01    9.04127130e-06
32      -6.40000000e-01   -7.00000000e-01    9.33070676e-06
33      -6.60000000e-01   -7.00000000e-01    9.62453494e-06
34      -6.80000000e-01   -7.00000000e-01    9.92281425e-06
35      -7.00000000e-01   -7.00000000e-01    1.02256297e-05
36      -7.20000000e-01   -7.00000000e-01    1.05330968e-05
37      -7.40000000e-01   -7.00000000e-01    1.08453657e-05
38      -7.60000000e-01   -7.00000000e-01    1.11626259e-05
39      -7.80000000e-01   -7.00000000e-01    1.14851110e-05
40      -8.00000000e-01   -7.00000000e-01    1.18131034e-05
41      -8.20000000e-01   -7.00000000e-01    1.21469401e-05
42      -8.40000000e-01   -7.00000000e-01    1.24870169e-05
43      -8.60000000e-01   -7.00000000e-01    1.28337941e-05
44      -8.80000000e-01   -7.00000000e-01    1.31878005e-05
45      -9.00000000e-01   -7.00000000e-01    1.35496367e-05
46      -9.20000000e-01   -7.00000000e-01    1.39199779e-05
47      -9.40000000e-01   -7.00000000e-01    1.42995739e-05
48      -9.60000000e-01   -7.00000000e-01    1.46892475e-05
49      -9.80000000e-01   -7.00000000e-01    1.50898896e-05
50      -1.00000000e+00   -7.00000000e-01    1.55024508e-05
51      -1.02000000e+00   -7.00000000e-01    1.59279288e-05
52      -1.04000000e+00   -7.00000000e-01    1.63673519e-05
53      -1.06000000e+00   -7.00000000e-01    1.68217577e-05
54      -1.08000000e+00   -7.00000000e-01    1.72921686e-05
55      -1.10000000e+00   -7.00000000e-01    1.77795639e-05
56      -1.12000000e+00   -7.00000000e-01    1.82848516e-05
57      -1.14000000e+00   -7.00000000e-01    1.88088407e-05
58      -1.16000000e+00   -7.00000000e-01    1.93522170e-05
59      -1.18000000e+00   -7.00000000e-01    1.99155240e-05
60      -1.20000000e+00   -7.00000000e-01    2.04991521e-05
0        0.00000000e+00   -8.00000000e-01   -8.00468673e-13
1       -2.00000000e-02   -8.00000000e-01    2.47421288e-06
2       -4.00000000e-02   -8.00000000e-01    4.69232394e-06
3       -6.00000000e-02   -8.00000000e-01    6.64430730e-06
4       -8.00000000e-02   -8.00000000e-01    8.33017567e-06
5       -1.00000000e-01   -8.00000000e-01    9.75963570e-06
6       -1.20000000e-01   -8.00000000e-01    1.09519099e-05
7       -1.40000000e-01   -8.00000000e-01    1.19368323e-05
8       -1.60000000e-01   -8.00000000e-01    1.27549515e-05
9       -1.80000000e-01   -8.00000000e-01    1.34526477e-05
10      -2.00000000e-01   -8.00000000e-01    1.40727872e-05
11      -2.20000000e-01   -8.00000000e-01    1.46476187e-05
12      -2.40000000e-01   -8.00000000e-01    1.51979229e-05
13      -2.60000000e-01   -8.00000000e-01    1.57359393e-05
14      -2.80000000e-01   -8.00000000e-01    1.62686164e-05
15      -3.00000000e-01   -8.00000000e-01    1.67998811e-05
16      -3.20000000e-01   -8.00000000e-01    1.73319754e-05
17      -3.40000000e-01   -8.00000000e-01    1.78661973e-05
18      -3.60000000e-01   -8.00000000e-01    1.84033067e-05
19      -3.80000000e-01   -8.00000000e-01    1.89437503e-05
20      -4.00000000e-01   -8.00000000e-01    1.94877894e-05
21      -4.20000000e-01   -8.00000000e-01    2.00355745e-05
22      -4.40000000e-01   -8.00000000e-01    2.05871909e-05
23      -4.60000000e-01   -8.00000000e-01    2.11426868e-05
24      -4.80000000e-01   -8.00000000e-01    2.17020919e-05
25      -5.00000000e-01   -8.00000000e-01    2.22654307e-05
26      -5.20000000e-01   -8.00000000e-01    2.28327317e-05
27      -5.40000000e-01   -8.00000000e-01    2.34040349e-05
28      -5.60000000e-01   -8.00000000e-01    2.39793980e-05
29      -5.80000000e-01   -8.00000000e-01    2.45589020e-05
30      -6.00000000e-01   -8.00000000e-01    2.51426567e-05
31      -6.20000000e-01   -8.00000000e-01    2.57308050e-05
32      -6.40000000e-01   -8.00000000e-01    2.63235286e-05
33      -6.60000000e-01   -8.00000000e-01    2.69210527e-05
34      -6.80000000e-01   -8.00000000e-01    2.75236509e-05
35      -7.00000000e-01   -8.00000000e-01    2.81316501e-05
36      -7.20000000e-01   -8.00000000e-01    2.87454357e-05
37      -7.40000000e-01   -8.00000000e-01    2.93654557e-05
38      -7.60000000e-01   -8.00000000e-01    2.99922250e-05
39      -7.80000000e-01   -8.00000000e-01    3.06263287e-05
40      -8.00000000e-01   -8.00000000e-01    3.12684249e-05
41      -8.20000000e-01   -8.00000000e-01    3.19192452e-05
42      -8.40000000e-01   -8.00000000e-01    3.25795942e-05
43      -8.60000000e-01   -8.00000000e-01    3.32503467e-05
44      -8.80000000e-01   -8.00000000e-01    3.39324418e-05
45      -9.00000000e-01   -8.00000000e-01    3.46268740e-05
46      -9.20000000e-01   -8.00000000e-01    3.53346811e-05
47      -9.40000000e-01   -8.00000000e-01    3.60569282e-05
48      -9.60000000e-01   -8.00000000e-01    3.67946879e-05
49      -9.80000000e-01   -8.00000000e-01    3.75490177e-05
50      -1.00000000e+00   -8.00000000e-01    3.83209347e-05
51      -1.02000000e+00   -8.00000000e-01    3.91113889e-05
52      -1.04000000e+00   -8.00000000e-01    3.99212369e-05
53      -1.06000000e+00   -8.00000000e-01    4.07512174e-05
54      -1.08000000e+00   -8.00000000e-01    4.16019310e-05
55      -1.10000000e+00   -8.00000000e-01    4.24738248e-05
56      -1.12000000e+00   -8.00000000e-01    4.33671850e-05
57      -1.14000000e+00   -8.00000000e-01    4.42821360e-05
58      -1.16000000e+00   -8.00000000e-01    4.52186479e-05
59      -1.18000000e+00   -8.00000000e-01    4.61765509e-05
60      -1.20000000e+00   -8.00000000e-01    4.71555550e-05
0        0.00000000e+00   -9.00000000e-01   -9.01991754e-13
1       -2.00000000e-02   -9.00000000e-01    4.53350211e-06
2       -4.00000000e-02   -9.00000000e-01    8.74390981e-06
3       -6.00000000e-02   -9.00000000e-01    1.26086112e-05
4       -8.00000000e-02   -9.00000000e-01    1.61202043e-05
5       -1.00000000e-01   -9.00000000e-01    1.92840783e-05
6       -1.20000000e-01   -9.00000000e-01    2.21136896e-05
7       -1.40000000e-01   -9.00000000e-01    2.46266435e-05
8       -1.60000000e-01   -9.00000000e-01    2.68428101e-05
9       -1.80000000e-01   -9.00000000e-01    2.87844565e-05
10      -2.00000000e-01   -9.00000000e-01    3.04777992e-05
11      -2.20000000e-01   -9.00000000e-01    3.19548339e-05
12      -2.40000000e-01   -9.00000000e-01    3.32536055e-05
13      -2.60000000e-01   -9.00000000e-01    3.44153024e-05
14      -2.80000000e-01   -9.00000000e-01    3.54788499e-05
15      -3.00000000e-01   -9.00000000e-01    3.64761572e-05
16      -3.20000000e-01   -9.00000000e-01    3.74304385e-05
17      -3.40000000e-01   -9.00000000e-01    3.83572600e-05
18      -3.60000000e-01   -9.00000000e-01    3.92665999e-05
19      -3.80000000e-01   -9.00000000e-01    4.01647537e-05
20      -4.00000000e-01   -9.00000000e-01    4.10557083e-05
21      -4.20000000e-01   -9.00000000e-01    4.19420307e-05
22      -4.40000000e-01   -9.00000000e-01    4.28254164e-05
23      -4.60000000e-01   -9.00000000e-01    4.37070246e-05
24      -4.80000000e-01   -9.00000000e-01    4.45876831e-05
25      -5.00000000e-01   -9.00000000e-01    4.54680157e-05
26      -5.20000000e-01   -9.00000000e-01    4.63485237e-05
