Index        TIME          {1.0+V(1)}       {1.0+V(2)}       {3.0+V(3)}
0       0.00000000e+00   1.00000000e+00   4.21757640e+00   6.21744770e+00   
1       5.00000000e-12   1.00000000e+00   4.21757640e+00   6.21744770e+00   
2       1.50000000e-11   1.00000000e+00   4.21757640e+00   6.21744770e+00   
3       3.50000000e-11   1.00000000e+00   4.21757640e+00   6.21744770e+00   
4       7.50000000e-11   1.00000000e+00   4.21757640e+00   6.21744770e+00   
5       1.55000000e-10   1.00000000e+00   4.21757640e+00   6.21744770e+00   
6       2.55000000e-10   1.00000000e+00   4.21757640e+00   6.21744770e+00   
7       3.55000000e-10   1.00000000e+00   4.21757640e+00   6.21744770e+00   
8       4.55000000e-10   1.00000000e+00   4.21757640e+00   6.21744770e+00   
9       5.55000000e-10   1.00000000e+00   4.21757640e+00   6.21744770e+00   
10      6.55000000e-10   1.00000000e+00   4.21757640e+00   6.21744770e+00   
11      7.55000000e-10   1.00000000e+00   4.21757640e+00   6.21744770e+00   
12      8.55000000e-10   1.00000000e+00   4.21757640e+00   6.21744770e+00   
13      9.55000000e-10   1.00000000e+00   4.21757640e+00   6.21744770e+00   
14      1.00000000e-09   1.00000000e+00   4.21757640e+00   6.21744770e+00   
15      1.01000000e-09   1.04000000e+00   4.21783005e+00   6.21744770e+00   
16      1.01718562e-09   1.06874249e+00   4.21796872e+00   6.21744770e+00   
17      1.03155687e-09   1.12622746e+00   4.21811592e+00   6.21744770e+00   
18      1.06029935e-09   1.24119741e+00   4.21799836e+00   6.21744770e+00   
19      1.08904184e-09   1.35616736e+00   4.21786426e+00   6.21744770e+00   
20      1.11778433e-09   1.47113732e+00   4.21790925e+00   6.21744770e+00   
21      1.14652682e-09   1.58610727e+00   4.21797017e+00   6.21744770e+00   
22      1.20401179e-09   1.81604717e+00   4.21801898e+00   6.21744770e+00   
23      1.26149677e-09   2.04598707e+00   4.21803151e+00   6.21744770e+00   
24      1.37646672e-09   2.50586687e+00   4.21819287e+00   6.21744770e+00   
25      1.49143667e-09   2.96574668e+00   4.21845062e+00   6.21744770e+00   
26      1.59202883e-09   3.36811532e+00   4.21847029e+00   6.21744770e+00   
27      1.69262099e-09   3.77048396e+00   4.21837720e+00   6.21744770e+00   
28      1.79321315e-09   4.17285260e+00   4.21802178e+00   6.21744770e+00   
29      1.89380531e-09   4.57522124e+00   4.21444908e+00   6.21744770e+00   
30      1.99439747e-09   4.97758988e+00   4.18526526e+00   6.21744770e+00   
31      2.00000000e-09   5.00000000e+00   4.18200121e+00   6.21744770e+00   
32      2.00905329e-09   5.00000000e+00   4.17570845e+00   6.21744770e+00   
33      2.01720126e-09   5.00000000e+00   4.16948019e+00   6.21744770e+00   
34      2.03349719e-09   5.00000000e+00   4.15540581e+00   6.21744770e+00   
35      2.06608905e-09   5.00000000e+00   4.12006749e+00   6.21744770e+00   
36      2.09868091e-09   5.00000000e+00   4.07846104e+00   6.21744770e+00   
37      2.13127277e-09   5.00000000e+00   4.03544459e+00   6.21744770e+00   
38      2.16386463e-09   5.00000000e+00   3.99284278e+00   6.21744770e+00   
39      2.19645649e-09   5.00000000e+00   3.94938035e+00   6.21744770e+00   
40      2.22904835e-09   5.00000000e+00   3.90436823e+00   6.21744770e+00   
41      2.26164021e-09   5.00000000e+00   3.85783600e+00   6.21744770e+00   
42      2.29423207e-09   5.00000000e+00   3.81000173e+00   6.21744770e+00   
43      2.32682393e-09   5.00000000e+00   3.75646608e+00   6.21744770e+00   
44      2.35941579e-09   5.00000000e+00   3.68659491e+00   6.21744770e+00   
45      2.39200765e-09   5.00000000e+00   3.59167999e+00   6.21744770e+00   
46      2.42459951e-09   5.00000000e+00   3.46512907e+00   6.21744770e+00   
47      2.45719137e-09   5.00000000e+00   3.30796588e+00   6.21744770e+00   
48      2.48978323e-09   5.00000000e+00   3.13222496e+00   6.21744770e+00   
49      2.55496695e-09   5.00000000e+00   2.80727628e+00   6.21744770e+00   
50      2.61363230e-09   5.00000000e+00   2.57818754e+00   6.21744770e+00   
51      2.67229764e-09   5.00000000e+00   2.39709577e+00   6.21744770e+00   
52      2.73096299e-09   5.00000000e+00   2.23978328e+00   6.21744770e+00   
53      2.78962834e-09   5.00000000e+00   2.08956896e+00   6.21744770e+00   
54      2.84829369e-09   5.00000000e+00   1.92393275e+00   6.21744770e+00   
55      2.90109250e-09   5.00000000e+00   1.73268618e+00   6.21744770e+00   
56      2.94861143e-09   5.00000000e+00   1.56289916e+00   6.21744770e+00   
57      2.99137847e-09   5.00000000e+00   1.46015438e+00   6.21744770e+00   
58      3.02925229e-09   5.00000000e+00   1.38194329e+00   6.21744770e+00   
59      3.06712611e-09   5.00000000e+00   1.29850236e+00   6.21744770e+00   
60      3.10499992e-09   5.00000000e+00   1.22232866e+00   6.21744770e+00   
61      3.14287374e-09   5.00000000e+00   1.16859406e+00   6.21744770e+00   
62      3.18074756e-09   5.00000000e+00   1.15097408e+00   6.21744770e+00   
63      3.21862137e-09   5.00000000e+00   1.15046626e+00   6.21744770e+00   
64      3.25649519e-09   5.00000000e+00   1.14982522e+00   6.21744770e+00   
65      3.29436901e-09   5.00000000e+00   1.14965015e+00   6.21744770e+00   
66      3.33224283e-09   5.00000000e+00   1.14951352e+00   6.21744770e+00   
67      3.40799046e-09   5.00000000e+00   1.14937241e+00   6.21744770e+00   
68      3.48373810e-09   5.00000000e+00   1.14929902e+00   6.21744770e+00   
69      3.63373810e-09   5.00000000e+00   1.14915884e+00   6.21744770e+00   
70      3.78373810e-09   5.00000000e+00   1.14904925e+00   6.21744770e+00   
71      3.93373810e-09   5.00000000e+00   1.14891285e+00   6.21744770e+00   
72      4.08373810e-09   5.00000000e+00   1.14877866e+00   6.21744770e+00   
73      4.23373810e-09   5.00000000e+00   1.14859110e+00   6.21744770e+00   
74      4.38373810e-09   5.00000000e+00   1.14840432e+00   6.21744770e+00   
75      4.53373810e-09   5.00000000e+00   1.14818515e+00   6.21744770e+00   
76      4.68373810e-09   5.00000000e+00   1.14798947e+00   6.21744770e+00   
77      4.83373810e-09   5.00000000e+00   1.14777174e+00   6.21744770e+00   
78      4.98373810e-09   5.00000000e+00   1.14752353e+00   6.21744770e+00   
79      5.13373810e-09   5.00000000e+00   1.14710594e+00   6.21744770e+00   
80      5.28373810e-09   5.00000000e+00   1.14727933e+00   6.21744770e+00   
81      5.41873810e-09   5.00000000e+00   1.14867135e+00   6.21767469e+00   
82      5.52894647e-09   5.00000000e+00   1.15068456e+00   6.21792167e+00   
83      5.63915485e-09   5.00000000e+00   1.15301637e+00   6.21804318e+00   
84      5.74936323e-09   5.00000000e+00   1.15555292e+00   6.21819050e+00   
85      5.85957160e-09   5.00000000e+00   1.15826895e+00   6.21841683e+00   
86      5.96977998e-09   5.00000000e+00   1.16108199e+00   6.21866363e+00   
87      6.07998836e-09   5.00000000e+00   1.16370302e+00   6.21880268e+00   
88      6.19019674e-09   5.00000000e+00   1.16602848e+00   6.21861657e+00   
89      6.30040511e-09   5.00000000e+00   1.16802162e+00   6.21544741e+00   
90      6.41061349e-09   5.00000000e+00   1.16974697e+00   6.19328460e+00   
91      6.52082187e-09   5.00000000e+00   1.17120124e+00   6.11549592e+00   
92      6.63103025e-09   5.00000000e+00   1.17248554e+00   5.96807472e+00   
93      6.74123862e-09   5.00000000e+00   1.17359534e+00   5.75723253e+00   
94      6.85144700e-09   5.00000000e+00   1.17463245e+00   5.40422569e+00   
95      6.86549678e-09   5.00000000e+00   1.17474908e+00   5.34069282e+00   
96      6.87954656e-09   5.00000000e+00   1.17487281e+00   5.27496379e+00   
97      6.90764612e-09   5.00000000e+00   1.17511800e+00   5.13195164e+00   
98      6.93574567e-09   5.00000000e+00   1.17535981e+00   4.97612014e+00   
99      6.96384523e-09   5.00000000e+00   1.17559971e+00   4.81145444e+00   
100     6.99194479e-09   5.00000000e+00   1.17583732e+00   4.64219404e+00   
101     7.04814390e-09   5.00000000e+00   1.17630937e+00   4.30197157e+00   
102     7.10434302e-09   5.00000000e+00   1.17677843e+00   3.96841274e+00   
103     7.16054213e-09   5.00000000e+00   1.17724797e+00   3.64629333e+00   
104     7.21674124e-09   5.00000000e+00   1.17771981e+00   3.33268428e+00   
105     7.27294036e-09   5.00000000e+00   1.17819670e+00   3.01644960e+00   
106     7.38533859e-09   5.00000000e+00   1.17917202e+00   2.37611329e+00   
107     7.39938836e-09   5.00000000e+00   1.17929652e+00   2.29884556e+00   
108     7.41343814e-09   5.00000000e+00   1.17942131e+00   2.22300468e+00   
109     7.44153770e-09   5.00000000e+00   1.17967297e+00   2.07906450e+00   
110     7.46963726e-09   5.00000000e+00   1.17992745e+00   1.94460338e+00   
111     7.49773681e-09   5.00000000e+00   1.18018480e+00   1.81948764e+00   
112     7.55393593e-09   5.00000000e+00   1.18070867e+00   1.60321199e+00   
113     7.56194739e-09   5.00000000e+00   1.18078437e+00   1.57647247e+00   
114     7.56756730e-09   5.00000000e+00   1.18083768e+00   1.55867740e+00   
115     7.57262429e-09   5.00000000e+00   1.18088575e+00   1.54309957e+00   
116     7.58273827e-09   5.00000000e+00   1.18098212e+00   1.51282297e+00   
117     7.60296622e-09   5.00000000e+00   1.18117619e+00   1.45745927e+00   
118     7.64342212e-09   5.00000000e+00   1.18156978e+00   1.36454876e+00   
119     7.68387803e-09   5.00000000e+00   1.18197085e+00   1.29129476e+00   
120     7.72433393e-09   5.00000000e+00   1.18237969e+00   1.23359994e+00   
121     7.76478984e-09   5.00000000e+00   1.18279660e+00   1.18817382e+00   
122     7.84570165e-09   5.00000000e+00   1.18365596e+00   1.12356848e+00   
123     7.99570165e-09   5.00000000e+00   1.18534639e+00   1.06042901e+00   
124     8.14570165e-09   5.00000000e+00   1.18717676e+00   1.03620148e+00   
125     8.29570165e-09   5.00000000e+00   1.18916622e+00   1.02705391e+00   
126     8.44570165e-09   5.00000000e+00   1.19133600e+00   1.02373929e+00   
127     8.59570165e-09   5.00000000e+00   1.19370878e+00   1.02266473e+00   
128     8.74570165e-09   5.00000000e+00   1.19630745e+00   1.02243615e+00   
129     8.89570165e-09   5.00000000e+00   1.19915881e+00   1.02252085e+00   
130     9.04570165e-09   5.00000000e+00   1.20229481e+00   1.02272188e+00   
131     9.19570165e-09   5.00000000e+00   1.20575324e+00   1.02296799e+00   
132     9.34570165e-09   5.00000000e+00   1.20957843e+00   1.02321462e+00   
133     9.49570165e-09   5.00000000e+00   1.21382167e+00   1.02339150e+00   
134     9.64570165e-09   5.00000000e+00   1.21854114e+00   1.02365964e+00   
135     9.79570165e-09   5.00000000e+00   1.22370367e+00   1.02466854e+00   
136     9.94570165e-09   5.00000000e+00   1.22961322e+00   1.02703805e+00   
137     1.00957016e-08   5.00000000e+00   1.23629847e+00   1.03070662e+00   
138     1.02457016e-08   5.00000000e+00   1.24362585e+00   1.03522274e+00   
139     1.03957016e-08   5.00000000e+00   1.25180116e+00   1.04024375e+00   
140     1.05457016e-08   5.00000000e+00   1.26097599e+00   1.04534853e+00   
141     1.06957016e-08   5.00000000e+00   1.27380094e+00   1.05005822e+00   
142     1.08457016e-08   5.00000000e+00   1.30831763e+00   1.05417355e+00   
143     1.09020217e-08   5.00000000e+00   1.33238568e+00   1.05556478e+00   
144     1.09170217e-08   5.00000000e+00   1.33955227e+00   1.05591495e+00   
145     1.09320217e-08   5.00000000e+00   1.34655555e+00   1.05626062e+00   
146     1.09620217e-08   5.00000000e+00   1.35992952e+00   1.05694269e+00   
147     1.10220217e-08   5.00000000e+00   1.38099558e+00   1.05824396e+00   
148     1.11224385e-08   5.00000000e+00   1.39658681e+00   1.06025494e+00   
149     1.11344385e-08   5.00000000e+00   1.39761304e+00   1.06047854e+00   
150     1.11584385e-08   5.00000000e+00   1.40146830e+00   1.06091903e+00   
151     1.12064385e-08   5.00000000e+00   1.41540259e+00   1.06178659e+00   
152     1.13024385e-08   5.00000000e+00   1.45527715e+00   1.06343323e+00   
153     1.13219279e-08   5.00000000e+00   1.45843307e+00   1.06375064e+00   
154     1.13609067e-08   5.00000000e+00   1.44975729e+00   1.06437867e+00   
155     1.14388643e-08   5.00000000e+00   1.34761826e+00   1.06559447e+00   
156     1.15168219e-08   5.00000000e+00   1.17920875e+00   1.06677085e+00   
157     1.15947795e-08   5.00000000e+00   1.11202641e+00   1.06792722e+00   
158     1.16577319e-08   5.00000000e+00   1.10718132e+00   1.06884380e+00   
159     1.17206843e-08   5.00000000e+00   1.08959095e+00   1.06975604e+00   
160     1.17836366e-08   5.00000000e+00   1.07277651e+00   1.07067981e+00   
161     1.18465890e-08   5.00000000e+00   1.04501628e+00   1.07161156e+00   
162     1.19095414e-08   5.00000000e+00   9.90297441e-01   1.07254986e+00   
163     1.19187127e-08   5.00000000e+00   9.74376996e-01   1.07268750e+00   
164     1.19278840e-08   5.00000000e+00   9.55658307e-01   1.07282540e+00   
165     1.19462267e-08   5.00000000e+00   9.05690111e-01   1.07310235e+00   
166     1.19645694e-08   5.00000000e+00   8.47331822e-01   1.07338009e+00   
167     1.19829120e-08   5.00000000e+00   7.87115394e-01   1.07365906e+00   
168     1.20195973e-08   5.00000000e+00   6.76400293e-01   1.07422157e+00   
169     1.20562826e-08   5.00000000e+00   5.91830704e-01   1.07478914e+00   
170     1.20929679e-08   5.00000000e+00   5.60327906e-01   1.07536233e+00   
171     1.21259847e-08   5.00000000e+00   5.67128983e-01   1.07588326e+00   
172     1.21590015e-08   5.00000000e+00   5.85504895e-01   1.07640745e+00   
173     1.21920182e-08   5.00000000e+00   6.12220740e-01   1.07693734e+00   
174     1.22580518e-08   5.00000000e+00   6.73812895e-01   1.07801326e+00   
175     1.23240853e-08   5.00000000e+00   7.33783361e-01   1.07911708e+00   
176     1.23901189e-08   5.00000000e+00   7.87566704e-01   1.08025017e+00   
177     1.24561524e-08   5.00000000e+00   8.35414657e-01   1.08141422e+00   
178     1.25221860e-08   5.00000000e+00   8.81201317e-01   1.08262268e+00   
179     1.25882195e-08   5.00000000e+00   9.27394211e-01   1.08386172e+00   
180     1.26542531e-08   5.00000000e+00   9.51724050e-01   1.08513471e+00   
181     1.27136833e-08   5.00000000e+00   9.32676792e-01   1.08631109e+00   
182     1.27671704e-08   5.00000000e+00   8.95549089e-01   1.08739576e+00   
183     1.28206576e-08   5.00000000e+00   8.70734279e-01   1.08851599e+00   
184     1.28741448e-08   5.00000000e+00   8.64195932e-01   1.08966107e+00   
185     1.29276320e-08   5.00000000e+00   8.71999747e-01   1.09083367e+00   
186     1.29811191e-08   5.00000000e+00   8.86682738e-01   1.09203547e+00   
187     1.30346063e-08   5.00000000e+00   9.00101325e-01   1.09326857e+00   
188     1.30880935e-08   5.00000000e+00   9.07643427e-01   1.09454476e+00   
189     1.31415807e-08   5.00000000e+00   9.10575514e-01   1.09585283e+00   
190     1.32485550e-08   5.00000000e+00   9.12711367e-01   1.09858403e+00   
191     1.33555294e-08   5.00000000e+00   9.16475053e-01   1.10148373e+00   
192     1.34625037e-08   5.00000000e+00   9.19352392e-01   1.10454461e+00   
193     1.35694781e-08   5.00000000e+00   9.16769172e-01   1.10780577e+00   
194     1.36764524e-08   5.00000000e+00   9.08313877e-01   1.11128143e+00   
195     1.37834268e-08   5.00000000e+00   8.97079076e-01   1.11497180e+00   
196     1.38904011e-08   5.00000000e+00   8.84850013e-01   1.11890430e+00   
197     1.39973755e-08   5.00000000e+00   8.72896581e-01   1.12312510e+00   
198     1.41043498e-08   5.00000000e+00   8.61121503e-01   1.12767759e+00   
199     1.42543498e-08   5.00000000e+00   8.45825017e-01   1.13461961e+00   
200     1.42712248e-08   5.00000000e+00   8.44151318e-01   1.13544038e+00   
201     1.43049748e-08   5.00000000e+00   8.40826162e-01   1.13708931e+00   
202     1.43724748e-08   5.00000000e+00   8.36255875e-01   1.14046226e+00   
203     1.44399748e-08   5.00000000e+00   8.36019028e-01   1.14401414e+00   
204     1.45074748e-08   5.00000000e+00   8.39177370e-01   1.14778985e+00   
205     1.45749748e-08   5.00000000e+00   8.43163293e-01   1.15177108e+00   
206     1.46424748e-08   5.00000000e+00   8.45664998e-01   1.15593566e+00   
207     1.47099748e-08   5.00000000e+00   8.45716439e-01   1.16027333e+00   
208     1.48449748e-08   5.00000000e+00   8.42081616e-01   1.16947075e+00   
209     1.49799748e-08   5.00000000e+00   8.38987279e-01   1.17911974e+00   
210     1.50769015e-08   5.00000000e+00   8.38978943e-01   1.18571467e+00   
211     1.50904015e-08   5.00000000e+00   8.39120286e-01   1.18649978e+00   
212     1.51023427e-08   5.00000000e+00   8.39255465e-01   1.18712996e+00   
213     1.51262253e-08   5.00000000e+00   8.39539522e-01   1.18824598e+00   
214     1.51739903e-08   5.00000000e+00   8.40145280e-01   1.18953659e+00   
215     1.52217554e-08   5.00000000e+00   8.40724858e-01   1.18943951e+00   
216     1.53172855e-08   5.00000000e+00   8.41678877e-01   1.19040727e+00   
217     1.54128156e-08   5.00000000e+00   8.42447871e-01   1.20677915e+00   
218     1.55036383e-08   5.00000000e+00   8.43242615e-01   1.23906064e+00   
219     1.55120383e-08   5.00000000e+00   8.43336836e-01   1.24224654e+00   
220     1.55204383e-08   5.00000000e+00   8.43433242e-01   1.24519194e+00   
221     1.55372383e-08   5.00000000e+00   8.43615017e-01   1.25058876e+00   
222     1.55708383e-08   5.00000000e+00   8.44001740e-01   1.25825261e+00   
223     1.55876383e-08   5.00000000e+00   8.44209931e-01   1.26044137e+00   
224     1.55943583e-08   5.00000000e+00   8.44297307e-01   1.26100910e+00   
225     1.56010783e-08   5.00000000e+00   8.44383699e-01   1.26151930e+00   
226     1.56145183e-08   5.00000000e+00   8.44557253e-01   1.26247897e+00   
227     1.56413983e-08   5.00000000e+00   8.44908456e-01   1.26444576e+00   
228     1.56951583e-08   5.00000000e+00   8.45602042e-01   1.27345485e+00   
229     1.57489183e-08   5.00000000e+00   8.46242851e-01   1.30182873e+00   
230     1.58026783e-08   5.00000000e+00   8.46812366e-01   1.35412763e+00   
231     1.58564383e-08   5.00000000e+00   8.47315474e-01   1.41936732e+00   
232     1.59639583e-08   5.00000000e+00   8.48183060e-01   1.57662209e+00   
233     1.60714783e-08   5.00000000e+00   8.48974562e-01   1.78719771e+00   
234     1.61789983e-08   5.00000000e+00   8.49704045e-01   2.06101789e+00   
235     1.62865183e-08   5.00000000e+00   8.50382948e-01   2.36568255e+00   
236     1.63274265e-08   5.00000000e+00   8.50614835e-01   2.47685474e+00   
237     1.63381785e-08   5.00000000e+00   8.50673164e-01   2.50331620e+00   
238     1.63464234e-08   5.00000000e+00   8.50718106e-01   2.52266565e+00   
239     1.63629130e-08   5.00000000e+00   8.50802160e-01   2.55952866e+00   
240     1.63958923e-08   5.00000000e+00   8.50965221e-01   2.62223042e+00   
241     1.64288715e-08   5.00000000e+00   8.51120550e-01   2.67177935e+00   
242     1.64374825e-08   5.00000000e+00   8.51158796e-01   2.68289091e+00   
243     1.64407804e-08   5.00000000e+00   8.51174126e-01   2.68697980e+00   
244     1.64440783e-08   5.00000000e+00   8.51188704e-01   2.69102983e+00   
245     1.64506742e-08   5.00000000e+00   8.51217491e-01   2.69907762e+00   
246     1.64638659e-08   5.00000000e+00   8.51273839e-01   2.71506036e+00   
247     1.64902493e-08   5.00000000e+00   8.51383996e-01   2.74818311e+00   
248     1.65430161e-08   5.00000000e+00   8.51596895e-01   2.82495936e+00   
249     1.65957829e-08   5.00000000e+00   8.51787488e-01   2.91717217e+00   
250     1.66485498e-08   5.00000000e+00   8.51980803e-01   3.02158042e+00   
251     1.67540834e-08   5.00000000e+00   8.52331520e-01   3.24470062e+00   
252     1.68596171e-08   5.00000000e+00   8.52661261e-01   3.46418422e+00   
253     1.69651507e-08   5.00000000e+00   8.52985966e-01   3.66544551e+00   
254     1.70354529e-08   5.00000000e+00   8.53174476e-01   3.78403295e+00   
255     1.70460063e-08   5.00000000e+00   8.53204708e-01   3.79983470e+00   
256     1.70565596e-08   5.00000000e+00   8.53233836e-01   3.81487517e+00   
257     1.70776664e-08   5.00000000e+00   8.53292806e-01   3.84320560e+00   
