Index       TIME              V(2)              V(3)       
0        0.00000000e+00    0.00000000e+00    0.00000000e+00
1        1.00000000e-10    1.57079624e-03    0.00000000e+00
2        3.00000000e-10    4.71238636e-03    0.00000000e+00
3        7.00000000e-10    1.09955398e-02    0.00000000e+00
4        1.50000000e-09    2.35616003e-02    0.00000000e+00
5        3.10000000e-09    4.86916253e-02    0.00000000e+00
6        6.30000000e-09    9.89344020e-02    0.00000000e+00
7        1.27000000e-08    1.99279796e-01    0.00000000e+00
8        1.91000000e-08    2.99303144e-01    0.00000000e+00
9        2.55000000e-08    3.98842729e-01    0.00000000e+00
10       3.19000000e-08    4.97737612e-01    0.00000000e+00
11       3.83000000e-08    5.95827897e-01    0.00000000e+00
12       4.47000000e-08    6.92954992e-01    0.00000000e+00
13       5.11000000e-08    7.88961860e-01    0.00000000e+00
14       5.75000000e-08    8.83693273e-01    0.00000000e+00
15       6.39000000e-08    9.76996070e-01    0.00000000e+00
16       7.03000000e-08    1.06871940e+00    0.00000000e+00
17       7.67000000e-08    1.15871495e+00    0.00000000e+00
18       8.31000000e-08    1.24683723e+00    0.00000000e+00
19       8.95000000e-08    1.33294375e+00    0.00000000e+00
20       9.59000000e-08    1.41689531e+00    0.00000000e+00
21       1.02300000e-07    1.49855615e+00    0.00000000e+00
22       1.08700000e-07    1.57779425e+00    0.00000000e+00
23       1.15100000e-07    1.65448151e+00    0.00000000e+00
24       1.21500000e-07    1.72849392e+00    0.00000000e+00
25       1.27900000e-07    1.79971182e+00    0.00000000e+00
26       1.34300000e-07    1.86802008e+00    0.00000000e+00
27       1.40700000e-07    1.93330824e+00    0.00000000e+00
28       1.47100000e-07    1.99547074e+00    0.00000000e+00
29       1.53500000e-07    2.05440709e+00    0.00000000e+00
30       1.59900000e-07    2.11002199e+00    0.00000000e+00
31       1.66300000e-07    2.16222552e+00    0.00000000e+00
32       1.72700000e-07    2.21093328e+00    0.00000000e+00
33       1.79100000e-07    2.25606652e+00    0.00000000e+00
34       1.85500000e-07    2.29755226e+00    0.00000000e+00
35       1.91900000e-07    2.33532344e+00    0.00000000e+00
36       1.98300000e-07    2.36931897e+00    0.00000000e+00
37       2.04700000e-07    2.39948390e+00    0.00000000e+00
38       2.17500000e-07    2.44813314e+00    0.00000000e+00
39       2.30300000e-07    2.48095665e+00    0.00000000e+00
40       2.43100000e-07    2.49774224e+00    0.00000000e+00
41       2.55900000e-07    2.49838139e+00    0.00000000e+00
42       2.68700000e-07    2.48286999e+00    0.00000000e+00
43       2.81500000e-07    2.45130829e+00    0.00000000e+00
44       2.94300000e-07    2.40390034e+00    0.00000000e+00
45       3.07100000e-07    2.34095261e+00    0.00000000e+00
46       3.19900000e-07    2.26287204e+00    0.00000000e+00
47       3.32700000e-07    2.17016339e+00    0.00000000e+00
48       3.33647414e-07    2.16273586e+00    9.39575430e-03
49       3.35542241e-07    2.14765115e+00    6.60774998e-02
50       3.37437068e-07    2.13226204e+00    1.22749148e-01
51       3.39331896e-07    2.11657073e+00    1.79404719e-01
52       3.43121551e-07    2.08429038e+00    2.92618325e-01
53       3.50700860e-07    2.01620382e+00    5.18504969e-01
54       3.58280170e-07    1.94354584e+00    7.43230275e-01
55       3.65859479e-07    1.86648119e+00    9.66263717e-01
56       3.73438789e-07    1.78518461e+00    1.18709564e+00
57       3.81018098e-07    1.69984044e+00    1.40523926e+00
58       3.88597408e-07    1.61064218e+00    1.62020171e+00
59       3.96176717e-07    1.51779210e+00    1.83149721e+00
60       4.03756027e-07    1.42150073e+00    2.03864533e+00
61       4.11335337e-07    1.32198639e+00    2.24115203e+00
62       4.18914646e-07    1.21947474e+00    2.43857960e+00
63       4.26493956e-07    1.11419821e+00    2.63048192e+00
64       4.34073265e-07    1.00639552e+00    2.81642519e+00
65       4.41652575e-07    8.96311090e-01    2.99598890e+00
66       4.49231884e-07    7.84194543e-01    3.16875020e+00
67       4.56811194e-07    6.70300093e-01    3.33432154e+00
68       4.64390503e-07    5.54885990e-01    3.49233556e+00
69       4.71969813e-07    4.38213930e-01    3.64243499e+00
70       4.79549122e-07    3.20548459e-01    3.78428021e+00
71       4.87128432e-07    2.02156379e-01    3.91754565e+00
72       4.94707742e-07    8.33061363e-02    4.04191816e+00
73       5.02287051e-07   -3.57327821e-02    4.15712805e+00
74       5.09866361e-07   -1.54690462e-01    4.26291472e+00
75       5.17445670e-07   -2.73297173e-01    4.35903866e+00
76       5.25024980e-07   -3.91283981e-01    4.44528194e+00
77       5.32604289e-07   -5.08383358e-01    4.52143956e+00
78       5.40183599e-07   -6.24329786e-01    4.58733873e+00
79       5.47762908e-07   -7.38860364e-01    4.64283062e+00
80       5.55342218e-07   -8.51715400e-01    4.68780883e+00
81       5.62921527e-07   -9.62639001e-01    4.72217580e+00
82       5.70500837e-07   -1.07137965e+00    4.74580865e+00
83       5.78080146e-07   -1.17769079e+00    4.75870663e+00
84       5.85659456e-07   -1.28133137e+00    4.76079723e+00
85       5.89233333e-07   -1.32920716e+00    4.75804245e+00
86       5.89991264e-07   -1.33927509e+00    4.75714988e+00
87       5.90536405e-07   -1.34649766e+00    4.75644123e+00
88       5.91626686e-07   -1.36089534e+00    4.75485654e+00
89       5.93807248e-07   -1.38949840e+00    4.75101769e+00
90       5.98168371e-07   -1.44591668e+00    4.74066207e+00
91       6.06890619e-07   -1.55545465e+00    4.70928915e+00
92       6.15612866e-07   -1.66032182e+00    4.66375537e+00
93       6.24335114e-07   -1.76020331e+00    4.60425424e+00
94       6.33057361e-07   -1.85479919e+00    4.53091608e+00
95       6.41779609e-07   -1.94382543e+00    4.44393670e+00
96       6.50501856e-07   -2.02701472e+00    4.34366973e+00
97       6.59224103e-07   -2.10411726e+00    4.23035080e+00
98       6.67946351e-07   -2.15971914e+00    4.10424482e+00
99       6.69133739e-07   -2.14898797e+00    4.08612454e+00
100      6.70321127e-07   -2.14113579e+00    4.06777705e+00
101      6.71508515e-07   -2.13316419e+00    4.04920304e+00
102      6.73883290e-07   -2.11686645e+00    4.01138073e+00
103      6.78632842e-07   -2.08287026e+00    3.93307071e+00
104      6.88131945e-07   -2.00932750e+00    3.76601523e+00
105      6.97631048e-07   -1.92861363e+00    3.58553350e+00
106      7.07130151e-07   -1.84103343e+00    3.39227400e+00
107      7.16629254e-07   -1.74691393e+00    3.18696213e+00
108      7.26128357e-07   -1.64656446e+00    2.97029516e+00
109      7.35627460e-07   -1.54033846e+00    2.74303699e+00
110      7.45126563e-07   -1.42863114e+00    2.50600207e+00
111      7.54625666e-07   -1.31185227e+00    2.26007512e+00
112      7.64124769e-07   -1.19039374e+00    2.00609185e+00
113      7.73623872e-07   -1.06468414e+00    1.74494829e+00
114      7.83122975e-07   -9.35184036e-01    1.47758459e+00
115      7.92622078e-07   -8.02369964e-01    1.20499288e+00
116      8.02121181e-07   -6.66691768e-01    9.28100525e-01
117      8.11620284e-07   -5.28629932e-01    6.47884944e-01
118      8.21119388e-07   -3.88683668e-01    3.65359332e-01
119      8.30618491e-07   -2.47368106e-01    8.15657691e-02
120      8.40117594e-07   -1.05166284e-01   -2.02528814e-01
121      8.49616697e-07    3.74166958e-02   -4.85921071e-01
122      8.59115800e-07    1.79868129e-01   -7.67581882e-01
123      8.68614903e-07    3.21669485e-01   -1.04647891e+00
124      8.78114006e-07    4.62322989e-01   -1.32166024e+00
125      8.87613109e-07    6.01335496e-01   -1.59215348e+00
126      8.97112212e-07    7.38218179e-01   -1.85697210e+00
127      9.06611315e-07    8.72458252e-01   -2.11515191e+00
128      9.16110418e-07    1.00360266e+00   -2.36581003e+00
129      9.25609521e-07    1.13116905e+00   -2.60807502e+00
130      9.35108624e-07    1.25470914e+00   -2.84100000e+00
131      9.44607727e-07    1.37378024e+00   -3.06381526e+00
132      9.54106830e-07    1.48795788e+00   -3.27573467e+00
133      9.63605933e-07    1.59684694e+00   -3.47599061e+00
134      9.73105036e-07    1.70003115e+00   -3.66386987e+00
135      9.82604139e-07    1.79717333e+00   -3.83870317e+00
136      9.92103242e-07    1.88792059e+00   -3.99986755e+00
137      1.00160235e-06    1.97190173e+00   -4.14678298e+00
138      1.01110145e-06    2.04889777e+00   -4.27892209e+00
139      1.02060055e-06    2.11860405e+00   -4.39581844e+00
140      1.03009965e-06    2.18075726e+00   -4.49706506e+00
141      1.03959876e-06    2.23513764e+00   -4.58229982e+00
142      1.04909786e-06    2.28156941e+00   -4.65121610e+00
143      1.05859696e-06    2.31987621e+00   -4.70356849e+00
144      1.06809607e-06    2.34991494e+00   -4.73917054e+00
145      1.07759517e-06    2.37158076e+00   -4.75789547e+00
146      1.08709427e-06    2.38481382e+00   -4.75967660e+00
147      1.09659338e-06    2.38955373e+00   -4.74450758e+00
148      1.10609248e-06    2.38577602e+00   -4.71244244e+00
149      1.11559158e-06    2.37349841e+00   -4.66359536e+00
150      1.12509069e-06    2.35278212e+00   -4.59814029e+00
151      1.13458979e-06    2.32368615e+00   -4.51631034e+00
152      1.14408889e-06    2.28630618e+00   -4.41839692e+00
153      1.15358799e-06    2.24078177e+00   -4.30474872e+00
154      1.16308710e-06    2.18729129e+00   -4.17577046e+00
155      1.17258620e-06    2.12600987e+00   -4.03192146e+00
156      1.18208530e-06    2.05714800e+00   -3.87371399e+00
157      1.19158441e-06    1.98095927e+00   -3.70171146e+00
158      1.20108351e-06    1.89772888e+00   -3.51652641e+00
159      1.21058261e-06    1.80773824e+00   -3.31881831e+00
160      1.22008172e-06    1.71130072e+00   -3.10929125e+00
161      1.22958082e-06    1.60876951e+00   -2.88869138e+00
162      1.23907992e-06    1.50052053e+00   -2.65780432e+00
163      1.24857902e-06    1.38692549e+00   -2.41745229e+00
164      1.25807813e-06    1.26837676e+00   -2.16849124e+00
165      1.26757723e-06    1.14533014e+00   -1.91180777e+00
166      1.27707633e-06    1.01820657e+00   -1.64831597e+00
167      1.28657544e-06    8.87449122e-01   -1.37895419e+00
168      1.29607454e-06    7.53529353e-01   -1.10468168e+00
169      1.30557364e-06    6.16925416e-01   -8.26475184e-01
170      1.31507275e-06    4.78123619e-01   -5.45325446e-01
171      1.32457185e-06    3.37618419e-01   -2.62233697e-01
172      1.33407095e-06    1.95912715e-01    2.17919176e-02
173      1.34357006e-06    5.35133696e-02    3.05739928e-01
174      1.35306916e-06   -8.90739869e-02    5.88599138e-01
175      1.36256826e-06   -2.31345835e-01    8.69362231e-01
176      1.37206736e-06   -3.72795555e-01    1.14702935e+00
177      1.38156647e-06   -5.12917839e-01    1.42061168e+00
178      1.39106557e-06   -6.51213462e-01    1.68913493e+00
179      1.40056467e-06   -7.87189985e-01    1.95164283e+00
180      1.41006378e-06   -9.20363169e-01    2.20720055e+00
181      1.41956288e-06   -1.05025876e+00    2.45489800e+00
182      1.42906198e-06   -1.17641417e+00    2.69385307e+00
183      1.43856109e-06   -1.29838014e+00    2.92321479e+00
184      1.44806019e-06   -1.41572232e+00    3.14216638e+00
185      1.45755929e-06   -1.52802283e+00    3.34992809e+00
186      1.46705839e-06   -1.63488176e+00    3.54576005e+00
187      1.47655750e-06   -1.73591855e+00    3.72896485e+00
188      1.48605660e-06   -1.83077338e+00    3.89889008e+00
189      1.49555570e-06   -1.91910848e+00    4.05493059e+00
190      1.50505481e-06   -2.00060925e+00    4.19653070e+00
191      1.51455391e-06   -2.07498546e+00    4.32318613e+00
192      1.52405301e-06   -2.14197223e+00    4.43444584e+00
193      1.53355212e-06   -2.20133102e+00    4.52991362e+00
194      1.54305122e-06   -2.25285044e+00    4.60924949e+00
195      1.55255032e-06   -2.29634701e+00    4.67217091e+00
196      1.56204943e-06   -2.33166584e+00    4.71845381e+00
197      1.57154853e-06   -2.35868115e+00    4.74793336e+00
198      1.58104763e-06   -2.37729672e+00    4.76050459e+00
199      1.59054673e-06   -2.38744628e+00    4.75612272e+00
200      1.60004584e-06   -2.38909367e+00    4.73480336e+00
201      1.60954494e-06   -2.38223302e+00    4.69662244e+00
202      1.61904404e-06   -2.36688878e+00    4.64171592e+00
203      1.62854315e-06   -2.34311558e+00    4.57027933e+00
204      1.63804225e-06   -2.31099808e+00    4.48256707e+00
205      1.64754135e-06   -2.27065066e+00    4.37889152e+00
206      1.65704046e-06   -2.22221700e+00    4.25962186e+00
207      1.66653956e-06   -2.16586960e+00    4.12518286e+00
208      1.67603866e-06   -2.10180910e+00    3.97605326e+00
209      1.68553776e-06   -2.03026365e+00    3.81276416e+00
210      1.69503687e-06   -1.95148803e+00    3.63589705e+00
211      1.70453597e-06   -1.86576278e+00    3.44608180e+00
212      1.71403507e-06   -1.77339317e+00    3.24399436e+00
213      1.72353418e-06   -1.67470817e+00    3.03035443e+00
214      1.73303328e-06   -1.57005920e+00    2.80592281e+00
215      1.74253238e-06   -1.45981893e+00    2.57149874e+00
216      1.75203149e-06   -1.34437997e+00    2.32791706e+00
217      1.76153059e-06   -1.22415340e+00    2.07604521e+00
218      1.77102969e-06   -1.09956739e+00    1.81678015e+00
219      1.78052880e-06   -9.71065591e-01    1.55104518e+00
220      1.79002790e-06   -8.39105641e-01    1.27978663e+00
221      1.79952700e-06   -7.04157470e-01    1.00397052e+00
222      1.80902610e-06   -5.66701656e-01    7.24579059e-01
223      1.81852521e-06   -4.27227705e-01    4.42607234e-01
224      1.82802431e-06   -2.86232313e-01    1.59059198e-01
225      1.83752341e-06   -1.44217591e-01   -1.25055279e-01
226      1.84702252e-06   -1.68928107e-03   -4.08724409e-01
227      1.85652162e-06    1.40845044e-01   -6.90937992e-01
228      1.86602072e-06    2.82877793e-01   -9.70691007e-01
229      1.87551983e-06    4.23903158e-01   -1.24698720e+00
230      1.88501893e-06    5.63418920e-01   -1.51884263e+00
231      1.89451803e-06    7.00928236e-01   -1.78528915e+00
232      1.90401713e-06    8.35941409e-01   -2.04537792e+00
233      1.91351624e-06    9.67977630e-01   -2.29818268e+00
234      1.92301534e-06    1.09656669e+00   -2.54280317e+00
235      1.93251444e-06    1.22125066e+00   -2.77836823e+00
236      1.94201355e-06    1.34158552e+00   -3.00403898e+00
237      1.95151265e-06    1.45714273e+00   -3.21901175e+00
238      1.96101175e-06    1.56751076e+00   -3.42252098e+00
239      1.97051086e-06    1.67229658e+00   -3.61384195e+00
240      1.98000996e-06    1.77112702e+00   -3.79229330e+00
241      1.98950906e-06    1.86365013e+00   -3.95723956e+00
242      1.99900817e-06    1.94953642e+00   -4.10809331e+00
243      2.00850727e-06    2.02848002e+00   -4.24431732e+00
244      2.01800637e-06    2.10019980e+00   -4.36542649e+00
245      2.02750547e-06    2.16444036e+00   -4.47098951e+00
246      2.03700458e-06    2.22097292e+00   -4.56063045e+00
247      2.04650368e-06    2.26959615e+00   -4.63403009e+00
248      2.05600278e-06    2.31013691e+00   -4.69092704e+00
249      2.06550189e-06    2.34245082e+00   -4.73111867e+00
250      2.07500099e-06    2.36642279e+00   -4.75446186e+00
251      2.08450009e-06    2.38196747e+00   -4.76087347e+00
252      2.09399920e-06    2.38902949e+00   -4.75033067e+00
253      2.10349830e-06    2.38758371e+00   -4.72287100e+00
254      2.11299740e-06    2.37763527e+00   -4.67859226e+00
255      2.12249651e-06    2.35921961e+00   -4.61765214e+00
256      2.13199561e-06    2.33240229e+00   -4.54026764e+00
257      2.14149471e-06    2.29727884e+00   -4.44671435e+00
258      2.15099381e-06    2.25397432e+00   -4.33732544e+00
259      2.16049292e-06    2.20264295e+00   -4.21249046e+00
260      2.16999202e-06    2.14346754e+00   -4.07265397e+00
261      2.17949112e-06    2.07665882e+00   -3.91831396e+00
262      2.18899023e-06    2.00245471e+00   -3.75002005e+00
263      2.19848933e-06    1.92111946e+00   -3.56837159e+00
264      2.20798843e-06    1.83294272e+00   -3.37401545e+00
265      2.21748754e-06    1.73823852e+00   -3.16764378e+00
266      2.22698664e-06    1.63734410e+00   -2.94999150e+00
267      2.23648574e-06    1.53061878e+00   -2.72183372e+00
268      2.24598484e-06    1.41844263e+00   -2.48398296e+00
269      2.25548395e-06    1.30121512e+00   -2.23728624e+00
270      2.26498305e-06    1.17935373e+00   -1.98262211e+00
271      2.27448215e-06    1.05329243e+00   -1.72089747e+00
272      2.28398126e-06    9.23480142e-01   -1.45304437e+00
273      2.29348036e-06    7.90379162e-01   -1.18001669e+00
274      2.30297946e-06    6.54463486e-01   -9.02786745e-01
275      2.31247857e-06    5.16217137e-01   -6.22341795e-01
276      2.32197767e-06    3.76132437e-01   -3.39680564e-01
277      2.33147677e-06    2.34708255e-01   -5.58096633e-02
278      2.34097588e-06    9.24482312e-02    2.28259987e-01
279      2.35047498e-06   -5.01410194e-02    5.11516759e-01
280      2.35997408e-06   -1.92551708e-01    7.92951918e-01
281      2.36947318e-06   -3.34276682e-01    1.07156322e+00
282      2.37897229e-06   -4.74811231e-01    1.34635847e+00
283      2.38847139e-06   -6.13654883e-01    1.61635908e+00
284      2.39797049e-06   -7.50313190e-01    1.88060351e+00
285      2.40746960e-06   -8.84299483e-01    2.13815075e+00
286      2.41696870e-06   -1.01513661e+00    2.38808361e+00
287      2.42646780e-06   -1.14235864e+00    2.62951203e+00
288      2.43596691e-06   -1.26551250e+00    2.86157624e+00
289      2.44546601e-06   -1.38415962e+00    3.08344981e+00
290      2.45496511e-06   -1.49787748e+00    3.29434262e+00
291      2.46446421e-06   -1.60626110e+00    3.49350361e+00
292      2.47396332e-06   -1.70892451e+00    3.68022356e+00
293      2.48346242e-06   -1.80550211e+00    3.85383750e+00
294      2.49296152e-06   -1.89564995e+00    4.01372717e+00
295      2.50246063e-06   -1.97904701e+00    4.15932317e+00
296      2.51195973e-06   -2.05539629e+00    4.29010699e+00
297      2.52145883e-06   -2.12442590e+00    4.40561290e+00
298      2.53095794e-06   -2.18589002e+00    4.50542955e+00
299      2.54045704e-06   -2.23956975e+00    4.58920149e+00
300      2.54995614e-06   -2.28527392e+00    4.65663037e+00
301      2.55945525e-06   -2.32283979e+00    4.70747607e+00
302      2.56895435e-06   -2.35213357e+00    4.74155752e+00
303      2.57845345e-06   -2.37305094e+00    4.75875335e+00
304      2.58795255e-06   -2.38551740e+00    4.75900233e+00
305      2.59745166e-06   -2.38948857e+00    4.74230356e+00
306      2.60695076e-06   -2.38495030e+00    4.70871651e+00
307      2.61644986e-06   -2.37191874e+00    4.65836079e+00
308      2.62594897e-06   -2.35044032e+00    4.59141573e+00
309      2.63544807e-06   -2.32059152e+00    4.50811974e+00
310      2.64494717e-06   -2.28247863e+00    4.40876944e+00
311      2.65444628e-06   -2.23623739e+00    4.29371865e+00
312      2.66394538e-06   -2.18203247e+00    4.16337708e+00
313      2.67344448e-06   -2.12005690e+00    4.01820890e+00
314      2.68294358e-06   -2.05053138e+00    3.85873109e+00
315      2.69244269e-06   -1.97370353e+00    3.68551158e+00
316      2.70194179e-06   -1.88984692e+00    3.49916724e+00
317      2.71144089e-06   -1.79926020e+00    3.30036167e+00
318      2.72094000e-06   -1.70226595e+00    3.08980286e+00
319      2.73043910e-06   -1.59920961e+00    2.86824066e+00
320      2.73993820e-06   -1.49045816e+00    2.63646408e+00
321      2.74943731e-06   -1.37639889e+00    2.39529854e+00
322      2.75893641e-06   -1.25743800e+00    2.14560287e+00
323      2.76843551e-06   -1.13399913e+00    1.88826628e+00
324      2.77793462e-06   -1.00652186e+00    1.62420521e+00
325      2.78743372e-06   -8.75460162e-01    1.35436002e+00
326      2.79693282e-06   -7.41280783e-01    1.07969168e+00
327      2.80643192e-06   -6.04461557e-01    8.01178357e-01
328      2.81593103e-06   -4.65489724e-01    5.19811877e-01
329      2.82543013e-06   -3.24860191e-01    2.36594243e-01
330      2.83492923e-06   -1.83073766e-01   -4.74659484e-02
331      2.84442834e-06   -4.06353796e-02   -3.31357104e-01
