Index       TIME              V(1)              V(2)       
0        0.00000000e+00    0.00000000e+00    0.00000000e+00
1        5.00000000e-12    0.00000000e+00    0.00000000e+00
2        1.50000000e-11    0.00000000e+00    0.00000000e+00
3        3.50000000e-11    0.00000000e+00    0.00000000e+00
4        7.50000000e-11    0.00000000e+00    0.00000000e+00
5        1.55000000e-10    0.00000000e+00    0.00000000e+00
6        2.55000000e-10    0.00000000e+00    0.00000000e+00
7        3.55000000e-10    0.00000000e+00    0.00000000e+00
8        4.55000000e-10    0.00000000e+00    0.00000000e+00
9        5.55000000e-10    0.00000000e+00    0.00000000e+00
10       6.55000000e-10    0.00000000e+00    0.00000000e+00
11       7.55000000e-10    0.00000000e+00    0.00000000e+00
12       8.55000000e-10    0.00000000e+00    0.00000000e+00
13       9.55000000e-10    0.00000000e+00    0.00000000e+00
14       1.00000000e-09    0.00000000e+00    0.00000000e+00
15       1.00000244e-09    2.44140625e-06    0.00000000e+00
16       1.00000259e-09    2.59399414e-06    0.00000000e+00
17       1.00000273e-09    2.73132324e-06    0.00000000e+00
18       1.00000287e-09    2.86865234e-06    0.00000000e+00
19       1.00000314e-09    3.14331055e-06    0.00000000e+00
20       1.00000369e-09    3.69262695e-06    0.00000000e+00
21       1.00000424e-09    4.24194336e-06    0.00000000e+00
22       1.00000479e-09    4.79125977e-06    0.00000000e+00
23       1.00000534e-09    5.34057617e-06    0.00000000e+00
24       1.00000589e-09    5.88989258e-06    0.00000000e+00
25       1.00000644e-09    6.43920898e-06    0.00000000e+00
26       1.00000754e-09    7.53784180e-06    0.00000000e+00
27       1.00000864e-09    8.63647461e-06    0.00000000e+00
28       1.00000974e-09    9.73510742e-06    0.00000000e+00
29       1.00001083e-09    1.08337402e-05    0.00000000e+00
30       1.00001193e-09    1.19323730e-05    0.00000000e+00
31       1.00001303e-09    1.30310059e-05    0.00000000e+00
32       1.00001413e-09    1.41296387e-05    0.00000000e+00
33       1.00001633e-09    1.63269043e-05    0.00000000e+00
34       1.00001852e-09    1.85241699e-05    0.00000000e+00
35       1.00002072e-09    2.07214355e-05    0.00000000e+00
36       1.00002292e-09    2.29187012e-05    0.00000000e+00
37       1.00002512e-09    2.51159668e-05    0.00000000e+00
38       1.00002731e-09    2.73132324e-05    0.00000000e+00
39       1.00002951e-09    2.95104980e-05    0.00000000e+00
40       1.00003391e-09    3.39050293e-05    0.00000000e+00
41       1.00003830e-09    3.82995605e-05    0.00000000e+00
42       1.00004269e-09    4.26940918e-05    0.00000000e+00
43       1.00004709e-09    4.70886230e-05    0.00000000e+00
44       1.00005148e-09    5.14831543e-05    0.00000000e+00
45       1.00005588e-09    5.58776855e-05    0.00000000e+00
46       1.00006027e-09    6.02722168e-05    0.00000000e+00
47       1.00006906e-09    6.90612793e-05    0.00000000e+00
48       1.00007785e-09    7.78503418e-05    0.00000000e+00
49       1.00008664e-09    8.66394043e-05    0.00000000e+00
50       1.00009543e-09    9.54284668e-05    0.00000000e+00
51       1.00010422e-09    1.04217529e-04    0.00000000e+00
52       1.00011301e-09    1.13006592e-04    0.00000000e+00
53       1.00012180e-09    1.21795654e-04    0.00000000e+00
54       1.00013937e-09    1.39373779e-04    0.00000000e+00
55       1.00015695e-09    1.56951904e-04    0.00000000e+00
56       1.00017453e-09    1.74530029e-04    0.00000000e+00
57       1.00019211e-09    1.92108154e-04    0.00000000e+00
58       1.00020969e-09    2.09686279e-04    0.00000000e+00
59       1.00022726e-09    2.27264404e-04    0.00000000e+00
60       1.00024484e-09    2.44842529e-04    0.00000000e+00
61       1.00026242e-09    2.62420654e-04    0.00000000e+00
62       1.00029758e-09    2.97576904e-04    0.00000000e+00
63       1.00033273e-09    3.32733154e-04    0.00000000e+00
64       1.00036789e-09    3.67889404e-04    0.00000000e+00
65       1.00040305e-09    4.03045654e-04    0.00000000e+00
66       1.00043820e-09    4.38201904e-04    0.00000000e+00
67       1.00047336e-09    4.73358154e-04    0.00000000e+00
68       1.00050851e-09    5.08514404e-04    0.00000000e+00
69       1.00057883e-09    5.78826904e-04    0.00000000e+00
70       1.00064914e-09    6.49139404e-04    0.00000000e+00
71       1.00071945e-09    7.19451904e-04    0.00000000e+00
72       1.00078976e-09    7.89764404e-04    0.00000000e+00
73       1.00086008e-09    8.60076904e-04    0.00000000e+00
74       1.00093039e-09    9.30389404e-04    0.00000000e+00
75       1.00100070e-09    1.00070190e-03    0.00000000e+00
76       1.00107101e-09    1.07101440e-03    0.00000000e+00
77       1.00121164e-09    1.21163940e-03    0.00000000e+00
78       1.00135226e-09    1.35226440e-03    0.00000000e+00
79       1.00149289e-09    1.49288940e-03    0.00000000e+00
80       1.00163351e-09    1.63351440e-03    0.00000000e+00
81       1.00177414e-09    1.77413940e-03    0.00000000e+00
82       1.00191476e-09    1.91476440e-03    0.00000000e+00
83       1.00205539e-09    2.05538940e-03    0.00000000e+00
84       1.00233664e-09    2.33663940e-03    0.00000000e+00
85       1.00261789e-09    2.61788940e-03    0.00000000e+00
86       1.00289914e-09    2.89913940e-03    0.00000000e+00
87       1.00318039e-09    3.18038940e-03    0.00000000e+00
88       1.00346164e-09    3.46163940e-03    0.00000000e+00
89       1.00374289e-09    3.74288940e-03  -5.42541738e-291
90       1.00402414e-09    4.02413940e-03  -9.91340424e-271
91       1.00430539e-09    4.30538940e-03  -4.06881842e-253
92       1.00486789e-09    4.86788940e-03  -7.53623765e-224
93       1.00543039e-09    5.43038940e-03  -9.10613028e-201
94       1.00599289e-09    5.99288940e-03  -5.08144559e-182
95       1.00655539e-09    6.55538940e-03  -1.71180226e-166
96       1.00711789e-09    7.11788940e-03  -2.01897785e-153
97       1.00768039e-09    7.68038940e-03  -2.88895709e-142
98       1.00824289e-09    8.24288940e-03  -1.23780835e-132
99       1.00936789e-09    9.36788940e-03  -1.08021326e-116
100      1.01049289e-09    1.04928894e-02  -2.72551540e-104
101      1.01161789e-09    1.16178894e-02   -2.71145617e-94
102      1.01274289e-09    1.27428894e-02   -4.61049335e-86
103      1.01386789e-09    1.38678894e-02   -3.60850395e-79
104      1.01499289e-09    1.49928894e-02   -2.60031238e-73
105      1.01611789e-09    1.61178894e-02   -2.84346829e-68
106      1.01724289e-09    1.72428894e-02   -6.82587783e-64
107      1.01949289e-09    1.94928894e-02   -1.67942594e-56
108      1.02174289e-09    2.17428894e-02   -9.22888686e-51
109      1.02399289e-09    2.39928894e-02   -4.23077872e-46
110      1.02624289e-09    2.62428894e-02    5.29580972e-46
111      1.02849289e-09    2.84928894e-02    6.99397124e-43
112      1.03074289e-09    3.07428894e-02    4.81598251e-40
113      1.03299289e-09    3.29928894e-02    1.37131006e-37
114      1.03749289e-09    3.74928894e-02    2.07731939e-33
115      1.04199289e-09    4.19928894e-02    3.11605237e-30
116      1.04649289e-09    4.64928894e-02    1.15301229e-27
117      1.05099289e-09    5.09928894e-02    1.52396109e-25
118      1.05549289e-09    5.54928894e-02    9.24345959e-24
119      1.05999289e-09    5.99928894e-02    3.06633935e-22
120      1.06449289e-09    6.44928894e-02    6.31285116e-21
121      1.06899289e-09    6.89928894e-02    8.85438510e-20
122      1.07799289e-09    7.79928894e-02    9.40704976e-18
123      1.08699289e-09    8.69928894e-02    3.07757604e-16
124      1.09599289e-09    9.59928894e-02    5.33888994e-15
125      1.10499289e-09    1.04992889e-01    5.78825686e-14
126      1.11399289e-09    1.13992889e-01    4.38089206e-13
127      1.12299289e-09    1.22992889e-01    2.50256533e-12
128      1.13199289e-09    1.31992889e-01    1.14190744e-11
129      1.14999289e-09    1.49992889e-01    1.69093124e-10
130      1.16799289e-09    1.67992889e-01    1.23847410e-09
131      1.18599289e-09    1.85992889e-01    6.28725708e-09
132      1.20399289e-09    2.03992889e-01    2.44656516e-08
133      1.22199289e-09    2.21992889e-01    7.77445178e-08
134      1.23999289e-09    2.39992889e-01    2.10838207e-07
135      1.25799289e-09    2.57992889e-01    5.03798809e-07
136      1.27599289e-09    2.75992889e-01    1.08618470e-06
137      1.31199289e-09    3.11992889e-01    4.27422398e-06
138      1.34799289e-09    3.47992889e-01    1.22327244e-05
139      1.38399289e-09    3.83992889e-01    2.91305512e-05
140      1.41999289e-09    4.19992889e-01    6.07463559e-05
141      1.45599289e-09    4.55992889e-01    1.14407061e-04
142      1.49199289e-09    4.91992889e-01    1.98792012e-04
143      1.52799289e-09    5.27992889e-01    3.23662151e-04
144      1.59999289e-09    5.99992889e-01    7.62299168e-04
145      1.67199289e-09    6.71992889e-01    1.49451772e-03
146      1.74399289e-09    7.43992889e-01    2.61069442e-03
147      1.81599289e-09    8.15992889e-01    4.19416270e-03
148      1.88799289e-09    8.87992889e-01    6.31951342e-03
149      1.95999289e-09    9.59992889e-01    9.05146986e-03
150      2.00000000e-09    1.00000000e+00    1.08113688e-02
151      2.00045000e-09    1.00000000e+00    1.08313642e-02
152      2.00063628e-09    1.00000000e+00    1.08396709e-02
153      2.00080394e-09    1.00000000e+00    1.08471643e-02
154      2.00097160e-09    1.00000000e+00    1.08546722e-02
155      2.00130691e-09    1.00000000e+00    1.08697304e-02
156      2.00197753e-09    1.00000000e+00    1.08999855e-02
157      2.00331878e-09    1.00000000e+00    1.09609456e-02
158      2.00600128e-09    1.00000000e+00    1.10843128e-02
159      2.01136628e-09    1.00000000e+00    1.13357676e-02
160      2.01673127e-09    1.00000000e+00    1.15920227e-02
161      2.02209627e-09    1.00000000e+00    1.18528677e-02
162      2.03282626e-09    1.00000000e+00    1.23895773e-02
163      2.04355625e-09    1.00000000e+00    1.29428298e-02
164      2.05428624e-09    1.00000000e+00    1.35127199e-02
165      2.07574622e-09    1.00000000e+00    1.47091889e-02
166      2.11866618e-09    1.00000000e+00    1.73239409e-02
167      2.16158614e-09    1.00000000e+00    2.01985966e-02
168      2.20450611e-09    1.00000000e+00    2.33437474e-02
169      2.24742607e-09    1.00000000e+00    2.67653782e-02
170      2.29034603e-09    1.00000000e+00    3.04669139e-02
171      2.33326599e-09    1.00000000e+00    3.44488766e-02
172      2.37618595e-09    1.00000000e+00    3.87082318e-02
173      2.46202588e-09    1.00000000e+00    4.81310379e-02
174      2.54786580e-09    1.00000000e+00    5.84862312e-02
175      2.63370573e-09    1.00000000e+00    6.96583679e-02
176      2.71954565e-09    1.00000000e+00    8.15010137e-02
177      2.80538558e-09    1.00000000e+00    9.38642725e-02
178      2.95538558e-09    1.00000000e+00    1.16376650e-01
179      3.10538558e-09    1.00000000e+00    1.39351910e-01
180      3.25538558e-09    1.00000000e+00    1.62358181e-01
181      3.40538558e-09    1.00000000e+00    1.85074693e-01
182      3.55538558e-09    1.00000000e+00    2.07278791e-01
183      3.70538558e-09    1.00000000e+00    2.28823347e-01
184      3.85538558e-09    1.00000000e+00    2.49616689e-01
185      4.00538558e-09    1.00000000e+00    2.69606869e-01
186      4.15538558e-09    1.00000000e+00    2.88769923e-01
187      4.30538558e-09    1.00000000e+00    3.07101304e-01
188      4.45538558e-09    1.00000000e+00    3.24609719e-01
189      4.60538558e-09    1.00000000e+00    3.41312741e-01
190      4.75538558e-09    1.00000000e+00    3.57233696e-01
191      4.90538558e-09    1.00000000e+00    3.72399471e-01
192      5.05538558e-09    1.00000000e+00    3.86838981e-01
193      5.20538558e-09    1.00000000e+00    4.00582096e-01
194      5.35538558e-09    1.00000000e+00    4.13658915e-01
195      5.50538558e-09    1.00000000e+00    4.26099256e-01
196      5.65538558e-09    1.00000000e+00    4.37932328e-01
197      5.80538558e-09    1.00000000e+00    4.49186512e-01
198      5.95538558e-09    1.00000000e+00    4.59889227e-01
199      6.10538558e-09    1.00000000e+00    4.70066849e-01
200      6.25538558e-09    1.00000000e+00    4.79744678e-01
201      6.40538558e-09    1.00000000e+00    4.88946925e-01
202      6.55538558e-09    1.00000000e+00    4.97696720e-01
203      6.70538558e-09    1.00000000e+00    5.06016137e-01
204      6.85538558e-09    1.00000000e+00    5.13926219e-01
205      7.00538558e-09    1.00000000e+00    5.21447014e-01
206      7.15538558e-09    1.00000000e+00    5.28597613e-01
207      7.30538558e-09    1.00000000e+00    5.35396190e-01
208      7.45538558e-09    1.00000000e+00    5.41860036e-01
209      7.60538558e-09    1.00000000e+00    5.48005604e-01
210      7.75538558e-09    1.00000000e+00    5.53848546e-01
211      7.90538558e-09    1.00000000e+00    5.59403746e-01
212      8.05538558e-09    1.00000000e+00    5.64685364e-01
213      8.20538558e-09    1.00000000e+00    5.69706862e-01
214      8.35538558e-09    1.00000000e+00    5.74481043e-01
215      8.50538558e-09    1.00000000e+00    5.79020082e-01
216      8.65538558e-09    1.00000000e+00    5.83335555e-01
217      8.80538558e-09    1.00000000e+00    5.87438470e-01
218      8.95538558e-09    1.00000000e+00    5.91339291e-01
219      9.10538558e-09    1.00000000e+00    5.95047972e-01
220      9.25538558e-09    1.00000000e+00    5.98573972e-01
221      9.40538558e-09    1.00000000e+00    6.01926289e-01
222      9.55538558e-09    1.00000000e+00    6.05113475e-01
223      9.70538558e-09    1.00000000e+00    6.08143664e-01
224      9.85538558e-09    1.00000000e+00    6.11024587e-01
225      1.00053856e-08    1.00000000e+00    6.13763597e-01
226      1.01553856e-08    1.00000000e+00    6.16367681e-01
227      1.03053856e-08    1.00000000e+00    6.18843487e-01
228      1.04553856e-08    1.00000000e+00    6.21197332e-01
229      1.06053856e-08    1.00000000e+00    6.23435224e-01
230      1.07553856e-08    1.00000000e+00    6.25562874e-01
231      1.09053856e-08    1.00000000e+00    6.27585712e-01
232      1.10553856e-08    1.00000000e+00    6.29508901e-01
233      1.12053856e-08    1.00000000e+00    6.31337349e-01
234      1.13553856e-08    1.00000000e+00    6.33075724e-01
235      1.15053856e-08    1.00000000e+00    6.34728462e-01
236      1.16553856e-08    1.00000000e+00    6.36299782e-01
237      1.18053856e-08    1.00000000e+00    6.37793695e-01
238      1.19553856e-08    1.00000000e+00    6.39214013e-01
239      1.21053856e-08    1.00000000e+00    6.40564362e-01
240      1.22553856e-08    1.00000000e+00    6.41848190e-01
241      1.24053856e-08    1.00000000e+00    6.43068772e-01
242      1.25553856e-08    1.00000000e+00    6.44229225e-01
243      1.27053856e-08    1.00000000e+00    6.45332511e-01
244      1.28553856e-08    1.00000000e+00    6.46381445e-01
245      1.30053856e-08    1.00000000e+00    6.47378707e-01
246      1.31553856e-08    1.00000000e+00    6.48326841e-01
247      1.33053856e-08    1.00000000e+00    6.49228268e-01
248      1.34553856e-08    1.00000000e+00    6.50085288e-01
249      1.36053856e-08    1.00000000e+00    6.50900089e-01
250      1.37553856e-08    1.00000000e+00    6.51674752e-01
251      1.39053856e-08    1.00000000e+00    6.52411254e-01
252      1.40553856e-08    1.00000000e+00    6.53111475e-01
253      1.42053856e-08    1.00000000e+00    6.53777202e-01
254      1.43553856e-08    1.00000000e+00    6.54410135e-01
255      1.45053856e-08    1.00000000e+00    6.55011890e-01
256      1.46553856e-08    1.00000000e+00    6.55584002e-01
257      1.48053856e-08    1.00000000e+00    6.56127932e-01
258      1.49553856e-08    1.00000000e+00    6.56645068e-01
259      1.51053856e-08    1.00000000e+00    6.57136731e-01
260      1.52553856e-08    1.00000000e+00    6.57604176e-01
261      1.54053856e-08    1.00000000e+00    6.58048595e-01
262      1.55553856e-08    1.00000000e+00    6.58471124e-01
263      1.57053856e-08    1.00000000e+00    6.58872840e-01
264      1.58553856e-08    1.00000000e+00    6.59254770e-01
265      1.60053856e-08    1.00000000e+00    6.59617888e-01
266      1.61553856e-08    1.00000000e+00    6.59963120e-01
267      1.63053856e-08    1.00000000e+00    6.60291349e-01
268      1.64553856e-08    1.00000000e+00    6.60603411e-01
269      1.66053856e-08    1.00000000e+00    6.60900104e-01
270      1.67553856e-08    1.00000000e+00    6.61182185e-01
271      1.69053856e-08    1.00000000e+00    6.61450373e-01
272      1.70553856e-08    1.00000000e+00    6.61705353e-01
273      1.72053856e-08    1.00000000e+00    6.61947776e-01
274      1.73553856e-08    1.00000000e+00    6.62178261e-01
275      1.75053856e-08    1.00000000e+00    6.62397395e-01
276      1.76553856e-08    1.00000000e+00    6.62605738e-01
277      1.78053856e-08    1.00000000e+00    6.62803822e-01
278      1.79553856e-08    1.00000000e+00    6.62992152e-01
279      1.81053856e-08    1.00000000e+00    6.63171209e-01
280      1.82553856e-08    1.00000000e+00    6.63341449e-01
281      1.84053856e-08    1.00000000e+00    6.63503307e-01
282      1.85553856e-08    1.00000000e+00    6.63657196e-01
283      1.87053856e-08    1.00000000e+00    6.63803509e-01
284      1.88553856e-08    1.00000000e+00    6.63942618e-01
285      1.90053856e-08    1.00000000e+00    6.64074880e-01
286      1.91553856e-08    1.00000000e+00    6.64200630e-01
287      1.93053856e-08    1.00000000e+00    6.64320191e-01
288      1.94553856e-08    1.00000000e+00    6.64433866e-01
289      1.96053856e-08    1.00000000e+00    6.64541946e-01
290      1.97553856e-08    1.00000000e+00    6.64644707e-01
291      1.99053856e-08    1.00000000e+00    6.64742411e-01
292      2.00553856e-08    1.00000000e+00    6.64835306e-01
293      2.02053856e-08    1.00000000e+00    6.64923630e-01
294      2.03553856e-08    1.00000000e+00    6.65007608e-01
295      2.05053856e-08    1.00000000e+00    6.65087454e-01
296      2.06553856e-08    1.00000000e+00    6.65163371e-01
297      2.08053856e-08    1.00000000e+00    6.65235554e-01
298      2.09553856e-08    1.00000000e+00    6.65304185e-01
299      2.11053856e-08    1.00000000e+00    6.65369441e-01
300      2.12553856e-08    1.00000000e+00    6.65431487e-01
301      2.14053856e-08    1.00000000e+00    6.65490482e-01
302      2.15553856e-08    1.00000000e+00    6.65546575e-01
303      2.17053856e-08    1.00000000e+00    6.65599911e-01
304      2.18553856e-08    1.00000000e+00    6.65650624e-01
305      2.20000000e-08    1.00000000e+00    6.65697173e-01
306      2.20009375e-08    9.99062500e-01    6.65697473e-01
307      2.20012525e-08    9.98747504e-01    6.65697574e-01
308      2.20015360e-08    9.98464007e-01    6.65697665e-01
309      2.20018195e-08    9.98180510e-01    6.65697756e-01
310      2.20023865e-08    9.97613516e-01    6.65697938e-01
311      2.20035205e-08    9.96479529e-01    6.65698300e-01
312      2.20057884e-08    9.94211555e-01    6.65699024e-01
313      2.20103244e-08    9.89675606e-01    6.65700467e-01
314      2.20193963e-08    9.80603709e-01    6.65703339e-01
315      2.20284682e-08    9.71531812e-01    6.65706199e-01
316      2.20375401e-08    9.62459915e-01    6.65709046e-01
317      2.20556839e-08    9.44316121e-01    6.65714704e-01
318      2.20738277e-08    9.26172327e-01    6.65720322e-01
319      2.20919715e-08    9.08028532e-01    6.65725903e-01
320      2.21101153e-08    8.89884738e-01    6.65731445e-01
321      2.21282591e-08    8.71740944e-01    6.65736952e-01
322      2.21464029e-08    8.53597150e-01    6.65742423e-01
323      2.21826904e-08    8.17309561e-01    6.65753239e-01
324      2.22189780e-08    7.81021973e-01    6.65763858e-01
325      2.22552656e-08    7.44734384e-01    6.65773983e-01
326      2.22915532e-08    7.08446796e-01    6.65782726e-01
327      2.23278408e-08    6.72159207e-01    6.65788161e-01
328      2.23641284e-08    6.35871619e-01    6.65786942e-01
329      2.24004160e-08    5.99584030e-01    6.65774082e-01
330      2.24367036e-08    5.63296442e-01    6.65742935e-01
331      2.25092787e-08    4.90721265e-01    6.65577519e-01
