Index       TIME              V(VI)             V(1)       
0        0.00000000e+00    0.00000000e+00    2.99152990e+00
1        1.00000000e-08    1.56976299e-01    2.99118019e+00
2        3.00000000e-08    4.68453286e-01    2.99027771e+00
3        5.00000000e-08    7.72542486e-01    2.98027168e+00
4        7.00000000e-08    1.06444823e+00    2.94241683e+00
5        8.80000000e-08    1.31293657e+00    2.87875773e+00
6        1.06000000e-07    1.54464903e+00    2.77616093e+00
7        1.08770431e-07    1.57863085e+00    2.75543326e+00
8        1.11540862e-07    1.61213435e+00    2.73287292e+00
9        1.17081723e-07    1.67766590e+00    2.68141545e+00
10       1.22622585e-07    1.74116427e+00    2.61847871e+00
11       1.28163447e-07    1.80255251e+00    2.53793502e+00
12       1.33704308e-07    1.86175621e+00    2.42585833e+00
13       1.34500786e-07    1.87008269e+00    2.40525350e+00
14       1.35297263e-07    1.87836233e+00    2.38295422e+00
15       1.36890218e-07    1.89478028e+00    2.33220065e+00
16       1.38483172e-07    1.91100842e+00    2.26952149e+00
17       1.40076127e-07    1.92704512e+00    2.18916022e+00
18       1.41669082e-07    1.94288878e+00    2.08244862e+00
19       1.43262036e-07    1.95853780e+00    1.94643960e+00
20       1.44854991e-07    1.97399063e+00    1.78692149e+00
21       1.46447946e-07    1.98924572e+00    1.61539710e+00
22       1.49633855e-07    2.01915655e+00    1.26911196e+00
23       1.50135366e-07    2.02379158e+00    1.21777003e+00
24       1.50636877e-07    2.02840650e+00    1.16776937e+00
25       1.51639899e-07    2.03757589e+00    1.07320912e+00
26       1.52642921e-07    2.04666435e+00    9.88083599e-01
27       1.53645943e-07    2.05567152e+00    9.13876510e-01
28       1.54648965e-07    2.06459705e+00    8.50732233e-01
29       1.55651986e-07    2.07344058e+00    7.97583859e-01
30       1.56655008e-07    2.08220175e+00    7.52742171e-01
31       1.57658030e-07    2.09088023e+00    7.14426606e-01
32       1.59664074e-07    2.10798771e+00    6.52050454e-01
33       1.63676162e-07    2.14119533e+00    5.61915446e-01
34       1.67688249e-07    2.17304235e+00    4.97472902e-01
35       1.71700337e-07    2.20350851e+00    4.47754046e-01
36       1.79724512e-07    2.26022175e+00    3.74557466e-01
37       1.87748688e-07    2.31119092e+00    3.22705524e-01
38       1.95772863e-07    2.35628649e+00    2.84290221e-01
39       2.03797038e-07    2.39539385e+00    2.55243905e-01
40       2.11821214e-07    2.42841362e+00    2.33234358e-01
41       2.19845389e-07    2.45526189e+00    2.16776818e-01
42       2.27869564e-07    2.47587042e+00    2.04932523e-01
43       2.35893740e-07    2.49018683e+00    1.97065742e-01
44       2.43917915e-07    2.49817475e+00    1.92805615e-01
45       2.51942090e-07    2.49981388e+00    1.91937901e-01
46       2.59966266e-07    2.49510004e+00    1.94436515e-01
47       2.67990441e-07    2.48404522e+00    2.00403456e-01
48       2.76014616e-07    2.46667751e+00    2.10138020e-01
49       2.84038792e-07    2.44304105e+00    2.24116595e-01
50       2.92062967e-07    2.41319591e+00    2.43120225e-01
51       3.00087142e-07    2.37721794e+00    2.68305849e-01
52       3.08111318e-07    2.33519857e+00    3.01521162e-01
53       3.16135493e-07    2.28724459e+00    3.45769377e-01
54       3.24159668e-07    2.23347786e+00    4.06562132e-01
55       3.32183844e-07    2.17403503e+00    4.95687746e-01
56       3.39405601e-07    2.11580798e+00    6.27841234e-01
57       3.40124555e-07    2.10977082e+00    6.46320145e-01
58       3.40843508e-07    2.10369061e+00    6.66368597e-01
59       3.42281415e-07    2.09140152e+00    7.12299897e-01
60       3.43719321e-07    2.07894172e+00    7.68614874e-01
61       3.45157228e-07    2.06631223e+00    8.39724053e-01
62       3.46595134e-07    2.05351409e+00    9.30674823e-01
63       3.48033041e-07    2.04054832e+00    1.04429859e+00
64       3.49470947e-07    2.02741600e+00    1.17835818e+00
65       3.50908854e-07    2.01411819e+00    1.32632108e+00
66       3.52346761e-07    2.00065598e+00    1.48238937e+00
67       3.55222574e-07    1.97324277e+00    1.79515649e+00
68       3.57810806e-07    1.94801979e+00    2.04118018e+00
69       3.59987434e-07    1.92640892e+00    2.19274803e+00
70       3.61732018e-07    1.90882733e+00    2.27890011e+00
71       3.63476601e-07    1.89101638e+00    2.34474614e+00
72       3.65221185e-07    1.87297823e+00    2.39766131e+00
73       3.66965768e-07    1.85471502e+00    2.44199926e+00
74       3.70454935e-07    1.81752229e+00    2.51386574e+00
75       3.77433269e-07    1.74053459e+00    2.61917766e+00
76       3.84411603e-07    1.66020127e+00    2.69620802e+00
77       3.91389936e-07    1.57667675e+00    2.75668246e+00
78       3.98368270e-07    1.49012158e+00    2.80573119e+00
79       4.05346604e-07    1.40070212e+00    2.84635780e+00
80       4.12324938e-07    1.30859027e+00    2.88019355e+00
81       4.19303271e-07    1.21396308e+00    2.90844607e+00
82       4.33259939e-07    1.01789470e+00    2.95075180e+00
83       4.47216606e-07    8.14003792e-01    2.97685695e+00
84       4.61173274e-07    6.03857245e-01    2.98851822e+00
85       4.75129942e-07    3.89070045e-01    2.99059137e+00
86       4.89086609e-07    1.71292835e-01    2.99113990e+00
87       5.03043277e-07   -4.78007637e-02    2.99163386e+00
88       5.30956612e-07   -4.83204997e-01    2.99241240e+00
89       5.58869947e-07   -9.03784012e-01    2.99303510e+00
90       5.86783282e-07   -1.29663402e+00    2.99349510e+00
91       6.11905283e-07   -1.61650525e+00    2.99383391e+00
92       6.34515085e-07   -1.87023174e+00    2.99405614e+00
93       6.57124886e-07   -2.08627761e+00    2.99424618e+00
94       6.77473707e-07   -2.24488721e+00    2.99436067e+00
95       6.97822529e-07   -2.36684959e+00    2.99446020e+00
96       7.18171350e-07   -2.45017374e+00    2.99451090e+00
97       7.36485289e-07   -2.49099213e+00    2.99454836e+00
98       7.54799228e-07   -2.49886347e+00    2.99454499e+00
99       7.73113167e-07   -2.47368367e+00    2.99453629e+00
100      7.91427106e-07   -2.41578577e+00    2.99448648e+00
101      8.09741045e-07   -2.32593554e+00    2.99443030e+00
102      8.28054985e-07   -2.20532139e+00    2.99433044e+00
103      8.46368924e-07   -2.05553862e+00    2.99422139e+00
104      8.64682863e-07   -1.87856833e+00    2.99406339e+00
105      8.82996802e-07   -1.67675120e+00    2.99389107e+00
106      9.01310741e-07   -1.45275658e+00    2.99366104e+00
107      9.19624680e-07   -1.20954711e+00    2.99340830e+00
108      9.37938619e-07   -9.50339596e-01    2.99308414e+00
109      9.56252558e-07   -6.78562446e-01    2.99272405e+00
110      9.74566498e-07   -3.97810309e-01    2.99227153e+00
111      9.92880437e-07   -1.11796545e-01    2.99176255e+00
112      1.02950831e-06    4.60864494e-01    2.99030796e+00
113      1.03570500e-06    5.56160144e-01    2.98947097e+00
114      1.04809837e-06    7.44079299e-01    2.98228394e+00
115      1.06049174e-06    9.27488851e-01    2.96432295e+00
116      1.07288512e-06    1.10527722e+00    2.93427386e+00
117      1.08527849e-06    1.27636688e+00    2.89048935e+00
118      1.09767186e-06    1.43972094e+00    2.82969236e+00
119      1.11006523e-06    1.59434935e+00    2.74512489e+00
120      1.12245860e-06    1.73931496e+00    2.62051911e+00
121      1.12406753e-06    1.75737953e+00    2.59953193e+00
122      1.12567646e-06    1.77526450e+00    2.57684263e+00
123      1.12889431e-06    1.81048837e+00    2.52551269e+00
124      1.13211216e-06    1.84497217e+00    2.46288452e+00
125      1.13533002e-06    1.87870180e+00    2.38197063e+00
126      1.13854787e-06    1.91166348e+00    2.26679583e+00
127      1.13902001e-06    1.91643440e+00    2.24488096e+00
128      1.13949216e-06    1.92118846e+00    2.22114468e+00
129      1.14043644e-06    1.93064581e+00    2.16759719e+00
130      1.14138073e-06    1.94003519e+00    2.10404955e+00
131      1.14232502e-06    1.94935629e+00    2.02991152e+00
132      1.14326930e-06    1.95860876e+00    1.94561205e+00
133      1.14421359e-06    1.96779229e+00    1.85327256e+00
134      1.14515788e-06    1.97690654e+00    1.75502939e+00
135      1.14704645e-06    1.99492596e+00    1.54935784e+00
136      1.14893503e-06    2.01266448e+00    1.34295212e+00
137      1.15082360e-06    2.03011961e+00    1.14960814e+00
138      1.15271218e-06    2.04728888e+00    9.82566127e-01
139      1.15460075e-06    2.06416988e+00    8.53545532e-01
140      1.15630047e-06    2.07911434e+00    7.67740909e-01
141      1.15800018e-06    2.09382168e+00    7.02615076e-01
142      1.15969990e-06    2.10829020e+00    6.51052258e-01
143      1.16139962e-06    2.12251827e+00    6.08736360e-01
144      1.16479905e-06    2.15024656e+00    5.41930612e-01
145      1.17159792e-06    2.20274811e+00    4.48897800e-01
146      1.17839678e-06    2.25123054e+00    3.84878627e-01
147      1.18519565e-06    2.29560538e+00    3.37485519e-01
148      1.19199452e-06    2.33579167e+00    3.01013201e-01
149      1.19879339e-06    2.37171608e+00    2.72411249e-01
150      1.20559225e-06    2.40331306e+00    2.49769229e-01
151      1.21239112e-06    2.43052497e+00    2.31897668e-01
152      1.21918999e-06    2.45330216e+00    2.17935918e-01
153      1.22598885e-06    2.47160305e+00    2.07335001e-01
154      1.23278772e-06    2.48539427e+00    1.99664208e-01
155      1.23958659e-06    2.49465065e+00    1.94677546e-01
156      1.24638546e-06    2.49935530e+00    1.92177769e-01
157      1.25318432e-06    2.49949963e+00    1.92108327e-01
158      1.25998319e-06    2.49508339e+00    1.94440336e-01
159      1.26678206e-06    2.48611462e+00    1.99278043e-01
160      1.27358092e-06    2.47260970e+00    2.06759346e-01
161      1.28037979e-06    2.45459327e+00    2.17177477e-01
162      1.28717866e-06    2.43209819e+00    2.30898081e-01
163      1.29397752e-06    2.40516552e+00    2.48514858e-01
164      1.30077639e-06    2.37384439e+00    2.70808997e-01
165      1.30757526e-06    2.33819195e+00    2.99002925e-01
166      1.31437413e-06    2.29827326e+00    3.34885273e-01
167      1.32117299e-06    2.25416114e+00    3.81477483e-01
168      1.32797186e-06    2.20593609e+00    4.44163549e-01
169      1.33477073e-06    2.15368610e+00    5.34736188e-01
170      1.33585737e-06    2.14496836e+00    5.53404144e-01
171      1.33694401e-06    2.13615064e+00    5.73755476e-01
172      1.33911729e-06    2.11821687e+00    6.20811606e-01
173      1.34129057e-06    2.09988814e+00    6.79741935e-01
174      1.34346385e-06    2.08116786e+00    7.57676135e-01
175      1.34563713e-06    2.06205953e+00    8.67647672e-01
176      1.34759308e-06    2.04453319e+00    1.00714240e+00
177      1.34935344e-06    2.02849540e+00    1.16679757e+00
178      1.35111380e-06    2.01220944e+00    1.34819727e+00
179      1.35287416e-06    1.99567732e+00    1.54053571e+00
180      1.35523709e-06    1.97310271e+00    1.79667044e+00
181      1.35760003e-06    1.95009319e+00    2.02352293e+00
182      1.35971022e-06    1.92918139e+00    2.17647949e+00
183      1.36145173e-06    1.91166752e+00    2.26668395e+00
184      1.36319325e-06    1.89392475e+00    2.33508926e+00
185      1.36493476e-06    1.87595523e+00    2.38964262e+00
186      1.36667627e-06    1.85776109e+00    2.43512296e+00
187      1.37015930e-06    1.82070772e+00    2.50843101e+00
188      1.37712536e-06    1.74400326e+00    2.61525352e+00
189      1.38409141e-06    1.66395831e+00    2.69309134e+00
190      1.39105747e-06    1.58072617e+00    2.75408974e+00
191      1.39802352e-06    1.49446628e+00    2.80352395e+00
192      1.40498958e-06    1.40534385e+00    2.84445542e+00
193      1.41195563e-06    1.31352960e+00    2.87855099e+00
194      1.41892169e-06    1.21919939e+00    2.90703363e+00
195      1.43285380e-06    1.02371828e+00    2.94976096e+00
196      1.44678591e-06    8.20397521e-01    2.97627563e+00
197      1.46071802e-06    6.10794146e-01    2.98833882e+00
198      1.47465013e-06    3.96513299e-01    2.99056800e+00
199      1.48858224e-06    1.79195948e-01    2.99112155e+00
200      1.50251435e-06   -3.94936890e-02    2.99161663e+00
201      1.53037857e-06   -4.74293220e-01    2.99239814e+00
202      1.55824279e-06   -8.94591988e-01    2.99302292e+00
203      1.58610701e-06   -1.28754002e+00    2.99348521e+00
204      1.61397124e-06   -1.64112356e+00    2.99385731e+00
205      1.63904903e-06   -1.91672711e+00    2.99409639e+00
206      1.66161905e-06   -2.12433752e+00    2.99427639e+00
207      1.68193207e-06   -2.27482257e+00    2.99438336e+00
208      1.70224509e-06   -2.38830209e+00    2.99447560e+00
209      1.72255810e-06   -2.46293007e+00    2.99451999e+00
210      1.74083982e-06   -2.49586040e+00    2.99455164e+00
211      1.75912154e-06   -2.49589525e+00    2.99454304e+00
212      1.77740325e-06   -2.46303415e+00    2.99452873e+00
213      1.79568497e-06   -2.39771020e+00    2.99447363e+00
214      1.81396668e-06   -2.30078440e+00    2.99441161e+00
215      1.83224840e-06   -2.17353421e+00    2.99430595e+00
216      1.85053011e-06   -2.01763679e+00    2.99419032e+00
217      1.86881183e-06   -1.83514689e+00    2.99402549e+00
218      1.88709354e-06   -1.62846971e+00    2.99384525e+00
219      1.90537526e-06   -1.40032927e+00    2.99360665e+00
220      1.92365697e-06   -1.15373246e+00    2.99334382e+00
221      1.94193869e-06   -8.91929441e-01    2.99300836e+00
222      1.96022041e-06   -6.18370771e-01    2.99263482e+00
223      1.97850212e-06   -3.36661962e-01    2.99216681e+00
224      2.01506555e-06    2.36295879e-01    2.99099815e+00
225      2.05162898e-06    7.96837230e-01    2.97832913e+00
226      2.05600914e-06    8.61742081e-01    2.97215807e+00
227      2.06038930e-06    9.25994268e-01    2.96451964e+00
228      2.06914961e-06    1.05234653e+00    2.94468093e+00
229      2.08667024e-06    1.29511555e+00    2.88459246e+00
230      2.10419087e-06    1.52220518e+00    2.78884964e+00
231      2.11995938e-06    1.71090260e+00    2.65041120e+00
232      2.12173441e-06    1.73112586e+00    2.62952809e+00
233      2.12350945e-06    1.75113380e+00    2.60694339e+00
234      2.12705952e-06    1.79049377e+00    2.55592272e+00
235      2.13060958e-06    1.82896293e+00    2.49384517e+00
236      2.13415965e-06    1.86652213e+00    2.41418322e+00
237      2.13770972e-06    1.90315269e+00    2.30181465e+00
238      2.13822959e-06    1.90843787e+00    2.28057771e+00
239      2.13874947e-06    1.91370268e+00    2.25754282e+00
240      2.13978922e-06    1.92417099e+00    2.20532336e+00
241      2.14082898e-06    1.93455718e+00    2.14236920e+00
242      2.14186873e-06    1.94486081e+00    2.06716741e+00
243      2.14290848e-06    1.95508143e+00    1.97878409e+00
244      2.14394824e-06    1.96521860e+00    1.88003695e+00
245      2.14498799e-06    1.97527190e+00    1.77290129e+00
246      2.14602774e-06    1.98524090e+00    1.66144057e+00
247      2.14810725e-06    2.00492429e+00    1.43243587e+00
248      2.15018676e-06    2.02426541e+00    1.21273224e+00
249      2.15226626e-06    2.04326095e+00    1.01867815e+00
250      2.15413782e-06    2.06005879e+00    8.81674418e-01
251      2.15582222e-06    2.07493335e+00    7.89360851e-01
252      2.15750662e-06    2.08957551e+00    7.19925596e-01
253      2.15919102e-06    2.10398361e+00    6.65316496e-01
254      2.16087542e-06    2.11815606e+00    6.21034544e-01
255      2.16255982e-06    2.13209125e+00    5.83642271e-01
256      2.16592862e-06    2.15924368e+00    5.23516991e-01
257      2.17266623e-06    2.21063467e+00    4.37335414e-01
258      2.17940383e-06    2.25806450e+00    3.77019680e-01
259      2.18614143e-06    2.30144818e+00    3.31820748e-01
260      2.19287903e-06    2.34070797e+00    2.96918923e-01
261      2.19961663e-06    2.37577353e+00    2.69359848e-01
262      2.20635424e-06    2.40658202e+00    2.47567363e-01
263      2.21309184e-06    2.43307823e+00    2.30270055e-01
264      2.21982944e-06    2.45521470e+00    2.16821834e-01
265      2.22656704e-06    2.47295175e+00    2.06555026e-01
266      2.23330465e-06    2.48625759e+00    1.99211411e-01
267      2.24004225e-06    2.49510840e+00    1.94415953e-01
268      2.25351745e-06    2.49938947e+00    1.92177358e-01
269      2.26699266e-06    2.48576427e+00    1.99451069e-01
270      2.28046786e-06    2.45433043e+00    2.17344879e-01
271      2.29394306e-06    2.40531314e+00    2.48394086e-01
272      2.30741827e-06    2.33906357e+00    2.98288476e-01
273      2.32089347e-06    2.25605636e+00    3.79264770e-01
274      2.32301324e-06    2.24151053e+00    3.96529348e-01
275      2.32513300e-06    2.22656708e+00    4.15504244e-01
276      2.32937252e-06    2.19549800e+00    4.59950521e-01
277      2.33361205e-06    2.16287116e+00    5.16388308e-01
278      2.33785158e-06    2.12870970e+00    5.92258934e-01
279      2.34209110e-06    2.09303786e+00    7.05697491e-01
280      2.34265261e-06    2.08820130e+00    7.25690732e-01
281      2.34321413e-06    2.08333875e+00    7.47400057e-01
282      2.34433715e-06    2.07353592e+00    7.97055546e-01
283      2.34546017e-06    2.06362984e+00    8.57078433e-01
284      2.34658320e-06    2.05362102e+00    9.29832933e-01
285      2.34770622e-06    2.04350994e+00    1.01649803e+00
286      2.34882925e-06    2.03329713e+00    1.11640959e+00
287      2.34995227e-06    2.02298308e+00    1.22664239e+00
288      2.35107529e-06    2.01256830e+00    1.34407806e+00
289      2.35332134e-06    1.99143866e+00    1.58985078e+00
290      2.35556739e-06    1.96991241e+00    1.83088376e+00
291      2.35781344e-06    1.94799385e+00    2.04139726e+00
292      2.35982189e-06    1.92806522e+00    2.18312930e+00
293      2.36153576e-06    1.91081671e+00    2.27040334e+00
294      2.36324962e-06    1.89334662e+00    2.33704025e+00
295      2.36496348e-06    1.87565699e+00    2.39045593e+00
296      2.36667734e-06    1.85774985e+00    2.43514935e+00
297      2.37010507e-06    1.82129140e+00    2.50742255e+00
298      2.37696052e-06    1.74585753e+00    2.61313283e+00
299      2.38381596e-06    1.66718493e+00    2.69038058e+00
300      2.39067141e-06    1.58541956e+00    2.75104877e+00
301      2.39752686e-06    1.50071310e+00    2.80030567e+00
302      2.40438231e-06    1.41322269e+00    2.84118054e+00
303      2.41123776e-06    1.32311062e+00    2.87531107e+00
304      2.41809321e-06    1.23054407e+00    2.90391797e+00
305      2.43180411e-06    1.03873862e+00    2.94713515e+00
306      2.44551501e-06    8.39228940e-01    2.97448069e+00
307      2.45922590e-06    6.33494776e-01    2.98766577e+00
308      2.47293680e-06    4.23062038e-01    2.99047950e+00
309      2.48664770e-06    2.09491487e-01    2.99104897e+00
310      2.50035860e-06   -5.63284200e-03    2.99154694e+00
311      2.52778039e-06   -4.34160919e-01    2.99233176e+00
312      2.55520219e-06   -8.49832351e-01    2.99296409e+00
313      2.58262399e-06   -1.24033802e+00    2.99343206e+00
314      2.61004578e-06   -1.59411402e+00    2.99381272e+00
315      2.63472540e-06   -1.87242236e+00    2.99405765e+00
316      2.65693705e-06   -2.08465048e+00    2.99424526e+00
317      2.67692754e-06   -2.24109843e+00    2.99435742e+00
318      2.69691803e-06   -2.36223649e+00    2.99445722e+00
319      2.71690852e-06   -2.44615604e+00    2.99450770e+00
320      2.73689901e-06   -2.49153489e+00    2.99454910e+00
321      2.75688950e-06   -2.49765805e+00    2.99454379e+00
322      2.77687999e-06   -2.46442906e+00    2.99453017e+00
323      2.79687048e-06   -2.39237145e+00    2.99446932e+00
324      2.81686097e-06   -2.28262055e+00    2.99439855e+00
325      2.83685146e-06   -2.13690554e+00    2.99427677e+00
326      2.85684195e-06   -1.95752225e+00    2.99414081e+00
327      2.87683244e-06   -1.74729699e+00    2.99394609e+00
328      2.89682293e-06   -1.50954197e+00    2.99372935e+00
329      2.91681341e-06   -1.24800318e+00    2.99344068e+00
330      2.93680390e-06   -9.66801328e-01    2.99311679e+00
331      2.95679439e-06   -6.70366917e-01    2.99269976e+00
