Index   TIME           V(IN)           V(OUT)           
0       0.00000000e+00   0.00000000e+00   5.29137625e-01   
1       5.00000000e-12   -7.81851284e-25  5.29137625e-01   
2       1.50000000e-11   -4.59920554e-26  5.29137625e-01   
3       3.50000000e-11   -2.42957759e-26  5.29137625e-01   
4       7.50000000e-11   -7.89018215e-28  5.29137624e-01   
5       1.55000000e-10   -4.51014977e-25  5.29137624e-01   
6       2.55000000e-10   3.74320575e-25   5.29137624e-01   
7       3.55000000e-10   -5.16184484e-26  5.29137624e-01   
8       4.55000000e-10   1.62838860e-25   5.29137624e-01   
9       5.55000000e-10   1.96111841e-25   5.29137624e-01   
10      6.55000000e-10   7.27681303e-26   5.29137624e-01   
11      7.55000000e-10   -2.16316197e-27  5.29137624e-01   
12      8.55000000e-10   -5.86595861e-28  5.29137624e-01   
13      9.55000000e-10   -5.73636238e-27  5.29137624e-01   
14      1.00000000e-09   -1.02482233e-26  5.29137624e-01   
15      1.00050000e-09   2.50000000e-02   5.29795088e-01   
16      1.00051898e-09   2.59488634e-02   5.29820060e-01   
17      1.00053795e-09   2.68977267e-02   5.29845033e-01   
18      1.00055693e-09   2.78465901e-02   5.29870006e-01   
19      1.00057591e-09   2.87954535e-02   5.29894979e-01   
20      1.00061386e-09   3.06931802e-02   5.29944927e-01   
21      1.00067814e-09   3.39069409e-02   5.30029514e-01   
22      1.00078057e-09   3.90284619e-02   5.30164315e-01   
23      1.00098543e-09   4.92715040e-02   5.30433904e-01   
24      1.00139515e-09   6.97575882e-02   5.30972880e-01   
25      1.00221460e-09   1.10729757e-01   5.32048969e-01   
26      1.00324258e-09   1.62129184e-01   5.33393108e-01   
27      1.00427057e-09   2.13528611e-01   5.34727907e-01   
28      1.00574974e-09   2.87486823e-01   5.36625359e-01   
29      1.00722890e-09   3.61445036e-01   5.38489561e-01   
30      1.00908267e-09   4.54133493e-01   5.40768526e-01   
31      1.01093644e-09   5.46821951e-01   5.42975133e-01   
32      1.01279021e-09   6.39510408e-01   5.45101239e-01   
33      1.01456268e-09   7.28134023e-01   5.47051959e-01   
34      1.01577491e-09   7.88745454e-01   5.48335567e-01   
35      1.01668408e-09   8.34204027e-01   5.49267462e-01   
36      1.01759325e-09   8.79662599e-01   5.50167892e-01   
37      1.01829044e-09   9.14521940e-01   5.50834568e-01   
38      1.01881333e-09   9.40666445e-01   5.51319957e-01   
39      1.01933622e-09   9.66810951e-01   5.51792342e-01   
40      1.02006939e-09   1.00346941e+00   5.52432941e-01   
41      1.02086224e-09   1.04311193e+00   5.53097996e-01   
42      1.02165509e-09   1.08275445e+00   5.53735619e-01   
43      1.02244794e-09   1.12239697e+00   5.54347365e-01   
44      1.02348351e-09   1.17417565e+00   5.55110331e-01   
45      1.02478342e-09   1.23917122e+00   5.56014852e-01   
46      1.02691429e-09   1.34571453e+00   5.57384783e-01   
47      1.03025987e-09   1.51299344e+00   5.59294494e-01   
48      1.03459789e-09   1.72989447e+00   5.61406465e-01   
49      1.03764634e-09   1.88231688e+00   5.62695120e-01   
50      1.03895944e-09   1.94797210e+00   5.63275597e-01   
51      1.03988820e-09   1.99441010e+00   5.63808746e-01   
52      1.04056626e-09   2.02831284e+00   5.64350714e-01   
53      1.04124431e-09   2.06221557e+00   5.65083598e-01   
54      1.04192237e-09   2.09611831e+00   5.66024183e-01   
55      1.04276008e-09   2.13800385e+00   5.67431499e-01   
56      1.04338836e-09   2.16941801e+00   5.68616671e-01   
57      1.04401138e-09   2.20056908e+00   5.69863824e-01   
58      1.04481942e-09   2.24097089e+00   5.71545911e-01   
59      1.04562745e-09   2.28137270e+00   5.73265353e-01   
60      1.04675851e-09   2.33792553e+00   5.75685961e-01   
61      1.04788957e-09   2.39447836e+00   5.78085823e-01   
62      1.04974785e-09   2.48739255e+00   5.81911292e-01   
63      1.05254559e-09   2.62727944e+00   5.87261748e-01   
64      1.05585067e-09   2.79253359e+00   5.92760559e-01   
65      1.05915575e-09   2.95778774e+00   5.97171636e-01   
66      1.06246084e-09   3.12304190e+00   6.00305284e-01   
67      1.06576592e-09   3.28829605e+00   6.02005532e-01   
68      1.06907100e-09   3.45355020e+00   6.02156542e-01   
69      1.07374990e-09   3.68749489e+00   5.99584482e-01   
70      1.07612121e-09   3.80606035e+00   5.97021466e-01   
71      1.07789969e-09   3.89498445e+00   5.94543552e-01   
72      1.07879326e-09   3.93966307e+00   5.93116975e-01   
73      1.07946344e-09   3.97317204e+00   5.91966280e-01   
74      1.08013362e-09   4.00668101e+00   5.90745266e-01   
75      1.08098283e-09   4.04914172e+00   5.89096111e-01   
76      1.08195817e-09   4.09790826e+00   5.87064352e-01   
77      1.08293350e-09   4.14667481e+00   5.84891913e-01   
78      1.08356724e-09   4.17836185e+00   5.83407378e-01   
79      1.08420098e-09   4.21004890e+00   5.81866917e-01   
80      1.08483472e-09   4.24173594e+00   5.80271592e-01   
81      1.08546846e-09   4.27342299e+00   5.78622360e-01   
82      1.08673594e-09   4.33679708e+00   5.75166364e-01   
83      1.08845828e-09   4.42291418e+00   5.70143321e-01   
84      1.09078912e-09   4.53945589e+00   5.62774384e-01   
85      1.09378702e-09   4.68935083e+00   5.52396717e-01   
86      1.09678492e-09   4.83924577e+00   5.41097972e-01   
87      1.10000000e-09   5.00000000e+00   5.28086903e-01   
88      1.10299790e-09   5.00000000e+00   5.07582759e-01   
89      1.10317267e-09   5.00000000e+00   5.06413433e-01   
90      1.10320823e-09   5.00000000e+00   5.06175946e-01   
91      1.10324379e-09   5.00000000e+00   5.05938676e-01   
92      1.10327934e-09   5.00000000e+00   5.05701583e-01   
93      1.10331490e-09   5.00000000e+00   5.05464694e-01   
94      1.10336972e-09   5.00000000e+00   5.05099856e-01   
95      1.10344223e-09   5.00000000e+00   5.04618126e-01   
96      1.10358725e-09   5.00000000e+00   5.03657377e-01   
97      1.10387729e-09   5.00000000e+00   5.01746734e-01   
98      1.10445736e-09   5.00000000e+00   4.97968892e-01   
99      1.10561750e-09   5.00000000e+00   4.90586888e-01   
100     1.10627074e-09   5.00000000e+00   4.86531940e-01   
101     1.10659355e-09   5.00000000e+00   4.84555106e-01   
102     1.10677771e-09   5.00000000e+00   4.83435298e-01   
103     1.10691583e-09   5.00000000e+00   4.82599243e-01   
104     1.10705395e-09   5.00000000e+00   4.81766443e-01   
105     1.10733020e-09   5.00000000e+00   4.80110599e-01   
106     1.10769940e-09   5.00000000e+00   4.77917818e-01   
107     1.10843781e-09   5.00000000e+00   4.73601574e-01   
108     1.10991462e-09   5.00000000e+00   4.65244042e-01   
109     1.11201898e-09   5.00000000e+00   4.54269346e-01   
110     1.11320267e-09   5.00000000e+00   4.49909185e-01   
111     1.11399113e-09   5.00000000e+00   4.47049309e-01   
112     1.11457293e-09   5.00000000e+00   4.44960162e-01   
113     1.11515472e-09   5.00000000e+00   4.42888961e-01   
114     1.11573652e-09   5.00000000e+00   4.40835989e-01   
115     1.11690012e-09   5.00000000e+00   4.36786196e-01   
116     1.11922732e-09   5.00000000e+00   4.28917818e-01   
117     1.12388171e-09   5.00000000e+00   4.14132431e-01   
118     1.12853610e-09   5.00000000e+00   4.00619727e-01   
119     1.13088502e-09   5.00000000e+00   3.94281235e-01   
120     1.13257060e-09   5.00000000e+00   3.89930022e-01   
121     1.13425617e-09   5.00000000e+00   3.85740870e-01   
122     1.13594175e-09   5.00000000e+00   3.81710990e-01   
123     1.13931290e-09   5.00000000e+00   3.74112660e-01   
124     1.14411465e-09   5.00000000e+00   3.64304633e-01   
125     1.15039766e-09   5.00000000e+00   3.53142921e-01   
126     1.15668066e-09   5.00000000e+00   3.43720755e-01   
127     1.16544876e-09   5.00000000e+00   3.33100753e-01   
128     1.17202483e-09   5.00000000e+00   3.26880726e-01   
129     1.17686160e-09   5.00000000e+00   3.23164929e-01   
130     1.18048918e-09   5.00000000e+00   3.20820990e-01   
131     1.18411676e-09   5.00000000e+00   3.18834622e-01   
132     1.18774434e-09   5.00000000e+00   3.17183239e-01   
133     1.19137191e-09   5.00000000e+00   3.15837746e-01   
134     1.19499949e-09   5.00000000e+00   3.14765355e-01   
135     1.19862707e-09   5.00000000e+00   3.13932440e-01   
136     1.20337743e-09   5.00000000e+00   3.13145527e-01   
137     1.20812779e-09   5.00000000e+00   3.12643266e-01   
138     1.21287815e-09   5.00000000e+00   3.12359380e-01   
139     1.21762851e-09   5.00000000e+00   3.12227894e-01   
140     1.22209771e-09   5.00000000e+00   3.12182777e-01   
141     1.22655977e-09   5.00000000e+00   3.12151899e-01   
142     1.23087616e-09   5.00000000e+00   3.12072320e-01   
143     1.23512085e-09   5.00000000e+00   3.11877979e-01   
144     1.23923949e-09   5.00000000e+00   3.11504494e-01   
145     1.24327507e-09   5.00000000e+00   3.10877545e-01   
146     1.24720775e-09   5.00000000e+00   3.09922077e-01   
147     1.25106221e-09   5.00000000e+00   3.08545605e-01   
148     1.25482702e-09   5.00000000e+00   3.06656205e-01   
149     1.25851229e-09   5.00000000e+00   3.04149384e-01   
150     1.26211481e-09   5.00000000e+00   3.00933526e-01   
151     1.26565772e-09   5.00000000e+00   2.96915430e-01   
152     1.26919025e-09   5.00000000e+00   2.91999554e-01   
153     1.27280678e-09   5.00000000e+00   2.86063589e-01   
154     1.27645135e-09   5.00000000e+00   2.79346366e-01   
155     1.27918477e-09   5.00000000e+00   2.74019714e-01   
156     1.28201407e-09   5.00000000e+00   2.68456623e-01   
157     1.28484337e-09   5.00000000e+00   2.63036930e-01   
158     1.28767267e-09   5.00000000e+00   2.57936134e-01   
159     1.28979465e-09   5.00000000e+00   2.54409308e-01   
160     1.29190549e-09   5.00000000e+00   2.51210962e-01   
161     1.29251785e-09   5.00000000e+00   2.50347585e-01   
162     1.29279355e-09   5.00000000e+00   2.49966830e-01   
163     1.29280301e-09   5.00000000e+00   2.49953501e-01   
164     1.29281248e-09   5.00000000e+00   2.49940178e-01   
165     1.29282194e-09   5.00000000e+00   2.49926860e-01   
166     1.29283141e-09   5.00000000e+00   2.49913548e-01   
167     1.29284087e-09   5.00000000e+00   2.49900241e-01   
168     1.29285034e-09   5.00000000e+00   2.49886941e-01   
169     1.29285980e-09   5.00000000e+00   2.49873646e-01   
170     1.29286927e-09   5.00000000e+00   2.49860356e-01   
171     1.29287873e-09   5.00000000e+00   2.49847073e-01   
172     1.29289767e-09   5.00000000e+00   2.49820523e-01   
173     1.29293553e-09   5.00000000e+00   2.49767492e-01   
174     1.29301125e-09   5.00000000e+00   2.49661707e-01   
175     1.29316270e-09   5.00000000e+00   2.49451256e-01   
176     1.29346559e-09   5.00000000e+00   2.49034915e-01   
177     1.29407138e-09   5.00000000e+00   2.48221121e-01   
178     1.29528295e-09   5.00000000e+00   2.46673985e-01   
179     1.29697816e-09   5.00000000e+00   2.44705389e-01   
180     1.29923642e-09   5.00000000e+00   2.42477444e-01   
181     1.30149467e-09   5.00000000e+00   2.40749143e-01   
182     1.30399180e-09   5.00000000e+00   2.39483094e-01   
183     1.30736973e-09   5.00000000e+00   2.38978289e-01   
184     1.31074766e-09   5.00000000e+00   2.40067203e-01   
185     1.31406728e-09   5.00000000e+00   2.42987022e-01   
186     1.31735723e-09   5.00000000e+00   2.48125049e-01   
187     1.32056597e-09   5.00000000e+00   2.55943529e-01   
188     1.32377470e-09   5.00000000e+00   2.67588679e-01   
189     1.32618125e-09   5.00000000e+00   2.79815717e-01   
190     1.32861535e-09   5.00000000e+00   2.96343483e-01   
191     1.33104945e-09   5.00000000e+00   3.18172699e-01   
192     1.33348354e-09   5.00000000e+00   3.46018313e-01   
193     1.33652697e-09   5.00000000e+00   3.89030019e-01   
194     1.33880954e-09   5.00000000e+00   4.26303663e-01   
195     1.34193318e-09   5.00000000e+00   4.82898797e-01   
196     1.34505682e-09   5.00000000e+00   5.44815607e-01   
197     1.34899327e-09   5.00000000e+00   6.29187137e-01   
198     1.35292972e-09   5.00000000e+00   7.19725726e-01   
199     1.35686618e-09   5.00000000e+00   8.15681985e-01   
200     1.36080263e-09   5.00000000e+00   9.16425100e-01   
201     1.36473909e-09   5.00000000e+00   1.02138313e+00   
202     1.36867554e-09   5.00000000e+00   1.13001467e+00   
203     1.37239278e-09   5.00000000e+00   1.23552206e+00   
204     1.37613103e-09   5.00000000e+00   1.34412512e+00   
205     1.37963970e-09   5.00000000e+00   1.44835440e+00   
206     1.38227120e-09   5.00000000e+00   1.52852502e+00   
207     1.38424483e-09   5.00000000e+00   1.59052831e+00   
208     1.38572505e-09   5.00000000e+00   1.63873908e+00   
209     1.38715955e-09   5.00000000e+00   1.68749421e+00   
210     1.38859406e-09   5.00000000e+00   1.73876284e+00   
211     1.38997687e-09   5.00000000e+00   1.79062115e+00   
212     1.39117304e-09   5.00000000e+00   1.83702163e+00   
213     1.39207016e-09   5.00000000e+00   1.87245180e+00   
214     1.39326077e-09   5.00000000e+00   1.91997419e+00   
215     1.39445138e-09   5.00000000e+00   1.96782329e+00   
216     1.39564199e-09   5.00000000e+00   2.01584937e+00   
217     1.39771674e-09   5.00000000e+00   2.09977083e+00   
218     1.39979150e-09   5.00000000e+00   2.18387283e+00   
219     1.40134756e-09   5.00000000e+00   2.24703754e+00   
220     1.40301769e-09   5.00000000e+00   2.31490347e+00   
221     1.40468781e-09   5.00000000e+00   2.38282488e+00   
222     1.40679977e-09   5.00000000e+00   2.46875299e+00   
223     1.40891173e-09   5.00000000e+00   2.55464869e+00   
224     1.41102369e-09   5.00000000e+00   2.64040107e+00   
225     1.41313565e-09   5.00000000e+00   2.72585598e+00   
226     1.41582832e-09   5.00000000e+00   2.83402761e+00   
227     1.41852100e-09   5.00000000e+00   2.94069750e+00   
228     1.42121367e-09   5.00000000e+00   3.04483561e+00   
229     1.42469876e-09   5.00000000e+00   3.17322031e+00   
230     1.42818386e-09   5.00000000e+00   3.28979017e+00   
231     1.43171992e-09   5.00000000e+00   3.39081341e+00   
232     1.43508330e-09   5.00000000e+00   3.46900885e+00   
233     1.43844668e-09   5.00000000e+00   3.53189326e+00   
234     1.44181006e-09   5.00000000e+00   3.58313153e+00   
235     1.44517344e-09   5.00000000e+00   3.62598897e+00   
236     1.44853682e-09   5.00000000e+00   3.66282778e+00   
237     1.45393473e-09   5.00000000e+00   3.71319600e+00   
238     1.46112956e-09   5.00000000e+00   3.76923166e+00   
239     1.46832439e-09   5.00000000e+00   3.81706917e+00   
240     1.47551922e-09   5.00000000e+00   3.85937451e+00   
241     1.48271405e-09   5.00000000e+00   3.89767183e+00   
242     1.49240186e-09   5.00000000e+00   3.94452321e+00   
243     1.50208968e-09   5.00000000e+00   3.98724540e+00   
244     1.51199508e-09   5.00000000e+00   4.02760227e+00   
245     1.52145853e-09   5.00000000e+00   4.06360794e+00   
246     1.53123538e-09   5.00000000e+00   4.09861340e+00   
247     1.54045960e-09   5.00000000e+00   4.12988047e+00   
248     1.54737777e-09   5.00000000e+00   4.15233622e+00   
249     1.55428037e-09   5.00000000e+00   4.17396866e+00   
250     1.56118296e-09   5.00000000e+00   4.19488676e+00   
251     1.56817671e-09   5.00000000e+00   4.21540289e+00   
252     1.57561647e-09   5.00000000e+00   4.23652716e+00   
253     1.58305624e-09   5.00000000e+00   4.25697458e+00   
254     1.59049600e-09   5.00000000e+00   4.27678521e+00   
255     1.60006995e-09   5.00000000e+00   4.30139802e+00   
256     1.61223202e-09   5.00000000e+00   4.33132892e+00   
257     1.62439408e-09   5.00000000e+00   4.35986928e+00   
258     1.63694588e-09   5.00000000e+00   4.38796751e+00   
259     1.64879668e-09   5.00000000e+00   4.41331197e+00   
260     1.66064749e-09   5.00000000e+00   4.43757383e+00   
261     1.67249829e-09   5.00000000e+00   4.46081205e+00   
262     1.68434910e-09   5.00000000e+00   4.48307951e+00   
263     1.69323720e-09   5.00000000e+00   4.49917099e+00   
264     1.70212530e-09   5.00000000e+00   4.51476192e+00   
265     1.70879138e-09   5.00000000e+00   4.52613683e+00   
266     1.71545746e-09   5.00000000e+00   4.53724711e+00   
267     1.72716790e-09   5.00000000e+00   4.55614650e+00   
268     1.73887835e-09   5.00000000e+00   4.57428534e+00   
269     1.76014071e-09   5.00000000e+00   4.60539096e+00   
270     1.78140307e-09   5.00000000e+00   4.63427482e+00   
271     1.80266544e-09   5.00000000e+00   4.66109476e+00   
272     1.81861221e-09   5.00000000e+00   4.67993630e+00   
273     1.83050291e-09   5.00000000e+00   4.69331393e+00   
274     1.83942094e-09   5.00000000e+00   4.70298677e+00   
275     1.84833897e-09   5.00000000e+00   4.71236234e+00   
276     1.85725699e-09   5.00000000e+00   4.72144966e+00   
277     1.86394551e-09   5.00000000e+00   4.72808058e+00   
278     1.87063404e-09   5.00000000e+00   4.73455751e+00   
279     1.87984697e-09   5.00000000e+00   4.74323391e+00   
280     1.89254136e-09   5.00000000e+00   4.75473919e+00   
281     1.90000000e-09   5.00000000e+00   4.76126172e+00   
282     1.90050000e-09   4.97500000e+00   4.76150695e+00   
283     1.90051905e-09   4.97404755e+00   4.76151628e+00   
284     1.90053810e-09   4.97309510e+00   4.76152561e+00   
285     1.90055715e-09   4.97214265e+00   4.76153494e+00   
286     1.90057620e-09   4.97119021e+00   4.76154427e+00   
287     1.90061429e-09   4.96928531e+00   4.76156293e+00   
288     1.90069049e-09   4.96547551e+00   4.76160023e+00   
289     1.90081758e-09   4.95912099e+00   4.76166240e+00   
290     1.90107176e-09   4.94641194e+00   4.76178663e+00   
291     1.90158012e-09   4.92099384e+00   4.76203467e+00   
292     1.90244968e-09   4.87751582e+00   4.76245799e+00   
293     1.90331924e-09   4.83403780e+00   4.76288052e+00   
294     1.90424434e-09   4.78778305e+00   4.76332959e+00   
295     1.90493816e-09   4.75309200e+00   4.76366654e+00   
296     1.90563198e-09   4.71840094e+00   4.76400388e+00   
297     1.90632580e-09   4.68370988e+00   4.76434177e+00   
298     1.90674340e-09   4.66282985e+00   4.76454545e+00   
299     1.90696945e-09   4.65152766e+00   4.76465581e+00   
300     1.90709508e-09   4.64524600e+00   4.76471718e+00   
301     1.90716455e-09   4.64177272e+00   4.76475112e+00   
302     1.90720313e-09   4.63984372e+00   4.76476998e+00   
303     1.90722460e-09   4.63877005e+00   4.76478048e+00   
304     1.90723673e-09   4.63816327e+00   4.76478645e+00   
305     1.90724456e-09   4.63777198e+00   4.76479031e+00   
306     1.90725239e-09   4.63738068e+00   4.76479416e+00   
307     1.90726021e-09   4.63698938e+00   4.76479801e+00   
308     1.90727101e-09   4.63644926e+00   4.76480333e+00   
309     1.90729262e-09   4.63536903e+00   4.76481396e+00   
310     1.90733583e-09   4.63320858e+00   4.76483521e+00   
311     1.90742225e-09   4.62888766e+00   4.76487771e+00   
312     1.90759508e-09   4.62024583e+00   4.76496261e+00   
313     1.90794076e-09   4.60296217e+00   4.76513210e+00   
314     1.90863210e-09   4.56839486e+00   4.76546998e+00   
315     1.90968574e-09   4.51571298e+00   4.76598276e+00   
316     1.91107947e-09   4.44602629e+00   4.76665850e+00   
317     1.91247321e-09   4.37633960e+00   4.76733295e+00   
318     1.91391406e-09   4.30429685e+00   4.76803048e+00   
319     1.91529595e-09   4.23520250e+00   4.76870094e+00   
320     1.91633237e-09   4.18338174e+00   4.76920527e+00   
321     1.91772013e-09   4.11399367e+00   4.76988324e+00   
322     1.91955987e-09   4.02200661e+00   4.77078749e+00   
323     1.92193605e-09   3.90319731e+00   4.77196572e+00   
324     1.92431224e-09   3.78438801e+00   4.77315632e+00   
325     1.92658211e-09   3.67089445e+00   4.77430546e+00   
326     1.92976058e-09   3.51197097e+00   4.77593334e+00   
327     1.93214443e-09   3.39277836e+00   4.77716821e+00   
328     1.93457937e-09   3.27103131e+00   4.77844098e+00   
329     1.93620000e-09   3.19000007e+00   4.77929412e+00   
330     1.93719412e-09   3.14029386e+00   4.77981958e+00   
331     1.93818825e-09   3.09058764e+00   4.78034252e+00   
