Index       TIME              V(1)             I(LP1)       N(YMIN!KTRANS1_M) N(YMIN!KTRANS1_H) N(YMIN!KTRANS1_B)
0        0.00000000e+00    0.00000000e+00    0.00000000e+00    0.00000000e+00    0.00000000e+00    0.00000000e+00
1        1.00000000e-10    0.00000000e+00    0.00000000e+00    0.00000000e+00    0.00000000e+00    0.00000000e+00
2        3.00000000e-10    0.00000000e+00    0.00000000e+00    0.00000000e+00    0.00000000e+00    0.00000000e+00
3        7.00000000e-10    0.00000000e+00    0.00000000e+00    0.00000000e+00    0.00000000e+00    0.00000000e+00
4        1.50000000e-09    0.00000000e+00    0.00000000e+00    0.00000000e+00    0.00000000e+00    0.00000000e+00
5        3.10000000e-09    0.00000000e+00    0.00000000e+00    0.00000000e+00    0.00000000e+00    0.00000000e+00
6        6.30000000e-09    0.00000000e+00    0.00000000e+00    0.00000000e+00    0.00000000e+00    0.00000000e+00
7        1.27000000e-08    0.00000000e+00    0.00000000e+00    0.00000000e+00    0.00000000e+00    0.00000000e+00
8        2.55000000e-08    0.00000000e+00    0.00000000e+00    0.00000000e+00    0.00000000e+00    0.00000000e+00
9        5.11000000e-08    0.00000000e+00    0.00000000e+00    0.00000000e+00    0.00000000e+00    0.00000000e+00
10       1.02300000e-07    0.00000000e+00    0.00000000e+00    0.00000000e+00    0.00000000e+00    0.00000000e+00
11       2.04700000e-07    0.00000000e+00    0.00000000e+00    0.00000000e+00    0.00000000e+00    0.00000000e+00
12       4.09500000e-07    0.00000000e+00    0.00000000e+00    0.00000000e+00    0.00000000e+00    0.00000000e+00
13       8.19100000e-07    0.00000000e+00    0.00000000e+00    0.00000000e+00    0.00000000e+00    0.00000000e+00
14       1.63830000e-06    0.00000000e+00    0.00000000e+00    0.00000000e+00    0.00000000e+00    0.00000000e+00
15       3.27670000e-06    0.00000000e+00    0.00000000e+00    0.00000000e+00    0.00000000e+00    0.00000000e+00
16       6.55350000e-06    0.00000000e+00    0.00000000e+00    0.00000000e+00    0.00000000e+00    0.00000000e+00
17       1.31071000e-05    0.00000000e+00    0.00000000e+00    0.00000000e+00    0.00000000e+00    0.00000000e+00
18       2.62143000e-05    0.00000000e+00    0.00000000e+00    0.00000000e+00    0.00000000e+00    0.00000000e+00
19       5.24287000e-05    0.00000000e+00    0.00000000e+00    0.00000000e+00    0.00000000e+00    0.00000000e+00
20       1.04857500e-04    0.00000000e+00    0.00000000e+00    0.00000000e+00    0.00000000e+00    0.00000000e+00
21       2.09715100e-04    0.00000000e+00    0.00000000e+00    0.00000000e+00    0.00000000e+00    0.00000000e+00
22       4.19430300e-04    0.00000000e+00    0.00000000e+00    0.00000000e+00    0.00000000e+00    0.00000000e+00
23       8.38860700e-04    0.00000000e+00    0.00000000e+00    0.00000000e+00    0.00000000e+00    0.00000000e+00
24       1.67772150e-03    0.00000000e+00    0.00000000e+00    0.00000000e+00    0.00000000e+00    0.00000000e+00
25       3.35544310e-03    0.00000000e+00    0.00000000e+00    0.00000000e+00    0.00000000e+00    0.00000000e+00
26       6.71088630e-03    0.00000000e+00    0.00000000e+00    0.00000000e+00    0.00000000e+00    0.00000000e+00
27       1.34217727e-02    0.00000000e+00    0.00000000e+00    0.00000000e+00    0.00000000e+00    0.00000000e+00
28       2.68435455e-02    0.00000000e+00    0.00000000e+00    0.00000000e+00    0.00000000e+00    0.00000000e+00
29       5.36870911e-02    0.00000000e+00    0.00000000e+00    0.00000000e+00    0.00000000e+00    0.00000000e+00
30       1.07374182e-01    0.00000000e+00    0.00000000e+00    0.00000000e+00    0.00000000e+00    0.00000000e+00
31       2.14748365e-01    0.00000000e+00    0.00000000e+00    0.00000000e+00    0.00000000e+00    0.00000000e+00
32       4.29496730e-01    0.00000000e+00    0.00000000e+00    0.00000000e+00    0.00000000e+00    0.00000000e+00
33       8.29496730e-01    0.00000000e+00    0.00000000e+00    0.00000000e+00    0.00000000e+00    0.00000000e+00
34       8.79496730e-01    0.00000000e+00    0.00000000e+00    0.00000000e+00    0.00000000e+00    0.00000000e+00
35       9.79496730e-01    0.00000000e+00    0.00000000e+00    0.00000000e+00    0.00000000e+00    0.00000000e+00
36       9.85746730e-01    0.00000000e+00    0.00000000e+00    0.00000000e+00    0.00000000e+00    0.00000000e+00
37       9.98246730e-01    0.00000000e+00    0.00000000e+00    0.00000000e+00    0.00000000e+00    0.00000000e+00
38       9.99809230e-01    0.00000000e+00    0.00000000e+00    0.00000000e+00    0.00000000e+00    0.00000000e+00
39       1.00000454e+00   -3.06886678e-06    2.15044014e-07   -2.12987197e-01    6.36589582e-07   -2.67646805e-03
40       1.00001675e+00   -1.07860085e-05    2.62281862e-07   -2.59773232e-01    6.36589582e-07   -3.26439871e-03
41       1.00002896e+00   -1.85200861e-05    3.26455593e-07   -3.23333166e-01    6.36589582e-07   -4.06311639e-03
42       1.00004116e+00   -2.62881097e-05    4.24575427e-07   -4.20514519e-01    6.36589582e-07   -5.28433330e-03
43       1.00006558e+00   -4.19266666e-05    7.23325349e-07   -7.16407012e-01    6.36589582e-07   -9.00262802e-03
44       1.00011441e+00   -7.36183474e-05    1.73539533e-06   -1.71879696e+00    6.36589582e-07   -2.15990316e-02
45       1.00021206e+00   -1.38696925e-04    5.45477455e-06   -5.40260574e+00    6.36589582e-07   -6.78911380e-02
46       1.00030972e+00   -2.06096216e-04    1.14949177e-05   -1.13850059e+01    6.36589582e-07   -1.43068195e-01
47       1.00040737e+00   -2.75898911e-04    1.99385382e-05   -1.97479817e+01    6.36589582e-07   -2.48160449e-01
48       1.00050503e+00   -3.48190595e-04    3.08712430e-05   -3.05764503e+01    6.36589582e-07   -3.84234999e-01
49       1.00060269e+00   -4.23059821e-04    4.43816098e-05   -4.39583484e+01    6.36589582e-07   -5.52396889e-01
50       1.00070034e+00   -5.00598220e-04    6.05612925e-05   -5.99847331e+01    6.36589582e-07   -7.53790379e-01
51       1.00079800e+00   -5.80900617e-04    7.95051392e-05   -7.87498929e+01    6.36589582e-07   -9.89600332e-01
52       1.00089566e+00   -6.64065149e-04    1.01311309e-04   -1.00351465e+02    6.36589582e-07   -1.26105369e+00
53       1.00099331e+00   -7.50193374e-04    1.26081384e-04   -1.24890554e+02    6.36589582e-07   -1.56942098e+00
54       1.00109097e+00   -8.39390391e-04    1.53920486e-04   -1.52471856e+02    6.36589582e-07   -1.91601784e+00
55       1.00118862e+00   -9.31764951e-04    1.84937389e-04   -1.83203777e+02    6.36589582e-07   -2.30220655e+00
56       1.00128628e+00   -1.02742958e-03    2.19244640e-04   -2.17198569e+02    6.36589582e-07   -2.72939771e+00
57       1.00138394e+00   -1.12650069e-03    2.56958683e-04   -2.54572459e+02    6.36589582e-07   -3.19905186e+00
58       1.00148159e+00   -1.22909874e-03    2.98199987e-04   -2.95445787e+02    6.36589582e-07   -3.71268125e+00
59       1.00157925e+00   -1.33534832e-03    3.43093175e-04   -3.39943148e+02    6.36589582e-07   -4.27185157e+00
60       1.00167691e+00   -1.44537833e-03    3.91767160e-04   -3.88193538e+02    6.36589582e-07   -4.87818387e+00
61       1.00177456e+00   -1.55932208e-03    4.44355284e-04   -4.40330511e+02    6.36589582e-07   -5.53335639e+00
62       1.00187222e+00   -1.67731745e-03    5.00995459e-04   -4.96492327e+02    6.36589582e-07   -6.23910658e+00
63       1.00196987e+00   -1.79950753e-03    5.61830770e-04   -5.56821655e+02    6.36589582e-07   -6.99722727e+00
64       1.00206753e+00   -1.92603986e-03    6.27008810e-04   -6.21467579e+02    6.36589582e-07   -7.80959191e+00
65       1.00216519e+00   -2.05706654e-03    6.96681684e-04   -6.90583065e+02    6.36589582e-07   -8.67812273e+00
66       1.00226284e+00   -2.19274525e-03    7.71007102e-04   -7.64326889e+02    6.36589582e-07   -9.60481496e+00
67       1.00236050e+00   -2.33323902e-03    8.50148110e-04   -8.42863397e+02    6.36589582e-07   -1.05917338e+01
68       1.00245816e+00   -2.47871637e-03    9.34273263e-04   -9.26362695e+02    6.36589582e-07   -1.16410169e+01
69       1.00255581e+00   -2.62935152e-03    1.02355679e-03   -1.01500084e+03    6.36589582e-07   -1.27548768e+01
70       1.00265347e+00   -2.78532451e-03    1.11817877e-03   -1.10896006e+03    6.36589582e-07   -1.39356031e+01
71       1.00275112e+00   -2.94682143e-03    1.21832531e-03   -1.20842892e+03    6.36589582e-07   -1.51855656e+01
72       1.00284878e+00   -3.11403457e-03    1.32418871e-03   -1.31360257e+03    6.36589582e-07   -1.65072167e+01
73       1.00294644e+00   -3.28716259e-03    1.43596767e-03   -1.42468297e+03    6.36589582e-07   -1.79030942e+01
74       1.00304409e+00   -3.46641076e-03    1.55386747e-03   -1.54187908e+03    6.36589582e-07   -1.93758239e+01
75       1.00314175e+00   -3.65199110e-03    1.67810017e-03   -1.66540712e+03    6.36589582e-07   -2.09281230e+01
76       1.00323941e+00   -3.84412260e-03    1.80888476e-03   -1.79549079e+03    6.36589582e-07   -2.25628027e+01
77       1.00333706e+00   -4.04303141e-03    1.94644744e-03   -1.93236156e+03    6.36589582e-07   -2.42827715e+01
78       1.00343472e+00   -4.24895104e-03    2.09102173e-03   -2.07625886e+03    6.36589582e-07   -2.60910383e+01
79       1.00353237e+00   -4.46212260e-03    2.24284875e-03   -2.22743037e+03    6.36589582e-07   -2.79907156e+01
80       1.00363003e+00   -4.68279494e-03    2.40217740e-03   -2.38613233e+03    6.36589582e-07   -2.99850231e+01
81       1.00372769e+00   -4.91122492e-03    2.56926453e-03   -2.55262971e+03    6.36589582e-07   -3.20772910e+01
82       1.00382534e+00   -5.14767757e-03    2.74437523e-03   -2.72719662e+03    6.36589582e-07   -3.42709635e+01
83       1.00392300e+00   -5.39242637e-03    2.92778297e-03   -2.91011650e+03    6.36589582e-07   -3.65696025e+01
84       1.00402066e+00   -5.64575339e-03    3.11976987e-03   -3.10168246e+03    6.36589582e-07   -3.89768913e+01
85       1.00411831e+00   -5.90794957e-03    3.32062687e-03   -3.30219758e+03    6.36589582e-07   -4.14966387e+01
86       1.00421597e+00   -6.17931488e-03    3.53065399e-03   -3.51197523e+03    6.36589582e-07   -4.41327823e+01
87       1.00431362e+00   -6.46015860e-03    3.75016051e-03   -3.73133937e+03    6.36589582e-07   -4.68893934e+01
88       1.00441128e+00   -6.75079949e-03    3.97946521e-03   -3.96062489e+03    6.36589582e-07   -4.97706802e+01
89       1.00450894e+00   -7.05156599e-03    4.21889658e-03   -4.20017796e+03    6.36589582e-07   -5.27809929e+01
90       1.00460659e+00   -7.36279651e-03    4.46879302e-03   -4.45035635e+03    6.36589582e-07   -5.59248272e+01
91       1.00470425e+00   -7.68483955e-03    4.72950308e-03   -4.71152979e+03    6.36589582e-07   -5.92068294e+01
92       1.00480191e+00   -8.01805398e-03    5.00138564e-03   -4.98408032e+03    6.36589582e-07   -6.26318005e+01
93       1.00489956e+00   -8.36280919e-03    5.28481011e-03   -5.26840270e+03    6.36589582e-07   -6.62047008e+01
94       1.00499722e+00   -8.71948532e-03    5.58015667e-03   -5.56490470e+03    6.36589582e-07   -6.99306549e+01
95       1.00509487e+00   -9.08847343e-03    5.88781639e-03   -5.87400757e+03    6.36589582e-07   -7.38149561e+01
96       1.00519253e+00   -9.47017572e-03    6.20819149e-03   -6.19614636e+03    6.36589582e-07   -7.78630716e+01
97       1.00529019e+00   -9.86500565e-03    6.54169546e-03   -6.53177036e+03    6.36589582e-07   -8.20806471e+01
98       1.00538784e+00   -1.02733881e-02    6.88875325e-03   -6.88134345e+03    6.36589582e-07   -8.64735121e+01
99       1.00548550e+00   -1.06957597e-02    7.24980139e-03   -7.24534457e+03    6.36589582e-07   -9.10476851e+01
100      1.00558316e+00   -1.11325687e-02    7.62528819e-03   -7.62426808e+03    6.36589582e-07   -9.58093783e+01
101      1.00568081e+00   -1.15842751e-02    8.01567377e-03   -8.01862418e+03    6.36589582e-07   -1.00765003e+02
102      1.00577847e+00   -1.20513510e-02    8.42143025e-03   -8.42893937e+03    6.36589582e-07   -1.05921176e+02
103      1.00587612e+00   -1.25342806e-02    8.84304176e-03   -8.85575684e+03    6.36589582e-07   -1.11284723e+02
104      1.00597378e+00   -1.30335602e-02    9.28100457e-03   -9.29963690e+03    6.36589582e-07   -1.16862684e+02
105      1.00607144e+00   -1.35496979e-02    9.73582704e-03   -9.76115742e+03    6.36589582e-07   -1.22662322e+02
106      1.00616909e+00   -1.40832145e-02    1.02080297e-02   -1.02409143e+04    6.36589582e-07   -1.28691124e+02
107      1.00626675e+00   -1.46346424e-02    1.06981452e-02   -1.07395217e+04    6.36589582e-07   -1.34956810e+02
108      1.00636441e+00   -1.52045263e-02    1.12067182e-02   -1.12576129e+04    6.36589582e-07   -1.41467336e+02
109      1.00646206e+00   -1.57934228e-02    1.17343053e-02   -1.17958402e+04    6.36589582e-07   -1.48230899e+02
110      1.00655972e+00   -1.64019004e-02    1.22814750e-02   -1.23548758e+04    6.36589582e-07   -1.55255948e+02
111      1.00665737e+00   -1.70305389e-02    1.28488072e-02   -1.29354119e+04    6.36589582e-07   -1.62551180e+02
112      1.00675503e+00   -1.76799299e-02    1.34368933e-02   -1.35381613e+04    6.36589582e-07   -1.70125552e+02
113      1.00685269e+00   -1.83506756e-02    1.40463359e-02   -1.41638578e+04    6.36589582e-07   -1.77988286e+02
114      1.00695034e+00   -1.90433892e-02    1.46777479e-02   -1.48132564e+04    6.36589582e-07   -1.86148870e+02
115      1.00704800e+00   -1.97586939e-02    1.53317528e-02   -1.54871341e+04    6.36589582e-07   -1.94617067e+02
116      1.00714566e+00   -2.04972230e-02    1.60089836e-02   -1.61862897e+04    6.36589582e-07   -2.03402915e+02
117      1.00724331e+00   -2.12596185e-02    1.67100826e-02   -1.69115447e+04    6.36589582e-07   -2.12516738e+02
118      1.00734097e+00   -2.20465312e-02    1.74357005e-02   -1.76637432e+04    6.36589582e-07   -2.21969144e+02
119      1.00743862e+00   -2.28586194e-02    1.81864955e-02   -1.84437526e+04    6.36589582e-07   -2.31771031e+02
120      1.00753628e+00   -2.36965480e-02    1.89631328e-02   -1.92524636e+04    6.36589582e-07   -2.41933593e+02
121      1.00763394e+00   -2.45609881e-02    1.97662833e-02   -2.00907906e+04    6.36589582e-07   -2.52468320e+02
122      1.00773159e+00   -2.54526150e-02    2.05966224e-02   -2.09596717e+04    6.36589582e-07   -2.63387002e+02
123      1.00782925e+00   -2.63721075e-02    2.14548290e-02   -2.18600692e+04    6.36589582e-07   -2.74701731e+02
124      1.00792691e+00   -2.73201464e-02    2.23415838e-02   -2.27929696e+04    6.36589582e-07   -2.86424903e+02
125      1.00802456e+00   -2.82974126e-02    2.32575679e-02   -2.37593836e+04    6.36589582e-07   -2.98569220e+02
126      1.00812222e+00   -2.93045859e-02    2.42034609e-02   -2.47603464e+04    6.36589582e-07   -3.11147690e+02
127      1.00821987e+00   -3.03423424e-02    2.51799390e-02   -2.57969174e+04    6.36589582e-07   -3.24173624e+02
128      1.00831753e+00   -3.14113528e-02    2.61876730e-02   -2.68701800e+04    6.36589582e-07   -3.37660641e+02
129      1.00841519e+00   -3.25122799e-02    2.72273256e-02   -2.79812422e+04    6.36589582e-07   -3.51622659e+02
130      1.00851284e+00   -3.36457758e-02    2.82995490e-02   -2.91312353e+04    6.36589582e-07   -3.66073899e+02
131      1.00861050e+00   -3.48124793e-02    2.94049821e-02   -3.03213145e+04    6.36589582e-07   -3.81028875e+02
132      1.00870816e+00   -3.60130127e-02    3.05442470e-02   -3.15526579e+04    6.36589582e-07   -3.96502393e+02
133      1.00880581e+00   -3.72479780e-02    3.17179459e-02   -3.28264663e+04    6.36589582e-07   -4.12509542e+02
134      1.00890347e+00   -3.85179537e-02    3.29266573e-02   -3.41439625e+04    6.36589582e-07   -4.29065687e+02
135      1.00900112e+00   -3.98234902e-02    3.41709316e-02   -3.55063904e+04    6.36589582e-07   -4.46186461e+02
136      1.00909878e+00   -4.11651056e-02    3.54512869e-02   -3.69150143e+04    6.36589582e-07   -4.63887751e+02
137      1.00919644e+00   -4.25432806e-02    3.67682040e-02   -3.83711177e+04    6.36589582e-07   -4.82185686e+02
138      1.00929409e+00   -4.39584534e-02    3.81221211e-02   -3.98760024e+04    6.36589582e-07   -5.01096625e+02
139      1.00939175e+00   -4.54110140e-02    3.95134281e-02   -4.14309869e+04    6.36589582e-07   -5.20637136e+02
140      1.00948941e+00   -4.69012976e-02    4.09424604e-02   -4.30374047e+04    6.36589582e-07   -5.40823978e+02
141      1.00958706e+00   -4.84295782e-02    4.24094920e-02   -4.46966032e+04    6.36589582e-07   -5.61674081e+02
142      1.00968472e+00   -4.99960614e-02    4.39147284e-02   -4.64099409e+04    6.36589582e-07   -5.83204518e+02
143      1.00978237e+00   -5.16008761e-02    4.54582986e-02   -4.81787861e+04    6.36589582e-07   -6.05432482e+02
144      1.00988003e+00   -5.32440664e-02    4.70402467e-02   -5.00045137e+04    6.36589582e-07   -6.28375252e+02
145      1.01007534e+00   -5.66765636e-02    5.03502665e-02   -5.38802896e+04    6.36589582e-07   -6.77079688e+02
146      1.01027066e+00   -6.02343463e-02    5.37855813e-02   -5.79758882e+04    6.36589582e-07   -7.28546497e+02
147      1.01046597e+00   -6.39387521e-02    5.73675290e-02   -6.23278639e+04    6.36589582e-07   -7.83235037e+02
148      1.01066128e+00   -6.77849357e-02    6.10912644e-02   -6.69518545e+04    6.36589582e-07   -8.41341817e+02
149      1.01085659e+00   -7.17624199e-02    6.49463104e-02   -7.18574932e+04    6.36589582e-07   -9.02987891e+02
150      1.01105191e+00   -7.58584071e-02    6.89198697e-02   -7.70558681e+04    6.36589582e-07   -9.68312597e+02
151      1.01124722e+00   -8.00557965e-02    7.29948416e-02   -8.25576792e+04    6.36589582e-07   -1.03745039e+03
152      1.01144253e+00   -8.43325468e-02    7.71491852e-02   -8.83729626e+04    6.36589582e-07   -1.11052740e+03
153      1.01183316e+00   -9.29231752e-02    8.54950326e-02   -1.01246865e+05    6.36589582e-07   -1.27230562e+03
154      1.01222378e+00   -1.01456228e-01    9.37833489e-02   -1.15781611e+05    6.36589582e-07   -1.45495464e+03
155      1.01228428e+00   -1.02573157e-01    9.48623797e-02   -1.17740460e+05    6.36589582e-07   -1.47957025e+03
156      1.01234477e+00   -1.03827838e-01    9.60791630e-02   -1.19961798e+05    6.36589582e-07   -1.50748442e+03
157      1.01240527e+00   -1.05076218e-01    9.72896459e-02   -1.22250974e+05    6.36589582e-07   -1.53625104e+03
158      1.01246577e+00   -1.06300731e-01    9.84762635e-02   -1.24552836e+05    6.36589582e-07   -1.56517710e+03
159      1.01258676e+00   -1.08743863e-01    1.00843608e-01   -1.29408289e+05    6.36589582e-07   -1.62619252e+03
160      1.01270776e+00   -1.11039540e-01    1.03063503e-01   -1.34350199e+05    6.36589582e-07   -1.68829439e+03
161      1.01282875e+00   -1.13203128e-01    1.05151313e-01   -1.39374382e+05    6.36589582e-07   -1.75143014e+03
162      1.01294974e+00   -1.15231584e-01    1.07103995e-01   -1.44549316e+05    6.36589582e-07   -1.81646027e+03
163      1.01307074e+00   -1.17095430e-01    1.08892072e-01   -1.49880389e+05    6.36589582e-07   -1.88345252e+03
164      1.01319173e+00   -1.18767375e-01    1.10488253e-01   -1.55382425e+05    6.36589582e-07   -1.95259314e+03
165      1.01331272e+00   -1.20219403e-01    1.11864522e-01   -1.61113857e+05    6.36589582e-07   -2.02461644e+03
166      1.01343372e+00   -1.21416537e-01    1.12985902e-01   -1.67232499e+05    6.36589582e-07   -2.10150556e+03
167      1.01355471e+00   -1.22309869e-01    1.13803484e-01   -1.74467190e+05    6.36589582e-07   -2.19241937e+03
168      1.01367571e+00   -1.22793803e-01    1.14211674e-01   -1.65456222e+05    6.36589582e-07   -2.07918421e+03
169      1.01379670e+00   -1.23308490e-01    1.14650621e-01   -1.67855176e+05    6.36589582e-07   -2.10933035e+03
170      1.01391769e+00   -1.24326590e-01    1.15592986e-01   -1.74549444e+05    6.36589582e-07   -2.19345300e+03
171      1.01399290e+00   -1.24778740e-01    1.15998061e-01   -1.79594437e+05    6.36589582e-07   -2.25685025e+03
172      1.01403827e+00   -1.24983423e-01    1.16174354e-01   -1.83229923e+05    6.36589582e-07   -2.30253512e+03
173      1.01408363e+00   -1.25060214e-01    1.16222754e-01   -1.83228217e+05    6.36589582e-07   -2.30251369e+03
