Index       TIME              V(1)             I(LP1)       N(YMIN!KTRANS1_M) N(YMIN!KTRANS1_H) N(YMIN!KTRANS1_B)
0        0.00000000e+00    0.00000000e+00    0.00000000e+00    0.00000000e+00    0.00000000e+00    0.00000000e+00
1        1.00000000e-10    0.00000000e+00    0.00000000e+00    0.00000000e+00    0.00000000e+00    0.00000000e+00
2        3.00000000e-10    0.00000000e+00    0.00000000e+00    0.00000000e+00    0.00000000e+00    0.00000000e+00
3        7.00000000e-10    0.00000000e+00    0.00000000e+00    0.00000000e+00    0.00000000e+00    0.00000000e+00
4        1.50000000e-09    0.00000000e+00    0.00000000e+00    0.00000000e+00    0.00000000e+00    0.00000000e+00
5        3.10000000e-09    0.00000000e+00    0.00000000e+00    0.00000000e+00    0.00000000e+00    0.00000000e+00
6        6.30000000e-09    0.00000000e+00    0.00000000e+00    0.00000000e+00    0.00000000e+00    0.00000000e+00
7        1.27000000e-08    0.00000000e+00    0.00000000e+00    0.00000000e+00    0.00000000e+00    0.00000000e+00
8        2.55000000e-08    0.00000000e+00    0.00000000e+00    0.00000000e+00    0.00000000e+00    0.00000000e+00
9        5.11000000e-08    0.00000000e+00    0.00000000e+00    0.00000000e+00    0.00000000e+00    0.00000000e+00
10       1.02300000e-07    0.00000000e+00    0.00000000e+00    0.00000000e+00    0.00000000e+00    0.00000000e+00
11       2.04700000e-07    0.00000000e+00    0.00000000e+00    0.00000000e+00    0.00000000e+00    0.00000000e+00
12       4.09500000e-07    0.00000000e+00    0.00000000e+00    0.00000000e+00    0.00000000e+00    0.00000000e+00
13       8.19100000e-07    0.00000000e+00    0.00000000e+00    0.00000000e+00    0.00000000e+00    0.00000000e+00
14       1.63830000e-06    0.00000000e+00    0.00000000e+00    0.00000000e+00    0.00000000e+00    0.00000000e+00
15       3.27670000e-06    0.00000000e+00    0.00000000e+00    0.00000000e+00    0.00000000e+00    0.00000000e+00
16       6.55350000e-06    0.00000000e+00    0.00000000e+00    0.00000000e+00    0.00000000e+00    0.00000000e+00
17       1.31071000e-05    0.00000000e+00    0.00000000e+00    0.00000000e+00    0.00000000e+00    0.00000000e+00
18       2.62143000e-05    0.00000000e+00    0.00000000e+00    0.00000000e+00    0.00000000e+00    0.00000000e+00
19       5.24287000e-05    0.00000000e+00    0.00000000e+00    0.00000000e+00    0.00000000e+00    0.00000000e+00
20       1.04857500e-04    0.00000000e+00    0.00000000e+00    0.00000000e+00    0.00000000e+00    0.00000000e+00
21       2.09715100e-04    0.00000000e+00    0.00000000e+00    0.00000000e+00    0.00000000e+00    0.00000000e+00
22       4.19430300e-04    0.00000000e+00    0.00000000e+00    0.00000000e+00    0.00000000e+00    0.00000000e+00
23       8.38860700e-04    0.00000000e+00    0.00000000e+00    0.00000000e+00    0.00000000e+00    0.00000000e+00
24       1.67772150e-03    0.00000000e+00    0.00000000e+00    0.00000000e+00    0.00000000e+00    0.00000000e+00
25       3.35544310e-03    0.00000000e+00    0.00000000e+00    0.00000000e+00    0.00000000e+00    0.00000000e+00
26       6.71088630e-03    0.00000000e+00    0.00000000e+00    0.00000000e+00    0.00000000e+00    0.00000000e+00
27       1.34217727e-02    0.00000000e+00    0.00000000e+00    0.00000000e+00    0.00000000e+00    0.00000000e+00
28       2.68435455e-02    0.00000000e+00    0.00000000e+00    0.00000000e+00    0.00000000e+00    0.00000000e+00
29       5.36870911e-02    0.00000000e+00    0.00000000e+00    0.00000000e+00    0.00000000e+00    0.00000000e+00
30       1.07374182e-01    0.00000000e+00    0.00000000e+00    0.00000000e+00    0.00000000e+00    0.00000000e+00
31       2.14748365e-01    0.00000000e+00    0.00000000e+00    0.00000000e+00    0.00000000e+00    0.00000000e+00
32       4.29496730e-01    0.00000000e+00    0.00000000e+00    0.00000000e+00    0.00000000e+00    0.00000000e+00
33       8.29496730e-01    0.00000000e+00    0.00000000e+00    0.00000000e+00    0.00000000e+00    0.00000000e+00
34       9.29496730e-01    0.00000000e+00    0.00000000e+00    0.00000000e+00    0.00000000e+00    0.00000000e+00
35       9.54496730e-01    0.00000000e+00    0.00000000e+00    0.00000000e+00    0.00000000e+00    0.00000000e+00
36       9.66996730e-01    0.00000000e+00    0.00000000e+00    0.00000000e+00    0.00000000e+00    0.00000000e+00
37       9.91996730e-01    0.00000000e+00    0.00000000e+00    0.00000000e+00    0.00000000e+00    0.00000000e+00
38       9.95121730e-01    0.00000000e+00    0.00000000e+00    0.00000000e+00    0.00000000e+00    0.00000000e+00
39       9.96684230e-01    0.00000000e+00    0.00000000e+00    0.00000000e+00    0.00000000e+00    0.00000000e+00
40       9.99809230e-01    0.00000000e+00    0.00000000e+00    0.00000000e+00    0.00000000e+00    0.00000000e+00
41       9.99858058e-01    0.00000000e+00    0.00000000e+00    0.00000000e+00    0.00000000e+00    0.00000000e+00
42       9.99955714e-01    0.00000000e+00    0.00000000e+00    0.00000000e+00    0.00000000e+00    0.00000000e+00
43       9.99967921e-01    0.00000000e+00    0.00000000e+00    0.00000000e+00    0.00000000e+00    0.00000000e+00
44       9.99992335e-01    0.00000000e+00    0.00000000e+00    0.00000000e+00    0.00000000e+00    0.00000000e+00
45       9.99995387e-01    0.00000000e+00    0.00000000e+00    0.00000000e+00    0.00000000e+00    0.00000000e+00
46       1.00000149e+00   -9.37373099e-07    1.02631774e-09   -1.01650139e-06    0.00000000e+00   -1.27737332e-05
47       1.00000233e+00   -1.46640212e-06    1.46891478e-09   -1.45486515e-06    0.00000000e+00   -1.82823747e-05
48       1.00000317e+00   -1.99551099e-06    1.99136100e-09   -1.97231436e-06    0.00000000e+00   -2.47848332e-05
49       1.00000401e+00   -2.52477959e-06    2.67352969e-09   -2.64795836e-06    0.00000000e+00   -3.32752261e-05
50       1.00000570e+00   -3.58379616e-06    4.51725147e-09   -4.47404562e-06    0.00000000e+00   -5.62225153e-05
51       1.00000906e+00   -5.70374829e-06    1.01236804e-08   -1.00268511e-05    0.00000000e+00   -1.26001128e-04
52       1.00001243e+00   -7.82626138e-06    1.82910748e-08   -1.81161274e-05    0.00000000e+00   -2.27653971e-04
53       1.00001579e+00   -9.95133853e-06    2.90225283e-08   -2.87449384e-05    0.00000000e+00   -3.61219549e-04
54       1.00001916e+00   -1.20789828e-05    4.23211383e-08   -4.19163521e-05    0.00000000e+00   -5.26736415e-04
55       1.00002252e+00   -1.42091974e-05    5.81900061e-08   -5.76334400e-05    0.00000000e+00   -7.24243167e-04
56       1.00002589e+00   -1.63419853e-05    7.66322365e-08   -7.58992773e-05    0.00000000e+00   -9.53778448e-04
57       1.00002925e+00   -1.84773497e-05    9.76509384e-08   -9.67169430e-05    0.00000000e+00   -1.21538095e-03
58       1.00003262e+00   -2.06152936e-05    1.21249224e-07   -1.20089520e-04    0.00000000e+00   -1.50908941e-03
59       1.00003598e+00   -2.27558202e-05    1.47430210e-07   -1.46020094e-04    0.00000000e+00   -1.83494262e-03
60       1.00003935e+00   -2.48989327e-05    1.76197015e-07   -1.74511756e-04    0.00000000e+00   -2.19297940e-03
61       1.00004271e+00   -2.70446341e-05    2.07552765e-07   -2.05567599e-04    0.00000000e+00   -2.58323864e-03
62       1.00004608e+00   -2.91929275e-05    2.41500585e-07   -2.39190721e-04    0.00000000e+00   -3.00575925e-03
63       1.00004944e+00   -3.13438161e-05    2.78043608e-07   -2.75384224e-04    0.00000000e+00   -3.46058022e-03
64       1.00005281e+00   -3.34973031e-05    3.17184969e-07   -3.14151212e-04    0.00000000e+00   -3.94774056e-03
65       1.00005617e+00   -3.56533915e-05    3.58927806e-07   -3.55494794e-04    0.00000000e+00   -4.46727934e-03
66       1.00005954e+00   -3.78120845e-05    4.03275262e-07   -3.99418084e-04    0.00000000e+00   -5.01923567e-03
67       1.00006290e+00   -3.99733853e-05    4.50230483e-07   -4.45924196e-04    0.00000000e+00   -5.60364872e-03
68       1.00006627e+00   -4.21372970e-05    4.99796620e-07   -4.95016252e-04    0.00000000e+00   -6.22055768e-03
69       1.00006963e+00   -4.43038227e-05    5.51976826e-07   -5.46697375e-04    0.00000000e+00   -6.87000183e-03
70       1.00007300e+00   -4.64729656e-05    6.06774260e-07   -6.00970693e-04    0.00000000e+00   -7.55202045e-03
71       1.00007636e+00   -4.86447289e-05    6.64192083e-07   -6.57839337e-04    0.00000000e+00   -8.26665291e-03
72       1.00007973e+00   -5.08191157e-05    7.24233461e-07   -7.17306442e-04    0.00000000e+00   -9.01393860e-03
73       1.00008309e+00   -5.29961292e-05    7.86901562e-07   -7.79375148e-04    0.00000000e+00   -9.79391696e-03
74       1.00008646e+00   -5.51757726e-05    8.52199560e-07   -8.44048598e-04    0.00000000e+00   -1.06066275e-02
75       1.00009319e+00   -5.95429634e-05    9.90699552e-07   -9.81223894e-04    0.00000000e+00   -1.23304231e-02
76       1.00009992e+00   -6.39207117e-05    1.13975731e-06   -1.12885598e-03    0.00000000e+00   -1.41856226e-02
77       1.00010665e+00   -6.83090433e-05    1.29939836e-06   -1.28697013e-03    0.00000000e+00   -1.61725437e-02
78       1.00011338e+00   -7.27079836e-05    1.46964828e-06   -1.45559170e-03    0.00000000e+00   -1.82915047e-02
79       1.00012011e+00   -7.71175583e-05    1.65053273e-06   -1.63474607e-03    0.00000000e+00   -2.05428249e-02
80       1.00012684e+00   -8.15377931e-05    1.84207740e-06   -1.82445871e-03    0.00000000e+00   -2.29268244e-02
81       1.00013357e+00   -8.59687138e-05    2.04430807e-06   -2.02475516e-03    0.00000000e+00   -2.54438237e-02
82       1.00014030e+00   -9.04103461e-05    2.25725057e-06   -2.23566098e-03    0.00000000e+00   -2.80941445e-02
83       1.00014703e+00   -9.48627160e-05    2.48093079e-06   -2.45720184e-03    0.00000000e+00   -3.08781090e-02
84       1.00015376e+00   -9.93258495e-05    2.71537469e-06   -2.68940344e-03    0.00000000e+00   -3.37960404e-02
85       1.00016049e+00   -1.03799772e-04    2.96060829e-06   -2.93229155e-03    0.00000000e+00   -3.68482624e-02
86       1.00016722e+00   -1.08284511e-04    3.21665766e-06   -3.18589201e-03    0.00000000e+00   -4.00350998e-02
87       1.00017395e+00   -1.12780091e-04    3.48354896e-06   -3.45023072e-03    0.00000000e+00   -4.33568780e-02
88       1.00018068e+00   -1.17286539e-04    3.76130839e-06   -3.72533363e-03    0.00000000e+00   -4.68139231e-02
89       1.00018741e+00   -1.21803882e-04    4.04996221e-06   -4.01122677e-03    0.00000000e+00   -5.04065622e-02
90       1.00019414e+00   -1.26332145e-04    4.34953676e-06   -4.30793622e-03    0.00000000e+00   -5.41351231e-02
91       1.00020087e+00   -1.30871355e-04    4.66005844e-06   -4.61548813e-03    0.00000000e+00   -5.79999344e-02
92       1.00020760e+00   -1.35421538e-04    4.98155370e-06   -4.93390871e-03    0.00000000e+00   -6.20013254e-02
93       1.00021433e+00   -1.39982721e-04    5.31404907e-06   -5.26322423e-03    0.00000000e+00   -6.61396263e-02
94       1.00022106e+00   -1.44554930e-04    5.65757113e-06   -5.60346104e-03    0.00000000e+00   -7.04151682e-02
95       1.00022779e+00   -1.49138193e-04    6.01214653e-06   -5.95464554e-03    0.00000000e+00   -7.48282827e-02
96       1.00023452e+00   -1.53732535e-04    6.37780198e-06   -6.31680418e-03    0.00000000e+00   -7.93793024e-02
97       1.00024125e+00   -1.58337984e-04    6.75456425e-06   -6.68996350e-03    0.00000000e+00   -8.40685608e-02
98       1.00024798e+00   -1.62954567e-04    7.14246020e-06   -7.07415010e-03    0.00000000e+00   -8.88963920e-02
99       1.00026144e+00   -1.72221253e-04    7.95177431e-06   -7.87572522e-03    0.00000000e+00   -9.89692820e-02
100      1.00027490e+00   -1.81532796e-04    8.80594692e-06   -8.72173030e-03    0.00000000e+00   -1.09600495e-01
101      1.00028836e+00   -1.90889414e-04    9.70519504e-06   -9.61238040e-03    0.00000000e+00   -1.20792735e-01
102      1.00030182e+00   -2.00291324e-04    1.06497368e-05   -1.05478916e-02    0.00000000e+00   -1.32548716e-01
103      1.00031528e+00   -2.09738745e-04    1.16397912e-05   -1.15284812e-02    0.00000000e+00   -1.44871167e-01
104      1.00032874e+00   -2.19231898e-04    1.26755784e-05   -1.25543672e-02    0.00000000e+00   -1.57762831e-01
105      1.00034221e+00   -2.28771003e-04    1.37573196e-05   -1.36257690e-02    0.00000000e+00   -1.71226464e-01
106      1.00035567e+00   -2.38356283e-04    1.48852371e-05   -1.47429069e-02    0.00000000e+00   -1.85264832e-01
107      1.00036913e+00   -2.47987961e-04    1.60595541e-05   -1.59060023e-02    0.00000000e+00   -1.99880720e-01
108      1.00038259e+00   -2.57666261e-04    1.72804950e-05   -1.71152776e-02    0.00000000e+00   -2.15076922e-01
109      1.00039605e+00   -2.67391409e-04    1.85482851e-05   -1.83709564e-02    0.00000000e+00   -2.30856247e-01
110      1.00040951e+00   -2.77163630e-04    1.98631509e-05   -1.96732633e-02    0.00000000e+00   -2.47221517e-01
111      1.00042297e+00   -2.86983153e-04    2.12253199e-05   -2.10224239e-02    0.00000000e+00   -2.64175570e-01
112      1.00043643e+00   -2.96850206e-04    2.26350208e-05   -2.24186651e-02    0.00000000e+00   -2.81721255e-01
113      1.00044989e+00   -3.06765018e-04    2.40924832e-05   -2.38622148e-02    0.00000000e+00   -2.99861435e-01
114      1.00046335e+00   -3.16727821e-04    2.55979377e-05   -2.53533019e-02    0.00000000e+00   -3.18598988e-01
115      1.00047681e+00   -3.26738845e-04    2.71516164e-05   -2.68921566e-02    0.00000000e+00   -3.37936806e-01
116      1.00049027e+00   -3.36798325e-04    2.87537521e-05   -2.84790099e-02    0.00000000e+00   -3.57877794e-01
117      1.00050373e+00   -3.46906493e-04    3.04045787e-05   -3.01140944e-02    0.00000000e+00   -3.78424871e-01
118      1.00051719e+00   -3.57063585e-04    3.21043316e-05   -3.17976433e-02    0.00000000e+00   -3.99580971e-01
119      1.00053065e+00   -3.67269837e-04    3.38532468e-05   -3.35298913e-02    0.00000000e+00   -4.21349041e-01
120      1.00055757e+00   -3.87830892e-04    3.74996351e-05   -3.71415478e-02    0.00000000e+00   -4.66734455e-01
121      1.00058449e+00   -4.08591452e-04    4.13455381e-05   -4.09508460e-02    0.00000000e+00   -5.14603508e-01
122      1.00061141e+00   -4.29553446e-04    4.53928862e-05   -4.49597038e-02    0.00000000e+00   -5.64980300e-01
123      1.00063833e+00   -4.50718824e-04    4.96436281e-05   -4.91700573e-02    0.00000000e+00   -6.17889163e-01
124      1.00066525e+00   -4.72089550e-04    5.40997312e-05   -5.35838615e-02    0.00000000e+00   -6.73354662e-01
125      1.00069217e+00   -4.93667612e-04    5.87631813e-05   -5.82030903e-02    0.00000000e+00   -7.31401603e-01
126      1.00071909e+00   -5.15455014e-04    6.36359833e-05   -6.30297366e-02    0.00000000e+00   -7.92055030e-01
127      1.00074602e+00   -5.37453778e-04    6.87201610e-05   -6.80658128e-02    0.00000000e+00   -8.55340229e-01
128      1.00077294e+00   -5.59665947e-04    7.40177576e-05   -7.33133503e-02    0.00000000e+00   -9.21282731e-01
129      1.00079986e+00   -5.82093584e-04    7.95308354e-05   -7.87744007e-02    0.00000000e+00   -9.89908314e-01
130      1.00082678e+00   -6.04738770e-04    8.52614767e-05   -8.44510348e-02    0.00000000e+00   -1.06124300e+00
131      1.00085370e+00   -6.27603607e-04    9.12117834e-05   -9.03453440e-02    0.00000000e+00   -1.13531308e+00
132      1.00088062e+00   -6.50690215e-04    9.73838771e-05   -9.64594395e-02    0.00000000e+00   -1.21214507e+00
133      1.00090754e+00   -6.74000737e-04    1.03779900e-04   -1.02795453e-01    0.00000000e+00   -1.29176576e+00
134      1.00093446e+00   -6.97537333e-04    1.10402014e-04   -1.09355537e-01    0.00000000e+00   -1.37420221e+00
135      1.00096138e+00   -7.21302187e-04    1.17252402e-04   -1.16141864e-01    0.00000000e+00   -1.45948171e+00
136      1.00098830e+00   -7.45297501e-04    1.24333268e-04   -1.23156629e-01    0.00000000e+00   -1.54763184e+00
137      1.00101522e+00   -7.69525500e-04    1.31646836e-04   -1.30402046e-01    0.00000000e+00   -1.63868044e+00
138      1.00104214e+00   -7.93988427e-04    1.39195351e-04   -1.37880353e-01    0.00000000e+00   -1.73265562e+00
139      1.00106906e+00   -8.18688549e-04    1.46981079e-04   -1.45593807e-01    0.00000000e+00   -1.82958574e+00
140      1.00109598e+00   -8.43628153e-04    1.55006309e-04   -1.53544689e-01    0.00000000e+00   -1.92949946e+00
141      1.00112291e+00   -8.68809549e-04    1.63273351e-04   -1.61735300e-01    0.00000000e+00   -2.03242572e+00
142      1.00114983e+00   -8.94235067e-04    1.71784535e-04   -1.70167964e-01    0.00000000e+00   -2.13839370e+00
143      1.00117675e+00   -9.19907061e-04    1.80542215e-04   -1.78845028e-01    0.00000000e+00   -2.24743291e+00
144      1.00123059e+00   -9.72001214e-04    1.98807804e-04   -1.96943070e-01    0.00000000e+00   -2.47485960e+00
145      1.00128443e+00   -1.02511011e-03    2.18088223e-04   -2.16047486e-01    0.00000000e+00   -2.71493278e+00
146      1.00133827e+00   -1.07925338e-03    2.38403113e-04   -2.36177879e-01    0.00000000e+00   -2.96789875e+00
147      1.00139211e+00   -1.13445104e-03    2.59772485e-04   -2.57354229e-01    0.00000000e+00   -3.23400862e+00
148      1.00144595e+00   -1.19072347e-03    2.82216730e-04   -2.79596905e-01    0.00000000e+00   -3.51351833e+00
149      1.00149979e+00   -1.24809144e-03    3.05756621e-04   -3.02926667e-01    0.00000000e+00   -3.80668877e+00
150      1.00155364e+00   -1.30657612e-03    3.30413324e-04   -3.27364679e-01    0.00000000e+00   -4.11378588e+00
151      1.00160748e+00   -1.36619906e-03    3.56208404e-04   -3.52932510e-01    0.00000000e+00   -4.43508072e+00
152      1.00166132e+00   -1.42698224e-03    3.83163830e-04   -3.79652149e-01    0.00000000e+00   -4.77084961e+00
153      1.00171516e+00   -1.48894802e-03    4.11301983e-04   -4.07546007e-01    0.00000000e+00   -5.12137416e+00
154      1.00176900e+00   -1.55211921e-03    4.40645667e-04   -4.36636927e-01    0.00000000e+00   -5.48694145e+00
155      1.00182284e+00   -1.61651903e-03    4.71218109e-04   -4.66948194e-01    0.00000000e+00   -5.86784407e+00
156      1.00187668e+00   -1.68217114e-03    5.03042973e-04   -4.98503541e-01    0.00000000e+00   -6.26438025e+00
157      1.00193053e+00   -1.74909964e-03    5.36144366e-04   -5.31327156e-01    0.00000000e+00   -6.67685396e+00
158      1.00198437e+00   -1.81732909e-03    5.70546842e-04   -5.65443694e-01    0.00000000e+00   -7.10557502e+00
159      1.00203821e+00   -1.88688449e-03    6.06275415e-04   -6.00878285e-01    0.00000000e+00   -7.55085922e+00
160      1.00209205e+00   -1.95779132e-03    6.43355563e-04   -6.37656540e-01    0.00000000e+00   -8.01302841e+00
161      1.00214589e+00   -2.03007553e-03    6.81813239e-04   -6.75804563e-01    0.00000000e+00   -8.49241060e+00
162      1.00219973e+00   -2.10376355e-03    7.21674876e-04   -7.15348958e-01    0.00000000e+00   -8.98934013e+00
163      1.00225357e+00   -2.17888229e-03    7.62967397e-04   -7.56316841e-01    0.00000000e+00   -9.50415773e+00
164      1.00230742e+00   -2.25545918e-03    8.05718225e-04   -7.98735847e-01    0.00000000e+00   -1.00372107e+01
165      1.00236126e+00   -2.33352213e-03    8.49955287e-04   -8.42634140e-01    0.00000000e+00   -1.05888529e+01
166      1.00241510e+00   -2.41309959e-03    8.95707028e-04   -8.88040423e-01    0.00000000e+00   -1.11594451e+01
167      1.00246894e+00   -2.49422053e-03    9.43002413e-04   -9.34983950e-01    0.00000000e+00   -1.17493548e+01
168      1.00252278e+00   -2.57691443e-03    9.91870942e-04   -9.83494531e-01    0.00000000e+00   -1.23589568e+01
169      1.00257662e+00   -2.66121133e-03    1.04234266e-03   -1.03360255e+00    0.00000000e+00   -1.29886327e+01
170      1.00263046e+00   -2.74714183e-03    1.09444815e-03   -1.08533896e+00    0.00000000e+00   -1.36387716e+01
171      1.00268430e+00   -2.83473706e-03    1.14821857e-03   -1.13873533e+00    0.00000000e+00   -1.43097701e+01
172      1.00273815e+00   -2.92402875e-03    1.20368563e-03   -1.19382379e+00    0.00000000e+00   -1.50020322e+01
173      1.00279199e+00   -3.01504918e-03    1.26088163e-03   -1.25063712e+00    0.00000000e+00   -1.57159696e+01
