Index       TIME              V(1)             I(LP1)       N(YMIN!KTRANS1_M) N(YMIN!KTRANS1_H) N(YMIN!KTRANS1_B)
0        0.00000000e+00    0.00000000e+00    0.00000000e+00    0.00000000e+00    0.00000000e+00    0.00000000e+00
1        1.00000000e-10    0.00000000e+00    0.00000000e+00    0.00000000e+00    0.00000000e+00    0.00000000e+00
2        3.00000000e-10    0.00000000e+00    0.00000000e+00    0.00000000e+00    0.00000000e+00    0.00000000e+00
3        7.00000000e-10    0.00000000e+00    0.00000000e+00    0.00000000e+00    0.00000000e+00    0.00000000e+00
4        1.50000000e-09    0.00000000e+00    0.00000000e+00    0.00000000e+00    0.00000000e+00    0.00000000e+00
5        3.10000000e-09    0.00000000e+00    0.00000000e+00    0.00000000e+00    0.00000000e+00    0.00000000e+00
6        6.30000000e-09    0.00000000e+00    0.00000000e+00    0.00000000e+00    0.00000000e+00    0.00000000e+00
7        1.27000000e-08    0.00000000e+00    0.00000000e+00    0.00000000e+00    0.00000000e+00    0.00000000e+00
8        2.55000000e-08    0.00000000e+00    0.00000000e+00    0.00000000e+00    0.00000000e+00    0.00000000e+00
9        5.11000000e-08    0.00000000e+00    0.00000000e+00    0.00000000e+00    0.00000000e+00    0.00000000e+00
10       1.02300000e-07    0.00000000e+00    0.00000000e+00    0.00000000e+00    0.00000000e+00    0.00000000e+00
11       2.04700000e-07    0.00000000e+00    0.00000000e+00    0.00000000e+00    0.00000000e+00    0.00000000e+00
12       4.09500000e-07    0.00000000e+00    0.00000000e+00    0.00000000e+00    0.00000000e+00    0.00000000e+00
13       8.19100000e-07    0.00000000e+00    0.00000000e+00    0.00000000e+00    0.00000000e+00    0.00000000e+00
14       1.63830000e-06    0.00000000e+00    0.00000000e+00    0.00000000e+00    0.00000000e+00    0.00000000e+00
15       3.27670000e-06    0.00000000e+00    0.00000000e+00    0.00000000e+00    0.00000000e+00    0.00000000e+00
16       6.55350000e-06    0.00000000e+00    0.00000000e+00    0.00000000e+00    0.00000000e+00    0.00000000e+00
17       1.31071000e-05    0.00000000e+00    0.00000000e+00    0.00000000e+00    0.00000000e+00    0.00000000e+00
18       2.62143000e-05    0.00000000e+00    0.00000000e+00    0.00000000e+00    0.00000000e+00    0.00000000e+00
19       5.24287000e-05    0.00000000e+00    0.00000000e+00    0.00000000e+00    0.00000000e+00    0.00000000e+00
20       1.04857500e-04    0.00000000e+00    0.00000000e+00    0.00000000e+00    0.00000000e+00    0.00000000e+00
21       2.09715100e-04    0.00000000e+00    0.00000000e+00    0.00000000e+00    0.00000000e+00    0.00000000e+00
22       4.19430300e-04    0.00000000e+00    0.00000000e+00    0.00000000e+00    0.00000000e+00    0.00000000e+00
23       8.38860700e-04    0.00000000e+00    0.00000000e+00    0.00000000e+00    0.00000000e+00    0.00000000e+00
24       1.67772150e-03    0.00000000e+00    0.00000000e+00    0.00000000e+00    0.00000000e+00    0.00000000e+00
25       3.35544310e-03    0.00000000e+00    0.00000000e+00    0.00000000e+00    0.00000000e+00    0.00000000e+00
26       6.71088630e-03    0.00000000e+00    0.00000000e+00    0.00000000e+00    0.00000000e+00    0.00000000e+00
27       1.34217727e-02    0.00000000e+00    0.00000000e+00    0.00000000e+00    0.00000000e+00    0.00000000e+00
28       2.68435455e-02    0.00000000e+00    0.00000000e+00    0.00000000e+00    0.00000000e+00    0.00000000e+00
29       5.36870911e-02    0.00000000e+00    0.00000000e+00    0.00000000e+00    0.00000000e+00    0.00000000e+00
30       1.07374182e-01    0.00000000e+00    0.00000000e+00    0.00000000e+00    0.00000000e+00    0.00000000e+00
31       2.14748365e-01    0.00000000e+00    0.00000000e+00    0.00000000e+00    0.00000000e+00    0.00000000e+00
32       4.29496730e-01    0.00000000e+00    0.00000000e+00    0.00000000e+00    0.00000000e+00    0.00000000e+00
33       8.29496730e-01    0.00000000e+00    0.00000000e+00    0.00000000e+00    0.00000000e+00    0.00000000e+00
34       9.29496730e-01    0.00000000e+00    0.00000000e+00    0.00000000e+00    0.00000000e+00    0.00000000e+00
35       9.79496730e-01    0.00000000e+00    0.00000000e+00    0.00000000e+00    0.00000000e+00    0.00000000e+00
36       9.85746730e-01    0.00000000e+00    0.00000000e+00    0.00000000e+00    0.00000000e+00    0.00000000e+00
37       9.98246730e-01    0.00000000e+00    0.00000000e+00    0.00000000e+00    0.00000000e+00    0.00000000e+00
38       9.99809230e-01    0.00000000e+00    0.00000000e+00    0.00000000e+00    0.00000000e+00    0.00000000e+00
39       1.00000454e+00   -2.58631125e-06   -2.67511519e-07   -1.79496612e-01   -7.91907867e-07   -2.25563090e-03
40       1.00001675e+00   -1.01903387e-05   -3.33387993e-07   -2.23698835e-01   -9.86920395e-07   -2.81109486e-03
41       1.00002896e+00   -1.77698668e-05   -4.23763777e-07   -2.84339763e-01   -1.25445764e-06   -3.57313461e-03
42       1.00004116e+00   -2.53005540e-05   -5.62980316e-07   -3.77752178e-01   -1.66657699e-06   -4.74699482e-03
43       1.00006558e+00   -4.02168173e-05   -9.86523977e-07   -6.61944243e-01   -2.92038302e-06   -8.31827339e-03
44       1.00011441e+00   -6.94781594e-05   -2.40479264e-06   -1.61358324e+00   -7.11884936e-06   -2.02769745e-02
45       1.00021206e+00   -1.25788081e-04   -7.45406928e-06   -5.00157742e+00   -2.20661006e-05   -6.28519528e-02
46       1.00030972e+00   -1.79259174e-04   -1.53421239e-05   -1.02943413e+01   -4.54169177e-05   -1.29363079e-01
47       1.00040737e+00   -2.30034505e-04   -2.59258685e-05   -1.73958385e+01   -7.67477201e-05   -2.18603518e-01
48       1.00050503e+00   -2.78249892e-04   -3.90694597e-05   -2.62148715e+01   -1.15656375e-04   -3.29427244e-01
49       1.00060269e+00   -3.24034279e-04   -5.46439317e-05   -3.66648359e+01   -1.61761107e-04   -4.60745949e-01
50       1.00070034e+00   -3.67510083e-04   -7.25268446e-05   -4.86634913e+01   -2.14699460e-04   -6.11526165e-01
51       1.00079800e+00   -4.08793532e-04   -9.26019457e-05   -6.21327407e+01   -2.74127296e-04   -7.80786491e-01
52       1.00089566e+00   -4.47994991e-04   -1.14758849e-04   -7.69984202e+01   -3.39717840e-04   -9.67594954e-01
53       1.00099331e+00   -4.85219254e-04   -1.38892736e-04   -9.31900998e+01   -4.11160801e-04   -1.17106650e+00
54       1.00109097e+00   -5.20565834e-04   -1.64904071e-04   -1.10640895e+02   -4.88161525e-04   -1.39036062e+00
55       1.00118862e+00   -5.54129201e-04   -1.92698361e-04   -1.29287272e+02   -5.70440288e-04   -1.62467895e+00
56       1.00128628e+00   -5.85999091e-04   -2.22185847e-04   -1.49068938e+02   -6.57731377e-04   -1.87326379e+00
57       1.00138394e+00   -6.16260739e-04   -2.53281271e-04   -1.69928590e+02   -7.49782408e-04   -2.13539506e+00
58       1.00148159e+00   -6.44995060e-04   -2.85903694e-04   -1.91811823e+02   -8.46353777e-04   -2.41038909e+00
59       1.00157925e+00   -6.72278894e-04   -3.19976254e-04   -2.14666971e+02   -9.47217949e-04   -2.69759662e+00
60       1.00167691e+00   -6.98185211e-04   -3.55425957e-04   -2.38444967e+02   -1.05215885e-03   -2.99640105e+00
61       1.00177456e+00   -7.22783303e-04   -3.92183488e-04   -2.63099211e+02   -1.16097127e-03   -3.30621678e+00
62       1.00196987e+00   -7.68340648e-04   -4.69336109e-04   -3.14843133e+02   -1.38936431e-03   -3.95645295e+00
63       1.00216519e+00   -8.09410136e-04   -5.50974720e-04   -3.69590937e+02   -1.63103711e-03   -4.64443718e+00
64       1.00236050e+00   -8.46429185e-04   -6.36661723e-04   -4.27048083e+02   -1.88469427e-03   -5.36646817e+00
65       1.00255581e+00   -8.79795093e-04   -7.25999634e-04   -4.86947543e+02   -2.14915912e-03   -6.11919031e+00
66       1.00275112e+00   -9.09866403e-04   -8.18629724e-04   -5.49048122e+02   -2.42336973e-03   -6.89957264e+00
67       1.00294644e+00   -9.36966301e-04   -9.14228623e-04   -6.13132395e+02   -2.70636884e-03   -7.70488291e+00
68       1.00314175e+00   -9.61386254e-04   -1.01250468e-03   -6.79004267e+02   -2.99729306e-03   -8.53265693e+00
69       1.00333706e+00   -9.83389128e-04   -1.11319484e-03   -7.46486880e+02   -3.29536371e-03   -9.38067220e+00
70       1.00353237e+00   -1.00321199e-03   -1.21606186e-03   -8.15420723e+02   -3.59987844e-03   -1.02469242e+01
71       1.00372769e+00   -1.02106866e-03   -1.32089173e-03   -8.85661930e+02   -3.91020377e-03   -1.11296052e+01
72       1.00392300e+00   -1.03715195e-03   -1.42749144e-03   -9.57080747e+02   -4.22576831e-03   -1.20270845e+01
73       1.00431362e+00   -1.06472204e-03   -1.64527606e-03   -1.10295565e+03   -4.87047084e-03   -1.38602107e+01
74       1.00470425e+00   -1.08707418e-03   -1.86826229e-03   -1.25227784e+03   -5.53057159e-03   -1.57366569e+01
75       1.00509487e+00   -1.10516197e-03   -2.09549507e-03   -1.40440643e+03   -6.20324328e-03   -1.76483697e+01
76       1.00548550e+00   -1.11978308e-03   -2.32617525e-03   -1.55880427e+03   -6.88612023e-03   -1.95885987e+01
77       1.00587612e+00   -1.13158511e-03   -2.55965375e-03   -1.71503535e+03   -7.57728097e-03   -2.15518650e+01
78       1.00665737e+00   -1.14880323e-03   -3.03292852e-03   -2.03156147e+03   -8.97830480e-03   -2.55294672e+01
79       1.00821987e+00   -1.16715606e-03   -3.99524735e-03   -2.67447879e+03   -1.18270339e-02   -3.36086403e+01
80       1.00978237e+00   -1.17399385e-03   -4.96858367e-03   -3.32406441e+03   -1.47083778e-02   -4.17716102e+01
81       1.01134487e+00   -1.17566451e-03   -5.94649508e-03   -3.97600791e+03   -1.76032653e-02   -4.99642102e+01
82       1.01446987e+00   -1.17276360e-03   -7.90640642e-03   -5.27979871e+03   -2.34051433e-02   -6.63482015e+01
83       1.01759487e+00   -1.16936438e-03   -9.86331590e-03   -6.57878377e+03   -2.91981350e-02   -8.26718019e+01
84       1.02071987e+00   -1.16443934e-03   -1.18174979e-02   -7.87313138e+03   -3.49830525e-02   -9.89371265e+01
85       1.02696987e+00   -1.15033126e-03   -1.57143559e-02   -1.04428939e+04   -4.65188270e-02   -1.31229860e+02
86       1.03321987e+00   -1.14079200e-03   -1.95806410e-02   -1.29814224e+04   -5.79640971e-02   -1.63130094e+02
87       1.03946987e+00   -1.12511018e-03   -2.34211178e-02   -1.54919914e+04   -6.93329673e-02   -1.94678976e+02
88       1.04571987e+00   -1.10901520e-03   -2.72241592e-02   -1.79673727e+04   -8.05910185e-02   -2.25785678e+02
89       1.05196987e+00   -1.09101856e-03   -3.09854145e-02   -2.04049121e+04   -9.17253716e-02   -2.56416841e+02
90       1.05821987e+00   -1.07155040e-03   -3.46986818e-02   -2.28009707e+04   -1.02717667e-01   -2.86526739e+02
91       1.06446987e+00   -1.05060495e-03   -3.83582713e-02   -2.51522712e+04   -1.13551061e-01   -3.16074189e+02
92       1.07071987e+00   -1.02824027e-03   -4.19585145e-02   -2.74556176e+04   -1.24208773e-01   -3.45019027e+02
93       1.07696987e+00   -1.00451014e-03   -4.54938406e-02   -2.97079319e+04   -1.34674314e-01   -3.73322575e+02
94       1.08321987e+00   -9.79467816e-04   -4.89587818e-02   -3.19062548e+04   -1.44931495e-01   -4.00947644e+02
95       1.08946987e+00   -9.53167884e-04   -5.23479794e-02   -3.40477454e+04   -1.54964455e-01   -4.27858535e+02
96       1.09571987e+00   -9.25664974e-04   -5.56561935e-02   -3.61296831e+04   -1.64757681e-01   -4.54021059e+02
97       1.10196987e+00   -8.97013916e-04   -5.88783107e-02   -3.81494675e+04   -1.74296036e-01   -4.79402538e+02
98       1.10821987e+00   -8.67269480e-04   -6.20093520e-02   -4.01046184e+04   -1.83564782e-01   -5.03971805e+02
99       1.11446987e+00   -8.36486233e-04   -6.50444809e-02   -4.19927758e+04   -1.92549600e-01   -5.27699204e+02
100      1.12071987e+00   -8.04718382e-04   -6.79790108e-02   -4.38116988e+04   -2.01236618e-01   -5.50556573e+02
101      1.12696987e+00   -7.72019651e-04   -7.08084120e-02   -4.55592649e+04   -2.09612426e-01   -5.72517242e+02
102      1.13321987e+00   -7.38443152e-04   -7.35283191e-02   -4.72334688e+04   -2.17664101e-01   -5.93556010e+02
103      1.13946987e+00   -7.04041292e-04   -7.61345377e-02   -4.88324206e+04   -2.25379227e-01   -6.13649128e+02
104      1.14571987e+00   -6.68865683e-04   -7.86230505e-02   -5.03543445e+04   -2.32745911e-01   -6.32774280e+02
105      1.15196987e+00   -6.32967074e-04   -8.09900238e-02   -5.17975766e+04   -2.39752805e-01   -6.50910558e+02
106      1.15821987e+00   -5.96395292e-04   -8.32318137e-02   -5.31605634e+04   -2.46389121e-01   -6.68038438e+02
107      1.16446987e+00   -5.59199211e-04   -8.53449707e-02   -5.44418592e+04   -2.52644648e-01   -6.84139755e+02
108      1.17071987e+00   -5.21426722e-04   -8.73262462e-02   -5.56401244e+04   -2.58509770e-01   -6.99197673e+02
109      1.17696987e+00   -4.83124729e-04   -8.91725965e-02   -5.67541233e+04   -2.63975476e-01   -7.13196664e+02
110      1.18321987e+00   -4.44339151e-04   -9.08811877e-02   -5.77827216e+04   -2.69033377e-01   -7.26122475e+02
111      1.18946987e+00   -4.05114945e-04   -9.24494002e-02   -5.87248849e+04   -2.73675719e-01   -7.37962107e+02
112      1.19571987e+00   -3.65496136e-04   -9.38748324e-02   -5.95796762e+04   -2.77895391e-01   -7.48703784e+02
113      1.20196987e+00   -3.25525857e-04   -9.51553043e-02   -6.03462541e+04   -2.81685941e-01   -7.58336935e+02
114      1.20821987e+00   -2.85246413e-04   -9.62888608e-02   -6.10238713e+04   -2.85041581e-01   -7.66852165e+02
115      1.21446987e+00   -2.44699335e-04   -9.72737747e-02   -6.16118721e+04   -2.87957198e-01   -7.74241238e+02
116      1.22071987e+00   -2.03925459e-04   -9.81085490e-02   -6.21096919e+04   -2.90428360e-01   -7.80497057e+02
117      1.22696987e+00   -1.62965009e-04   -9.87919191e-02   -6.25168551e+04   -2.92451324e-01   -7.85613646e+02
118      1.23321987e+00   -1.21857679e-04   -9.93228549e-02   -6.28329742e+04   -2.94023040e-01   -7.89586135e+02
119      1.23946987e+00   -8.06427303e-05   -9.97005617e-02   -6.30577488e+04   -2.95141156e-01   -7.92410750e+02
120      1.24571987e+00   -3.93590904e-05   -9.99244819e-02   -6.31909651e+04   -2.95804022e-01   -7.94084804e+02
121      1.25196987e+00    1.95454843e-06   -9.99942950e-02   -6.32324951e+04   -2.96010688e-01   -7.94606688e+02
122      1.25821987e+00    4.32596242e-05   -9.99099187e-02   -6.31822963e+04   -2.95760911e-01   -7.93975868e+02
123      1.26446987e+00    8.45176011e-05   -9.96715081e-02   -6.30404119e+04   -2.95055150e-01   -7.92192887e+02
124      1.27071987e+00    1.25689865e-04   -9.92794558e-02   -6.28069708e+04   -2.93894567e-01   -7.89259365e+02
125      1.27696987e+00    1.66737621e-04   -9.87343912e-02   -6.24821881e+04   -2.92281025e-01   -7.85178005e+02
126      1.28321987e+00    2.07621793e-04   -9.80371787e-02   -6.20663656e+04   -2.90217084e-01   -7.79952600e+02
127      1.28946987e+00    2.48302926e-04   -9.71889172e-02   -6.15598928e+04   -2.87705996e-01   -7.73588043e+02
128      1.29571987e+00    2.88741094e-04   -9.61909373e-02   -6.09632479e+04   -2.84751700e-01   -7.66090345e+02
129      1.30196987e+00    3.28895817e-04   -9.50447997e-02   -6.02769990e+04   -2.81358817e-01   -7.57466644e+02
130      1.30821987e+00    3.68725974e-04   -9.37522924e-02   -5.95018055e+04   -2.77532639e-01   -7.47725228e+02
131      1.31446987e+00    4.08189741e-04   -9.23154281e-02   -5.86384201e+04   -2.73279124e-01   -7.36875553e+02
132      1.32071987e+00    4.47244521e-04   -9.07364405e-02   -5.76876898e+04   -2.68604886e-01   -7.24928265e+02
133      1.32696987e+00    4.85846895e-04   -8.90177811e-02   -5.66505584e+04   -2.63517180e-01   -7.11895223e+02
134      1.33321987e+00    5.23952576e-04   -8.71621152e-02   -5.55280682e+04   -2.58023897e-01   -6.97789526e+02
135      1.33946987e+00    5.61516384e-04   -8.51723177e-02   -5.43213619e+04   -2.52133548e-01   -6.82625535e+02
136      1.34571987e+00    5.98492224e-04   -8.30514684e-02   -5.30316852e+04   -2.45855249e-01   -6.66418900e+02
137      1.35196987e+00    6.34833082e-04   -8.08028477e-02   -5.16603882e+04   -2.39198712e-01   -6.49186590e+02
138      1.35821987e+00    6.70491031e-04   -7.84299308e-02   -5.02089278e+04   -2.32174223e-01   -6.30946913e+02
139      1.36446987e+00    7.05417258e-04   -7.59363827e-02   -4.86788700e+04   -2.24792633e-01   -6.11719546e+02
140      1.37071987e+00    7.39562099e-04   -7.33260526e-02   -4.70718914e+04   -2.17065336e-01   -5.91525560e+02
141      1.37696987e+00    7.72875090e-04   -7.06029675e-02   -4.53897813e+04   -2.09004253e-01   -5.70387441e+02
142      1.38321987e+00    8.05305034e-04   -6.77713264e-02   -4.36344435e+04   -2.00621815e-01   -5.48329110e+02
143      1.38946987e+00    8.36800085e-04   -6.48354937e-02   -4.18078975e+04   -1.91930941e-01   -5.25375947e+02
144      1.39571987e+00    8.67307845e-04   -6.17999923e-02   -3.99122803e+04   -1.82945019e-01   -5.01554805e+02
145      1.40196987e+00    8.96775473e-04   -5.86694970e-02   -3.79498469e+04   -1.73677890e-01   -4.76894023e+02
146      1.40821987e+00    9.25149813e-04   -5.54488271e-02   -3.59229717e+04   -1.64143819e-01   -4.51423438e+02
147      1.41446987e+00    9.52377537e-04   -5.21429390e-02   -3.38341485e+04   -1.54357479e-01   -4.25174389e+02
148      1.42071987e+00    9.78405292e-04   -4.87569188e-02   -3.16859911e+04   -1.44333925e-01   -3.98179721e+02
149      1.42696987e+00    1.00317987e-03   -4.52959744e-02   -2.94812327e+04   -1.34088575e-01   -3.70473782e+02
150      1.43321987e+00    1.02664840e-03   -4.17654277e-02   -2.72227258e+04   -1.23637183e-01   -3.42092415e+02
151      1.43946987e+00    1.04875850e-03   -3.81707063e-02   -2.49134405e+04   -1.12995817e-01   -3.13072946e+02
152      1.44571987e+00    1.06945850e-03   -3.45173355e-02   -2.25564637e+04   -1.02180832e-01   -2.83454167e+02
153      1.45196987e+00    1.08869766e-03   -3.08109296e-02   -2.01549970e+04   -9.12088482e-02   -2.53276308e+02
154      1.45821987e+00    1.10642635e-03   -2.70571838e-02   -1.77123543e+04   -8.00967253e-02   -2.22581015e+02
155      1.46446987e+00    1.12259630e-03   -2.32618650e-02   -1.52319588e+04   -6.88615350e-02   -1.91411304e+02
156      1.47071987e+00    1.13716079e-03   -1.94308036e-02   -1.27173399e+04   -5.75205368e-02   -1.59811529e+02
157      1.47696987e+00    1.15007490e-03   -1.55698843e-02   -1.01721294e+04   -4.60911511e-02   -1.27827327e+02
158      1.48321987e+00    1.16129573e-03   -1.16850374e-02   -7.60005688e+03   -3.45909331e-02   -9.55055662e+01
159      1.48946987e+00    1.17078259e-03   -7.78222980e-03   -5.00494513e+03   -2.30375463e-02   -6.28942849e+01
160      1.50196987e+00    1.18501249e-03    5.26642643e-05    2.49231982e+02    1.55900745e-04    3.13194342e+00
161      1.50407893e+00    1.18504566e-03    1.37753969e-03    1.13736517e+03    4.07789736e-03    1.42926035e+01
162      1.50618798e+00    1.18419252e-03    2.70285142e-03    2.02452467e+03    8.00118555e-03    2.54410279e+01
163      1.51040609e+00    1.17844065e-03    5.35524032e-03    3.79492996e+03    1.58529881e-02    4.76886956e+01
164      1.51462420e+00    1.17468644e-03    8.00104244e-03    5.55591855e+03    2.36852920e-02    6.98180293e+01
165      1.51884230e+00    1.16831181e-03    1.06430202e-02    7.30926115e+03    3.15062747e-02    9.18512805e+01
166      1.52727852e+00    1.14924896e-03    1.59065559e-02    1.07817428e+04    4.70877919e-02    1.35487968e+02
167      1.53571473e+00    1.13688077e-03    2.11154870e-02    1.41980914e+04    6.25076645e-02    1.78419265e+02
168      1.54415095e+00    1.11339874e-03    2.62730249e-02    1.75608142e+04    7.77753988e-02    2.20676677e+02
169      1.55258716e+00    1.09022415e-03    3.13533266e-02    2.08537667e+04    9.28144927e-02    2.62057328e+02
170      1.56102338e+00    1.06299073e-03    3.63465528e-02    2.40714423e+04    1.07595819e-01    3.02492018e+02
171      1.56945959e+00    1.03375006e-03    4.12367025e-02    2.72049229e+04    1.22072011e-01    3.41868678e+02
172      1.57789581e+00    1.00173069e-03    4.60108927e-02    3.02467720e+04    1.36204931e-01    3.80093858e+02
173      1.58633202e+00    9.67360305e-04    5.06553751e-02    3.31895345e+04    1.49953879e-01    4.17073876e+02
