Index       TIME              V(1)             I(LP1)       N(YMIN!KTRANS1_M) N(YMIN!KTRANS1_H) N(YMIN!KTRANS1_B)
0        0.00000000e+00    0.00000000e+00    0.00000000e+00    0.00000000e+00    0.00000000e+00    0.00000000e+00
1        1.00000000e-10    0.00000000e+00    0.00000000e+00    0.00000000e+00    0.00000000e+00    0.00000000e+00
2        3.00000000e-10    0.00000000e+00    0.00000000e+00    0.00000000e+00    0.00000000e+00    0.00000000e+00
3        7.00000000e-10    0.00000000e+00    0.00000000e+00    0.00000000e+00    0.00000000e+00    0.00000000e+00
4        1.50000000e-09    0.00000000e+00    0.00000000e+00    0.00000000e+00    0.00000000e+00    0.00000000e+00
5        3.10000000e-09    0.00000000e+00    0.00000000e+00    0.00000000e+00    0.00000000e+00    0.00000000e+00
6        6.30000000e-09    0.00000000e+00    0.00000000e+00    0.00000000e+00    0.00000000e+00    0.00000000e+00
7        1.27000000e-08    0.00000000e+00    0.00000000e+00    0.00000000e+00    0.00000000e+00    0.00000000e+00
8        2.55000000e-08    0.00000000e+00    0.00000000e+00    0.00000000e+00    0.00000000e+00    0.00000000e+00
9        5.11000000e-08    0.00000000e+00    0.00000000e+00    0.00000000e+00    0.00000000e+00    0.00000000e+00
10       1.02300000e-07    0.00000000e+00    0.00000000e+00    0.00000000e+00    0.00000000e+00    0.00000000e+00
11       2.04700000e-07    0.00000000e+00    0.00000000e+00    0.00000000e+00    0.00000000e+00    0.00000000e+00
12       4.09500000e-07    0.00000000e+00    0.00000000e+00    0.00000000e+00    0.00000000e+00    0.00000000e+00
13       8.19100000e-07    0.00000000e+00    0.00000000e+00    0.00000000e+00    0.00000000e+00    0.00000000e+00
14       1.63830000e-06    0.00000000e+00    0.00000000e+00    0.00000000e+00    0.00000000e+00    0.00000000e+00
15       3.27670000e-06    0.00000000e+00    0.00000000e+00    0.00000000e+00    0.00000000e+00    0.00000000e+00
16       6.55350000e-06    0.00000000e+00    0.00000000e+00    0.00000000e+00    0.00000000e+00    0.00000000e+00
17       1.31071000e-05    0.00000000e+00    0.00000000e+00    0.00000000e+00    0.00000000e+00    0.00000000e+00
18       2.62143000e-05    0.00000000e+00    0.00000000e+00    0.00000000e+00    0.00000000e+00    0.00000000e+00
19       5.24287000e-05    0.00000000e+00    0.00000000e+00    0.00000000e+00    0.00000000e+00    0.00000000e+00
20       1.04857500e-04    0.00000000e+00    0.00000000e+00    0.00000000e+00    0.00000000e+00    0.00000000e+00
21       2.09715100e-04    0.00000000e+00    0.00000000e+00    0.00000000e+00    0.00000000e+00    0.00000000e+00
22       4.19430300e-04    0.00000000e+00    0.00000000e+00    0.00000000e+00    0.00000000e+00    0.00000000e+00
23       8.38860700e-04    0.00000000e+00    0.00000000e+00    0.00000000e+00    0.00000000e+00    0.00000000e+00
24       1.67772150e-03    0.00000000e+00    0.00000000e+00    0.00000000e+00    0.00000000e+00    0.00000000e+00
25       3.35544310e-03    0.00000000e+00    0.00000000e+00    0.00000000e+00    0.00000000e+00    0.00000000e+00
26       6.71088630e-03    0.00000000e+00    0.00000000e+00    0.00000000e+00    0.00000000e+00    0.00000000e+00
27       1.34217727e-02    0.00000000e+00    0.00000000e+00    0.00000000e+00    0.00000000e+00    0.00000000e+00
28       2.68435455e-02    0.00000000e+00    0.00000000e+00    0.00000000e+00    0.00000000e+00    0.00000000e+00
29       5.36870911e-02    0.00000000e+00    0.00000000e+00    0.00000000e+00    0.00000000e+00    0.00000000e+00
30       1.07374182e-01    0.00000000e+00    0.00000000e+00    0.00000000e+00    0.00000000e+00    0.00000000e+00
31       2.14748365e-01    0.00000000e+00    0.00000000e+00    0.00000000e+00    0.00000000e+00    0.00000000e+00
32       4.29496730e-01    0.00000000e+00    0.00000000e+00    0.00000000e+00    0.00000000e+00    0.00000000e+00
33       8.29496730e-01    0.00000000e+00    0.00000000e+00    0.00000000e+00    0.00000000e+00    0.00000000e+00
34       9.29496730e-01    0.00000000e+00    0.00000000e+00    0.00000000e+00    0.00000000e+00    0.00000000e+00
35       9.79496730e-01    0.00000000e+00    0.00000000e+00    0.00000000e+00    0.00000000e+00    0.00000000e+00
36       9.85746730e-01    0.00000000e+00    0.00000000e+00    0.00000000e+00    0.00000000e+00    0.00000000e+00
37       9.98246730e-01    0.00000000e+00    0.00000000e+00    0.00000000e+00    0.00000000e+00    0.00000000e+00
38       9.99809230e-01    0.00000000e+00    0.00000000e+00    0.00000000e+00    0.00000000e+00    0.00000000e+00
39       9.99858058e-01    0.00000000e+00    0.00000000e+00    0.00000000e+00    0.00000000e+00    0.00000000e+00
40       9.99955714e-01    0.00000000e+00    0.00000000e+00    0.00000000e+00    0.00000000e+00    0.00000000e+00
41       9.99967921e-01    0.00000000e+00    0.00000000e+00    0.00000000e+00    0.00000000e+00    0.00000000e+00
42       9.99992335e-01    0.00000000e+00    0.00000000e+00    0.00000000e+00    0.00000000e+00    0.00000000e+00
43       9.99995387e-01    0.00000000e+00    0.00000000e+00    0.00000000e+00    0.00000000e+00    0.00000000e+00
44       9.99999482e-01    0.00000000e+00    0.00000000e+00    0.00000000e+00    0.00000000e+00    0.00000000e+00
45       1.00000009e+00   -5.39485646e-08   -1.72667643e-11   -1.15857654e-08   -5.11143840e-11   -1.45591664e-07
46       1.00000129e+00   -8.13138686e-07   -2.94786497e-10   -1.97797753e-07   -8.72649323e-10   -2.48561084e-06
47       1.00000238e+00   -1.49599441e-06   -9.59941012e-10   -6.44107438e-07   -2.84169011e-09   -8.09412849e-06
48       1.00000347e+00   -2.17845685e-06   -2.01838058e-09   -1.35430608e-06   -5.97496312e-09   -1.70187872e-05
49       1.00000565e+00   -3.54220288e-06   -5.31409589e-09   -3.56568648e-06   -1.57311893e-08   -4.48079355e-05
50       1.00001000e+00   -6.26498640e-06   -1.66140876e-08   -1.11478281e-05   -4.91822810e-08   -1.40088358e-04
51       1.00001435e+00   -8.98150266e-06   -3.41813228e-08   -2.29352054e-05   -1.01186141e-07   -2.88213563e-04
52       1.00001870e+00   -1.16917661e-05   -5.80013756e-08   -3.89181387e-05   -1.71700066e-07   -4.89061912e-04
53       1.00002305e+00   -1.43957911e-05   -8.80598534e-08   -5.90869708e-05   -2.60681450e-07   -7.42512050e-04
54       1.00002740e+00   -1.70935920e-05   -1.24342397e-07   -8.34320667e-05   -3.68087783e-07   -1.04844290e-03
55       1.00003175e+00   -1.97851832e-05   -1.66834679e-07   -1.11943814e-04   -4.93876657e-07   -1.40673366e-03
56       1.00003611e+00   -2.24705789e-05   -2.15522407e-07   -1.44612621e-04   -6.38005758e-07   -1.81726380e-03
57       1.00004046e+00   -2.51497935e-05   -2.70391320e-07   -1.81428919e-04   -8.00432872e-07   -2.27991310e-03
58       1.00004481e+00   -2.78228410e-05   -3.31427191e-07   -2.22383163e-04   -9.81115880e-07   -2.79456157e-03
59       1.00004916e+00   -3.04897358e-05   -3.98615823e-07   -2.67465827e-04   -1.18001276e-06   -3.36108953e-03
60       1.00005351e+00   -3.31504919e-05   -4.71943056e-07   -3.16667408e-04   -1.39708159e-06   -3.97937757e-03
61       1.00005786e+00   -3.58051235e-05   -5.51394759e-07   -3.69978426e-04   -1.63228054e-06   -4.64930653e-03
62       1.00006221e+00   -3.84536448e-05   -6.36956835e-07   -4.27389421e-04   -1.88556788e-06   -5.37075756e-03
63       1.00006657e+00   -4.10960697e-05   -7.28615220e-07   -4.88890957e-04   -2.15690198e-06   -6.14361206e-03
64       1.00007092e+00   -4.37324123e-05   -8.26355880e-07   -5.54473618e-04   -2.44624128e-06   -6.96775172e-03
65       1.00007527e+00   -4.63626865e-05   -9.30164817e-07   -6.24128009e-04   -2.75354436e-06   -7.84305848e-03
66       1.00007962e+00   -4.89869065e-05   -1.04002806e-06   -6.97844759e-04   -3.07876986e-06   -8.76941457e-03
67       1.00008397e+00   -5.16050860e-05   -1.15593168e-06   -7.75614517e-04   -3.42187653e-06   -9.74670248e-03
68       1.00008832e+00   -5.42172390e-05   -1.27786176e-06   -8.57427954e-04   -3.78282321e-06   -1.07748050e-02
69       1.00009267e+00   -5.68233794e-05   -1.40580445e-06   -9.43275762e-04   -4.16156883e-06   -1.18536051e-02
70       1.00009703e+00   -5.94235210e-05   -1.53974589e-06   -1.03314865e-03   -4.55807244e-06   -1.29829862e-02
71       1.00010138e+00   -6.20176776e-05   -1.67967228e-06   -1.12703737e-03   -4.97229314e-06   -1.41628317e-02
72       1.00010573e+00   -6.46058630e-05   -1.82556984e-06   -1.22493265e-03   -5.40419017e-06   -1.53930256e-02
73       1.00011008e+00   -6.71880908e-05   -1.97742484e-06   -1.32682530e-03   -5.85372283e-06   -1.66734520e-02
74       1.00011443e+00   -6.97643750e-05   -2.13522355e-06   -1.43270609e-03   -6.32085053e-06   -1.80039952e-02
75       1.00011878e+00   -7.23347290e-05   -2.29895230e-06   -1.54256586e-03   -6.80553277e-06   -1.93845398e-02
76       1.00012313e+00   -7.48991666e-05   -2.46859743e-06   -1.65639544e-03   -7.30772915e-06   -2.08149708e-02
77       1.00012749e+00   -7.74577013e-05   -2.64414534e-06   -1.77418570e-03   -7.82739936e-06   -2.22951734e-02
78       1.00013619e+00   -8.25571234e-05   -3.01288838e-06   -2.02160726e-03   -8.91898045e-06   -2.54043782e-02
79       1.00014489e+00   -8.76330968e-05   -3.40507993e-06   -2.28476245e-03   -1.00799756e-05   -2.87112984e-02
80       1.00015359e+00   -9.26857291e-05   -3.82061216e-06   -2.56357891e-03   -1.13100656e-05   -3.22150248e-02
81       1.00016230e+00   -9.77151279e-05   -4.25937775e-06   -2.85798462e-03   -1.26089327e-05   -3.59146524e-02
82       1.00017100e+00   -1.02721400e-04   -4.72126987e-06   -3.16790790e-03   -1.39762608e-05   -3.98092804e-02
83       1.00017970e+00   -1.07704651e-04   -5.20618218e-06   -3.49327740e-03   -1.54117349e-05   -4.38980121e-02
84       1.00018841e+00   -1.12664988e-04   -5.71400884e-06   -3.83402208e-03   -1.69150419e-05   -4.81799550e-02
85       1.00019711e+00   -1.17602515e-04   -6.24464448e-06   -4.19007126e-03   -1.84858697e-05   -5.26542207e-02
86       1.00020581e+00   -1.22517338e-04   -6.79798423e-06   -4.56135455e-03   -2.01239080e-05   -5.73199246e-02
87       1.00021451e+00   -1.27409561e-04   -7.37392370e-06   -4.94780190e-03   -2.18288476e-05   -6.21761867e-02
88       1.00022322e+00   -1.32279287e-04   -7.97235898e-06   -5.34934358e-03   -2.36003811e-05   -6.72221305e-02
89       1.00023192e+00   -1.37126621e-04   -8.59318663e-06   -5.76591018e-03   -2.54382021e-05   -7.24568839e-02
90       1.00024062e+00   -1.41951665e-04   -9.23630371e-06   -6.19743262e-03   -2.73420060e-05   -7.78795787e-02
91       1.00024933e+00   -1.46754522e-04   -9.90160773e-06   -6.64384211e-03   -2.93114894e-05   -8.34893506e-02
92       1.00025803e+00   -1.51535293e-04   -1.05889967e-05   -7.10507021e-03   -3.13463502e-05   -8.92853394e-02
93       1.00026673e+00   -1.56294080e-04   -1.12983690e-05   -7.58104877e-03   -3.34462880e-05   -9.52666887e-02
94       1.00027543e+00   -1.61030984e-04   -1.20296237e-05   -8.07170996e-03   -3.56110035e-05   -1.01432546e-01
95       1.00028414e+00   -1.65746107e-04   -1.27826601e-05   -8.57698626e-03   -3.78401990e-05   -1.07782064e-01
96       1.00029284e+00   -1.70439547e-04   -1.35573781e-05   -9.09681048e-03   -4.01335779e-05   -1.14314396e-01
97       1.00030154e+00   -1.75111404e-04   -1.43536780e-05   -9.63111571e-03   -4.24908452e-05   -1.21028703e-01
98       1.00031895e+00   -1.84390817e-04   -1.60105782e-05   -1.07428702e-02   -4.73957266e-05   -1.34999484e-01
99       1.00033635e+00   -1.93585084e-04   -1.77526223e-05   -1.19117543e-02   -5.25526574e-05   -1.49688180e-01
100      1.00035376e+00   -2.02694985e-04   -1.95790293e-05   -1.31372437e-02   -5.79593258e-05   -1.65088201e-01
101      1.00037117e+00   -2.11721295e-04   -2.14890254e-05   -1.44188190e-02   -6.36134412e-05   -1.81193023e-01
102      1.00038857e+00   -2.20664779e-04   -2.34818441e-05   -1.57559656e-02   -6.95127340e-05   -1.97996177e-01
103      1.00040598e+00   -2.29526197e-04   -2.55567257e-05   -1.71481736e-02   -7.56549557e-05   -2.15491255e-01
104      1.00042338e+00   -2.38306302e-04   -2.77129177e-05   -1.85949377e-02   -8.20378785e-05   -2.33671909e-01
105      1.00044079e+00   -2.47005839e-04   -2.99496743e-05   -2.00957572e-02   -8.86592950e-05   -2.52531847e-01
106      1.00045819e+00   -2.55625547e-04   -3.22662569e-05   -2.16501363e-02   -9.55170184e-05   -2.72064836e-01
107      1.00047560e+00   -2.64166158e-04   -3.46619336e-05   -2.32575833e-02   -1.02608882e-04   -2.92264701e-01
108      1.00049301e+00   -2.72628396e-04   -3.71359790e-05   -2.49176113e-02   -1.09932739e-04   -3.13125320e-01
109      1.00051041e+00   -2.81012980e-04   -3.96876747e-05   -2.66297379e-02   -1.17486462e-04   -3.34640632e-01
110      1.00052782e+00   -2.89320621e-04   -4.23163088e-05   -2.83934849e-02   -1.25267943e-04   -3.56804628e-01
111      1.00054522e+00   -2.97552026e-04   -4.50211760e-05   -3.02083786e-02   -1.33275096e-04   -3.79611356e-01
112      1.00056263e+00   -3.05707892e-04   -4.78015774e-05   -3.20739496e-02   -1.41505851e-04   -4.03054916e-01
113      1.00058003e+00   -3.13788913e-04   -5.06568205e-05   -3.39897330e-02   -1.49958158e-04   -4.27129466e-01
114      1.00059744e+00   -3.21795773e-04   -5.35862195e-05   -3.59552678e-02   -1.58629987e-04   -4.51829215e-01
115      1.00063225e+00   -3.37590057e-04   -5.96644400e-05   -4.00335468e-02   -1.76623196e-04   -5.03078606e-01
116      1.00066706e+00   -3.53095763e-04   -6.60312200e-05   -4.43054151e-02   -1.95470620e-04   -5.56760723e-01
117      1.00070187e+00   -3.68318155e-04   -7.26812941e-05   -4.87673357e-02   -2.15156673e-04   -6.12831118e-01
118      1.00073669e+00   -3.83262400e-04   -7.96094934e-05   -5.34158359e-02   -2.35666054e-04   -6.71246152e-01
119      1.00077150e+00   -3.97933573e-04   -8.68107433e-05   -5.82475064e-02   -2.56983739e-04   -7.31962982e-01
120      1.00080631e+00   -4.12336653e-04   -9.42800622e-05   -6.32590002e-02   -2.79094983e-04   -7.94939548e-01
121      1.00084112e+00   -4.26476531e-04   -1.02012559e-04   -6.84470311e-02   -3.01985307e-04   -8.60134556e-01
122      1.00087593e+00   -4.40358007e-04   -1.10003433e-04   -7.38083732e-02   -3.25640497e-04   -9.27507464e-01
123      1.00091074e+00   -4.53985794e-04   -1.18247970e-04   -7.93398591e-02   -3.50046600e-04   -9.97018473e-01
124      1.00094555e+00   -4.67364517e-04   -1.26741543e-04   -8.50383794e-02   -3.75189917e-04   -1.06862851e+00
125      1.00098037e+00   -4.80498720e-04   -1.35479608e-04   -9.09008812e-02   -4.01056999e-04   -1.14229920e+00
126      1.00101518e+00   -4.93392860e-04   -1.44457705e-04   -9.69243673e-02   -4.27634644e-04   -1.21799290e+00
127      1.00104999e+00   -5.06051317e-04   -1.53671457e-04   -1.03105895e-01   -4.54909889e-04   -1.29567261e+00
128      1.00108480e+00   -5.18478386e-04   -1.63116563e-04   -1.09442577e-01   -4.82870009e-04   -1.37530205e+00
129      1.00115442e+00   -5.42657180e-04   -1.82682023e-04   -1.22568751e-01   -5.40789166e-04   -1.54025115e+00
130      1.00122405e+00   -5.65959917e-04   -2.03123401e-04   -1.36282268e-01   -6.01301280e-04   -1.71258105e+00
131      1.00129367e+00   -5.88418253e-04   -2.24409032e-04   -1.50561847e-01   -6.64312617e-04   -1.89202432e+00
132      1.00136329e+00   -6.10062700e-04   -2.46508396e-04   -1.65386974e-01   -7.29732831e-04   -2.07832318e+00
133      1.00143291e+00   -6.30922664e-04   -2.69392080e-04   -1.80737878e-01   -7.97474847e-04   -2.27122918e+00
134      1.00150254e+00   -6.51026488e-04   -2.93031733e-04   -1.96595500e-01   -8.67454736e-04   -2.47050282e+00
135      1.00157216e+00   -6.70401487e-04   -3.17400028e-04   -2.12941473e-01   -9.39591610e-04   -2.67591328e+00
136      1.00164178e+00   -6.89073993e-04   -3.42470628e-04   -2.29758091e-01   -1.01380750e-03   -2.88723806e+00
137      1.00171141e+00   -7.07069381e-04   -3.68218149e-04   -2.47028287e-01   -1.09002726e-03   -3.10426271e+00
138      1.00178103e+00   -7.24412111e-04   -3.94618122e-04   -2.64735614e-01   -1.16817846e-03   -3.32678052e+00
139      1.00185065e+00   -7.41125756e-04   -4.21646965e-04   -2.82864215e-01   -1.24819129e-03   -3.55459225e+00
140      1.00192027e+00   -7.57233039e-04   -4.49281948e-04   -3.01398809e-01   -1.32999846e-03   -3.78750585e+00
141      1.00205952e+00   -7.87725325e-04   -5.06273494e-04   -3.39620863e-01   -1.49870915e-03   -4.26782047e+00
142      1.00219877e+00   -8.16043427e-04   -5.65438232e-04   -3.79297877e-01   -1.67385309e-03   -4.76641873e+00
143      1.00233801e+00   -8.42341597e-04   -6.26621845e-04   -4.20326089e-01   -1.85497346e-03   -5.28199672e+00
144      1.00247726e+00   -8.66763134e-04   -6.89680967e-04   -4.62609098e-01   -2.04164585e-03   -5.81334303e+00
145      1.00261650e+00   -8.89441164e-04   -7.54482404e-04   -5.06057343e-01   -2.23347597e-03   -6.35933219e+00
146      1.00275575e+00   -9.10499366e-04   -8.20902412e-04   -5.50587614e-01   -2.43009751e-03   -6.91891856e+00
147      1.00289499e+00   -9.30052638e-04   -8.88826023e-04   -5.96122607e-01   -2.63117013e-03   -7.49113068e+00
148      1.00303424e+00   -9.48207727e-04   -9.58146426e-04   -6.42590498e-01   -2.83637764e-03   -8.07506599e+00
149      1.00331273e+00   -9.80754352e-04   -1.10054634e-03   -7.38034982e-01   -3.25792065e-03   -9.27446205e+00
150      1.00359122e+00   -1.00879843e-03   -1.24744243e-03   -8.36477471e-01   -3.69277358e-03   -1.05115323e+01
151      1.00386972e+00   -1.03295674e-03   -1.39821737e-03   -9.37502913e-01   -4.13910900e-03   -1.17810611e+01
152      1.00414821e+00   -1.05376155e-03   -1.55233838e-03   -1.04075311e+00   -4.59534968e-03   -1.30785471e+01
153      1.00442670e+00   -1.07167217e-03   -1.70934560e-03   -1.14591893e+00   -5.06013434e-03   -1.44001056e+01
154      1.00470519e+00   -1.08708498e-03   -1.86884210e-03   -1.25273358e+00   -5.53228798e-03   -1.57423839e+01
155      1.00526217e+00   -1.11185793e-03   -2.19386010e-03   -1.47033961e+00   -6.49443087e-03   -1.84769140e+01
156      1.00637614e+00   -1.14406759e-03   -2.86110660e-03   -1.91682951e+00   -8.46966451e-03   -2.40876965e+01
157      1.00749010e+00   -1.16103214e-03   -3.54340200e-03   -2.37305179e+00   -1.04894470e-02   -2.98207801e+01
158      1.00860407e+00   -1.16966797e-03   -4.23379565e-03   -2.83434074e+00   -1.25332026e-02   -3.56175337e+01
159      1.01083200e+00   -1.17577745e-03   -5.62491676e-03   -3.76275501e+00   -1.66513048e-02   -4.72843832e+01
160      1.01305993e+00   -1.17515274e-03   -7.02143943e-03   -4.69333984e+00   -2.07853970e-02   -5.89785091e+01
161      1.01751580e+00   -1.16963093e-03   -9.81366545e-03   -6.54964195e+00   -2.90511560e-02   -8.23055932e+01
162      1.02197166e+00   -1.16223294e-03   -1.25991592e-02   -8.39571376e+00   -3.72969855e-02   -1.05504119e+02
163      1.02642752e+00   -1.15403282e-03   -1.53746691e-02   -1.02294349e+01   -4.55132602e-02   -1.28547443e+02
164      1.03088339e+00   -1.14495479e-03   -1.81381020e-02   -1.20494755e+01   -5.36937837e-02   -1.51418849e+02
165      1.03979511e+00   -1.12456757e-03   -2.36197109e-02   -1.56428970e+01   -6.99208577e-02   -1.96575320e+02
166      1.04870684e+00   -1.10044349e-03   -2.90274954e-02   -1.91658341e+01   -8.59293911e-02   -2.40846054e+02
167      1.05761857e+00   -1.07335997e-03   -3.43438030e-02   -2.26076847e+01   -1.01667128e-01   -2.84097822e+02
168      1.06653029e+00   -1.04320114e-03   -3.95521703e-02   -2.59588941e+01   -1.17085331e-01   -3.26210556e+02
169      1.07544202e+00   -1.01022816e-03   -4.46361051e-02   -2.92101379e+01   -1.32135180e-01   -3.67067079e+02
170      1.08435375e+00   -9.74550847e-04   -4.95796653e-02   -3.23526791e+01   -1.46769481e-01   -4.06557601e+02
171      1.09326547e+00   -9.36346204e-04   -5.43672899e-02   -3.53782349e+01   -1.60942171e-01   -4.44578034e+02
172      1.10217720e+00   -8.95765041e-04   -5.89839412e-02   -3.82790415e+01   -1.74608732e-01   -4.81030817e+02
173      1.11108893e+00   -8.52969793e-04   -6.34151129e-02   -4.10478314e+01   -1.87726222e-01   -5.15824621e+02
