Index   FREQ           Re(V(3))         Im(V(3)) 
0	1.000000e+02,		-1.258759e-15,	-1.760408e-09	
1	1.258925e+02,		-1.994999e-15,	-2.216222e-09	
2	1.584893e+02,		-3.161861e-15,	-2.790059e-09	
3	1.995262e+02,		-5.011212e-15,	-3.512476e-09	
4	2.511886e+02,		-7.942235e-15,	-4.421945e-09	
5	3.162278e+02,		-1.258759e-14,	-5.566899e-09	
6	3.981072e+02,		-1.994999e-14,	-7.008311e-09	
7	5.011872e+02,		-3.161861e-14,	-8.822940e-09	
8	6.309573e+02,		-5.011212e-14,	-1.110742e-08	
9	7.943282e+02,		-7.942235e-14,	-1.398342e-08	
10	1.000000e+03,		-1.258759e-13,	-1.760408e-08	
11	1.258925e+03,		-1.994999e-13,	-2.216222e-08	
12	1.584893e+03,		-3.161861e-13,	-2.790059e-08	
13	1.995262e+03,		-5.011212e-13,	-3.512476e-08	
14	2.511886e+03,		-7.942235e-13,	-4.421945e-08	
15	3.162278e+03,		-1.258759e-12,	-5.566899e-08	
16	3.981072e+03,		-1.994999e-12,	-7.008311e-08	
17	5.011872e+03,		-3.161861e-12,	-8.822940e-08	
18	6.309573e+03,		-5.011212e-12,	-1.110742e-07	
19	7.943282e+03,		-7.942235e-12,	-1.398342e-07	
20	1.000000e+04,		-1.258759e-11,	-1.760408e-07	
21	1.258925e+04,		-1.994999e-11,	-2.216222e-07	
22	1.584893e+04,		-3.161861e-11,	-2.790059e-07	
23	1.995262e+04,		-5.011212e-11,	-3.512476e-07	
24	2.511886e+04,		-7.942235e-11,	-4.421945e-07	
25	3.162278e+04,		-1.258759e-10,	-5.566899e-07	
26	3.981072e+04,		-1.994999e-10,	-7.008310e-07	
27	5.011872e+04,		-3.161860e-10,	-8.822939e-07	
28	6.309573e+04,		-5.011211e-10,	-1.110742e-06	
29	7.943282e+04,		-7.942233e-10,	-1.398341e-06	
30	1.000000e+05,		-1.258759e-09,	-1.760407e-06	
31	1.258925e+05,		-1.994998e-09,	-2.216221e-06	
32	1.584893e+05,		-3.161857e-09,	-2.790055e-06	
33	1.995262e+05,		-5.011202e-09,	-3.512469e-06	
34	2.511886e+05,		-7.942211e-09,	-4.421931e-06	
35	3.162278e+05,		-1.258753e-08,	-5.566871e-06	
36	3.981072e+05,		-1.994984e-08,	-7.008255e-06	
37	5.011872e+05,		-3.161822e-08,	-8.822829e-06	
38	6.309573e+05,		-5.011114e-08,	-1.110720e-05	
39	7.943282e+05,		-7.941990e-08,	-1.398298e-05	
40	1.000000e+06,		-1.258698e-07,	-1.760320e-05	
41	1.258925e+06,		-1.994845e-07,	-2.216047e-05	
42	1.584893e+06,		-3.161472e-07,	-2.789708e-05	
43	1.995262e+06,		-5.010236e-07,	-3.511776e-05	
44	2.511886e+06,		-7.939785e-07,	-4.420550e-05	
45	3.162278e+06,		-1.258144e-06,	-5.564116e-05	
46	3.981072e+06,		-1.993454e-06,	-7.002758e-05	
47	5.011872e+06,		-3.157980e-06,	-8.811867e-05	
48	6.309573e+06,		-5.001471e-06,	-1.108535e-04	
49	7.943282e+06,		-7.917796e-06,	-1.393942e-04	
50	1.000000e+07,		-1.252632e-05,	-1.751645e-04	
51	1.258925e+07,		-1.979650e-05,	-2.198787e-04	
52	1.584893e+07,		-3.123478e-05,	-2.755426e-04	
53	1.995262e+07,		-4.915479e-05,	-3.443861e-04	
54	2.511886e+07,		-7.704422e-05,	-4.286552e-04	
55	3.162278e+07,		-1.200051e-04,	-5.301401e-04	
56	3.981072e+07,		-1.851444e-04,	-6.492633e-04	
57	5.011872e+07,		-2.815824e-04,	-7.835564e-04	
58	6.309573e+07,		-4.194273e-04,	-9.255814e-04	
59	7.943282e+07,		-6.068727e-04,	-1.061043e-03	
60	1.000000e+08,		-8.451875e-04,	-1.168970e-03	
61	1.258925e+08,		-1.123537e-03,	-1.226290e-03	
62	1.584893e+08,		-1.418133e-03,	-1.216679e-03	
63	1.995262e+08,		-1.699011e-03,	-1.138546e-03	
64	2.511886e+08,		-1.941146e-03,	-1.005489e-03	
65	3.162278e+08,		-2.131965e-03,	-8.387930e-04	
66	3.981072e+08,		-2.271184e-03,	-6.582751e-04	
67	5.011872e+08,		-2.365756e-03,	-4.771118e-04	
68	6.309573e+08,		-2.424546e-03,	-3.012507e-04	
69	7.943282e+08,		-2.454965e-03,	-1.312013e-04	
70	1.000000e+09,		-2.461458e-03,	3.573488e-05	
