Index   FREQ  Re(V(8))         Im(V(8))
0	1.000000e+02		1.734757e+01,	3.569978e-04	
1	1.258925e+02		1.734758e+01,	4.493461e-04	
2	1.584893e+02		1.734759e+01,	5.655187e-04	
3	1.995262e+02		1.734761e+01,	7.115978e-04	
4	2.511886e+02		1.734764e+01,	8.951543e-04	
5	3.162278e+02		1.734769e+01,	1.125548e-03	
6	3.981072e+02		1.734776e+01,	1.414221e-03	
7	5.011872e+02		1.734788e+01,	1.774898e-03	
8	6.309573e+02		1.734807e+01,	2.223513e-03	
9	7.943282e+02		1.734836e+01,	2.777455e-03	
10	1.000000e+03	1.734883e+01,	3.453370e-03	
11	1.258925e+03	1.734956e+01,	4.261957e-03	
12	1.584893e+03	1.735070e+01,	5.196895e-03	
13	1.995262e+03	1.735248e+01,	6.212777e-03	
14	2.511886e+03	1.735520e+01,	7.183787e-03	
15	3.162278e+03	1.735932e+01,	7.831871e-03	
16	3.981072e+03	1.736538e+01,	7.615095e-03	
17	5.011872e+03	1.737394e+01,	5.584453e-03	
18	6.309573e+03	1.738543e+01,	2.645029e-04	
19	7.943282e+03	1.739975e+01,	-1.032079e-02	
20	1.000000e+04	1.741608e+01,	-2.835513e-02	
21	1.258925e+04	1.743283e+01,	-5.573540e-02	
22	1.584893e+04	1.744817e+01,	-9.372981e-02	
23	1.995262e+04	1.746063e+01,	-1.431371e-01	
24	2.511886e+04	1.746939e+01,	-2.048727e-01	
25	3.162278e+04	1.747420e+01,	-2.805839e-01	
26	3.981072e+04	1.747490e+01,	-3.730267e-01	
27	5.011872e+04	1.747108e+01,	-4.862241e-01	
28	6.309573e+04	1.746167e+01,	-6.255428e-01	
29	7.943282e+04	1.744454e+01,	-7.977801e-01	
30	1.000000e+05	1.741604e+01,	-1.011270e+00	
31	1.258925e+05	1.737020e+01,	-1.275942e+00	
32	1.584893e+05	1.729761e+01,	-1.603169e+00	
33	1.995262e+05	1.718384e+01,	-2.005147e+00	
34	2.511886e+05	1.700736e+01,	-2.493269e+00	
35	3.162278e+05	1.673728e+01,	-3.074769e+00	
36	3.981072e+05	1.633208e+01,	-3.746633e+00	
37	5.011872e+05	1.574165e+01,	-4.486305e+00	
38	6.309573e+05	1.491681e+01,	-5.240857e+00	
39	7.943282e+05	1.382982e+01,	-5.921229e+00	
40	1.000000e+06	1.250242e+01,	-6.413331e+00	
41	1.258925e+06	1.102427e+01,	-6.613969e+00	
42	1.584893e+06	9.538099e+00,	-6.478448e+00	
43	1.995262e+06	8.189587e+00,	-6.045142e+00	
44	2.511886e+06	7.075021e+00,	-5.415169e+00	
45	3.162278e+06	6.222332e+00,	-4.705482e+00	
46	3.981072e+06	5.607068e+00,	-4.010777e+00	
47	5.011872e+06	5.180434e+00,	-3.390121e+00	
48	6.309573e+06	4.890749e+00,	-2.871690e+00	
49	7.943282e+06	4.693742e+00,	-2.463575e+00	
50	1.000000e+07	4.554842e+00,	-2.163427e+00	
51	1.258925e+07	4.447580e+00,	-1.964798e+00	
52	1.584893e+07	4.350680e+00,	-1.860476e+00	
53	1.995262e+07	4.245042e+00,	-1.843531e+00	
54	2.511886e+07	4.111110e+00,	-1.906552e+00	
55	3.162278e+07	3.927110e+00,	-2.039158e+00	
56	3.981072e+07	3.669122e+00,	-2.223827e+00	
57	5.011872e+07	3.314698e+00,	-2.430872e+00	
58	6.309573e+07	2.851629e+00,	-2.615454e+00	
59	7.943282e+07	2.290657e+00,	-2.722033e+00	
60	1.000000e+08	1.674621e+00,	-2.700482e+00	
