Index        FREQ           Re(V(8))         Im(V(8))
0       1.00000000e+02   2.02597336e+01   2.54291933e-04   
1       1.25892541e+02   2.02597401e+01   3.20057947e-04   
2       1.58489319e+02   2.02597503e+01   4.02776208e-04   
3       1.99526231e+02   2.02597666e+01   5.06760242e-04   
4       2.51188643e+02   2.02597923e+01   6.37365070e-04   
5       3.16227766e+02   2.02598331e+01   8.01182051e-04   
6       3.98107171e+02   2.02598977e+01   1.00621014e-03   
7       5.01187234e+02   2.02599999e+01   1.26192475e-03   
8       6.30957344e+02   2.02601616e+01   1.57907451e-03   
9       7.94328235e+02   2.02604170e+01   1.96885652e-03   
10      1.00000000e+03   2.02608196e+01   2.44077167e-03   
11      1.25892541e+03   2.02614524e+01   2.99780741e-03   
12      1.58489319e+03   2.02624423e+01   3.62642268e-03   
13      1.99526231e+03   2.02639793e+01   4.27687574e-03   
14      2.51188643e+03   2.02663380e+01   4.82672553e-03   
15      3.16227766e+03   2.02698941e+01   5.01792524e-03   
16      3.98107171e+03   2.02751144e+01   4.35992927e-03   
17      5.01187234e+03   2.02824846e+01   2.00715948e-03   
18      6.30957344e+03   2.02923352e+01   -3.33961807e-03  
19      7.94328235e+03   2.03045743e+01   -1.34031492e-02  
20      1.00000000e+04   2.03184601e+01   -3.00716057e-02  
21      1.25892541e+04   2.03326467e+01   -5.49808318e-02  
22      1.58489319e+04   2.03455964e+01   -8.92454648e-02  
23      1.99526231e+04   2.03561046e+01   -1.33621773e-01  
24      2.51188643e+04   2.03635511e+01   -1.89018670e-01  
25      3.16227766e+04   2.03677671e+01   -2.57017973e-01  
26      3.98107171e+04   2.03687044e+01   -3.40191493e-01  
27      5.01187234e+04   2.03660975e+01   -4.42243617e-01  
28      6.30957344e+04   2.03591757e+01   -5.68098972e-01  
29      7.94328235e+04   2.03463685e+01   -7.24015662e-01  
30      1.00000000e+05   2.03249153e+01   -9.17738812e-01  
31      1.25892541e+05   2.02902770e+01   -1.15865500e+00  
32      1.58489319e+05   2.02352391e+01   -1.45785125e+00  
33      1.99526231e+05   2.01485849e+01   -1.82789161e+00  
34      2.51188643e+05   2.00132440e+01   -2.28196702e+00  
35      3.16227766e+05   1.98039664e+01   -2.83182599e+00  
36      3.98107171e+05   1.94849995e+01   -3.48359162e+00  
37      5.01187234e+05   1.90092067e+01   -4.23045587e+00  
38      6.30957344e+05   1.83216918e+01   -5.04202966e+00  
39      7.94328235e+05   1.73724859e+01   -5.85310864e+00  
40      1.00000000e+06   1.61411771e+01   -6.56041757e+00  
41      1.25892541e+06   1.46668740e+01   -7.04042192e+00  
42      1.58489319e+06   1.30617747e+01   -7.19315683e+00  
43      1.99526231e+06   1.14852561e+01   -6.99130619e+00  
44      2.51188643e+06   1.00853555e+01   -6.49625420e+00  
45      3.16227766e+06   8.94831518e+00   -5.82663107e+00  
46      3.98107171e+06   8.08795979e+00   -5.10712001e+00  
47      5.01187234e+06   7.46805138e+00   -4.43324303e+00  
48      6.30957344e+06   7.03171192e+00   -3.86257060e+00  
49      7.94328235e+06   6.72130386e+00   -3.42222953e+00  
50      1.00000000e+07   6.48653862e+00   -3.12035544e+00  
51      1.25892541e+07   6.28492862e+00   -2.95499101e+00  
52      1.58489319e+07   6.07884655e+00   -2.91868651e+00  
53      1.99526231e+07   5.83203629e+00   -2.99894887e+00  
54      2.51188643e+07   5.50767920e+00   -3.17508941e+00  
55      3.16227766e+07   5.07033245e+00   -3.41257913e+00  
56      3.98107171e+07   4.49419035e+00   -3.65796286e+00  
57      5.01187234e+07   3.77776500e+00   -3.84055494e+00  
58      6.30957344e+07   2.95817535e+00   -3.88771239e+00  
59      7.94328235e+07   2.11116715e+00   -3.75201126e+00  
60      1.00000000e+08   1.32844728e+00   -3.43376576e+00  
0       1.00000000e+02   2.06332290e+01   2.23120677e-04   
1       1.25892541e+02   2.06332360e+01   2.80810538e-04   
2       1.58489319e+02   2.06332469e+01   3.53356428e-04   
3       1.99526231e+02   2.06332643e+01   4.44524039e-04   
4       2.51188643e+02   2.06332919e+01   5.58973668e-04   
5       3.16227766e+02   2.06333356e+01   7.02412023e-04   
6       3.98107171e+02   2.06334047e+01   8.81704348e-04   
7       5.01187234e+02   2.06335141e+01   1.10485898e-03   
8       6.30957344e+02   2.06336871e+01   1.38069861e-03   
9       7.94328235e+02   2.06339605e+01   1.71783916e-03   
10      1.00000000e+03   2.06343915e+01   2.12222342e-03   
11      1.25892541e+03   2.06350690e+01   2.59175517e-03   
12      1.58489319e+03   2.06361288e+01   3.10532314e-03   
13      1.99526231e+03   2.06377745e+01   3.60142876e-03   
14      2.51188643e+03   2.06403007e+01   3.93871148e-03   
15      3.16227766e+03   2.06441107e+01   3.82802639e-03   
16      3.98107171e+03   2.06497064e+01   2.72773328e-03   
17      5.01187234e+03   2.06576120e+01   -2.89336848e-04  
18      6.30957344e+03   2.06681879e+01   -6.64479740e-03  
19      7.94328235e+03   2.06813426e+01   -1.82271741e-02  
20      1.00000000e+04   2.06962839e+01   -3.71195108e-02  
21      1.25892541e+04   2.07115600e+01   -6.51512985e-02  
22      1.58489319e+04   2.07254981e+01   -1.03604806e-01  
23      1.99526231e+04   2.07367706e+01   -1.53385708e-01  
24      2.51188643e+04   2.07446694e+01   -2.15575466e-01  
25      3.16227766e+04   2.07489636e+01   -2.92000643e-01  
26      3.98107171e+04   2.07495334e+01   -3.85584977e-01  
27      5.01187234e+04   2.07459909e+01   -5.00511204e-01  
28      6.30957344e+04   2.07373459e+01   -6.42320334e-01  
29      7.94328235e+04   2.07216537e+01   -8.18033710e-01  
30      1.00000000e+05   2.06955439e+01   -1.03630899e+00  
31      1.25892541e+05   2.06535134e+01   -1.30757674e+00  
32      1.58489319e+05   2.05868560e+01   -1.64403245e+00  
33      1.99526231e+05   2.04821040e+01   -2.05924436e+00  
34      2.51188643e+05   2.03189053e+01   -2.56694335e+00  
35      3.16227766e+05   2.00674835e+01   -3.17827298e+00  
36      3.98107171e+05   1.96864195e+01   -3.89647490e+00  
37      5.01187234e+05   1.91227272e+01   -4.70804164e+00  
38      6.30957344e+05   1.83180381e+01   -5.57074003e+00  
39      7.94328235e+05   1.72257525e+01   -6.40300495e+00  
40      1.00000000e+06   1.58402088e+01   -7.08575773e+00  
41      1.25892541e+06   1.42261392e+01   -7.48991633e+00  
42      1.58489319e+06   1.25221751e+01   -7.52808798e+00  
43      1.99526231e+06   1.09002441e+01   -7.19991669e+00  
44      2.51188643e+06   9.50116641e+00   -6.59323984e+00  
45      3.16227766e+06   8.39234197e+00   -5.84006766e+00  
46      3.98107171e+06   7.56952784e+00   -5.06452520e+00  
47      5.01187234e+06   6.98561760e+00   -4.35430635e+00  
48      6.30957344e+06   6.57985596e+00   -3.75816756e+00  
49      7.94328235e+06   6.29503583e+00   -3.29633978e+00  
50      1.00000000e+07   6.08333771e+00   -2.97245747e+00  
51      1.25892541e+07   5.90560248e+00   -2.78208984e+00  
52      1.58489319e+07   5.72796390e+00   -2.71705468e+00  
53      1.99526231e+07   5.51814990e+00   -2.76599434e+00  
54      2.51188643e+07   5.24301763e+00   -2.91173670e+00  
55      3.16227766e+07   4.86912812e+00   -3.12612364e+00  
56      3.98107171e+07   4.36866797e+00   -3.36433292e+00  
57      5.01187234e+07   3.73191724e+00   -3.56358430e+00  
58      6.30957344e+07   2.98227988e+00   -3.65314701e+00  
59      7.94328235e+07   2.18214351e+00   -3.57772601e+00  
60      1.00000000e+08   1.41795900e+00   -3.32270949e+00  
0       1.00000000e+02   1.73650960e+01   3.55970227e-04   
1       1.25892541e+02   1.73651034e+01   4.48052518e-04   
2       1.58489319e+02   1.73651153e+01   5.63890242e-04   
3       1.99526231e+02   1.73651340e+01   7.09547737e-04   
4       2.51188643e+02   1.73651637e+01   8.92573515e-04   
5       3.16227766e+02   1.73652108e+01   1.12229916e-03   
6       3.98107171e+02   1.73652853e+01   1.41013109e-03   
7       5.01187234e+02   1.73654033e+01   1.76975035e-03   
8       6.30957344e+02   1.73655899e+01   2.21703310e-03   
9       7.94328235e+02   1.73658847e+01   2.76930054e-03   
10      1.00000000e+03   1.73663495e+01   3.44311001e-03   
11      1.25892541e+03   1.73670802e+01   4.24905148e-03   
12      1.58489319e+03   1.73682235e+01   5.18066874e-03   
13      1.99526231e+03   1.73699995e+01   6.19239262e-03   
14      2.51188643e+03   1.73727269e+01   7.15820702e-03   
15      3.16227766e+03   1.73768435e+01   7.79982602e-03   
16      3.98107171e+03   1.73828961e+01   7.57504850e-03   
17      5.01187234e+03   1.73914609e+01   5.53457088e-03   
18      6.30957344e+03   1.74029435e+01   2.02625447e-04   
19      7.94328235e+03   1.74172662e+01   -1.03972067e-02  
20      1.00000000e+04   1.74335890e+01   -2.84491363e-02  
21      1.25892541e+04   1.74503393e+01   -5.58508039e-02  
22      1.58489319e+04   1.74656800e+01   -9.38715396e-02  
23      1.99526231e+04   1.74781327e+01   -1.43311643e-01  
24      2.51188643e+04   1.74868945e+01   -2.05088491e-01  
25      3.16227766e+04   1.74916943e+01   -2.80851885e-01  
26      3.98107171e+04   1.74923943e+01   -3.73360836e-01  
27      5.01187234e+04   1.74885723e+01   -4.86641924e-01  
28      6.30957344e+04   1.74791510e+01   -6.26066192e-01  
29      7.94328235e+04   1.74620135e+01   -7.98436672e-01  
30      1.00000000e+05   1.74334936e+01   -1.01209445e+00  
31      1.25892541e+05   1.73876182e+01   -1.27697558e+00  
32      1.58489319e+05   1.73149813e+01   -1.60446601e+00  
33      1.99526231e+05   1.72011425e+01   -2.00676993e+00  
34      2.51188643e+05   1.70245485e+01   -2.49529604e+00  
35      3.16227766e+05   1.67542971e+01   -3.07728792e+00  
36      3.98107171e+05   1.63488234e+01   -3.74974016e+00  
37      5.01187234e+05   1.57579768e+01   -4.49009334e+00  
38      6.30957344e+05   1.49325343e+01   -5.24539656e+00  
39      7.94328235e+05   1.38446931e+01   -5.92652912e+00  
40      1.00000000e+06   1.25161699e+01   -6.41929916e+00  
41      1.25892541e+06   1.10366612e+01   -6.62039015e+00  
42      1.58489319e+06   9.54901478e+00   -6.48500688e+00  
43      1.99526231e+06   8.19905969e+00   -6.05150324e+00  
44      2.51188643e+06   7.08322837e+00   -5.42106416e+00  
45      3.16227766e+06   6.22952591e+00   -4.71076270e+00  
46      3.98107171e+06   5.61350374e+00   -4.01541375e+00  
47      5.01187234e+06   5.18632648e+00   -3.39416815e+00  
48      6.30957344e+06   4.89625852e+00   -2.87525152e+00  
49      7.94328235e+06   4.69897347e+00   -2.46677930e+00  
50      1.00000000e+07   4.55985443e+00   -2.16640639e+00  
51      1.25892541e+07   4.45239090e+00   -1.96768470e+00  
52      1.58489319e+07   4.35526960e+00   -1.86339474e+00  
53      1.99526231e+07   4.24935061e+00   -1.84659423e+00  
54      2.51188643e+07   4.11503450e+00   -1.90984783e+00  
55      3.16227766e+07   3.93050111e+00   -2.04273000e+00  
56      3.98107171e+07   3.67179849e+00   -2.22764521e+00  
57      5.01187234e+07   3.31647988e+00   -2.43479761e+00  
58      6.30957344e+07   2.85240895e+00   -2.61922881e+00  
59      7.94328235e+07   2.29048640e+00   -2.72532746e+00  
60      1.00000000e+08   1.67374629e+00   -2.70301578e+00  
0       1.00000000e+02   1.14503698e+01   6.48765943e-04   
1       1.25892541e+02   1.14503771e+01   8.16664794e-04   
2       1.58489319e+02   1.14503885e+01   1.02795420e-03   
3       1.99526231e+02   1.14504067e+01   1.29378680e-03   
4       2.51188643e+02   1.14504355e+01   1.62812111e-03   
5       3.16227766e+02   1.14504811e+01   2.04836689e-03   
6       3.98107171e+02   1.14505533e+01   2.57611713e-03   
7       5.01187234e+02   1.14506676e+01   3.23791027e-03   
8       6.30957344e+02   1.14508484e+01   4.06587476e-03   
9       7.94328235e+02   1.14511341e+01   5.09792165e-03   
10      1.00000000e+03   1.14515846e+01   6.37678204e-03   
11      1.25892541e+03   1.14522931e+01   7.94648325e-03   
12      1.58489319e+03   1.14534021e+01   9.84358169e-03   
13      1.99526231e+03   1.14551260e+01   1.20783290e-02   
14      2.51188643e+03   1.14577764e+01   1.45978564e-02   
15      3.16227766e+03   1.14617833e+01   1.72204303e-02   
16      3.98107171e+03   1.14676892e+01   1.95311114e-02   
17      5.01187234e+03   1.14760766e+01   2.07451286e-02   
18      6.30957344e+03   1.14873783e+01   1.95900528e-02   
19      7.94328235e+03   1.15015709e+01   1.43243428e-02   
20      1.00000000e+04   1.15178848e+01   3.02011176e-03   
21      1.25892541e+04   1.15348054e+01   -1.59339589e-02  
22      1.58489319e+04   1.15505160e+01   -4.34465226e-02  
23      1.99526231e+04   1.15635330e+01   -7.98200731e-02  
24      2.51188643e+04   1.15730657e+01   -1.25291326e-01  
25      3.16227766e+04   1.15789164e+01   -1.80624751e-01  
26      3.98107171e+04   1.15811127e+01   -2.47468808e-01  
27      5.01187234e+04   1.15795199e+01   -3.28476432e-01  
28      6.30957344e+04   1.15735220e+01   -4.27324960e-01  
29      7.94328235e+04   1.15617256e+01   -5.48734992e-01  
30      1.00000000e+05   1.15415941e+01   -6.98507554e-01  
31      1.25892541e+05   1.15089149e+01   -8.83530935e-01  
32      1.58489319e+05   1.14570081e+01   -1.11164191e+00  
33      1.99526231e+05   1.13756067e+01   -1.39113017e+00  
34      2.51188643e+05   1.12494234e+01   -1.72952569e+00  
35      3.16227766e+05   1.10566633e+01   -2.13111982e+00  
36      3.98107171e+05   1.07683110e+01   -2.59257334e+00  
37      5.01187234e+05   1.03500050e+01   -3.09637045e+00  
38      6.30957344e+05   9.76932584e+00   -3.60357695e+00  
39      7.94328235e+05   9.01060961e+00   -4.05087986e+00  
40      1.00000000e+06   8.09400346e+00   -4.36009808e+00  
41      1.25892541e+06   7.08592716e+00   -4.46439970e+00  
42      1.58489319e+06   6.08557950e+00   -4.34000843e+00  
43      1.99526231e+06   5.18919148e+00   -4.01935070e+00  
44      2.51188643e+06   4.45642785e+00   -3.57381271e+00  
45      3.16227766e+06   3.90097093e+00   -3.08147056e+00  
46      3.98107171e+06   3.50334899e+00   -2.60315826e+00  
47      5.01187234e+06   3.22991389e+00   -2.17535818e+00  
48      6.30957344e+06   3.04650424e+00   -1.81432924e+00  
49      7.94328235e+06   2.92467588e+00   -1.52351566e+00  
50      1.00000000e+07   2.84293134e+00   -1.29986343e+00  
51      1.25892541e+07   2.78565141e+00   -1.13794628e+00  
52      1.58489319e+07   2.74134874e+00   -1.03224125e+00  
53      1.99526231e+07   2.70092683e+00   -9.78160750e-01  
54      2.51188643e+07   2.65612088e+00   -9.72279113e-01  
55      3.16227766e+07   2.59810967e+00   -1.01193686e+00  
56      3.98107171e+07   2.51631126e+00   -1.09417087e+00  
57      5.01187234e+07   2.39759294e+00   -1.21374764e+00  
58      6.30957344e+07   2.22658360e+00   -1.36010215e+00  
59      7.94328235e+07   1.98841450e+00   -1.51355577e+00  
60      1.00000000e+08   1.67542173e+00   -1.64280512e+00  
0       1.00000000e+02   7.61670699e+00   8.09870025e-04   
1       1.25892541e+02   7.61671362e+00   1.01949215e-03   
2       1.58489319e+02   7.61672412e+00   1.28331734e-03   
3       1.99526231e+02   7.61674075e+00   1.61530710e-03   
4       2.51188643e+02   7.61676711e+00   2.03296528e-03   
5       3.16227766e+02   7.61680887e+00   2.55818323e-03   
6       3.98107171e+02   7.61687500e+00   3.21823230e-03   
7       5.01187234e+02   7.61697968e+00   4.04687177e-03   
8       6.30957344e+02   7.61714529e+00   5.08546359e-03   
9       7.94328235e+02   7.61740698e+00   6.38382514e-03   
10      1.00000000e+03   7.61781981e+00   8.00022895e-03   
11      1.25892541e+03   7.61846928e+00   9.99933737e-03   
12      1.58489319e+03   7.61948670e+00   1.24457196e-02   
13      1.99526231e+03   7.62106996e+00   1.53886557e-02   
14      2.51188643e+03   7.62350836e+00   1.88310480e-02   
15      3.16227766e+03   7.62720448e+00   2.26721973e-02   
16      3.98107171e+03   7.63267402e+00   2.66145090e-02   
17      5.01187234e+03   7.64048641e+00   3.00371026e-02   
18      6.30957344e+03   7.65109821e+00   3.18786968e-02   
19      7.94328235e+03   7.66456678e+00   3.06363415e-02   
20      1.00000000e+04   7.68025503e+00   2.46107936e-02   
21      1.25892541e+04   7.69678290e+00   1.23890227e-02   
22      1.58489319e+04   7.71240954e+00   -6.73105247e-03  
23      1.99526231e+04   7.72565568e+00   -3.27511161e-02  
24      2.51188643e+04   7.73571272e+00   -6.54416464e-02  
25      3.16227766e+04   7.74240844e+00   -1.04910772e-01  
26      3.98107171e+04   7.74588449e+00   -1.51957768e-01  
27      5.01187234e+04   7.74623998e+00   -2.08180464e-01  
28      6.30957344e+04   7.74325441e+00   -2.75962917e-01  
29      7.94328235e+04   7.73616523e+00   -3.58450886e-01  
30      1.00000000e+05   7.72342419e+00   -4.59548920e-01  
31      1.25892541e+05   7.70235408e+00   -5.83912294e-01  
32      1.58489319e+05   7.66863652e+00   -7.36857500e-01  
33      1.99526231e+05   7.61557835e+00   -9.24051920e-01  
34      2.51188643e+05   7.53315691e+00   -1.15074639e+00  
35      3.16227766e+05   7.40699863e+00   -1.42018714e+00  
36      3.98107171e+05   7.21780575e+00   -1.73076409e+00  
37      5.01187234e+05   6.94239340e+00   -2.07167709e+00  
38      6.30957344e+05   6.55821880e+00   -2.41794990e+00  
39      7.94328235e+05   6.05299189e+00   -2.72791743e+00  
40      1.00000000e+06   5.43764862e+00   -2.94867243e+00  
41      1.25892541e+06   4.75453347e+00   -3.03296155e+00  
42      1.58489319e+06   4.06997968e+00   -2.96107532e+00  
43      1.99526231e+06   3.45085695e+00   -2.75160757e+00  
44      2.51188643e+06   2.94072522e+00   -2.45146903e+00  
45      3.16227766e+06   2.55166569e+00   -2.11412566e+00  
46      3.98107171e+06   2.27202346e+00   -1.78231287e+00  
47      5.01187234e+06   2.07938233e+00   -1.48218163e+00  
48      6.30957344e+06   1.95036493e+00   -1.22563404e+00  
49      7.94328235e+06   1.86532175e+00   -1.01531993e+00  
50      1.00000000e+07   1.80943401e+00   -8.49058080e-01  
51      1.25892541e+07   1.77212369e+00   -7.22783787e-01  
52      1.58489319e+07   1.74595426e+00   -6.32215274e-01  
53      1.99526231e+07   1.72554207e+00   -5.73671936e-01  
54      2.51188643e+07   1.70662375e+00   -5.44392496e-01  
55      3.16227766e+07   1.68526185e+00   -5.42553425e-01  
56      3.98107171e+07   1.65712401e+00   -5.67054985e-01  
57      5.01187234e+07   1.61678875e+00   -6.17025835e-01  
58      6.30957344e+07   1.55711991e+00   -6.90886712e-01  
59      7.94328235e+07   1.46896647e+00   -7.84733639e-01  
60      1.00000000e+08   1.34186574e+00   -8.89893656e-01  
