Index              V(1)           V(2)           V(2A)           V(3)           V(3A)           V(4)           V(5)
0  -1.000000000e+01  -1.101323287e+04  -1.000000000e+01   1.101323292e+04   1.000000000e+01  -9.999999959e-01  -9.999999996e+00 
1  -9.900000000e+00  -9.965185194e+03  -9.900000000e+00   9.965185244e+03   9.900000000e+00  -9.999999950e-01  -9.900000001e+00 
2  -9.800000000e+00  -9.016872436e+03  -9.800000000e+00   9.016872492e+03   9.800000000e+00  -9.999999939e-01  -9.800000003e+00 
3  -9.700000000e+00  -8.158803568e+03  -9.700000000e+00   8.158803630e+03   9.700000000e+00  -9.999999925e-01  -9.699999997e+00 
4  -9.600000000e+00  -7.382390749e+03  -9.600000000e+00   7.382390817e+03   9.600000000e+00  -9.999999908e-01  -9.599999998e+00 
5  -9.500000000e+00  -6.679863377e+03  -9.500000000e+00   6.679863452e+03   9.500000000e+00  -9.999999888e-01  -9.500000001e+00 
6  -9.400000000e+00  -6.044190324e+03  -9.400000000e+00   6.044190406e+03   9.400000000e+00  -9.999999863e-01  -9.400000002e+00 
7  -9.300000000e+00  -5.469009558e+03  -9.300000000e+00   5.469009650e+03   9.300000000e+00  -9.999999833e-01  -9.300000000e+00 
8  -9.200000000e+00  -4.948564479e+03  -9.200000000e+00   4.948564580e+03   9.200000000e+00  -9.999999796e-01  -9.200000000e+00 
9  -9.100000000e+00  -4.477646296e+03  -9.100000000e+00   4.477646408e+03   9.100000000e+00  -9.999999751e-01  -9.100000000e+00 
10  -9.000000000e+00  -4.051541902e+03  -9.000000000e+00   4.051542025e+03   9.000000000e+00  -9.999999695e-01  -9.000000000e+00 
11  -8.900000000e+00  -3.665986701e+03  -8.900000000e+00   3.665986838e+03   8.900000000e+00  -9.999999628e-01  -8.900000000e+00 
12  -8.800000000e+00  -3.317121928e+03  -8.800000000e+00   3.317122079e+03   8.800000000e+00  -9.999999546e-01  -8.800000000e+00 
13  -8.700000000e+00  -3.001456025e+03  -8.700000000e+00   3.001456192e+03   8.700000000e+00  -9.999999445e-01  -8.700000000e+00 
14  -8.600000000e+00  -2.715829704e+03  -8.600000000e+00   2.715829888e+03   8.600000000e+00  -9.999999322e-01  -8.600000000e+00 
15  -8.500000000e+00  -2.457384318e+03  -8.500000000e+00   2.457384522e+03   8.500000000e+00  -9.999999172e-01  -8.500000000e+00 
16  -8.400000000e+00  -2.223533261e+03  -8.400000000e+00   2.223533486e+03   8.400000000e+00  -9.999998989e-01  -8.400000000e+00 
17  -8.300000000e+00  -2.011936073e+03  -8.300000000e+00   2.011936321e+03   8.300000000e+00  -9.999998765e-01  -8.300000000e+00 
18  -8.200000000e+00  -1.820475016e+03  -8.200000000e+00   1.820475291e+03   8.200000000e+00  -9.999998491e-01  -8.200000000e+00 
19  -8.100000000e+00  -1.647233886e+03  -8.100000000e+00   1.647234189e+03   8.100000000e+00  -9.999998157e-01  -8.100000000e+00 
20  -8.000000000e+00  -1.490478826e+03  -8.000000000e+00   1.490479161e+03   8.000000000e+00  -9.999997749e-01  -8.000000000e+00 
21  -7.900000000e+00  -1.348640979e+03  -7.900000000e+00   1.348641350e+03   7.900000000e+00  -9.999997251e-01  -7.900000000e+00 
22  -7.800000000e+00  -1.220300784e+03  -7.800000000e+00   1.220301194e+03   7.800000000e+00  -9.999996642e-01  -7.800000000e+00 
23  -7.700000000e+00  -1.104173770e+03  -7.700000000e+00   1.104174222e+03   7.700000000e+00  -9.999995899e-01  -7.700000000e+00 
24  -7.600000000e+00  -9.990976973e+02  -7.600000000e+00   9.990981978e+02   7.600000000e+00  -9.999994991e-01  -7.600000000e+00 
25  -7.500000000e+00  -9.040209307e+02  -7.500000000e+00   9.040214838e+02   7.500000000e+00  -9.999993882e-01  -7.500000000e+00 
26  -7.400000000e+00  -8.179919094e+02  -7.400000000e+00   8.179925206e+02   7.400000000e+00  -9.999992527e-01  -7.400000000e+00 
27  -7.300000000e+00  -7.401496260e+02  -7.300000000e+00   7.401503016e+02   7.300000000e+00  -9.999990873e-01  -7.300000000e+00 
28  -7.200000000e+00  -6.697150089e+02  -7.200000000e+00   6.697157555e+02   7.200000000e+00  -9.999988852e-01  -7.200000000e+00 
29  -7.100000000e+00  -6.059831247e+02  -7.100000000e+00   6.059839498e+02   7.100000000e+00  -9.999986384e-01  -7.100000000e+00 
30  -7.000000000e+00  -5.483161233e+02  -7.000000000e+00   5.483170352e+02   7.000000000e+00  -9.999983369e-01  -7.000000000e+00 
31  -6.900000000e+00  -4.961368539e+02  -6.900000000e+00   4.961378617e+02   6.900000000e+00  -9.999979687e-01  -6.900000000e+00 
32  -6.800000000e+00  -4.489230889e+02  -6.800000000e+00   4.489242027e+02   6.800000000e+00  -9.999975190e-01  -6.800000000e+00 
33  -6.700000000e+00  -4.062022971e+02  -6.700000000e+00   4.062035280e+02   6.700000000e+00  -9.999969697e-01  -6.700000000e+00 
34  -6.600000000e+00  -3.675469144e+02  -6.600000000e+00   3.675482748e+02   6.600000000e+00  -9.999962988e-01  -6.600000000e+00 
35  -6.500000000e+00  -3.325700648e+02  -6.500000000e+00   3.325715682e+02   6.500000000e+00  -9.999954794e-01  -6.500000000e+00 
36  -6.400000000e+00  -3.009216882e+02  -6.400000000e+00   3.009233497e+02   6.400000000e+00  -9.999944785e-01  -6.400000000e+00 
37  -6.300000000e+00  -2.722850369e+02  -6.300000000e+00   2.722868732e+02   6.300000000e+00  -9.999932560e-01  -6.300000000e+00 
38  -6.200000000e+00  -2.463735058e+02  -6.200000000e+00   2.463755353e+02   6.200000000e+00  -9.999917629e-01  -6.200000000e+00 
39  -6.100000000e+00  -2.229277636e+02  -6.100000000e+00   2.229300065e+02   6.100000000e+00  -9.999899391e-01  -6.100000000e+00 
40  -6.000000000e+00  -2.017131574e+02  -6.000000000e+00   2.017156361e+02   6.000000000e+00  -9.999877117e-01  -6.000000000e+00 
41  -5.900000000e+00  -1.825173642e+02  -5.900000000e+00   1.825201037e+02   5.900000000e+00  -9.999849910e-01  -5.900000000e+00 
42  -5.800000000e+00  -1.651482662e+02  -5.800000000e+00   1.651512937e+02   5.800000000e+00  -9.999816680e-01  -5.800000000e+00 
43  -5.700000000e+00  -1.494320275e+02  -5.700000000e+00   1.494353735e+02   5.700000000e+00  -9.999776093e-01  -5.700000000e+00 
44  -5.600000000e+00  -1.352113548e+02  -5.600000000e+00   1.352150526e+02   5.600000000e+00  -9.999726520e-01  -5.600000000e+00 
45  -5.500000000e+00  -1.223439227e+02  -5.500000000e+00   1.223480095e+02   5.500000000e+00  -9.999665972e-01  -5.500000000e+00 
46  -5.400000000e+00  -1.107009498e+02  -5.400000000e+00   1.107054664e+02   5.400000000e+00  -9.999592018e-01  -5.400000000e+00 
47  -5.300000000e+00  -1.001659092e+02  -5.300000000e+00   1.001709008e+02   5.300000000e+00  -9.999501692e-01  -5.300000000e+00 
48  -5.200000000e+00  -9.063336266e+01  -5.200000000e+00   9.063887922e+01   5.200000000e+00  -9.999391369e-01  -5.200000000e+00 
49  -5.100000000e+00  -8.200790528e+01  -5.100000000e+00   8.201400202e+01   5.100000000e+00  -9.999256621e-01  -5.100000000e+00 
50  -5.000000000e+00  -7.420321058e+01  -5.000000000e+00   7.420994852e+01   5.000000000e+00  -9.999092043e-01  -5.000000000e+00 
51  -4.900000000e+00  -6.714116655e+01  -4.900000000e+00   6.714861313e+01   4.900000000e+00  -9.998891030e-01  -4.900000000e+00 
52  -4.800000000e+00  -6.075109389e+01  -4.800000000e+00   6.075932363e+01   4.800000000e+00  -9.998645517e-01  -4.800000000e+00 
53  -4.700000000e+00  -5.496903859e+01  -4.700000000e+00   5.497813386e+01   4.700000000e+00  -9.998345656e-01  -4.700000000e+00 
54  -4.600000000e+00  -4.973713190e+01  -4.600000000e+00   4.974718374e+01   4.600000000e+00  -9.997979416e-01  -4.600000000e+00 
55  -4.500000000e+00  -4.500301115e+01  -4.500000000e+00   4.501412015e+01   4.500000000e+00  -9.997532108e-01  -4.500000000e+00 
56  -4.400000000e+00  -4.071929566e+01  -4.400000000e+00   4.073157300e+01   4.400000000e+00  -9.996985793e-01  -4.400000000e+00 
57  -4.300000000e+00  -3.684311257e+01  -4.300000000e+00   3.685668113e+01   4.300000000e+00  -9.996318562e-01  -4.300000000e+00 
58  -4.200000000e+00  -3.333566773e+01  -4.200000000e+00   3.335066331e+01   4.200000000e+00  -9.995503665e-01  -4.200000000e+00 
59  -4.100000000e+00  -3.016185746e+01  -4.100000000e+00   3.017843014e+01   4.100000000e+00  -9.994508437e-01  -4.100000000e+00 
60  -4.000000000e+00  -2.728991720e+01  -4.000000000e+00   2.730823284e+01   4.000000000e+00  -9.993292997e-01  -4.000000000e+00 
61  -3.900000000e+00  -2.469110360e+01  -3.900000000e+00   2.471134551e+01   3.900000000e+00  -9.991808657e-01  -3.900000000e+00 
62  -3.800000000e+00  -2.233940686e+01  -3.800000000e+00   2.236177763e+01   3.800000000e+00  -9.989995978e-01  -3.800000000e+00 
63  -3.700000000e+00  -2.021129042e+01  -3.700000000e+00   2.023601394e+01   3.700000000e+00  -9.987782413e-01  -3.700000000e+00 
64  -3.600000000e+00  -1.828545536e+01  -3.600000000e+00   1.831277908e+01   3.600000000e+00  -9.985079423e-01  -3.600000000e+00 
65  -3.500000000e+00  -1.654262729e+01  -3.500000000e+00   1.657282467e+01   3.500000000e+00  -9.981778976e-01  -3.500000000e+00 
66  -3.400000000e+00  -1.496536339e+01  -3.400000000e+00   1.499873666e+01   3.400000000e+00  -9.977749279e-01  -3.400000000e+00 
67  -3.300000000e+00  -1.353787788e+01  -3.300000000e+00   1.357476104e+01   3.300000000e+00  -9.972829601e-01  -3.300000000e+00 
68  -3.200000000e+00  -1.224588400e+01  -3.200000000e+00   1.228664620e+01   3.200000000e+00  -9.966823978e-01  -3.200000000e+00 
69  -3.100000000e+00  -1.107645104e+01  -3.100000000e+00   1.112150024e+01   3.100000000e+00  -9.959493592e-01  -3.100000000e+00 
70  -3.000000000e+00  -1.001787493e+01  -3.000000000e+00   1.006766200e+01   3.000000000e+00  -9.950547537e-01  -3.000000000e+00 
71  -2.900000000e+00  -9.059561075e+00  -2.900000000e+00   9.114584295e+00   2.900000000e+00  -9.939631674e-01  -2.900000000e+00 
72  -2.800000000e+00  -8.191918354e+00  -2.800000000e+00   8.252728417e+00   2.800000000e+00  -9.926315202e-01  -2.800000000e+00 
73  -2.700000000e+00  -7.406263106e+00  -2.700000000e+00   7.473468619e+00   2.700000000e+00  -9.910074537e-01  -2.700000000e+00 
74  -2.600000000e+00  -6.694732228e+00  -2.600000000e+00   6.769005807e+00   2.600000000e+00  -9.890274022e-01  -2.600000000e+00 
75  -2.500000000e+00  -6.050204481e+00  -2.500000000e+00   6.132289480e+00   2.500000000e+00  -9.866142982e-01  -2.500000000e+00 
76  -2.400000000e+00  -5.466229214e+00  -2.400000000e+00   5.556947167e+00   2.400000000e+00  -9.836748577e-01  -2.400000000e+00 
77  -2.300000000e+00  -4.936961806e+00  -2.300000000e+00   5.037220649e+00   2.300000000e+00  -9.800963963e-01  -2.300000000e+00 
78  -2.200000000e+00  -4.457105171e+00  -2.200000000e+00   4.567908329e+00   2.200000000e+00  -9.757431300e-01  -2.200000000e+00 
79  -2.100000000e+00  -4.021856742e+00  -2.100000000e+00   4.144313170e+00   2.100000000e+00  -9.704519366e-01  -2.100000000e+00 
80  -2.000000000e+00  -3.626860408e+00  -2.000000000e+00   3.762195691e+00   2.000000000e+00  -9.640275801e-01  -2.000000000e+00 
81  -1.900000000e+00  -3.268162912e+00  -1.900000000e+00   3.417731531e+00   1.900000000e+00  -9.562374581e-01  -1.900000000e+00 
82  -1.800000000e+00  -2.942174288e+00  -1.800000000e+00   3.107473176e+00   1.800000000e+00  -9.468060128e-01  -1.800000000e+00 
83  -1.700000000e+00  -2.645631934e+00  -1.700000000e+00   2.828315458e+00   1.700000000e+00  -9.354090706e-01  -1.700000000e+00 
84  -1.600000000e+00  -2.375567953e+00  -1.600000000e+00   2.577464471e+00   1.600000000e+00  -9.216685544e-01  -1.600000000e+00 
85  -1.500000000e+00  -2.129279455e+00  -1.500000000e+00   2.352409615e+00   1.500000000e+00  -9.051482536e-01  -1.500000000e+00 
86  -1.400000000e+00  -1.904301501e+00  -1.400000000e+00   2.150898465e+00   1.400000000e+00  -8.853516482e-01  -1.400000000e+00 
87  -1.300000000e+00  -1.698382437e+00  -1.300000000e+00   1.970914230e+00   1.300000000e+00  -8.617231593e-01  -1.300000000e+00 
88  -1.200000000e+00  -1.509461355e+00  -1.200000000e+00   1.810655567e+00   1.200000000e+00  -8.336546070e-01  -1.200000000e+00 
89  -1.100000000e+00  -1.335647470e+00  -1.100000000e+00   1.668518554e+00   1.100000000e+00  -8.004990218e-01  -1.100000000e+00 
90  -1.000000000e+00  -1.175201194e+00  -1.000000000e+00   1.543080635e+00   1.000000000e+00  -7.615941560e-01  -1.000000000e+00 
91  -9.000000000e-01  -1.026516726e+00  -9.000000000e-01   1.433086385e+00   9.000000000e-01  -7.162978702e-01  -9.000000000e-01 
92  -8.000000000e-01  -8.881059822e-01  -8.000000000e-01   1.337434946e+00   8.000000000e-01  -6.640367703e-01  -8.000000000e-01 
93  -7.000000000e-01  -7.585837018e-01  -7.000000000e-01   1.255169006e+00   7.000000000e-01  -6.043677771e-01  -7.000000000e-01 
94  -6.000000000e-01  -6.366535821e-01  -6.000000000e-01   1.185465218e+00   6.000000000e-01  -5.370495670e-01  -6.000000000e-01 
95  -5.000000000e-01  -5.210953055e-01  -5.000000000e-01   1.127625965e+00   5.000000000e-01  -4.621171573e-01  -5.000000000e-01 
96  -4.000000000e-01  -4.107523258e-01  -4.000000000e-01   1.081072372e+00   4.000000000e-01  -3.799489623e-01  -4.000000000e-01 
97  -3.000000000e-01  -3.045202934e-01  -3.000000000e-01   1.045338514e+00   3.000000000e-01  -2.913126125e-01  -3.000000000e-01 
98  -2.000000000e-01  -2.013360025e-01  -2.000000000e-01   1.020066756e+00   2.000000000e-01  -1.973753202e-01  -2.000000000e-01 
99  -1.000000000e-01  -1.001667500e-01  -1.000000000e-01   1.005004168e+00   1.000000000e-01  -9.966799462e-02  -1.000000000e-01 
100  -1.879052469e-14  -1.879052469e-14  -1.879052469e-14   1.000000000e+00   0.000000000e+00  -1.879052469e-14  -1.879052469e-14 
101   1.000000000e-01   1.001667500e-01   1.000000000e-01   1.005004168e+00   1.000000000e-01   9.966799462e-02   1.000000000e-01 
102   2.000000000e-01   2.013360025e-01   2.000000000e-01   1.020066756e+00   2.000000000e-01   1.973753202e-01   2.000000000e-01 
103   3.000000000e-01   3.045202934e-01   3.000000000e-01   1.045338514e+00   3.000000000e-01   2.913126125e-01   3.000000000e-01 
104   4.000000000e-01   4.107523258e-01   4.000000000e-01   1.081072372e+00   4.000000000e-01   3.799489623e-01   4.000000000e-01 
105   5.000000000e-01   5.210953055e-01   5.000000000e-01   1.127625965e+00   5.000000000e-01   4.621171573e-01   5.000000000e-01 
106   6.000000000e-01   6.366535821e-01   6.000000000e-01   1.185465218e+00   6.000000000e-01   5.370495670e-01   6.000000000e-01 
107   7.000000000e-01   7.585837018e-01   7.000000000e-01   1.255169006e+00   7.000000000e-01   6.043677771e-01   7.000000000e-01 
108   8.000000000e-01   8.881059822e-01   8.000000000e-01   1.337434946e+00   8.000000000e-01   6.640367703e-01   8.000000000e-01 
109   9.000000000e-01   1.026516726e+00   9.000000000e-01   1.433086385e+00   9.000000000e-01   7.162978702e-01   9.000000000e-01 
110   1.000000000e+00   1.175201194e+00   1.000000000e+00   1.543080635e+00   1.000000000e+00   7.615941560e-01   1.000000000e+00 
111   1.100000000e+00   1.335647470e+00   1.100000000e+00   1.668518554e+00   1.100000000e+00   8.004990218e-01   1.100000000e+00 
112   1.200000000e+00   1.509461355e+00   1.200000000e+00   1.810655567e+00   1.200000000e+00   8.336546070e-01   1.200000000e+00 
113   1.300000000e+00   1.698382437e+00   1.300000000e+00   1.970914230e+00   1.300000000e+00   8.617231593e-01   1.300000000e+00 
114   1.400000000e+00   1.904301501e+00   1.400000000e+00   2.150898465e+00   1.400000000e+00   8.853516482e-01   1.400000000e+00 
115   1.500000000e+00   2.129279455e+00   1.500000000e+00   2.352409615e+00   1.500000000e+00   9.051482536e-01   1.500000000e+00 
116   1.600000000e+00   2.375567953e+00   1.600000000e+00   2.577464471e+00   1.600000000e+00   9.216685544e-01   1.600000000e+00 
117   1.700000000e+00   2.645631934e+00   1.700000000e+00   2.828315458e+00   1.700000000e+00   9.354090706e-01   1.700000000e+00 
118   1.800000000e+00   2.942174288e+00   1.800000000e+00   3.107473176e+00   1.800000000e+00   9.468060128e-01   1.800000000e+00 
119   1.900000000e+00   3.268162912e+00   1.900000000e+00   3.417731531e+00   1.900000000e+00   9.562374581e-01   1.900000000e+00 
120   2.000000000e+00   3.626860408e+00   2.000000000e+00   3.762195691e+00   2.000000000e+00   9.640275801e-01   2.000000000e+00 
121   2.100000000e+00   4.021856742e+00   2.100000000e+00   4.144313170e+00   2.100000000e+00   9.704519366e-01   2.100000000e+00 
122   2.200000000e+00   4.457105171e+00   2.200000000e+00   4.567908329e+00   2.200000000e+00   9.757431300e-01   2.200000000e+00 
123   2.300000000e+00   4.936961806e+00   2.300000000e+00   5.037220649e+00   2.300000000e+00   9.800963963e-01   2.300000000e+00 
124   2.400000000e+00   5.466229214e+00   2.400000000e+00   5.556947167e+00   2.400000000e+00   9.836748577e-01   2.400000000e+00 
125   2.500000000e+00   6.050204481e+00   2.500000000e+00   6.132289480e+00   2.500000000e+00   9.866142982e-01   2.500000000e+00 
126   2.600000000e+00   6.694732228e+00   2.600000000e+00   6.769005807e+00   2.600000000e+00   9.890274022e-01   2.600000000e+00 
127   2.700000000e+00   7.406263106e+00   2.700000000e+00   7.473468619e+00   2.700000000e+00   9.910074537e-01   2.700000000e+00 
128   2.800000000e+00   8.191918354e+00   2.800000000e+00   8.252728417e+00   2.800000000e+00   9.926315202e-01   2.800000000e+00 
129   2.900000000e+00   9.059561075e+00   2.900000000e+00   9.114584295e+00   2.900000000e+00   9.939631674e-01   2.900000000e+00 
130   3.000000000e+00   1.001787493e+01   3.000000000e+00   1.006766200e+01   3.000000000e+00   9.950547537e-01   3.000000000e+00 
131   3.100000000e+00   1.107645104e+01   3.100000000e+00   1.112150024e+01   3.100000000e+00   9.959493592e-01   3.100000000e+00 
132   3.200000000e+00   1.224588400e+01   3.200000000e+00   1.228664620e+01   3.200000000e+00   9.966823978e-01   3.200000000e+00 
133   3.300000000e+00   1.353787788e+01   3.300000000e+00   1.357476104e+01   3.300000000e+00   9.972829601e-01   3.300000000e+00 
134   3.400000000e+00   1.496536339e+01   3.400000000e+00   1.499873666e+01   3.400000000e+00   9.977749279e-01   3.400000000e+00 
135   3.500000000e+00   1.654262729e+01   3.500000000e+00   1.657282467e+01   3.500000000e+00   9.981778976e-01   3.500000000e+00 
136   3.600000000e+00   1.828545536e+01   3.600000000e+00   1.831277908e+01   3.600000000e+00   9.985079423e-01   3.600000000e+00 
137   3.700000000e+00   2.021129042e+01   3.700000000e+00   2.023601394e+01   3.700000000e+00   9.987782413e-01   3.700000000e+00 
138   3.800000000e+00   2.233940686e+01   3.800000000e+00   2.236177763e+01   3.800000000e+00   9.989995978e-01   3.800000000e+00 
139   3.900000000e+00   2.469110360e+01   3.900000000e+00   2.471134551e+01   3.900000000e+00   9.991808657e-01   3.900000000e+00 
140   4.000000000e+00   2.728991720e+01   4.000000000e+00   2.730823284e+01   4.000000000e+00   9.993292997e-01   4.000000000e+00 
141   4.100000000e+00   3.016185746e+01   4.100000000e+00   3.017843014e+01   4.100000000e+00   9.994508437e-01   4.100000000e+00 
142   4.200000000e+00   3.333566773e+01   4.200000000e+00   3.335066331e+01   4.200000000e+00   9.995503665e-01   4.200000000e+00 
143   4.300000000e+00   3.684311257e+01   4.300000000e+00   3.685668113e+01   4.300000000e+00   9.996318562e-01   4.300000000e+00 
144   4.400000000e+00   4.071929566e+01   4.400000000e+00   4.073157300e+01   4.400000000e+00   9.996985793e-01   4.400000000e+00 
145   4.500000000e+00   4.500301115e+01   4.500000000e+00   4.501412015e+01   4.500000000e+00   9.997532108e-01   4.500000000e+00 
146   4.600000000e+00   4.973713190e+01   4.600000000e+00   4.974718374e+01   4.600000000e+00   9.997979416e-01   4.600000000e+00 
147   4.700000000e+00   5.496903859e+01   4.700000000e+00   5.497813386e+01   4.700000000e+00   9.998345656e-01   4.700000000e+00 
148   4.800000000e+00   6.075109389e+01   4.800000000e+00   6.075932363e+01   4.800000000e+00   9.998645517e-01   4.800000000e+00 
149   4.900000000e+00   6.714116655e+01   4.900000000e+00   6.714861313e+01   4.900000000e+00   9.998891030e-01   4.900000000e+00 
150   5.000000000e+00   7.420321058e+01   5.000000000e+00   7.420994852e+01   5.000000000e+00   9.999092043e-01   5.000000000e+00 
151   5.100000000e+00   8.200790528e+01   5.100000000e+00   8.201400202e+01   5.100000000e+00   9.999256621e-01   5.100000000e+00 
