Index        TIME             V(1)             V(2)             V(3)             V(4)
0       0.00000000e+00   0.00000000e+00   0.00000000e+00   0.00000000e+00   0.00000000e+00   
1       1.00000000e-06   5.02443182e-02   2.51221591e-02   5.02443182e-02   2.51221591e-02   
2       1.70652183e-06   8.56739872e-02   4.28369936e-02   8.56739872e-02   4.28369936e-02   
3       2.41304366e-06   1.20995614e-01   6.04978069e-02   1.20995614e-01   6.04978069e-02   
4       3.11956549e-06   1.56164654e-01   7.80823271e-02   1.56164654e-01   7.80823271e-02   
5       3.82608732e-06   1.91136757e-01   9.55683787e-02   1.91136757e-01   9.55683787e-02   
6       4.53260916e-06   2.25867820e-01   1.12933910e-01   2.25867820e-01   1.12933910e-01   
7       5.23913099e-06   2.60314044e-01   1.30157022e-01   2.60314044e-01   1.30157022e-01   
8       5.94565282e-06   2.94431990e-01   1.47215995e-01   2.94431990e-01   1.47215995e-01   
9       6.65217465e-06   3.28178630e-01   1.64089315e-01   3.28178630e-01   1.64089315e-01   
10      7.35869648e-06   3.61511409e-01   1.80755704e-01   3.61511409e-01   1.80755704e-01   
11      8.06521831e-06   3.94388290e-01   1.97194145e-01   3.94388290e-01   1.97194145e-01   
12      8.77174014e-06   4.26767813e-01   2.13383906e-01   4.26767813e-01   2.13383906e-01   
13      9.47826197e-06   4.58609144e-01   2.29304572e-01   4.58609144e-01   2.29304572e-01   
14      1.01847838e-05   4.89872129e-01   2.44936065e-01   4.89872129e-01   2.44936065e-01   
15      1.08913056e-05   5.20517343e-01   2.60258671e-01   5.20517343e-01   2.60258671e-01   
16      1.15978275e-05   5.50506138e-01   2.75253069e-01   5.50506138e-01   2.75253069e-01   
17      1.23043493e-05   5.79800697e-01   2.89900349e-01   5.79800697e-01   2.89900349e-01   
18      1.30108711e-05   6.08364077e-01   3.04182038e-01   6.08364077e-01   3.04182038e-01   
19      1.37173930e-05   6.36160256e-01   3.18080128e-01   6.36160256e-01   3.18080128e-01   
20      1.44239148e-05   6.63154182e-01   3.31577091e-01   6.63154182e-01   3.31577091e-01   
21      1.51304366e-05   6.89311812e-01   3.44655906e-01   6.89311812e-01   3.44655906e-01   
22      1.58369585e-05   7.14600159e-01   3.57300080e-01   7.14600159e-01   3.57300080e-01   
23      1.65434803e-05   7.38987333e-01   3.69493667e-01   7.38987333e-01   3.69493667e-01   
24      1.72500021e-05   7.62442580e-01   3.81221290e-01   7.62442580e-01   3.81221290e-01   
25      1.79565239e-05   7.84936319e-01   3.92468160e-01   7.84936319e-01   3.92468160e-01   
26      1.86630458e-05   8.06440185e-01   4.03220093e-01   8.06440185e-01   4.03220093e-01   
27      1.93695676e-05   8.26927060e-01   4.13463530e-01   8.26927060e-01   4.13463530e-01   
28      2.00760894e-05   8.46371107e-01   4.23185553e-01   8.46371107e-01   4.23185553e-01   
29      2.07826113e-05   8.64747806e-01   4.32373903e-01   8.64747806e-01   4.32373903e-01   
30      2.14891331e-05   8.82033982e-01   4.41016991e-01   8.82033982e-01   4.41016991e-01   
31      2.21956549e-05   8.98207836e-01   4.49103918e-01   8.98207836e-01   4.49103918e-01   
32      2.29021768e-05   9.13248972e-01   4.56624486e-01   9.13248972e-01   4.56624486e-01   
33      2.36086986e-05   9.27138421e-01   4.63569210e-01   9.27138421e-01   4.63569210e-01   
34      2.43152204e-05   9.39858666e-01   4.69929333e-01   9.39858666e-01   4.69929333e-01   
35      2.50217423e-05   9.51393668e-01   4.75696834e-01   9.51393668e-01   4.75696834e-01   
36      2.57282641e-05   9.61728879e-01   4.80864440e-01   9.61728879e-01   4.80864440e-01   
37      2.64347859e-05   9.70851266e-01   4.85425633e-01   9.70851266e-01   4.85425633e-01   
38      2.71413077e-05   9.78749325e-01   4.89374662e-01   9.78749325e-01   4.89374662e-01   
39      2.78478296e-05   9.85413094e-01   4.92706547e-01   9.85413094e-01   4.92706547e-01   
40      2.85543514e-05   9.90834172e-01   4.95417086e-01   9.90834172e-01   4.95417086e-01   
41      2.92608732e-05   9.95005721e-01   4.97502860e-01   9.95005721e-01   4.97502860e-01   
42      2.99673951e-05   9.97922481e-01   4.98961240e-01   9.97922481e-01   4.98961240e-01   
43      3.06739169e-05   9.99580773e-01   4.99790386e-01   9.99580773e-01   4.99790386e-01   
44      3.13804387e-05   9.99978506e-01   4.99989253e-01   9.99978506e-01   4.99989253e-01   
45      3.20869606e-05   9.99115179e-01   4.99557589e-01   9.99115179e-01   4.99557589e-01   
46      3.27934824e-05   9.96991880e-01   4.98495940e-01   9.96991880e-01   4.98495940e-01   
47      3.35000042e-05   9.93611287e-01   4.96805643e-01   9.93611287e-01   4.96805643e-01   
48      3.42065261e-05   9.88977663e-01   4.94488831e-01   9.88977663e-01   4.94488831e-01   
49      3.49130479e-05   9.83096851e-01   4.91548426e-01   9.83096851e-01   4.91548426e-01   
50      3.56195697e-05   9.75976269e-01   4.87988135e-01   9.75976269e-01   4.87988135e-01   
51      3.63260916e-05   9.67624895e-01   4.83812448e-01   9.67624895e-01   4.83812448e-01   
52      3.70326134e-05   9.58053261e-01   4.79026631e-01   9.58053261e-01   4.79026631e-01   
53      3.77391352e-05   9.47273439e-01   4.73636719e-01   9.47273439e-01   4.73636719e-01   
54      3.84456570e-05   9.35299021e-01   4.67649511e-01   9.35299021e-01   4.67649511e-01   
55      3.91521789e-05   9.22145110e-01   4.61072555e-01   9.22145110e-01   4.61072555e-01   
56      3.98587007e-05   9.07828293e-01   4.53914146e-01   9.07828293e-01   4.53914146e-01   
57      4.05652225e-05   8.92366625e-01   4.46183312e-01   8.92366625e-01   4.46183312e-01   
58      4.12717444e-05   8.75779604e-01   4.37889802e-01   8.75779604e-01   4.37889802e-01   
59      4.19782662e-05   8.58088149e-01   4.29044074e-01   8.58088149e-01   4.29044074e-01   
60      4.26847880e-05   8.39314569e-01   4.19657285e-01   8.39314569e-01   4.19657285e-01   
61      4.33913099e-05   8.19482541e-01   4.09741270e-01   8.19482541e-01   4.09741270e-01   
62      4.40978317e-05   7.98617073e-01   3.99308536e-01   7.98617073e-01   3.99308536e-01   
63      4.48043535e-05   7.76744479e-01   3.88372239e-01   7.76744479e-01   3.88372239e-01   
64      4.55108754e-05   7.53892342e-01   3.76946171e-01   7.53892342e-01   3.76946171e-01   
65      4.62173972e-05   7.30089481e-01   3.65044741e-01   7.30089481e-01   3.65044741e-01   
66      4.69239190e-05   7.05365914e-01   3.52682957e-01   7.05365914e-01   3.52682957e-01   
67      4.76304408e-05   6.79752818e-01   3.39876409e-01   6.79752818e-01   3.39876409e-01   
68      4.83369627e-05   6.53282494e-01   3.26641247e-01   6.53282494e-01   3.26641247e-01   
69      4.90434845e-05   6.25988324e-01   3.12994162e-01   6.25988324e-01   3.12994162e-01   
70      4.97500063e-05   5.97904728e-01   2.98952364e-01   5.97904728e-01   2.98952364e-01   
71      5.04565282e-05   5.69067121e-01   2.84533561e-01   5.69067121e-01   2.84533561e-01   
72      5.11630500e-05   5.39511871e-01   2.69755936e-01   5.39511871e-01   2.69755936e-01   
73      5.18695718e-05   5.09276250e-01   2.54638125e-01   5.09276250e-01   2.54638125e-01   
74      5.25760937e-05   4.78398386e-01   2.39199193e-01   4.78398386e-01   2.39199193e-01   
75      5.32826155e-05   4.46917221e-01   2.23458610e-01   4.46917221e-01   2.23458610e-01   
76      5.39891373e-05   4.14872453e-01   2.07436227e-01   4.14872453e-01   2.07436227e-01   
77      5.46956592e-05   3.82304495e-01   1.91152248e-01   3.82304495e-01   1.91152248e-01   
78      5.54021810e-05   3.49254418e-01   1.74627209e-01   3.49254418e-01   1.74627209e-01   
79      5.61087028e-05   3.15763900e-01   1.57881950e-01   3.15763900e-01   1.57881950e-01   
80      5.68152246e-05   2.81875176e-01   1.40937588e-01   2.81875176e-01   1.40937588e-01   
81      5.75217465e-05   2.47630983e-01   1.23815492e-01   2.47630983e-01   1.23815492e-01   
82      5.82282683e-05   2.13074506e-01   1.06537253e-01   2.13074506e-01   1.06537253e-01   
83      5.89347901e-05   1.78249323e-01   8.91246614e-02   1.78249323e-01   8.91246614e-02   
84      5.96413120e-05   1.43199352e-01   7.15996759e-02   1.43199352e-01   7.15996759e-02   
85      6.03478338e-05   1.07968794e-01   5.39843970e-02   1.07968794e-01   5.39843970e-02   
86      6.10543556e-05   7.26020780e-02   3.63010390e-02   7.26020780e-02   3.63010390e-02   
87      6.17608775e-05   3.71438044e-02   1.85719022e-02   3.71438044e-02   1.85719022e-02   
88      6.24673993e-05   1.63868929e-03   8.19344646e-04   1.63868929e-03   8.19344646e-04   
89      6.31739211e-05   -3.38684924e-02  -1.69342462e-02  -3.38684924e-02  -1.69342462e-02  
90      6.38804430e-05   -6.93329629e-02  -3.46664815e-02  -6.93329629e-02  -3.46664815e-02  
91      6.45869648e-05   -1.04709999e-01  -5.23549993e-02  -1.04709999e-01  -5.23549993e-02  
92      6.52934866e-05   -1.39954986e-01  -6.99774928e-02  -1.39954986e-01  -6.99774928e-02  
93      6.60000085e-05   -1.75023477e-01  -8.75117387e-02  -1.75023477e-01  -8.75117387e-02  
94      6.67065303e-05   -2.09871249e-01  -1.04935625e-01  -2.09871249e-01  -1.04935625e-01  
95      6.74130521e-05   -2.44454355e-01  -1.22227177e-01  -2.44454355e-01  -1.22227177e-01  
96      6.81195739e-05   -2.78729182e-01  -1.39364591e-01  -2.78729182e-01  -1.39364591e-01  
97      6.88260958e-05   -3.12652508e-01  -1.56326254e-01  -3.12652508e-01  -1.56326254e-01  
98      6.95326176e-05   -3.46181551e-01  -1.73090775e-01  -3.46181551e-01  -1.73090775e-01  
99      7.02391394e-05   -3.79274029e-01  -1.89637014e-01  -3.79274029e-01  -1.89637014e-01  
100     7.09456613e-05   -4.11888209e-01  -2.05944105e-01  -4.11888209e-01  -2.05944105e-01  
101     7.16521831e-05   -4.43982962e-01  -2.21991481e-01  -4.43982962e-01  -2.21991481e-01  
102     7.23587049e-05   -4.75517814e-01  -2.37758907e-01  -4.75517814e-01  -2.37758907e-01  
103     7.30652268e-05   -5.06452996e-01  -2.53226498e-01  -5.06452996e-01  -2.53226498e-01  
104     7.37717486e-05   -5.36749497e-01  -2.68374748e-01  -5.36749497e-01  -2.68374748e-01  
105     7.44782704e-05   -5.66369109e-01  -2.83184555e-01  -5.66369109e-01  -2.83184555e-01  
106     7.51847923e-05   -5.95274481e-01  -2.97637240e-01  -5.95274481e-01  -2.97637240e-01  
107     7.58913141e-05   -6.23429159e-01  -3.11714580e-01  -6.23429159e-01  -3.11714580e-01  
108     7.65978359e-05   -6.50797639e-01  -3.25398819e-01  -6.50797639e-01  -3.25398819e-01  
109     7.73043577e-05   -6.77345405e-01  -3.38672703e-01  -6.77345405e-01  -3.38672703e-01  
110     7.80108796e-05   -7.03038980e-01  -3.51519490e-01  -7.03038980e-01  -3.51519490e-01  
111     7.87174014e-05   -7.27845961e-01  -3.63922981e-01  -7.27845961e-01  -3.63922981e-01  
112     7.94239232e-05   -7.51735065e-01  -3.75867533e-01  -7.51735065e-01  -3.75867533e-01  
113     8.01304451e-05   -7.74676165e-01  -3.87338083e-01  -7.74676165e-01  -3.87338083e-01  
114     8.08369669e-05   -7.96640331e-01  -3.98320165e-01  -7.96640331e-01  -3.98320165e-01  
115     8.15434887e-05   -8.17599863e-01  -4.08799931e-01  -8.17599863e-01  -4.08799931e-01  
116     8.22500106e-05   -8.37528330e-01  -4.18764165e-01  -8.37528330e-01  -4.18764165e-01  
117     8.29565324e-05   -8.56400601e-01  -4.28200300e-01  -8.56400601e-01  -4.28200300e-01  
118     8.36630542e-05   -8.74192876e-01  -4.37096438e-01  -8.74192876e-01  -4.37096438e-01  
119     8.43695761e-05   -8.90882716e-01  -4.45441358e-01  -8.90882716e-01  -4.45441358e-01  
120     8.50760979e-05   -9.06449076e-01  -4.53224538e-01  -9.06449076e-01  -4.53224538e-01  
121     8.57826197e-05   -9.20872324e-01  -4.60436162e-01  -9.20872324e-01  -4.60436162e-01  
122     8.64891416e-05   -9.34134272e-01  -4.67067136e-01  -9.34134272e-01  -4.67067136e-01  
123     8.71956634e-05   -9.46218194e-01  -4.73109097e-01  -9.46218194e-01  -4.73109097e-01  
124     8.79021852e-05   -9.57108853e-01  -4.78554426e-01  -9.57108853e-01  -4.78554426e-01  
125     8.86087070e-05   -9.66792513e-01  -4.83396257e-01  -9.66792513e-01  -4.83396257e-01  
126     8.93152289e-05   -9.75256963e-01  -4.87628482e-01  -9.75256963e-01  -4.87628482e-01  
127     9.00217507e-05   -9.82491529e-01  -4.91245765e-01  -9.82491529e-01  -4.91245765e-01  
128     9.07282725e-05   -9.88487088e-01  -4.94243544e-01  -9.88487088e-01  -4.94243544e-01  
129     9.14347944e-05   -9.93236077e-01  -4.96618038e-01  -9.93236077e-01  -4.96618038e-01  
130     9.21413162e-05   -9.96732509e-01  -4.98366254e-01  -9.96732509e-01  -4.98366254e-01  
131     9.28478380e-05   -9.98971973e-01  -4.99485987e-01  -9.98971973e-01  -4.99485987e-01  
132     9.35543599e-05   -9.99951647e-01  -4.99975824e-01  -9.99951647e-01  -4.99975824e-01  
133     9.42608817e-05   -9.99670294e-01  -4.99835147e-01  -9.99670294e-01  -4.99835147e-01  
134     9.49674035e-05   -9.98128270e-01  -4.99064135e-01  -9.98128270e-01  -4.99064135e-01  
135     9.56739254e-05   -9.95327518e-01  -4.97663759e-01  -9.95327518e-01  -4.97663759e-01  
136     9.63804472e-05   -9.91271571e-01  -4.95635785e-01  -9.91271571e-01  -4.95635785e-01  
137     9.70869690e-05   -9.85965544e-01  -4.92982772e-01  -9.85965544e-01  -4.92982772e-01  
138     9.77934908e-05   -9.79416128e-01  -4.89708064e-01  -9.79416128e-01  -4.89708064e-01  
139     9.85000127e-05   -9.71631582e-01  -4.85815791e-01  -9.71631582e-01  -4.85815791e-01  
140     9.92065345e-05   -9.62621724e-01  -4.81310862e-01  -9.62621724e-01  -4.81310862e-01  
141     9.99130563e-05   -9.52397916e-01  -4.76198958e-01  -9.52397916e-01  -4.76198958e-01  
142     1.00619578e-04   -9.40973051e-01  -4.70486525e-01  -9.40973051e-01  -4.70486525e-01  
143     1.01326100e-04   -9.28361536e-01  -4.64180768e-01  -9.28361536e-01  -4.64180768e-01  
144     1.02032622e-04   -9.14579276e-01  -4.57289638e-01  -9.14579276e-01  -4.57289638e-01  
145     1.02739144e-04   -8.99643651e-01  -4.49821826e-01  -8.99643651e-01  -4.49821826e-01  
146     1.03445665e-04   -8.83573497e-01  -4.41786749e-01  -8.83573497e-01  -4.41786749e-01  
147     1.04152187e-04   -8.66389080e-01  -4.33194540e-01  -8.66389080e-01  -4.33194540e-01  
148     1.04858709e-04   -8.48112070e-01  -4.24056035e-01  -8.48112070e-01  -4.24056035e-01  
149     1.05565231e-04   -8.28765516e-01  -4.14382758e-01  -8.28765516e-01  -4.14382758e-01  
150     1.06271753e-04   -8.08373817e-01  -4.04186909e-01  -8.08373817e-01  -4.04186909e-01  
151     1.06978275e-04   -7.86962688e-01  -3.93481344e-01  -7.86962688e-01  -3.93481344e-01  
152     1.07684796e-04   -7.64559129e-01  -3.82279565e-01  -7.64559129e-01  -3.82279565e-01  
153     1.08391318e-04   -7.41191395e-01  -3.70595697e-01  -7.41191395e-01  -3.70595697e-01  
154     1.09097840e-04   -7.16888953e-01  -3.58444477e-01  -7.16888953e-01  -3.58444477e-01  
155     1.09804362e-04   -6.91682452e-01  -3.45841226e-01  -6.91682452e-01  -3.45841226e-01  
156     1.10510884e-04   -6.65603678e-01  -3.32801839e-01  -6.65603678e-01  -3.32801839e-01  
157     1.11217406e-04   -6.38685521e-01  -3.19342760e-01  -6.38685521e-01  -3.19342760e-01  
158     1.11923927e-04   -6.10961924e-01  -3.05480962e-01  -6.10961924e-01  -3.05480962e-01  
159     1.12630449e-04   -5.82467851e-01  -2.91233926e-01  -5.82467851e-01  -2.91233926e-01  
160     1.13336971e-04   -5.53239236e-01  -2.76619618e-01  -5.53239236e-01  -2.76619618e-01  
161     1.14043493e-04   -5.23312937e-01  -2.61656468e-01  -5.23312937e-01  -2.61656468e-01  
162     1.14750015e-04   -4.92726695e-01  -2.46363347e-01  -4.92726695e-01  -2.46363347e-01  
163     1.15456537e-04   -4.61519081e-01  -2.30759540e-01  -4.61519081e-01  -2.30759540e-01  
164     1.16163058e-04   -4.29729451e-01  -2.14864726e-01  -4.29729451e-01  -2.14864726e-01  
165     1.16869580e-04   -3.97397895e-01  -1.98698947e-01  -3.97397895e-01  -1.98698947e-01  
166     1.17576102e-04   -3.64565185e-01  -1.82282593e-01  -3.64565185e-01  -1.82282593e-01  
167     1.18282624e-04   -3.31272727e-01  -1.65636363e-01  -3.31272727e-01  -1.65636363e-01  
168     1.18989146e-04   -2.97562504e-01  -1.48781252e-01  -2.97562504e-01  -1.48781252e-01  
169     1.19695668e-04   -2.63477030e-01  -1.31738515e-01  -2.63477030e-01  -1.31738515e-01  
170     1.20402189e-04   -2.29059288e-01  -1.14529644e-01  -2.29059288e-01  -1.14529644e-01  
171     1.21108711e-04   -1.94352682e-01  -9.71763408e-02  -1.94352682e-01  -9.71763408e-02  
172     1.21815233e-04   -1.59400980e-01  -7.97004899e-02  -1.59400980e-01  -7.97004899e-02  
173     1.22521755e-04   -1.24248259e-01  -6.21241297e-02  -1.24248259e-01  -6.21241297e-02  
174     1.23228277e-04   -8.89388510e-02  -4.44694255e-02  -8.89388510e-02  -4.44694255e-02  
175     1.23934799e-04   -5.35172831e-02  -2.67586415e-02  -5.35172831e-02  -2.67586415e-02  
176     1.24641320e-04   -1.80282251e-02  -9.01411254e-03  -1.80282251e-02  -9.01411254e-03  
177     1.25347842e-04   1.74835681e-02   8.74178403e-03   1.74835681e-02   8.74178403e-03   
178     1.26054364e-04   5.29733129e-02   2.64866564e-02   5.29733129e-02   2.64866564e-02   
179     1.26760886e-04   8.83962537e-02   4.41981269e-02   8.83962537e-02   4.41981269e-02   
180     1.27467408e-04   1.23707719e-01   6.18538596e-02   1.23707719e-01   6.18538596e-02   
181     1.28173930e-04   1.58863178e-01   7.94315892e-02   1.58863178e-01   7.94315892e-02   
182     1.28880451e-04   1.93818297e-01   9.69091486e-02   1.93818297e-01   9.69091486e-02   
183     1.29586973e-04   2.28528994e-01   1.14264497e-01   2.28528994e-01   1.14264497e-01   
184     1.30293495e-04   2.62951496e-01   1.31475748e-01   2.62951496e-01   1.31475748e-01   
185     1.31000017e-04   2.97042393e-01   1.48521196e-01   2.97042393e-01   1.48521196e-01   
186     1.31706539e-04   3.30758694e-01   1.65379347e-01   3.30758694e-01   1.65379347e-01   
187     1.32413061e-04   3.64057878e-01   1.82028939e-01   3.64057878e-01   1.82028939e-01   
188     1.33119582e-04   3.96897954e-01   1.98448977e-01   3.96897954e-01   1.98448977e-01   
189     1.33826104e-04   4.29237507e-01   2.14618754e-01   4.29237507e-01   2.14618754e-01   
190     1.34532626e-04   4.61035754e-01   2.30517877e-01   4.61035754e-01   2.30517877e-01   
191     1.35239148e-04   4.92252595e-01   2.46126297e-01   4.92252595e-01   2.46126297e-01   
192     1.35945670e-04   5.22848662e-01   2.61424331e-01   5.22848662e-01   2.61424331e-01   
193     1.36652192e-04   5.52785371e-01   2.76392685e-01   5.52785371e-01   2.76392685e-01   
194     1.37358713e-04   5.82024969e-01   2.91012484e-01   5.82024969e-01   2.91012484e-01   
195     1.38065235e-04   6.10530582e-01   3.05265291e-01   6.10530582e-01   3.05265291e-01   
196     1.38771757e-04   6.38266264e-01   3.19133132e-01   6.38266264e-01   3.19133132e-01   
197     1.39478279e-04   6.65197035e-01   3.32598518e-01   6.65197035e-01   3.32598518e-01   
198     1.40184801e-04   6.91288935e-01   3.45644468e-01   6.91288935e-01   3.45644468e-01   
199     1.40891323e-04   7.16509059e-01   3.58254530e-01   7.16509059e-01   3.58254530e-01   
200     1.41597844e-04   7.40825602e-01   3.70412801e-01   7.40825602e-01   3.70412801e-01   
201     1.42304366e-04   7.64207900e-01   3.82103950e-01   7.64207900e-01   3.82103950e-01   
202     1.43010888e-04   7.86626464e-01   3.93313232e-01   7.86626464e-01   3.93313232e-01   
203     1.43717410e-04   8.08053024e-01   4.04026512e-01   8.08053024e-01   4.04026512e-01   
204     1.44423932e-04   8.28460558e-01   4.14230279e-01   8.28460558e-01   4.14230279e-01   
205     1.45130454e-04   8.47823330e-01   4.23911665e-01   8.47823330e-01   4.23911665e-01   
206     1.45836975e-04   8.66116923e-01   4.33058462e-01   8.66116923e-01   4.33058462e-01   
207     1.46543497e-04   8.83318267e-01   4.41659134e-01   8.83318267e-01   4.41659134e-01   
208     1.47250019e-04   8.99405669e-01   4.49702835e-01   8.99405669e-01   4.49702835e-01   
209     1.47956541e-04   9.14358842e-01   4.57179421e-01   9.14358842e-01   4.57179421e-01   
210     1.48663063e-04   9.28158929e-01   4.64079464e-01   9.28158929e-01   4.64079464e-01   
