Index      TIME           V(4)           V(11)
0       0.00000000e+00   0.00000000e+00   -7.94646017e-04  
1       5.00000000e-12   2.00000000e-02   -7.94645866e-04  
2       1.50000000e-11   6.00000000e-02   -7.94645611e-04  
3       3.50000000e-11   1.40000000e-01   -7.94645423e-04  
4       5.50000000e-11   2.20000000e-01   -7.94645408e-04  
5       7.50000000e-11   3.00000000e-01   -7.94645407e-04  
6       1.15000000e-10   4.60000000e-01   -7.94645405e-04  
7       1.95000000e-10   7.80000000e-01   -7.94645400e-04  
8       3.55000000e-10   1.42000000e+00   -7.94645381e-04  
9       6.75000000e-10   2.70000000e+00   -7.94645307e-04  
10      1.00000000e-09   4.00000000e+00   -7.94645195e-04  
11      1.32000000e-09   4.00000000e+00   -7.94645046e-04  
12      1.96000000e-09   4.00000000e+00   -7.94644598e-04  
13      2.60000000e-09   4.00000000e+00   -7.94644002e-04  
14      3.24000000e-09   4.00000000e+00   -7.94643260e-04  
15      3.88000000e-09   4.00000000e+00   -7.94642373e-04  
16      4.52000000e-09   4.00000000e+00   -7.94641346e-04  
17      5.80000000e-09   4.00000000e+00   -7.94638749e-04  
18      7.08000000e-09   4.00000000e+00   -7.94635637e-04  
19      8.36000000e-09   4.00000000e+00   -7.94632039e-04  
20      9.64000000e-09   4.00000000e+00   -7.94627989e-04  
21      1.09200000e-08   4.00000000e+00   -7.94623522e-04  
22      1.22000000e-08   4.00000000e+00   -7.94618678e-04  
23      1.34800000e-08   4.00000000e+00   -7.94613498e-04  
24      1.47600000e-08   4.00000000e+00   -7.94608029e-04  
25      1.60400000e-08   4.00000000e+00   -7.94602322e-04  
26      1.73200000e-08   4.00000000e+00   -7.94596431e-04  
27      1.98800000e-08   4.00000000e+00   -7.94584413e-04  
28      2.24400000e-08   4.00000000e+00   -7.94572746e-04  
29      2.50000000e-08   4.00000000e+00   -7.94562101e-04  
30      2.75600000e-08   4.00000000e+00   -7.94553248e-04  
31      3.01200000e-08   4.00000000e+00   -7.94547063e-04  
32      3.26800000e-08   4.00000000e+00   -7.94544539e-04  
33      3.78000000e-08   4.00000000e+00   -7.94564278e-04  
34      4.29200000e-08   4.00000000e+00   -7.94621486e-04  
35      4.80400000e-08   4.00000000e+00   -7.94731718e-04  
36      5.31600000e-08   4.00000000e+00   -7.94913727e-04  
37      5.82800000e-08   4.00000000e+00   -7.95189779e-04  
38      6.34000000e-08   4.00000000e+00   -7.95585947e-04  
39      6.85200000e-08   4.00000000e+00   -7.96132374e-04  
40      7.36400000e-08   4.00000000e+00   -7.96863525e-04  
41      7.87600000e-08   4.00000000e+00   -7.97818393e-04  
42      8.38800000e-08   4.00000000e+00   -7.99040678e-04  
43      8.90000000e-08   4.00000000e+00   -8.00578939e-04  
44      9.41200000e-08   4.00000000e+00   -8.02486692e-04  
45      9.92400000e-08   4.00000000e+00   -8.04822489e-04  
46      1.04360000e-07   4.00000000e+00   -8.07649947e-04  
47      1.09480000e-07   4.00000000e+00   -8.11037741e-04  
48      1.14600000e-07   4.00000000e+00   -8.15059557e-04  
49      1.19720000e-07   4.00000000e+00   -8.19794012e-04  
50      1.24840000e-07   4.00000000e+00   -8.25324525e-04  
51      1.29960000e-07   4.00000000e+00   -8.31739165e-04  
52      1.35080000e-07   4.00000000e+00   -8.39130448e-04  
53      1.40200000e-07   4.00000000e+00   -8.47595112e-04  
54      1.50440000e-07   4.00000000e+00   -8.69649561e-04  
55      1.60680000e-07   4.00000000e+00   -8.97709236e-04  
56      1.70920000e-07   4.00000000e+00   -9.32690977e-04  
57      1.81160000e-07   4.00000000e+00   -9.75535490e-04  
58      1.91400000e-07   4.00000000e+00   -1.02719373e-03  
59      2.01640000e-07   4.00000000e+00   -1.08861291e-03  
60      2.11880000e-07   4.00000000e+00   -1.16072247e-03  
61      2.22120000e-07   4.00000000e+00   -1.24442043e-03  
62      2.32360000e-07   4.00000000e+00   -1.34056038e-03  
63      2.42600000e-07   4.00000000e+00   -1.44993946e-03  
64      2.63080000e-07   4.00000000e+00   -1.72684371e-03  
65      2.83560000e-07   4.00000000e+00   -2.06571656e-03  
66      3.04040000e-07   4.00000000e+00   -2.46890451e-03  
67      3.24520000e-07   4.00000000e+00   -2.93725869e-03  
68      3.45000000e-07   4.00000000e+00   -3.47019517e-03  
69      3.65480000e-07   4.00000000e+00   -4.06581899e-03  
70      3.85960000e-07   4.00000000e+00   -4.72109344e-03  
71      4.06440000e-07   4.00000000e+00   -5.43203606e-03  
72      4.47400000e-07   4.00000000e+00   -7.03573135e-03  
73      4.88360000e-07   4.00000000e+00   -8.77668982e-03  
74      5.29320000e-07   4.00000000e+00   -1.06108783e-02  
75      5.70280000e-07   4.00000000e+00   -1.24976822e-02  
76      6.52200000e-07   4.00000000e+00   -1.62417865e-02  
77      7.34120000e-07   4.00000000e+00   -1.98017719e-02  
78      8.16040000e-07   4.00000000e+00   -2.30937253e-02  
79      8.97960000e-07   4.00000000e+00   -2.60851196e-02  
80      1.06180000e-06   4.00000000e+00   -3.09703619e-02  
81      1.22564000e-06   4.00000000e+00   -3.49809725e-02  
82      1.38948000e-06   4.00000000e+00   -3.83437164e-02  
83      1.55332000e-06   4.00000000e+00   -4.12475544e-02  
84      1.71716000e-06   4.00000000e+00   -4.38362089e-02  
85      1.88100000e-06   4.00000000e+00   -4.62137907e-02  
86      2.04484000e-06   4.00000000e+00   -4.84536555e-02  
87      2.20868000e-06   4.00000000e+00   -5.06066636e-02  
88      2.53636000e-06   4.00000000e+00   -5.47773112e-02  
89      2.86404000e-06   4.00000000e+00   -5.89221754e-02  
90      3.51940000e-06   4.00000000e+00   -6.74123800e-02  
91      4.17476000e-06   4.00000000e+00   -7.62080009e-02  
92      5.48548000e-06   4.00000000e+00   -9.51967136e-02  
93      6.79620000e-06   4.00000000e+00   -1.15620223e-01  
94      7.27232692e-06   4.00000000e+00   -1.23104351e-01  
95      7.55828365e-06   4.00000000e+00   -1.27390914e-01  
96      7.84424037e-06   4.00000000e+00   -1.31358796e-01  
97      8.13019710e-06   4.00000000e+00   -1.35054078e-01  
98      8.41615383e-06   4.00000000e+00   -1.38574414e-01  
99      8.70211056e-06   4.00000000e+00   -1.42003994e-01  
100     8.98806729e-06   4.00000000e+00   -1.45398771e-01  
101     9.55998075e-06   4.00000000e+00   -1.52232569e-01  
102     1.01318942e-05   4.00000000e+00   -1.59180887e-01  
103     1.12757211e-05   4.00000000e+00   -1.73665207e-01  
104     1.35633750e-05   4.00000000e+00   -2.05115605e-01  
105     1.41352884e-05   4.00000000e+00   -2.13136623e-01  
106     1.44708697e-05   4.00000000e+00   -2.17906194e-01  
107     1.47910918e-05   4.00000000e+00   -2.22579435e-01  
108     1.49512029e-05   4.00000000e+00   -2.24979018e-01  
109     1.50917922e-05   4.00000000e+00   -2.27194622e-01  
110     1.52323815e-05   4.00000000e+00   -2.29666132e-01  
111     1.53729708e-05   4.00000000e+00   -2.32724658e-01  
112     1.54757012e-05   4.00000000e+00   -2.35499508e-01  
113     1.55784315e-05   4.00000000e+00   -2.39166563e-01  
114     1.56610698e-05   4.00000000e+00   -2.42934759e-01  
115     1.57437080e-05   4.00000000e+00   -2.47808539e-01  
116     1.58263463e-05   4.00000000e+00   -2.54096449e-01  
117     1.59089845e-05   4.00000000e+00   -2.62096935e-01  
118     1.59916228e-05   4.00000000e+00   -2.72067983e-01  
119     1.60742611e-05   4.00000000e+00   -2.84204075e-01  
120     1.61568993e-05   4.00000000e+00   -2.98623903e-01  
121     1.62395376e-05   4.00000000e+00   -3.15369055e-01  
122     1.63221758e-05   4.00000000e+00   -3.34411561e-01  
123     1.64048141e-05   4.00000000e+00   -3.55667004e-01  
124     1.64874523e-05   4.00000000e+00   -3.79009908e-01  
125     1.65700906e-05   4.00000000e+00   -4.04288757e-01  
126     1.66527288e-05   4.00000000e+00   -4.31339009e-01  
127     1.67353671e-05   4.00000000e+00   -4.59993331e-01  
128     1.68180053e-05   4.00000000e+00   -4.90088955e-01  
129     1.69006436e-05   4.00000000e+00   -5.21472490e-01  
130     1.69832819e-05   4.00000000e+00   -5.54002660e-01  
131     1.70659201e-05   4.00000000e+00   -5.87551519e-01  
132     1.71485584e-05   4.00000000e+00   -6.22004599e-01  
133     1.72311966e-05   4.00000000e+00   -6.57260381e-01  
134     1.73138349e-05   4.00000000e+00   -6.93229376e-01  
135     1.73964731e-05   4.00000000e+00   -7.29833013e-01  
136     1.74791114e-05   4.00000000e+00   -7.67002469e-01  
137     1.75617496e-05   4.00000000e+00   -8.04677531e-01  
138     1.76443879e-05   4.00000000e+00   -8.42805525e-01  
139     1.77270261e-05   4.00000000e+00   -8.81340344e-01  
140     1.78096644e-05   4.00000000e+00   -9.20241585e-01  
141     1.78923027e-05   4.00000000e+00   -9.59473787e-01  
142     1.79749409e-05   4.00000000e+00   -9.99005763e-01  
143     1.80575792e-05   4.00000000e+00   -1.03881003e+00  
144     1.81402174e-05   4.00000000e+00   -1.07886231e+00  
145     1.82228557e-05   4.00000000e+00   -1.11914111e+00  
146     1.83054939e-05   4.00000000e+00   -1.15962734e+00  
147     1.83881322e-05   4.00000000e+00   -1.20030403e+00  
148     1.84707704e-05   4.00000000e+00   -1.24115600e+00  
149     1.86360470e-05   4.00000000e+00   -1.32346855e+00  
150     1.88013235e-05   4.00000000e+00   -1.40630855e+00  
151     1.89666000e-05   4.00000000e+00   -1.48960772e+00  
152     1.92971530e-05   4.00000000e+00   -1.65767413e+00  
153     1.96277060e-05   4.00000000e+00   -1.82691281e+00  
154     2.02888120e-05   4.00000000e+00   -2.16872558e+00  
155     2.09499181e-05   4.00000000e+00   -2.51292446e+00  
156     2.22721302e-05   4.00000000e+00   -3.20633659e+00  
157     2.27293316e-05   4.00000000e+00   -3.44516343e+00  
158     2.30273831e-05   4.00000000e+00   -3.59857600e+00  
159     2.33254346e-05   4.00000000e+00   -3.74420569e+00  
160     2.35676686e-05   4.00000000e+00   -3.85115367e+00  
161     2.37788568e-05   4.00000000e+00   -3.93091290e+00  
162     2.39900450e-05   4.00000000e+00   -3.99462227e+00  
163     2.42012332e-05   4.00000000e+00   -4.04268646e+00  
164     2.44124213e-05   4.00000000e+00   -4.07746421e+00  
165     2.46236095e-05   4.00000000e+00   -4.10192548e+00  
166     2.48127862e-05   4.00000000e+00   -4.11757180e+00  
167     2.50019629e-05   4.00000000e+00   -4.12862497e+00  
168     2.51911396e-05   4.00000000e+00   -4.13637770e+00  
169     2.53595956e-05   4.00000000e+00   -4.14136234e+00  
170     2.55280517e-05   4.00000000e+00   -4.14495039e+00  
171     2.56965077e-05   4.00000000e+00   -4.14752715e+00  
172     2.58649638e-05   4.00000000e+00   -4.14937430e+00  
173     2.60334198e-05   4.00000000e+00   -4.15069646e+00  
174     2.61800900e-05   4.00000000e+00   -4.15155102e+00  
175     2.63267601e-05   4.00000000e+00   -4.15218482e+00  
176     2.64551277e-05   4.00000000e+00   -4.15260966e+00  
177     2.65834953e-05   4.00000000e+00   -4.15293485e+00  
178     2.66816739e-05   4.00000000e+00   -4.15313627e+00  
179     2.67798524e-05   4.00000000e+00   -4.15329933e+00  
180     2.68780310e-05   4.00000000e+00   -4.15343130e+00  
181     2.69762095e-05   4.00000000e+00   -4.15353808e+00  
182     2.70743881e-05   4.00000000e+00   -4.15362446e+00  
183     2.72707452e-05   4.00000000e+00   -4.15374169e+00  
184     2.74671023e-05   4.00000000e+00   -4.15382121e+00  
185     2.76634594e-05   4.00000000e+00   -4.15387512e+00  
186     2.80561736e-05   4.00000000e+00   -4.15393035e+00  
187     2.84488879e-05   4.00000000e+00   -4.15395862e+00  
188     2.92343163e-05   4.00000000e+00   -4.15397804e+00  
189     3.00197448e-05   4.00000000e+00   -4.15398471e+00  
190     3.15906017e-05   4.00000000e+00   -4.15398746e+00  
191     3.47323155e-05   4.00000000e+00   -4.15398810e+00  
192     4.10157431e-05   4.00000000e+00   -4.15398818e+00  
193     5.35825983e-05   4.00000000e+00   -4.15398818e+00  
194     7.87163086e-05   4.00000000e+00   -4.15398818e+00  
195     1.28983729e-04   4.00000000e+00   -4.15398818e+00  
196     2.29518571e-04   4.00000000e+00   -4.15398818e+00  
197     4.29518571e-04   4.00000000e+00   -4.15398818e+00  
198     6.29518571e-04   4.00000000e+00   -4.15398818e+00  
199     8.29518571e-04   4.00000000e+00   -4.15398818e+00  
200     1.00000100e-03   4.00000000e+00   -4.15398818e+00  
201     1.00000100e-03   3.98000000e+00   -4.15398818e+00  
202     1.00000101e-03   3.94000000e+00   -4.15398818e+00  
203     1.00000103e-03   3.86000000e+00   -4.15398818e+00  
204     1.00000107e-03   3.70000000e+00   -4.15398818e+00  
205     1.00000115e-03   3.38000000e+00   -4.15398818e+00  
206     1.00000131e-03   2.74000000e+00   -4.15398818e+00  
207     1.00000163e-03   1.46000000e+00   -4.15398818e+00  
208     1.00000200e-03   -1.26084659e-10  -4.15398818e+00  
209     1.00000232e-03   0.00000000e+00   -4.15398818e+00  
210     1.00000296e-03   0.00000000e+00   -4.15398818e+00  
211     1.00000424e-03   0.00000000e+00   -4.15398819e+00  
212     1.00000680e-03   0.00000000e+00   -4.15398819e+00  
213     1.00000936e-03   0.00000000e+00   -4.15398820e+00  
214     1.00001192e-03   0.00000000e+00   -4.15398821e+00  
215     1.00001448e-03   0.00000000e+00   -4.15398822e+00  
216     1.00001704e-03   0.00000000e+00   -4.15398823e+00  
217     1.00001960e-03   0.00000000e+00   -4.15398824e+00  
218     1.00002472e-03   0.00000000e+00   -4.15398826e+00  
219     1.00002984e-03   0.00000000e+00   -4.15398827e+00  
220     1.00003496e-03   0.00000000e+00   -4.15398825e+00  
221     1.00004008e-03   0.00000000e+00   -4.15398821e+00  
222     1.00005032e-03   0.00000000e+00   -4.15398787e+00  
223     1.00006056e-03   0.00000000e+00   -4.15398706e+00  
224     1.00007080e-03   0.00000000e+00   -4.15398553e+00  
225     1.00008104e-03   0.00000000e+00   -4.15398293e+00  
226     1.00009128e-03   0.00000000e+00   -4.15397885e+00  
227     1.00011176e-03   0.00000000e+00   -4.15396013e+00  
228     1.00012979e-03   0.00000000e+00   -4.15393157e+00  
229     1.00014783e-03   0.00000000e+00   -4.15388645e+00  
230     1.00016586e-03   0.00000000e+00   -4.15381983e+00  
231     1.00018389e-03   0.00000000e+00   -4.15372652e+00  
232     1.00020192e-03   0.00000000e+00   -4.15360129e+00  
233     1.00023799e-03   0.00000000e+00   -4.15318680e+00  
234     1.00027405e-03   0.00000000e+00   -4.15258178e+00  
235     1.00034619e-03   0.00000000e+00   -4.15058574e+00  
236     1.00041832e-03   0.00000000e+00   -4.14792393e+00  
237     1.00049045e-03   0.00000000e+00   -4.14478771e+00  
238     1.00056258e-03   0.00000000e+00   -4.14137694e+00  
239     1.00063471e-03   0.00000000e+00   -4.13786301e+00  
240     1.00070684e-03   0.00000000e+00   -4.13437455e+00  
241     1.00085110e-03   0.00000000e+00   -4.12796831e+00  
242     1.00099536e-03   0.00000000e+00   -4.12225453e+00  
243     1.00128389e-03   0.00000000e+00   -4.11298275e+00  
244     1.00157241e-03   0.00000000e+00   -4.10510413e+00  
245     1.00186093e-03   0.00000000e+00   -4.09806264e+00  
246     1.00214946e-03   0.00000000e+00   -4.09151297e+00  
247     1.00243798e-03   0.00000000e+00   -4.08525491e+00  
248     1.00301503e-03   0.00000000e+00   -4.07328435e+00  
249     1.00359208e-03   0.00000000e+00   -4.06162361e+00  
250     1.00474617e-03   0.00000000e+00   -4.03910383e+00  
251     1.00705436e-03   0.00000000e+00   -3.99681749e+00  
252     1.00734051e-03   0.00000000e+00   -3.99167188e+00  
253     1.00742911e-03   0.00000000e+00   -3.99009449e+00  
254     1.00748958e-03   0.00000000e+00   -3.98902870e+00  
255     1.00755005e-03   0.00000000e+00   -3.98797787e+00  
256     1.00759875e-03   0.00000000e+00   -3.98714348e+00  
257     1.00764131e-03   0.00000000e+00   -3.98642479e+00  
258     1.00767653e-03   0.00000000e+00   -3.98583784e+00  
259     1.00770631e-03   0.00000000e+00   -3.98534759e+00  
260     1.00773049e-03   0.00000000e+00   -3.98495349e+00  
261     1.00774376e-03   0.00000000e+00   -3.98473849e+00  
262     1.00775152e-03   0.00000000e+00   -3.98461309e+00  
263     1.00775687e-03   0.00000000e+00   -3.98452697e+00  
264     1.00776221e-03   0.00000000e+00   -3.98444105e+00  
265     1.00776756e-03   0.00000000e+00   -3.98435533e+00  
266     1.00777290e-03   0.00000000e+00   -3.98426982e+00  
267     1.00778359e-03   0.00000000e+00   -3.98409964e+00  
268     1.00779429e-03   0.00000000e+00   -3.98393028e+00  
269     1.00780498e-03   0.00000000e+00   -3.98376177e+00  
270     1.00781567e-03   0.00000000e+00   -3.98359409e+00  
271     1.00782636e-03   0.00000000e+00   -3.98342725e+00  
272     1.00784774e-03   0.00000000e+00   -3.98309689e+00  
273     1.00786912e-03   0.00000000e+00   -3.98276981e+00  
274     1.00789050e-03   0.00000000e+00   -3.98244595e+00  
275     1.00791189e-03   0.00000000e+00   -3.98212524e+00  
276     1.00793327e-03   0.00000000e+00   -3.98180760e+00  
277     1.00797603e-03   0.00000000e+00   -3.98118378e+00  
278     1.00801880e-03   0.00000000e+00   -3.98057058e+00  
279     1.00805407e-03   0.00000000e+00   -3.98007160e+00  
280     1.00807795e-03   0.00000000e+00   -3.97973661e+00  
281     1.00810183e-03   0.00000000e+00   -3.97940441e+00  
282     1.00812572e-03   0.00000000e+00   -3.97907483e+00  
283     1.00814960e-03   0.00000000e+00   -3.97874775e+00  
284     1.00817348e-03   0.00000000e+00   -3.97842302e+00  
285     1.00819737e-03   0.00000000e+00   -3.97810050e+00  
286     1.00824514e-03   0.00000000e+00   -3.97746338e+00  
287     1.00829290e-03   0.00000000e+00   -3.97683331e+00  
288     1.00834067e-03   0.00000000e+00   -3.97620953e+00  
289     1.00838844e-03   0.00000000e+00   -3.97559139e+00  
290     1.00848398e-03   0.00000000e+00   -3.97437361e+00  
291     1.00857951e-03   0.00000000e+00   -3.97317119e+00  
292     1.00877058e-03   0.00000000e+00   -3.97081210e+00  
293     1.00915272e-03   0.00000000e+00   -3.96621796e+00  
294     1.00953487e-03   0.00000000e+00   -3.96171999e+00  
295     1.01029915e-03   0.00000000e+00   -3.95303906e+00  
296     1.01182772e-03   0.00000000e+00   -3.93683314e+00  
297     1.01488486e-03   0.00000000e+00   -3.90621168e+00  
298     1.01509654e-03   0.00000000e+00   -3.90397324e+00  
299     1.01524095e-03   0.00000000e+00   -3.90226958e+00  
300     1.01538536e-03   0.00000000e+00   -3.90009452e+00  
301     1.01549642e-03   0.00000000e+00   -3.89789160e+00  
302     1.01559436e-03   0.00000000e+00   -3.89526386e+00  
303     1.01568134e-03   0.00000000e+00   -3.89212686e+00  
304     1.01576832e-03   0.00000000e+00   -3.88786293e+00  
305     1.01585530e-03   0.00000000e+00   -3.88211490e+00  
306     1.01594228e-03   0.00000000e+00   -3.87453035e+00  
307     1.01602927e-03   0.00000000e+00   -3.86480058e+00  
308     1.01611625e-03   0.00000000e+00   -3.85269117e+00  
309     1.01620323e-03   0.00000000e+00   -3.83805881e+00  
310     1.01629021e-03   0.00000000e+00   -3.82085359e+00  
311     1.01637719e-03   0.00000000e+00   -3.80110964e+00  
312     1.01646417e-03   0.00000000e+00   -3.77892841e+00  
313     1.01655116e-03   0.00000000e+00   -3.75445919e+00  
314     1.01663814e-03   0.00000000e+00   -3.72788040e+00  
315     1.01672512e-03   0.00000000e+00   -3.69938371e+00  
316     1.01681210e-03   0.00000000e+00   -3.66916189e+00  
317     1.01689908e-03   0.00000000e+00   -3.63740035e+00  
318     1.01698606e-03   0.00000000e+00   -3.60427194e+00  
319     1.01707305e-03   0.00000000e+00   -3.56993418e+00  
320     1.01716003e-03   0.00000000e+00   -3.53452832e+00  
321     1.01724701e-03   0.00000000e+00   -3.49817955e+00  
322     1.01733399e-03   0.00000000e+00   -3.46099794e+00  
323     1.01742097e-03   0.00000000e+00   -3.42307973e+00  
324     1.01750795e-03   0.00000000e+00   -3.38450882e+00  
325     1.01759494e-03   0.00000000e+00   -3.34535820e+00  
326     1.01768192e-03   0.00000000e+00   -3.30569134e+00  
327     1.01776890e-03   0.00000000e+00   -3.26556346e+00  
328     1.01785588e-03   0.00000000e+00   -3.22502266e+00  
329     1.01794286e-03   0.00000000e+00   -3.18411089e+00  
330     1.01802984e-03   0.00000000e+00   -3.14286483e+00  
331     1.01810062e-03   0.00000000e+00   -3.10910185e+00  
