Index      TIME           V(1)           V(8)           V(9)           I(V2)           V(10)           V(11)           I(V3)
0       0.00000000e+00   0.00000000e+00   5.00000000e+00   0.00000000e+00   0.00000000e+00   5.00000000e+00   0.00000000e+00   0.00000000e+00   
1       5.00000000e-12   2.50000000e-02   5.00000000e+00   3.57142857e+00   -3.57142857e-02  5.00000000e+00   3.57142857e+00   -3.57142857e-02  
2       5.62500000e-12   2.81250000e-02   5.00000000e+00   3.68852459e+00   -3.68852459e-02  5.00000000e+00   3.68852459e+00   -3.68852459e-02  
3       6.25000000e-12   3.12500000e-02   5.00000000e+00   3.78787879e+00   -3.78787879e-02  5.00000000e+00   3.78787879e+00   -3.78787879e-02  
4       6.87500000e-12   3.43750000e-02   5.00000000e+00   3.87323944e+00   -3.87323944e-02  5.00000000e+00   3.87323944e+00   -3.87323944e-02  
5       7.50000000e-12   3.75000000e-02   5.00000000e+00   3.94736842e+00   -3.94736842e-02  5.00000000e+00   3.94736842e+00   -3.94736842e-02  
6       8.75000000e-12   4.37500000e-02   5.00000000e+00   4.06976744e+00   -4.06976744e-02  5.00000000e+00   4.06976744e+00   -4.06976744e-02  
7       1.00000000e-11   5.00000000e-02   5.00000000e+00   4.16666667e+00   -4.16666667e-02  5.00000000e+00   4.16666667e+00   -4.16666667e-02  
8       1.12500000e-11   5.62500000e-02   5.00000000e+00   4.24528302e+00   -4.24528302e-02  5.00000000e+00   4.24528302e+00   -4.24528302e-02  
9       1.25000000e-11   6.25000000e-02   5.00000000e+00   4.31034483e+00   -4.31034483e-02  5.00000000e+00   4.31034483e+00   -4.31034483e-02  
10      1.50000000e-11   7.50000000e-02   5.00000000e+00   4.41176471e+00   -4.41176471e-02  5.00000000e+00   4.41176471e+00   -4.41176471e-02  
11      1.75000000e-11   8.75000000e-02   5.00000000e+00   4.48717949e+00   -4.48717949e-02  5.00000000e+00   4.48717949e+00   -4.48717949e-02  
12      2.00000000e-11   1.00000000e-01   5.00000000e+00   4.54545455e+00   -4.54545455e-02  5.00000000e+00   4.54545455e+00   -4.54545455e-02  
13      2.25000000e-11   1.12500000e-01   5.00000000e+00   4.59183673e+00   -4.59183673e-02  5.00000000e+00   4.59183673e+00   -4.59183673e-02  
14      2.75000000e-11   1.37500000e-01   5.00000000e+00   4.66101695e+00   -4.66101695e-02  5.00000000e+00   4.66101695e+00   -4.66101695e-02  
15      3.25000000e-11   1.62500000e-01   5.00000000e+00   4.71014493e+00   -4.71014493e-02  5.00000000e+00   4.71014493e+00   -4.71014493e-02  
16      3.75000000e-11   1.87500000e-01   5.00000000e+00   4.74683544e+00   -4.74683544e-02  5.00000000e+00   4.74683544e+00   -4.74683544e-02  
17      4.75000000e-11   2.37500000e-01   5.00000000e+00   4.79797980e+00   -4.79797980e-02  5.00000000e+00   4.79797980e+00   -4.79797980e-02  
18      5.75000000e-11   2.87500000e-01   5.00000000e+00   4.83193277e+00   -4.83193277e-02  5.00000000e+00   4.83193277e+00   -4.83193277e-02  
19      6.75000000e-11   3.37500000e-01   5.00000000e+00   4.85611511e+00   -4.85611511e-02  5.00000000e+00   4.85611511e+00   -4.85611511e-02  
20      8.75000000e-11   4.37500000e-01   5.00000000e+00   4.88826816e+00   -4.88826816e-02  5.00000000e+00   4.88826816e+00   -4.88826816e-02  
21      1.07500000e-10   5.37500000e-01   5.00000000e+00   4.90867580e+00   -4.90867580e-02  5.00000000e+00   4.90867580e+00   -4.90867580e-02  
22      1.47500000e-10   7.37500000e-01   5.00000000e+00   4.93311037e+00   -4.93311037e-02  5.00000000e+00   4.93311037e+00   -4.93311037e-02  
23      1.87500000e-10   9.37500000e-01   5.00000000e+00   4.94722955e+00   -4.94722955e-02  5.00000000e+00   4.94722955e+00   -4.94722955e-02  
24      2.67500000e-10   1.33750000e+00   5.00000000e+00   4.96289425e+00   -4.96289425e-02  5.00000000e+00   4.96289425e+00   -4.96289425e-02  
25      4.27500000e-10   2.13750000e+00   5.00000000e+00   4.97671711e+00   -4.97671711e-02  5.00000000e+00   4.97671711e+00   -4.97671711e-02  
26      5.87500000e-10   2.93750000e+00   5.00000000e+00   4.98303647e+00   -4.98303647e-02  5.00000000e+00   4.98303647e+00   -4.98303647e-02  
27      9.07500000e-10   4.53750000e+00   5.00000000e+00   4.98900495e+00   -4.98900495e-02  5.00000000e+00   4.98900495e+00   -4.98900495e-02  
28      1.00000000e-09   5.00000000e+00   5.00000000e+00   4.99001996e+00   -4.99001996e-02  5.00000000e+00   4.99001996e+00   -4.99001996e-02  
29      1.32000000e-09   5.00000000e+00   5.00000000e+00   4.99001996e+00   -4.99001996e-02  5.00000000e+00   4.99001996e+00   -4.99001996e-02  
30      1.96000000e-09   5.00000000e+00   5.00000000e+00   4.99001996e+00   -4.99001996e-02  5.00000000e+00   4.99001996e+00   -4.99001996e-02  
31      3.24000000e-09   5.00000000e+00   5.00000000e+00   4.99001996e+00   -4.99001996e-02  5.00000000e+00   4.99001996e+00   -4.99001996e-02  
32      5.80000000e-09   5.00000000e+00   5.00000000e+00   4.99001996e+00   -4.99001996e-02  5.00000000e+00   4.99001996e+00   -4.99001996e-02  
33      1.09200000e-08   5.00000000e+00   5.00000000e+00   4.99001996e+00   -4.99001996e-02  5.00000000e+00   4.99001996e+00   -4.99001996e-02  
34      2.11600000e-08   5.00000000e+00   5.00000000e+00   4.99001996e+00   -4.99001996e-02  5.00000000e+00   4.99001996e+00   -4.99001996e-02  
35      4.16400000e-08   5.00000000e+00   5.00000000e+00   4.99001996e+00   -4.99001996e-02  5.00000000e+00   4.99001996e+00   -4.99001996e-02  
36      8.26000000e-08   5.00000000e+00   5.00000000e+00   4.99001996e+00   -4.99001996e-02  5.00000000e+00   4.99001996e+00   -4.99001996e-02  
37      1.64520000e-07   5.00000000e+00   5.00000000e+00   4.99001996e+00   -4.99001996e-02  5.00000000e+00   4.99001996e+00   -4.99001996e-02  
38      3.28360000e-07   5.00000000e+00   5.00000000e+00   4.99001996e+00   -4.99001996e-02  5.00000000e+00   4.99001996e+00   -4.99001996e-02  
39      6.56040000e-07   5.00000000e+00   5.00000000e+00   4.99001996e+00   -4.99001996e-02  5.00000000e+00   4.99001996e+00   -4.99001996e-02  
40      1.00100000e-06   5.00000000e+00   5.00000000e+00   4.99001996e+00   -4.99001996e-02  5.00000000e+00   4.99001996e+00   -4.99001996e-02  
41      1.00100500e-06   4.97500000e+00   5.00000000e+00   4.98996991e+00   -4.98996991e-02  5.00000000e+00   4.98996991e+00   -4.98996991e-02  
42      1.00101500e-06   4.92500000e+00   5.00000000e+00   4.98986829e+00   -4.98986829e-02  5.00000000e+00   4.98986829e+00   -4.98986829e-02  
43      1.00103500e-06   4.82500000e+00   5.00000000e+00   4.98965874e+00   -4.98965874e-02  5.00000000e+00   4.98965874e+00   -4.98965874e-02  
44      1.00107500e-06   4.62500000e+00   5.00000000e+00   4.98921251e+00   -4.98921251e-02  5.00000000e+00   4.98921251e+00   -4.98921251e-02  
45      1.00115500e-06   4.22500000e+00   5.00000000e+00   4.98819362e+00   -4.98819362e-02  5.00000000e+00   4.98819362e+00   -4.98819362e-02  
46      1.00131500e-06   3.42500000e+00   5.00000000e+00   4.98544396e+00   -4.98544396e-02  5.00000000e+00   4.98544396e+00   -4.98544396e-02  
47      1.00163500e-06   1.82500000e+00   5.00000000e+00   4.97275204e+00   -4.97275204e-02  5.00000000e+00   4.97275204e+00   -4.97275204e-02  
48      1.00172625e-06   1.36875000e+00   5.00000000e+00   4.96373527e+00   -4.96373527e-02  5.00000000e+00   4.96373527e+00   -4.96373527e-02  
49      1.00190875e-06   4.56250000e-01   5.00000000e+00   4.89276139e+00   -4.89276139e-02  5.00000000e+00   4.89276139e+00   -4.89276139e-02  
50      1.00193156e-06   3.42187500e-01   5.00000000e+00   4.85803017e+00   -4.85803017e-02  5.00000000e+00   4.85803017e+00   -4.85803017e-02  
51      1.00195524e-06   2.23823989e-01   5.00000000e+00   4.78616394e+00   -4.78616394e-02  5.00000000e+00   4.78616394e+00   -4.78616394e-02  
52      1.00197129e-06   1.43562329e-01   5.00000000e+00   4.67439931e+00   -4.67439931e-02  5.00000000e+00   4.67439931e+00   -4.67439931e-02  
53      1.00197963e-06   1.01828944e-01   5.00000000e+00   4.55288856e+00   -4.55288856e-02  5.00000000e+00   4.55288856e+00   -4.55288856e-02  
54      1.00198521e-06   7.39749991e-02   5.00000000e+00   4.40458469e+00   -4.40458469e-02  5.00000000e+00   4.40458469e+00   -4.40458469e-02  
55      1.00198883e-06   5.58467849e-02   5.00000000e+00   4.24066148e+00   -4.24066148e-02  5.00000000e+00   4.24066148e+00   -4.24066148e-02  
56      1.00199135e-06   4.32605056e-02   5.00000000e+00   4.06121807e+00   -4.06121807e-02  5.00000000e+00   4.06121807e+00   -4.06121807e-02  
57      1.00199387e-06   3.06742263e-02   5.00000000e+00   3.77072032e+00   -3.77072032e-02  5.00000000e+00   3.77072032e+00   -3.77072032e-02  
58      1.00199507e-06   2.46268399e-02   5.00000000e+00   3.55603341e+00   -3.55603341e-02  5.00000000e+00   3.55603341e+00   -3.55603341e-02  
59      1.00199628e-06   1.85794534e-02   5.00000000e+00   3.25049138e+00   -3.25049138e-02  5.00000000e+00   3.25049138e+00   -3.25049138e-02  
60      1.00199718e-06   1.40773350e-02   5.00000000e+00   2.92335822e+00   -2.92335822e-02  5.00000000e+00   2.92335822e+00   -2.92335822e-02  
61      1.00199785e-06   1.07653951e-02   5.00000000e+00   2.59214791e+00   -2.59214791e-02  5.00000000e+00   2.59214791e+00   -2.59214791e-02  
62      1.00199833e-06   8.33290988e-03   5.00000000e+00   2.27266428e+00   -2.27266428e-02  5.00000000e+00   2.27266428e+00   -2.27266428e-02  
63      1.00199870e-06   6.49817153e-03   5.00000000e+00   1.96936113e+00   -1.96936113e-02  5.00000000e+00   1.96936113e+00   -1.96936113e-02  
64      1.00199898e-06   5.07589779e-03   5.00000000e+00   1.68344793e+00   -1.68344793e-02  5.00000000e+00   1.68344793e+00   -1.68344793e-02  
65      1.00199921e-06   3.94760422e-03   5.00000000e+00   1.41515495e+00   -1.41515495e-02  5.00000000e+00   1.41515495e+00   -1.41515495e-02  
66      1.00199939e-06   3.03751071e-03   5.00000000e+00   1.16491207e+00   -1.16491207e-02  5.00000000e+00   1.16491207e+00   -1.16491207e-02  
67      1.00199954e-06   2.29553631e-03   5.00000000e+00   9.33483604e-01   -9.33483604e-03  5.00000000e+00   9.33483604e-01   -9.33483604e-03  
68      1.00199966e-06   1.68736033e-03   5.00000000e+00   7.21874008e-01   -7.21874008e-03  5.00000000e+00   7.21874008e-01   -7.21874008e-03  
69      1.00199976e-06   1.18873602e-03   5.00000000e+00   5.31219976e-01   -5.31219976e-03  5.00000000e+00   5.31219976e-01   -5.31219976e-03  
70      1.00199984e-06   7.82217340e-04   5.00000000e+00   3.62734916e-01   -3.62734916e-03  5.00000000e+00   3.62734916e-01   -3.62734916e-03  
71      1.00199991e-06   4.55256178e-04   5.00000000e+00   2.17716415e-01   -2.17716415e-03  5.00000000e+00   2.17716415e-01   -2.17716415e-03  
72      1.00199996e-06   1.99173208e-04   5.00000000e+00   9.76418403e-02   -9.76418403e-04  5.00000000e+00   9.76418403e-02   -9.76418403e-04  
73      1.00199999e-06   7.48954099e-05   5.00000000e+00   3.71693238e-02   -3.71693238e-04  5.00000000e+00   3.71693238e-02   -3.71693238e-04  
74      1.00200000e-06   -3.75699472e-13  5.00000000e+00   -1.87829126e-10  1.87829126e-12   5.00000000e+00   -1.87829126e-10  1.87829126e-12   
75      1.00200002e-06   0.00000000e+00   5.00000000e+00   7.05678120e-21   -7.05672304e-23  5.00000000e+00   7.05672950e-21   -7.05672304e-23  
76      1.00200005e-06   0.00000000e+00   5.00000000e+00   7.05678120e-21   -7.05672304e-23  5.00000000e+00   7.05672950e-21   -7.05672304e-23  
77      1.00200010e-06   0.00000000e+00   5.00000000e+00   7.05678120e-21   -7.05672304e-23  5.00000000e+00   7.05672950e-21   -7.05672304e-23  
78      1.00200020e-06   0.00000000e+00   5.00000000e+00   7.05678120e-21   -7.05672304e-23  5.00000000e+00   7.05672950e-21   -7.05672304e-23  
79      1.00200040e-06   0.00000000e+00   5.00000000e+00   7.05678120e-21   -7.05672304e-23  5.00000000e+00   7.05672950e-21   -7.05672304e-23  
80      1.00200080e-06   0.00000000e+00   5.00000000e+00   7.05678120e-21   -7.05672304e-23  5.00000000e+00   7.05672950e-21   -7.05672304e-23  
81      1.00200159e-06   0.00000000e+00   5.00000000e+00   7.05678120e-21   -7.05672304e-23  5.00000000e+00   7.05672950e-21   -7.05672304e-23  
82      1.00200318e-06   0.00000000e+00   5.00000000e+00   7.05678120e-21   -7.05672304e-23  5.00000000e+00   7.05672950e-21   -7.05672304e-23  
83      1.00200636e-06   0.00000000e+00   5.00000000e+00   7.05678120e-21   -7.05672304e-23  5.00000000e+00   7.05672950e-21   -7.05672304e-23  
84      1.00201273e-06   0.00000000e+00   5.00000000e+00   7.05678120e-21   -7.05672304e-23  5.00000000e+00   7.05672950e-21   -7.05672304e-23  
85      1.00202545e-06   0.00000000e+00   5.00000000e+00   7.05678120e-21   -7.05672304e-23  5.00000000e+00   7.05672950e-21   -7.05672304e-23  
86      1.00205090e-06   0.00000000e+00   5.00000000e+00   7.05678120e-21   -7.05672304e-23  5.00000000e+00   7.05672950e-21   -7.05672304e-23  
87      1.00210181e-06   0.00000000e+00   5.00000000e+00   7.05678120e-21   -7.05672304e-23  5.00000000e+00   7.05672950e-21   -7.05672304e-23  
88      1.00220362e-06   0.00000000e+00   5.00000000e+00   7.05678120e-21   -7.05672304e-23  5.00000000e+00   7.05672950e-21   -7.05672304e-23  
89      1.00240723e-06   0.00000000e+00   5.00000000e+00   7.05678120e-21   -7.05672304e-23  5.00000000e+00   7.05672950e-21   -7.05672304e-23  
90      1.00281447e-06   0.00000000e+00   5.00000000e+00   7.05678120e-21   -7.05672304e-23  5.00000000e+00   7.05672950e-21   -7.05672304e-23  
91      1.00362893e-06   0.00000000e+00   5.00000000e+00   7.05678120e-21   -7.05672304e-23  5.00000000e+00   7.05672950e-21   -7.05672304e-23  
92      1.00525787e-06   0.00000000e+00   5.00000000e+00   7.05678120e-21   -7.05672304e-23  5.00000000e+00   7.05672950e-21   -7.05672304e-23  
93      1.00851574e-06   0.00000000e+00   5.00000000e+00   7.05678120e-21   -7.05672304e-23  5.00000000e+00   7.05672950e-21   -7.05672304e-23  
94      1.01503147e-06   0.00000000e+00   5.00000000e+00   7.05678120e-21   -7.05672304e-23  5.00000000e+00   7.05672950e-21   -7.05672304e-23  
95      1.02806294e-06   0.00000000e+00   5.00000000e+00   7.05678120e-21   -7.05672304e-23  5.00000000e+00   7.05672950e-21   -7.05672304e-23  
96      1.05412589e-06   0.00000000e+00   5.00000000e+00   7.05678120e-21   -7.05672304e-23  5.00000000e+00   7.05672950e-21   -7.05672304e-23  
97      1.10625177e-06   0.00000000e+00   5.00000000e+00   7.05678120e-21   -7.05672304e-23  5.00000000e+00   7.05672950e-21   -7.05672304e-23  
98      1.21050355e-06   0.00000000e+00   5.00000000e+00   7.05678120e-21   -7.05672304e-23  5.00000000e+00   7.05672950e-21   -7.05672304e-23  
99      1.41900710e-06   0.00000000e+00   5.00000000e+00   7.05678120e-21   -7.05672304e-23  5.00000000e+00   7.05672950e-21   -7.05672304e-23  
100     1.83601419e-06   0.00000000e+00   5.00000000e+00   7.05678120e-21   -7.05672304e-23  5.00000000e+00   7.05672950e-21   -7.05672304e-23  
101     2.67002838e-06   0.00000000e+00   5.00000000e+00   7.05678120e-21   -7.05672304e-23  5.00000000e+00   7.05672950e-21   -7.05672304e-23  
102     3.67002838e-06   0.00000000e+00   5.00000000e+00   7.05678120e-21   -7.05672304e-23  5.00000000e+00   7.05672950e-21   -7.05672304e-23  
103     4.67002838e-06   0.00000000e+00   5.00000000e+00   7.05678120e-21   -7.05672304e-23  5.00000000e+00   7.05672950e-21   -7.05672304e-23  
104     5.67002838e-06   0.00000000e+00   5.00000000e+00   7.05678120e-21   -7.05672304e-23  5.00000000e+00   7.05672950e-21   -7.05672304e-23  
105     6.67002838e-06   0.00000000e+00   5.00000000e+00   7.05678120e-21   -7.05672304e-23  5.00000000e+00   7.05672950e-21   -7.05672304e-23  
106     7.67002838e-06   0.00000000e+00   5.00000000e+00   7.05678120e-21   -7.05672304e-23  5.00000000e+00   7.05672950e-21   -7.05672304e-23  
107     8.67002838e-06   0.00000000e+00   5.00000000e+00   7.05678120e-21   -7.05672304e-23  5.00000000e+00   7.05672950e-21   -7.05672304e-23  
108     9.67002838e-06   0.00000000e+00   5.00000000e+00   7.05678120e-21   -7.05672304e-23  5.00000000e+00   7.05672950e-21   -7.05672304e-23  
109     1.00000000e-05   0.00000000e+00   5.00000000e+00   7.05678120e-21   -7.05672304e-23  5.00000000e+00   7.05672950e-21   -7.05672304e-23  
End of Xyce(TM) Simulation
