[Version] 2.0
# Hz S RI R 50
[Number of Ports] 2
[Two-Port Data Order] 12_21
[Number of Frequencies] 61
[Reference] 50 50
[Network Data]
!      Freq              ReS11             ImS11             ReS12             ImS12             ReS21             ImS21             ReS22             ImS22      
   1.00000000e+03    9.99999799e-01   -6.28318491e-04    3.94632385e-09    1.23199704e-05    3.94632385e-09    1.23199704e-05   -9.60784314e-01   -2.41568047e-07
   1.25892541e+03    9.99999681e-01   -7.91006086e-04    6.25450172e-09    1.55099233e-05    6.25450172e-09    1.55099233e-05   -9.60784314e-01   -3.04116142e-07
   1.58489319e+03    9.99999494e-01   -9.95817604e-04    9.91271698e-09    1.95258354e-05    9.91271698e-09    1.95258354e-05   -9.60784314e-01   -3.82859517e-07
   1.99526231e+03    9.99999199e-01   -1.25365997e-03    1.57105971e-08    2.45815681e-05    1.57105971e-08    2.45815681e-05   -9.60784314e-01   -4.81991531e-07
   2.51188643e+03    9.99998730e-01   -1.57826416e-03    2.48996170e-08    3.09463561e-05    2.48996170e-08    3.09463561e-05   -9.60784314e-01   -6.06791297e-07
   3.16227766e+03    9.99997987e-01   -1.98691640e-03    3.94632301e-08    3.89591451e-05    3.94632301e-08    3.89591451e-05   -9.60784314e-01   -7.63904805e-07
   3.98107171e+03    9.99996810e-01   -2.50137862e-03    6.25449961e-08    4.90466396e-05    6.25449961e-08    4.90466396e-05   -9.60784315e-01   -9.61698817e-07
   5.01187234e+03    9.99994945e-01   -3.14904727e-03    9.91271168e-08    6.17460249e-05    9.91271168e-08    6.17460249e-05   -9.60784316e-01   -1.21070637e-06
   6.30957344e+03    9.99991988e-01   -3.96441195e-03    1.57105838e-07    7.77335677e-05    1.57105838e-07    7.77335677e-05   -9.60784317e-01   -1.52418760e-06
   7.94328235e+03    9.99987301e-01   -4.99089161e-03    2.48995836e-07    9.78606199e-05    2.48995836e-07    9.78606199e-05   -9.60784319e-01   -1.91883568e-06
   1.00000000e+04    9.99979874e-01   -6.28314564e-03    3.94631461e-07    1.23198934e-04    3.94631461e-07    1.23198934e-04   -9.60784321e-01   -2.41566538e-06
   1.25892541e+04    9.99968102e-01   -7.90998251e-03    6.25447851e-07    1.55097696e-04    6.25447851e-07    1.55097696e-04   -9.60784326e-01   -3.04113130e-06
   1.58489319e+04    9.99949445e-01   -9.95801972e-03    9.91265869e-07    1.95255289e-04    9.91265869e-07    1.95255289e-04   -9.60784333e-01   -3.82853507e-06
   1.99526231e+04    9.99919877e-01   -1.25362878e-02    1.57104507e-06    2.45809565e-04    1.57104507e-06    2.45809565e-04   -9.60784345e-01   -4.81979539e-06
   2.51188643e+04    9.99873014e-01   -1.57820193e-02    2.48992492e-06    3.09451359e-04    2.48992492e-06    3.09451359e-04   -9.60784363e-01   -6.06767370e-06
   3.16227766e+04    9.99798742e-01   -1.98679223e-02    3.94623062e-06    3.89567103e-04    3.94623062e-06    3.89567103e-04   -9.60784391e-01   -7.63857065e-06
   3.98107171e+04    9.99681032e-01   -2.50113087e-02    6.25426753e-06    4.90417817e-04    6.25426753e-06    4.90417817e-04   -9.60784436e-01   -9.61603563e-06
   5.01187234e+04    9.99494481e-01   -3.14855293e-02    9.91212869e-06    6.17363320e-04    9.91212869e-06    6.17363320e-04   -9.60784508e-01   -1.21051631e-05
   6.30957344e+04    9.99198835e-01   -3.96342562e-02    1.57091193e-05    7.77142278e-04    1.57091193e-05    7.77142278e-04   -9.60784622e-01   -1.52380839e-05
   7.94328235e+04    9.98730309e-01   -4.98892361e-02    2.48959046e-05    9.78220316e-04    2.48959046e-05    9.78220316e-04   -9.60784802e-01   -1.91807905e-05
   1.00000000e+05    9.97987851e-01   -6.27921894e-02    3.94539034e-05    1.23121940e-03    3.94539034e-05    1.23121940e-03   -9.60785087e-01   -2.41415569e-05
   1.25892541e+05    9.96811400e-01   -7.90214767e-02    6.25215627e-05    1.54944072e-03    6.25215627e-05    1.54944072e-03   -9.60785540e-01   -3.03811906e-05
   1.58489319e+05    9.94947520e-01   -9.94238700e-02    9.90682317e-05    1.94948765e-03    9.90682317e-05    1.94948765e-03   -9.60786256e-01   -3.82252480e-05
   1.99526231e+05    9.91995150e-01   -1.25050960e-01    1.56957834e-04    2.45197961e-03    1.56957834e-04    2.45197961e-03   -9.60787391e-01   -4.80780315e-05
   2.51188643e+05    9.87320191e-01   -1.57197822e-01    2.48623703e-04    3.08231023e-03    2.48623703e-04    3.08231023e-03   -9.60789189e-01   -6.04374555e-05
   3.16227766e+05    9.79921542e-01   -1.97437393e-01    3.93695264e-04    3.87132143e-03    3.93695264e-04    3.87132143e-03   -9.60792033e-01   -7.59082633e-05
   3.98107171e+05    9.68222383e-01   -2.47635217e-01    6.23090527e-04    4.85559249e-03    6.23090527e-04    4.85559249e-03   -9.60796531e-01   -9.52076960e-05
   5.01187234e+05    9.49748576e-01   -3.09911110e-01    9.85322044e-04    6.07668842e-03    9.85322044e-04    6.07668842e-03   -9.60803634e-01   -1.19150753e-04
   6.30957344e+05    9.20642641e-01   -3.86477581e-01    1.55602664e-03    7.57799179e-03    1.55602664e-03    7.57799179e-03   -9.60814824e-01   -1.48588074e-04
   7.94328235e+05    8.74955265e-01   -4.79211718e-01    2.45185754e-03    9.39630820e-03    2.45185754e-03    9.39630820e-03   -9.60832389e-01   -1.84241337e-04
   1.00000000e+06    8.03685801e-01   -5.88675282e-01    3.84929803e-03    1.15426526e-02    3.84929803e-03    1.15426526e-02   -9.60859790e-01   -2.26326521e-04
   1.25892541e+06    6.93699345e-01   -7.12039623e-01    6.00589519e-03    1.39615612e-02    6.00589519e-03    1.39615612e-02   -9.60902076e-01   -2.73756102e-04
   1.58489319e+06    5.27186111e-01   -8.38981319e-01    9.27086056e-03    1.64506141e-02    9.27086056e-03    1.64506141e-02   -9.60966095e-01   -3.22561061e-04
   1.99526231e+06    2.83867534e-01   -9.44391691e-01    1.40418131e-02    1.85174841e-02    1.40418131e-02    1.85174841e-02   -9.61059643e-01   -3.63087924e-04
   2.51188643e+06   -4.84024869e-02   -9.78434477e-01    2.05569115e-02    1.91849898e-02    2.05569115e-02    1.91849898e-02   -9.61187390e-01   -3.76176270e-04
   3.16227766e+06   -4.45508325e-01   -8.63669994e-01    2.83433005e-02    1.69347058e-02    2.83433005e-02    1.69347058e-02   -9.61340065e-01   -3.32053054e-04
   3.98107171e+06   -8.05942292e-01   -5.30092164e-01    3.54106332e-02    1.03939640e-02    3.54106332e-02    1.03939640e-02   -9.61478640e-01   -2.03803216e-04
   5.01187234e+06   -9.61485437e-01   -1.01983913e-02    3.84604988e-02    1.99968457e-04    3.84604988e-02    1.99968457e-04   -9.61538441e-01   -3.92095014e-06
   6.30957344e+06   -8.16231326e-01    5.13723049e-01    3.56123789e-02   -1.00730010e-02    3.56123789e-02   -1.00730010e-02   -9.61482596e-01    1.97509823e-04
   7.94328235e+06   -4.60179567e-01    8.55613238e-01    2.86309719e-02   -1.67767302e-02    2.86309719e-02   -1.67767302e-02   -9.61345705e-01    3.28955493e-04
   1.00000000e+07   -6.20593972e-02    9.77394594e-01    2.08246941e-02   -1.91645999e-02    2.08246941e-02   -1.91645999e-02   -9.61192641e-01    3.75776468e-04
   1.25892541e+07    2.73341721e-01    9.47278158e-01    1.42482015e-02   -1.85740815e-02    1.42482015e-02   -1.85740815e-02   -9.61063690e-01    3.64197677e-04
   1.58489319e+07    5.19794607e-01    8.43412194e-01    9.41579202e-03   -1.65374940e-02    9.41579202e-03   -1.65374940e-02   -9.60968937e-01    3.24264588e-04
   1.99526231e+07    6.88750492e-01    7.16694932e-01    6.10293153e-03   -1.40528418e-02    6.10293153e-03   -1.40528418e-02   -9.60903979e-01    2.75545918e-04
   2.51188643e+07    8.00455197e-01    5.92955881e-01    3.91264319e-03   -1.16265859e-02    3.91264319e-03   -1.16265859e-02   -9.60861032e-01    2.27972273e-04
   3.16227766e+07    8.72875565e-01    4.82906664e-01    2.49263598e-03   -9.46875813e-03    2.49263598e-03   -9.46875813e-03   -9.60833189e-01    1.85661924e-04
   3.98107171e+07    9.19314470e-01    3.89560799e-01    1.58206922e-03   -7.63844703e-03    1.58206922e-03   -7.63844703e-03   -9.60815335e-01    1.49773471e-04
   5.01187234e+07    9.48904329e-01    3.12434564e-01    1.00187590e-03   -6.12616791e-03    1.00187590e-03   -6.12616791e-03   -9.60803958e-01    1.20120939e-04
   6.30957344e+07    9.67687254e-01    2.49676951e-01    6.33583248e-04   -4.89562649e-03    6.33583248e-04   -4.89562649e-03   -9.60796737e-01    9.59926763e-05
   7.94328235e+07    9.79582934e-01    1.99077886e-01    4.00334637e-04   -3.90348795e-03    4.00334637e-04   -3.90348795e-03   -9.60792163e-01    7.65389795e-05
   1.00000000e+08    9.87106162e-01    1.58510276e-01    2.52820349e-04   -3.10804464e-03    2.52820349e-04   -3.10804464e-03   -9.60789271e-01    6.09420517e-05
   1.25892541e+08    9.91859956e-01    1.26098173e-01    1.59608708e-04   -2.47251320e-03    1.59608708e-04   -2.47251320e-03   -9.60787443e-01    4.84806509e-05
   1.58489319e+08    9.94862158e-01    1.00258053e-01    1.00741999e-04   -1.96584418e-03    1.00741999e-04   -1.96584418e-03   -9.60786289e-01    3.85459642e-05
   1.99526231e+08    9.96757517e-01    7.96852705e-02    6.35781072e-05   -1.56245628e-03    6.35781072e-05   -1.56245628e-03   -9.60785560e-01    3.06363977e-05
   2.51188643e+08    9.97953843e-01    6.33200504e-02    4.01207244e-05   -1.24156962e-03    4.01207244e-05   -1.24156962e-03   -9.60785100e-01    2.43445023e-05
   3.16227766e+08    9.98708848e-01    5.03088271e-02    2.53167143e-05   -9.86447589e-04    2.53167143e-05   -9.86447589e-04   -9.60784810e-01    1.93421096e-05
   3.98107171e+08    9.99185292e-01    3.99676975e-02    1.59746618e-05   -7.83680343e-04    1.59746618e-05   -7.83680343e-04   -9.60784627e-01    1.53662812e-05
   5.01187234e+08    9.99485936e-01    3.17504655e-02    1.00796864e-05   -6.22558148e-04    1.00796864e-05   -6.22558148e-04   -9.60784511e-01    1.22070225e-05
   6.30957344e+08    9.99675640e-01    2.52217923e-02    6.35999399e-06   -4.94544947e-04    6.35999399e-06   -4.94544947e-04   -9.60784438e-01    9.69695974e-06
   7.94328235e+08    9.99795340e-01    2.00351340e-02    4.01294137e-06   -3.92845765e-04    4.01294137e-06   -3.92845765e-04   -9.60784392e-01    7.70285814e-06
   1.00000000e+09    9.99870867e-01    1.59148497e-02    2.53201730e-06   -3.12055876e-04    2.53201730e-06   -3.12055876e-04   -9.60784363e-01    6.11874267e-06
