#H
SOURCE='Xyce' VERSION='7.0'
TITLE='* homotopy-step-probe.cir'
SUBTITLE='Step param IVAR = 1.0e+00 A = 3.0e+00 C = 1.0e+00'
TIME='02:03:26 PM' DATE='Oct 09, 2017' TEMPERATURE='2.70000000e+01'
ANALYSIS='DC Sweep' SERIALNO='12345'
ALLVALUES='NO' COMPLEXVALUES='NO' NODES='2'
SWEEPVAR='Vtest:DCV0' SWEEPMODE='VAR_STEP'
XBEGIN='0.0'  XEND='1.0'
FORMAT='0 VOLTSorAMPS;EFLOAT : NODEorBRANCH;NODE  '  
DGTLDATA='NO'
#N
'IVAR' 'I(VTEST)' 
#C 0.00000000e+00 2
1.00000000e+00:1   0.00000000e+00:2   
#C 9.99963150e-03 2
1.00000000e+00:1   1.43115092e-03:2   
#C 2.07495160e-02 2
1.00000000e+00:1   2.97558916e-03:2   
#C 3.23058626e-02 2
1.00000000e+00:1   4.64279460e-03:2   
#C 4.48677335e-02 2
1.00000000e+00:1   6.46326972e-03:2   
#C 5.85224863e-02 2
1.00000000e+00:1   8.45194181e-03:2   
#C 7.33650391e-02 2
1.00000000e+00:1   1.06253607e-02:2   
#C 8.94985164e-02 2
1.00000000e+00:1   1.30019099e-02:2   
#C 1.07034950e-01 2
1.00000000e+00:1   1.56020532e-02:2   
#C 1.26096038e-01 2
1.00000000e+00:1   1.84486236e-02:2   
#C 1.46813960e-01 2
1.00000000e+00:1   2.15671638e-02:2   
#C 1.69332265e-01 2
1.00000000e+00:1   2.49863308e-02:2   
#C 1.93806821e-01 2
1.00000000e+00:1   2.87383806e-02:2   
#C 2.20406838e-01 2
1.00000000e+00:1   3.28597516e-02:2   
#C 2.49315967e-01 2
1.00000000e+00:1   3.73917753e-02:2   
#C 2.80733471e-01 2
1.00000000e+00:1   4.23815496e-02:2   
#C 3.14875471e-01 2
1.00000000e+00:1   4.78830221e-02:2   
#C 3.51976255e-01 2
1.00000000e+00:1   5.39583527e-02:2   
#C 3.92289651e-01 2
1.00000000e+00:1   6.06796516e-02:2   
#C 4.35607080e-01 2
1.00000000e+00:1   6.80480960e-02:2   
#C 4.82148307e-01 2
1.00000000e+00:1   7.61434821e-02:2   
#C 5.32147848e-01 2
1.00000000e+00:1   8.50597110e-02:2   
#C 5.85855425e-01 2
1.00000000e+00:1   9.49084693e-02:2   
#C 6.43536133e-01 2
1.00000000e+00:1   1.05824255e-01:2   
#C 7.05470128e-01 2
1.00000000e+00:1   1.17971415e-01:2   
#C 7.71951457e-01 2
1.00000000e+00:1   1.31554282e-01:2   
#C 8.43285363e-01 2
1.00000000e+00:1   1.46832254e-01:2   
#C 9.19782788e-01 2
1.00000000e+00:1   1.64143147e-01:2   
#C 1.00174941e+00 2
1.00000000e+00:1   1.83941123e-01:2   
#C 1.08946336e+00 2
1.00000000e+00:1   2.06862080e-01:2   
#C 1.18312716e+00 2
1.00000000e+00:1   2.33845347e-01:2   
#C 1.27919345e+00 2
1.00000000e+00:1   2.65136161e-01:2   
#C 1.37363243e+00 2
1.00000000e+00:1   3.01095430e-01:2   
#C 1.46517016e+00 2
1.00000000e+00:1   3.44038121e-01:2   
#C 1.55046119e+00 2
1.00000000e+00:1   3.98765566e-01:2   
#C 1.61699237e+00 2
1.00000000e+00:1   4.77346351e-01:2   
#C 1.61311425e+00 2
1.00000000e+00:1   5.90251521e-01:2   
#C 1.55020415e+00 2
1.00000000e+00:1   6.71935254e-01:2   
#C 1.47210788e+00 2
1.00000000e+00:1   7.36504310e-01:2   
#C 1.38801117e+00 2
1.00000000e+00:1   7.92615526e-01:2   
#C 1.30091022e+00 2
1.00000000e+00:1   8.43831831e-01:2   
#C 1.21213254e+00 2
1.00000000e+00:1   8.92046610e-01:2   
#C 1.12240202e+00 2
1.00000000e+00:1   9.38449365e-01:2   
#C 1.03218832e+00 2
1.00000000e+00:1   9.83899589e-01:2   
#C 9.41854836e-01 2
1.00000000e+00:1   1.02910958e+00:2   
#C 8.51740513e-01 2
1.00000000e+00:1   1.07475637e+00:2   
#C 7.62229503e-01 2
1.00000000e+00:1   1.12158075e+00:2   
#C 6.73846020e-01 2
1.00000000e+00:1   1.17051347e+00:2   
#C 5.87439292e-01 2
1.00000000e+00:1   1.22289013e+00:2   
#C 5.04662537e-01 2
1.00000000e+00:1   1.28092368e+00:2   
#C 4.29578364e-01 2
1.00000000e+00:1   1.34894167e+00:2   
#C 3.76358647e-01 2
1.00000000e+00:1   1.43700609e+00:2   
#C 3.97648852e-01 2
1.00000000e+00:1   1.54792750e+00:2   
#C 4.72869175e-01 2
1.00000000e+00:1   1.61854327e+00:2   
#C 5.60662844e-01 2
1.00000000e+00:1   1.66920105e+00:2   
#C 6.53262450e-01 2
1.00000000e+00:1   1.70981443e+00:2   
#C 7.48265759e-01 2
1.00000000e+00:1   1.74425922e+00:2   
#C 8.44675395e-01 2
1.00000000e+00:1   1.77447744e+00:2   
#C 9.41995238e-01 2
1.00000000e+00:1   1.80158964e+00:2   
#C 1.03994670e+00 2
1.00000000e+00:1   1.82630578e+00:2   
#C 1.13835927e+00 2
1.00000000e+00:1   1.84910676e+00:2   
#C 1.23712169e+00 2
1.00000000e+00:1   1.87033495e+00:2   
#C 1.33615767e+00 2
1.00000000e+00:1   1.89024376e+00:2   
#C 1.43541281e+00 2
1.00000000e+00:1   1.90902658e+00:2   
#C 1.53484707e+00 2
1.00000000e+00:1   1.92683483e+00:2   
#C 1.63443017e+00 2
1.00000000e+00:1   1.94378948e+00:2   
#C 1.73413871e+00 2
1.00000000e+00:1   1.95998899e+00:2   
#C 1.83395423e+00 2
1.00000000e+00:1   1.97551478e+00:2   
#C 1.93386204e+00 2
1.00000000e+00:1   1.99043456e+00:2   
#C 2.00001720e+00 2
1.00000000e+00:1   2.00000248e+00:2   
#C 2.00000000e+00 2
1.00000000e+00:1   2.00000000e+00:2   
#;
#H
SOURCE='Xyce' VERSION='7.0'
TITLE='* homotopy-step-probe.cir'
SUBTITLE='Step param IVAR = 1.5e+00 A = 3.0e+00 C = 1.0e+00'
TIME='02:03:26 PM' DATE='Oct 09, 2017' TEMPERATURE='2.70000000e+01'
ANALYSIS='DC Sweep' SERIALNO='12345'
ALLVALUES='NO' COMPLEXVALUES='NO' NODES='2'
SWEEPVAR='Vtest:DCV0' SWEEPMODE='VAR_STEP'
XBEGIN='0.0'  XEND='1.0'
FORMAT='0 VOLTSorAMPS;EFLOAT : NODEorBRANCH;NODE  '  
DGTLDATA='NO'
#N
'IVAR' 'I(VTEST)' 
#C 0.00000000e+00 2
1.50000000e+00:1   5.00000000e-01:2   
#C 9.99963150e-03 2
1.50000000e+00:1   5.01431151e-01:2   
#C 2.08694974e-02 2
1.50000000e+00:1   5.02992862e-01:2   
#C 3.26852368e-02 2
1.50000000e+00:1   5.04697648e-01:2   
#C 4.55290430e-02 2
1.50000000e+00:1   5.06559346e-01:2   
#C 5.94902263e-02 2
1.50000000e+00:1   5.08593275e-01:2   
#C 7.46658243e-02 2
1.50000000e+00:1   5.10816426e-01:2   
#C 9.11612630e-02 2
1.50000000e+00:1   5.13247685e-01:2   
#C 1.09091072e-01 2
1.50000000e+00:1   5.15908086e-01:2   
#C 1.28579659e-01 2
1.50000000e+00:1   5.18821109e-01:2   
#C 1.49762144e-01 2
1.50000000e+00:1   5.22013044e-01:2   
#C 1.72785262e-01 2
1.50000000e+00:1   5.25513406e-01:2   
#C 1.97808335e-01 2
1.50000000e+00:1   5.29355446e-01:2   
#C 2.25004314e-01 2
1.50000000e+00:1   5.33576762e-01:2   
#C 2.54560896e-01 2
1.50000000e+00:1   5.38220049e-01:2   
#C 2.86681720e-01 2
1.50000000e+00:1   5.43334017e-01:2   
#C 3.21587626e-01 2
1.50000000e+00:1   5.48974537e-01:2   
#C 3.59517991e-01 2
1.50000000e+00:1   5.55206089e-01:2   
#C 4.00732108e-01 2
1.50000000e+00:1   5.62103602e-01:2   
#C 4.45510594e-01 2
1.50000000e+00:1   5.69754853e-01:2   
#C 4.94156789e-01 2
1.50000000e+00:1   5.78263615e-01:2   
#C 5.46998051e-01 2
1.50000000e+00:1   5.87753905e-01:2   
#C 6.04386843e-01 2
1.50000000e+00:1   5.98375805e-01:2   
#C 6.66701363e-01 2
1.50000000e+00:1   6.10313674e-01:2   
#C 7.34345327e-01 2
1.50000000e+00:1   6.23798057e-01:2   
#C 8.07746080e-01 2
1.50000000e+00:1   6.39123792e-01:2   
#C 8.86472250e-01 2
1.50000000e+00:1   6.56478061e-01:2   
#C 9.70845155e-01 2
1.50000000e+00:1   6.76310048e-01:2   
#C 1.06116249e+00 2
1.50000000e+00:1   6.99246430e-01:2   
#C 1.15765360e+00 2
1.50000000e+00:1   7.26208856e-01:2   
#C 1.25403298e+00 2
1.50000000e+00:1   7.56512131e-01:2   
#C 1.34898472e+00 2
1.50000000e+00:1   7.91074179e-01:2   
#C 1.44148054e+00 2
1.50000000e+00:1   8.31857912e-01:2   
#C 1.52899596e+00 2
1.50000000e+00:1   8.82755698e-01:2   
#C 1.60306459e+00 2
1.50000000e+00:1   9.53096123e-01:2   
#C 1.62408141e+00 2
1.50000000e+00:1   1.06139329e+00:2   
#C 1.57004495e+00 2
1.50000000e+00:1   1.15147433e+00:2   
#C 1.49473317e+00 2
1.50000000e+00:1   1.21954443e+00:2   
#C 1.41188651e+00 2
1.50000000e+00:1   1.27754379e+00:2   
#C 1.32544990e+00 2
1.50000000e+00:1   1.32989142e+00:2   
#C 1.23705110e+00 2
1.50000000e+00:1   1.37880419e+00:2   
#C 1.14753224e+00 2
1.50000000e+00:1   1.42561680e+00:2   
#C 1.05741411e+00 2
1.50000000e+00:1   1.47125735e+00:2   
#C 9.67080182e-01 2
1.50000000e+00:1   1.51646661e+00:2   
#C 8.76869287e-01 2
1.50000000e+00:1   1.56192148e+00:2   
#C 7.87145316e-01 2
1.50000000e+00:1   1.60833433e+00:2   
#C 6.98380451e-01 2
1.50000000e+00:1   1.65656668e+00:2   
#C 6.11303946e-01 2
1.50000000e+00:1   1.70780930e+00:2   
#C 5.27260963e-01 2
1.50000000e+00:1   1.76395503e+00:2   
#C 4.49321574e-01 2
1.50000000e+00:1   1.82852522e+00:2   
#C 3.87058298e-01 2
1.50000000e+00:1   1.90939603e+00:2   
#C 3.81487431e-01 2
1.50000000e+00:1   2.01921717e+00:2   
#C 4.48547918e-01 2
1.50000000e+00:1   2.10044102e+00:2   
#C 5.33913394e-01 2
1.50000000e+00:1   2.15547178e+00:2   
#C 6.25448642e-01 2
1.50000000e+00:1   2.19852070e+00:2   
#C 7.19878500e-01 2
1.50000000e+00:1   2.23453913e+00:2   
#C 8.15936951e-01 2
1.50000000e+00:1   2.26586941e+00:2   
#C 9.13022483e-01 2
1.50000000e+00:1   2.29381592e+00:2   
#C 1.01080781e+00 2
1.50000000e+00:1   2.31918524e+00:2   
#C 1.10909715e+00 2
1.50000000e+00:1   2.34251409e+00:2   
#C 1.20776491e+00 2
1.50000000e+00:1   2.36417951e+00:2   
#C 1.30672615e+00 2
1.50000000e+00:1   2.38445760e+00:2   
#C 1.40592094e+00 2
1.50000000e+00:1   2.40355733e+00:2   
#C 1.50530554e+00 2
1.50000000e+00:1   2.42164113e+00:2   
#C 1.60484715e+00 2
1.50000000e+00:1   2.43883807e+00:2   
#C 1.70452056e+00 2
1.50000000e+00:1   2.45525263e+00:2   
#C 1.80430600e+00 2
1.50000000e+00:1   2.47097088e+00:2   
#C 1.90418778e+00 2
1.50000000e+00:1   2.48606412e+00:2   
#C 2.00003721e+00 2
1.50000000e+00:1   2.50000540e+00:2   
#C 2.00000000e+00 2
1.50000000e+00:1   2.50000000e+00:2   
#;
#H
SOURCE='Xyce' VERSION='7.0'
TITLE='* homotopy-step-probe.cir'
SUBTITLE='Step param IVAR = 1.0e+00 A = 4.0e+00 C = 1.0e+00'
TIME='02:03:26 PM' DATE='Oct 09, 2017' TEMPERATURE='2.70000000e+01'
ANALYSIS='DC Sweep' SERIALNO='12345'
ALLVALUES='NO' COMPLEXVALUES='NO' NODES='2'
SWEEPVAR='Vtest:DCV0' SWEEPMODE='VAR_STEP'
XBEGIN='0.0'  XEND='1.0'
FORMAT='0 VOLTSorAMPS;EFLOAT : NODEorBRANCH;NODE  '  
DGTLDATA='NO'
#N
'IVAR' 'I(VTEST)' 
#C 0.00000000e+00 2
1.00000000e+00:1   1.15353823e-01:2   
#C 9.99964953e-03 2
1.00000000e+00:1   1.16709376e-01:2   
#C 2.08695758e-02 2
1.00000000e+00:1   1.18188931e-01:2   
#C 3.26854291e-02 2
1.00000000e+00:1   1.19804442e-01:2   
#C 4.55294157e-02 2
1.00000000e+00:1   1.21569137e-01:2   
#C 5.94908618e-02 2
1.00000000e+00:1   1.23497680e-01:2   
#C 7.46668239e-02 2
1.00000000e+00:1   1.25606356e-01:2   
#C 9.11627505e-02 2
1.00000000e+00:1   1.27913289e-01:2   
#C 1.09093198e-01 2
1.00000000e+00:1   1.30438697e-01:2   
#C 1.28582604e-01 2
1.00000000e+00:1   1.33205191e-01:2   
#C 1.49766127e-01 2
1.00000000e+00:1   1.36238129e-01:2   
#C 1.72790543e-01 2
1.00000000e+00:1   1.39566047e-01:2   
#C 1.97815224e-01 2
1.00000000e+00:1   1.43221167e-01:2   
#C 2.25013174e-01 2
1.00000000e+00:1   1.47240023e-01:2   
#C 2.54572153e-01 2
1.00000000e+00:1   1.51664224e-01:2   
#C 2.86695863e-01 2
1.00000000e+00:1   1.56541408e-01:2   
#C 3.21605212e-01 2
1.00000000e+00:1   1.61926424e-01:2   
#C 3.59539638e-01 2
1.00000000e+00:1   1.67882857e-01:2   
#C 4.00758475e-01 2
1.00000000e+00:1   1.74484971e-01:2   
#C 4.45542346e-01 2
1.00000000e+00:1   1.81820270e-01:2   
#C 4.94194515e-01 2
1.00000000e+00:1   1.89992918e-01:2   
#C 5.47042116e-01 2
1.00000000e+00:1   1.99128387e-01:2   
#C 6.04437115e-01 2
1.00000000e+00:1   2.09379961e-01:2   
#C 6.66756690e-01 2
1.00000000e+00:1   2.20938146e-01:2   
#C 7.33656534e-01 2
1.00000000e+00:1   2.33896256e-01:2   
#C 8.05444316e-01 2
1.00000000e+00:1   2.48518753e-01:2   
#C 8.82432636e-01 2
1.00000000e+00:1   2.65154895e-01:2   
#C 9.64926565e-01 2
1.00000000e+00:1   2.84282773e-01:2   
#C 1.05319745e+00 2
1.00000000e+00:1   3.06587851e-01:2   
#C 1.14742364e+00 2
1.00000000e+00:1   3.33116094e-01:2   
#C 1.24346095e+00 2
1.00000000e+00:1   3.64174847e-01:2   
#C 1.33759252e+00 2
1.00000000e+00:1   4.00687895e-01:2   
#C 1.42792479e+00 2
1.00000000e+00:1   4.46030070e-01:2   
#C 1.50813900e+00 2
1.00000000e+00:1   5.08577969e-01:2   
#C 1.54199167e+00 2
1.00000000e+00:1   6.13803585e-01:2   
#C 1.48697192e+00 2
1.00000000e+00:1   7.05353814e-01:2   
#C 1.40977212e+00 2
1.00000000e+00:1   7.71139985e-01:2   
#C 1.32551450e+00 2
1.00000000e+00:1   8.26862631e-01:2   
#C 1.23806124e+00 2
1.00000000e+00:1   8.77272313e-01:2   
#C 1.14896048e+00 2
1.00000000e+00:1   9.24664643e-01:2   
#C 1.05902440e+00 2
1.00000000e+00:1   9.70436189e-01:2   
#C 9.68790350e-01 2
1.00000000e+00:1   1.01561243e+00:2   
#C 8.78712332e-01 2
1.00000000e+00:1   1.06110000e+00:2   
#C 7.89287314e-01 2
1.00000000e+00:1   1.10786597e+00:2   
#C 7.01215736e-01 2
1.00000000e+00:1   1.15715484e+00:2   
#C 6.15743567e-01 2
1.00000000e+00:1   1.21088551e+00:2   
#C 5.35741263e-01 2
1.00000000e+00:1   1.27267868e+00:2   
#C 4.70799737e-01 2
1.00000000e+00:1   1.35133451e+00:2   
#C 4.72816677e-01 2
1.00000000e+00:1   1.46606251e+00:2   
#C 5.47787125e-01 2
1.00000000e+00:1   1.53861169e+00:2   
#C 6.36436325e-01 2
1.00000000e+00:1   1.58764899e+00:2   
#C 7.29802520e-01 2
1.00000000e+00:1   1.62620156e+00:2   
#C 8.25418345e-01 2
1.00000000e+00:1   1.65858032e+00:2   
#C 9.22315878e-01 2
1.00000000e+00:1   1.68682116e+00:2   
#C 1.02002932e+00 2
1.00000000e+00:1   1.71206191e+00:2   
#C 1.11830263e+00 2
1.00000000e+00:1   1.73500918e+00:2   
#C 1.21698138e+00 2
1.00000000e+00:1   1.75613509e+00:2   
#C 1.31596587e+00 2
1.00000000e+00:1   1.77577250e+00:2   
#C 1.41518829e+00 2
1.00000000e+00:1   1.79416590e+00:2   
#C 1.51460062e+00 2
1.00000000e+00:1   1.81150084e+00:2   
#C 1.61416766e+00 2
1.00000000e+00:1   1.82792186e+00:2   
#C 1.71386294e+00 2
1.00000000e+00:1   1.84354406e+00:2   
#C 1.81366604e+00 2
1.00000000e+00:1   1.85846079e+00:2   
#C 1.91356094e+00 2
1.00000000e+00:1   1.87274904e+00:2   
#C 2.00002867e+00 2
1.00000000e+00:1   1.88465012e+00:2   
#C 2.00000000e+00 2
1.00000000e+00:1   1.88464618e+00:2   
#;
#H
SOURCE='Xyce' VERSION='7.0'
TITLE='* homotopy-step-probe.cir'
SUBTITLE='Step param IVAR = 1.5e+00 A = 4.0e+00 C = 1.0e+00'
TIME='02:03:26 PM' DATE='Oct 09, 2017' TEMPERATURE='2.70000000e+01'
ANALYSIS='DC Sweep' SERIALNO='12345'
ALLVALUES='NO' COMPLEXVALUES='NO' NODES='2'
SWEEPVAR='Vtest:DCV0' SWEEPMODE='VAR_STEP'
XBEGIN='0.0'  XEND='1.0'
FORMAT='0 VOLTSorAMPS;EFLOAT : NODEorBRANCH;NODE  '  
DGTLDATA='NO'
#N
'IVAR' 'I(VTEST)' 
#C 0.00000000e+00 2
1.50000000e+00:1   6.15353822e-01:2   
#C 9.99964946e-03 2
1.50000000e+00:1   6.16709376e-01:2   
#C 2.08695758e-02 2
1.50000000e+00:1   6.18188931e-01:2   
#C 3.26854290e-02 2
1.50000000e+00:1   6.19804442e-01:2   
#C 4.55294156e-02 2
1.50000000e+00:1   6.21569137e-01:2   
#C 5.94908617e-02 2
1.50000000e+00:1   6.23497680e-01:2   
#C 7.46668239e-02 2
1.50000000e+00:1   6.25606356e-01:2   
#C 9.11627505e-02 2
1.50000000e+00:1   6.27913289e-01:2   
#C 1.09093198e-01 2
1.50000000e+00:1   6.30438697e-01:2   
#C 1.28582604e-01 2
1.50000000e+00:1   6.33205191e-01:2   
#C 1.49766127e-01 2
1.50000000e+00:1   6.36238129e-01:2   
#C 1.72790543e-01 2
1.50000000e+00:1   6.39566047e-01:2   
#C 1.97815224e-01 2
1.50000000e+00:1   6.43221167e-01:2   
#C 2.25013174e-01 2
1.50000000e+00:1   6.47240023e-01:2   
#C 2.54572152e-01 2
1.50000000e+00:1   6.51664224e-01:2   
#C 2.86695863e-01 2
1.50000000e+00:1   6.56541408e-01:2   
#C 3.21605212e-01 2
1.50000000e+00:1   6.61926424e-01:2   
#C 3.59539638e-01 2
1.50000000e+00:1   6.67882857e-01:2   
#C 4.00758475e-01 2
1.50000000e+00:1   6.74484971e-01:2   
#C 4.45542346e-01 2
1.50000000e+00:1   6.81820270e-01:2   
#C 4.94194515e-01 2
1.50000000e+00:1   6.89992918e-01:2   
#C 5.47042116e-01 2
1.50000000e+00:1   6.99128387e-01:2   
#C 6.04437115e-01 2
1.50000000e+00:1   7.09379961e-01:2   
#C 6.66756705e-01 2
1.50000000e+00:1   7.20938062e-01:2   
#C 7.34402640e-01 2
1.50000000e+00:1   7.34044090e-01:2   
#C 8.07798446e-01 2
1.50000000e+00:1   7.49012049e-01:2   
#C 8.86505561e-01 2
1.50000000e+00:1   7.66065669e-01:2   
#C 9.70831086e-01 2
1.50000000e+00:1   7.85710794e-01:2   
#C 1.06104284e+00 2
1.50000000e+00:1   8.08678580e-01:2   
#C 1.15730178e+00 2
1.50000000e+00:1   8.36097737e-01:2   
#C 1.25319030e+00 2
1.50000000e+00:1   8.67618799e-01:2   
#C 1.34705164e+00 2
1.50000000e+00:1   9.04836019e-01:2   
#C 1.43678238e+00 2
1.50000000e+00:1   9.51408217e-01:2   
#C 1.51503507e+00 2
1.50000000e+00:1   1.01668728e+00:2   
#C 1.53826902e+00 2
1.50000000e+00:1   1.12745278e+00:2   
#C 1.47854543e+00 2
1.50000000e+00:1   1.21388209e+00:2   
#C 1.40014020e+00 2
1.50000000e+00:1   1.27806787e+00:2   
#C 1.31537969e+00 2
1.50000000e+00:1   1.33299427e+00:2   
#C 1.22767423e+00 2
1.50000000e+00:1   1.38295605e+00:2   
#C 1.13844123e+00 2
1.50000000e+00:1   1.43009621e+00:2   
#C 1.04844526e+00 2
1.50000000e+00:1   1.47574889e+00:2   
#C 9.58206298e-01 2
1.50000000e+00:1   1.52091515e+00:2   
#C 8.68177012e-01 2
1.50000000e+00:1   1.56649959e+00:2   
#C 7.78868466e-01 2
1.50000000e+00:1   1.61348920e+00:2   
#C 6.91020566e-01 2
1.50000000e+00:1   1.66317993e+00:2   
#C 6.05988309e-01 2
1.50000000e+00:1   1.71761741e+00:2   
#C 5.27003329e-01 2
1.50000000e+00:1   1.78076153e+00:2   
#C 4.65511360e-01 2
1.50000000e+00:1   1.86256354e+00:2   
#C 4.81517230e-01 2
1.50000000e+00:1   1.97887812e+00:2   
#C 5.59668962e-01 2
1.50000000e+00:1   2.04637000e+00:2   
#C 6.49250238e-01 2
1.50000000e+00:1   2.09351222e+00:2   
#C 7.43023982e-01 2
1.50000000e+00:1   2.13102362e+00:2   
#C 8.38859801e-01 2
1.50000000e+00:1   2.16273197e+00:2   
#C 9.35892404e-01 2
1.50000000e+00:1   2.19049939e+00:2   
#C 1.03369618e+00 2
1.50000000e+00:1   2.21538489e+00:2   
#C 1.13203367e+00 2
1.50000000e+00:1   2.23805392e+00:2   
#C 1.23076010e+00 2
1.50000000e+00:1   2.25895485e+00:2   
#C 1.32978127e+00 2
1.50000000e+00:1   2.27840581e+00:2   
#C 1.42903269e+00 2
1.50000000e+00:1   2.29664165e+00:2   
#C 1.52846846e+00 2
1.50000000e+00:1   2.31384131e+00:2   
#C 1.62805480e+00 2
1.50000000e+00:1   2.33014467e+00:2   
#C 1.72776621e+00 2
1.50000000e+00:1   2.34566337e+00:2   
#C 1.82758298e+00 2
1.50000000e+00:1   2.36048821e+00:2   
#C 1.92748960e+00 2
1.50000000e+00:1   2.37469420e+00:2   
#C 2.00001988e+00 2
1.50000000e+00:1   2.38464890e+00:2   
#C 2.00000000e+00 2
1.50000000e+00:1   2.38464618e+00:2   
#;
#H
SOURCE='Xyce' VERSION='7.0'
TITLE='* homotopy-step-probe.cir'
SUBTITLE='Step param IVAR = 1.0e+00 A = 3.0e+00 C = 2.0e+00'
TIME='02:03:26 PM' DATE='Oct 09, 2017' TEMPERATURE='2.70000000e+01'
ANALYSIS='DC Sweep' SERIALNO='12345'
ALLVALUES='NO' COMPLEXVALUES='NO' NODES='2'
SWEEPVAR='Vtest:DCV0' SWEEPMODE='VAR_STEP'
XBEGIN='0.0'  XEND='1.0'
FORMAT='0 VOLTSorAMPS;EFLOAT : NODEorBRANCH;NODE  '  
DGTLDATA='NO'
#N
'IVAR' 'I(VTEST)' 
#C 0.00000000e+00 2
1.00000000e+00:1   -1.22706479e-01:2   
#C 9.99986871e-03 2
1.00000000e+00:1   -1.21635073e-01:2   
#C 2.08705373e-02 2
1.00000000e+00:1   -1.20467540e-01:2   
#C 3.26878043e-02 2
1.00000000e+00:1   -1.19194978e-01:2   
#C 4.55340600e-02 2
1.00000000e+00:1   -1.17807604e-01:2   
#C 5.94988575e-02 2
1.00000000e+00:1   -1.16294663e-01:2   
#C 7.46795347e-02 2
1.00000000e+00:1   -1.14644312e-01:2   
#C 9.11818880e-02 2
1.00000000e+00:1   -1.12843498e-01:2   
#C 1.09120905e-01 2
1.00000000e+00:1   -1.10877817e-01:2   
#C 1.28621561e-01 2
1.00000000e+00:1   -1.08731350e-01:2   
#C 1.49819680e-01 2
1.00000000e+00:1   -1.06386473e-01:2   
#C 1.72862873e-01 2
1.00000000e+00:1   -1.03823647e-01:2   
#C 1.97911554e-01 2
1.00000000e+00:1   -1.01021161e-01:2   
#C 2.25140042e-01 2
1.00000000e+00:1   -9.79548455e-02:2   
#C 2.54737756e-01 2
1.00000000e+00:1   -9.45977268e-02:2   
#C 2.86910511e-01 2
1.00000000e+00:1   -9.09196232e-02:2   
#C 3.21881915e-01 2
1.00000000e+00:1   -8.68866651e-02:2   
#C 3.59894890e-01 2
1.00000000e+00:1   -8.24607199e-02:2   
#C 4.01213305e-01 2
1.00000000e+00:1   -7.75986979e-02:2   
#C 4.46123743e-01 2
1.00000000e+00:1   -7.22517078e-02:2   
#C 4.94937405e-01 2
1.00000000e+00:1   -6.63640180e-02:2   
#C 5.47992146e-01 2
1.00000000e+00:1   -5.98717666e-02:2   
#C 6.05654658e-01 2
1.00000000e+00:1   -5.27013389e-02:2   
#C 6.68322784e-01 2
1.00000000e+00:1   -4.47672949e-02:2   
#C 7.35676323e-01 2
1.00000000e+00:1   -3.60678444e-02:2   
#C 8.08061886e-01 2
1.00000000e+00:1   -2.65082897e-02:2   
#C 8.85850526e-01 2
1.00000000e+00:1   -1.59771177e-02:2   
#C 9.69438979e-01 2
1.00000000e+00:1   -4.34159010e-03:2   
#C 1.05925071e+00 2
