Index        TIME             V(1)             V(2)             V(3)
0       1.00000000e-06   -2.49656419e+00  -6.43755897e-11  0.00000000e+00   
1       1.00007500e-06   -2.49656419e+00  -6.43755897e-11  0.00000000e+00   
2       1.00017500e-06   -2.49656419e+00  -6.43755897e-11  0.00000000e+00   
3       1.00027500e-06   -2.49656419e+00  -6.43755897e-11  0.00000000e+00   
4       1.00037500e-06   -2.49656419e+00  -6.43755897e-11  0.00000000e+00   
5       1.00047500e-06   -2.49656419e+00  -6.43755897e-11  0.00000000e+00   
6       1.00057500e-06   -2.49656419e+00  -6.43755897e-11  0.00000000e+00   
7       1.00067500e-06   -2.49656419e+00  -6.43755897e-11  0.00000000e+00   
8       1.00077500e-06   -2.49656419e+00  -6.43755897e-11  0.00000000e+00   
9       1.00087500e-06   -2.49656419e+00  -6.43755897e-11  0.00000000e+00   
10      1.00097500e-06   -2.49656419e+00  -6.43755897e-11  0.00000000e+00   
11      1.00107500e-06   -2.49656419e+00  -6.43755897e-11  0.00000000e+00   
12      1.00117500e-06   -2.49656419e+00  -6.43755897e-11  0.00000000e+00   
13      1.00127500e-06   -2.49656419e+00  -6.43755897e-11  0.00000000e+00   
14      1.00137500e-06   -2.49656419e+00  -6.43755897e-11  0.00000000e+00   
15      1.00147500e-06   -2.49656419e+00  -6.43755897e-11  0.00000000e+00   
16      1.00157500e-06   -2.49656419e+00  -6.43755897e-11  0.00000000e+00   
17      1.00167500e-06   -2.49656419e+00  -6.43755897e-11  0.00000000e+00   
18      1.00177500e-06   -2.49656419e+00  -6.43755897e-11  0.00000000e+00   
19      1.00187500e-06   -2.49656419e+00  -6.43755897e-11  0.00000000e+00   
20      1.00197500e-06   -2.49656419e+00  -6.43755897e-11  0.00000000e+00   
21      1.00207500e-06   -2.49656419e+00  -6.43755897e-11  0.00000000e+00   
22      1.00217500e-06   -2.49656419e+00  -6.43755897e-11  0.00000000e+00   
23      1.00227500e-06   -2.49656419e+00  -6.43755897e-11  0.00000000e+00   
24      1.00237500e-06   -2.49656419e+00  -6.43755897e-11  0.00000000e+00   
25      1.00247500e-06   -2.49656419e+00  -6.43755897e-11  0.00000000e+00   
26      1.00257500e-06   -2.49656419e+00  -6.43755897e-11  0.00000000e+00   
27      1.00267500e-06   -2.49656419e+00  -6.43755897e-11  0.00000000e+00   
28      1.00277500e-06   -2.49656419e+00  -6.43755897e-11  0.00000000e+00   
29      1.00287500e-06   -2.49656419e+00  -6.43755897e-11  0.00000000e+00   
30      1.00297500e-06   -2.49656419e+00  -6.43755897e-11  0.00000000e+00   
31      1.00307500e-06   -2.49656419e+00  -6.43755897e-11  0.00000000e+00   
32      1.00317500e-06   -2.49656419e+00  -6.43755897e-11  0.00000000e+00   
33      1.00327500e-06   -2.49656419e+00  -6.43755897e-11  0.00000000e+00   
34      1.00337500e-06   -2.49656419e+00  -6.43755897e-11  0.00000000e+00   
35      1.00347500e-06   -2.49656419e+00  -6.43755897e-11  0.00000000e+00   
36      1.00357500e-06   -2.49656419e+00  -6.43755897e-11  0.00000000e+00   
37      1.00367500e-06   -2.49656419e+00  -6.43755897e-11  0.00000000e+00   
38      1.00377500e-06   -2.49656419e+00  -6.43755897e-11  0.00000000e+00   
39      1.00387500e-06   -2.49656419e+00  -6.43755897e-11  0.00000000e+00   
40      1.00397500e-06   -2.49656419e+00  -6.43755897e-11  0.00000000e+00   
41      1.00407500e-06   -2.49656419e+00  -6.43755897e-11  0.00000000e+00   
42      1.00417500e-06   -2.49656419e+00  -6.43755897e-11  0.00000000e+00   
43      1.00427500e-06   -2.49656419e+00  -6.43755897e-11  0.00000000e+00   
44      1.00437500e-06   -2.49656419e+00  -6.43755897e-11  0.00000000e+00   
45      1.00447500e-06   -2.49656419e+00  -6.43755897e-11  0.00000000e+00   
46      1.00457500e-06   -2.49656419e+00  -6.43755897e-11  0.00000000e+00   
47      1.00467500e-06   -2.49656419e+00  -6.43755897e-11  0.00000000e+00   
48      1.00477500e-06   -2.49656419e+00  -6.43755897e-11  0.00000000e+00   
49      1.00487500e-06   -2.49656419e+00  -6.43755897e-11  0.00000000e+00   
50      1.00497500e-06   -2.49656419e+00  -6.43755897e-11  0.00000000e+00   
51      1.00507500e-06   -2.49656419e+00  -6.43755897e-11  0.00000000e+00   
52      1.00517500e-06   -2.49656419e+00  -6.43755897e-11  0.00000000e+00   
53      1.00527500e-06   -2.49656419e+00  -6.43755897e-11  0.00000000e+00   
54      1.00537500e-06   -2.49656419e+00  -6.43755897e-11  0.00000000e+00   
55      1.00547500e-06   -2.49656419e+00  -6.43755897e-11  0.00000000e+00   
56      1.00557500e-06   -2.49656419e+00  -6.43755897e-11  0.00000000e+00   
57      1.00567500e-06   -2.49656419e+00  -6.43755897e-11  0.00000000e+00   
58      1.00577500e-06   -2.49656419e+00  -6.43755897e-11  0.00000000e+00   
59      1.00587500e-06   -2.49656419e+00  -6.43755897e-11  0.00000000e+00   
60      1.00597500e-06   -2.49656419e+00  -6.43755897e-11  0.00000000e+00   
61      1.00607500e-06   -2.49656419e+00  -6.43755897e-11  0.00000000e+00   
62      1.00617500e-06   -2.49656419e+00  -6.43755897e-11  0.00000000e+00   
63      1.00627500e-06   -2.49656419e+00  -6.43755897e-11  0.00000000e+00   
64      1.00637500e-06   -2.49656419e+00  -6.43755897e-11  0.00000000e+00   
65      1.00647500e-06   -2.49656419e+00  -6.43755897e-11  0.00000000e+00   
66      1.00657500e-06   -2.49656419e+00  -6.43755897e-11  0.00000000e+00   
67      1.00667500e-06   -2.49656419e+00  -6.43755897e-11  0.00000000e+00   
68      1.00677500e-06   -2.49656419e+00  -6.43755897e-11  0.00000000e+00   
69      1.00687500e-06   -2.49656419e+00  -6.43755897e-11  0.00000000e+00   
70      1.00697500e-06   -2.49656419e+00  -6.43755897e-11  0.00000000e+00   
71      1.00707500e-06   -2.49656419e+00  -6.43755897e-11  0.00000000e+00   
72      1.00717500e-06   -2.49656419e+00  -6.43755897e-11  0.00000000e+00   
73      1.00727500e-06   -2.49656419e+00  -6.43755897e-11  0.00000000e+00   
74      1.00737500e-06   -2.49656419e+00  -6.43755897e-11  0.00000000e+00   
75      1.00747500e-06   -2.49656419e+00  -6.43755897e-11  0.00000000e+00   
76      1.00757500e-06   -2.49656419e+00  -6.43755897e-11  0.00000000e+00   
77      1.00767500e-06   -2.49656419e+00  -6.43755897e-11  0.00000000e+00   
78      1.00777500e-06   -2.49656419e+00  -6.43755897e-11  0.00000000e+00   
79      1.00787500e-06   -2.49656419e+00  -6.43755897e-11  0.00000000e+00   
80      1.00797500e-06   -2.49656419e+00  -6.43755897e-11  0.00000000e+00   
81      1.00807500e-06   -2.49656419e+00  -6.43755897e-11  0.00000000e+00   
82      1.00817500e-06   -2.49656419e+00  -6.43755897e-11  0.00000000e+00   
83      1.00827500e-06   -2.49656419e+00  -6.43755897e-11  0.00000000e+00   
84      1.00837500e-06   -2.49656419e+00  -6.43755897e-11  0.00000000e+00   
85      1.00847500e-06   -2.49656419e+00  -6.43755897e-11  0.00000000e+00   
86      1.00857500e-06   -2.49656419e+00  -6.43755897e-11  0.00000000e+00   
87      1.00867500e-06   -2.49656419e+00  -6.43755897e-11  0.00000000e+00   
88      1.00877500e-06   -2.49656419e+00  -6.43755897e-11  0.00000000e+00   
89      1.00887500e-06   -2.49656419e+00  -6.43755897e-11  0.00000000e+00   
90      1.00897500e-06   -2.49656419e+00  -6.43755897e-11  0.00000000e+00   
91      1.00907500e-06   -2.49656419e+00  -6.43755897e-11  0.00000000e+00   
92      1.00917500e-06   -2.49656419e+00  -6.43755897e-11  0.00000000e+00   
93      1.00927500e-06   -2.49656419e+00  -6.43755897e-11  0.00000000e+00   
94      1.00937500e-06   -2.49656419e+00  -6.43755897e-11  0.00000000e+00   
95      1.00947500e-06   -2.49656419e+00  -6.43755897e-11  0.00000000e+00   
96      1.00957500e-06   -2.49656419e+00  -6.43755897e-11  0.00000000e+00   
97      1.00967500e-06   -2.49656419e+00  -6.43755897e-11  0.00000000e+00   
98      1.00977500e-06   -2.49656419e+00  -6.43755897e-11  0.00000000e+00   
99      1.00987500e-06   -2.49656419e+00  -6.43755897e-11  0.00000000e+00   
100     1.00997500e-06   -2.49656419e+00  -6.43755897e-11  0.00000000e+00   
101     1.01007500e-06   -2.49656419e+00  -6.43755897e-11  0.00000000e+00   
102     1.01017500e-06   -2.49656419e+00  -6.43755897e-11  0.00000000e+00   
103     1.01027500e-06   -2.49656419e+00  -6.43755897e-11  0.00000000e+00   
104     1.01037500e-06   -2.49656419e+00  -6.43755897e-11  0.00000000e+00   
105     1.01047500e-06   -2.49656419e+00  -6.43755897e-11  0.00000000e+00   
106     1.01057500e-06   -2.49656419e+00  -6.43755897e-11  0.00000000e+00   
107     1.01067500e-06   -2.49656419e+00  -6.43755897e-11  0.00000000e+00   
108     1.01077500e-06   -2.49656419e+00  -6.43755897e-11  0.00000000e+00   
109     1.01087500e-06   -2.49656419e+00  -6.43755897e-11  0.00000000e+00   
110     1.01097500e-06   -2.49656419e+00  -6.43755897e-11  0.00000000e+00   
111     1.01107500e-06   -2.49656419e+00  -6.43755897e-11  0.00000000e+00   
112     1.01117500e-06   -2.49656419e+00  -6.43755897e-11  0.00000000e+00   
113     1.01127500e-06   -2.49656419e+00  -6.43755897e-11  0.00000000e+00   
114     1.01137500e-06   -2.49656419e+00  -6.43755897e-11  0.00000000e+00   
115     1.01147500e-06   -2.49656419e+00  -6.43755897e-11  0.00000000e+00   
116     1.01157500e-06   -2.49656419e+00  -6.43755897e-11  0.00000000e+00   
117     1.01167500e-06   -2.49656419e+00  -6.43755897e-11  0.00000000e+00   
118     1.01177500e-06   -2.49656419e+00  -6.43755897e-11  0.00000000e+00   
119     1.01187500e-06   -2.49656419e+00  -6.43755897e-11  0.00000000e+00   
120     1.01197500e-06   -2.49656419e+00  -6.43755897e-11  0.00000000e+00   
121     1.01207500e-06   -2.49656419e+00  -6.43755897e-11  0.00000000e+00   
122     1.01217500e-06   -2.49656419e+00  -6.43755897e-11  0.00000000e+00   
123     1.01227500e-06   -2.49656419e+00  -6.43755897e-11  0.00000000e+00   
124     1.01237500e-06   -2.49656419e+00  -6.43755897e-11  0.00000000e+00   
125     1.01247500e-06   -2.49656419e+00  -6.43755897e-11  0.00000000e+00   
126     1.01257500e-06   -2.49656419e+00  -6.43755897e-11  0.00000000e+00   
127     1.01267500e-06   -2.49656419e+00  -6.43755897e-11  0.00000000e+00   
128     1.01277500e-06   -2.49656419e+00  -6.43755897e-11  0.00000000e+00   
129     1.01287500e-06   -2.49656419e+00  -6.43755897e-11  0.00000000e+00   
130     1.01297500e-06   -2.49656419e+00  -6.43755897e-11  0.00000000e+00   
131     1.01307500e-06   -2.49656419e+00  -6.43755897e-11  0.00000000e+00   
132     1.01317500e-06   -2.49656419e+00  -6.43755897e-11  0.00000000e+00   
133     1.01327500e-06   -2.49656419e+00  -6.43755897e-11  0.00000000e+00   
134     1.01337500e-06   -2.49656419e+00  -6.43755897e-11  0.00000000e+00   
135     1.01347500e-06   -2.49656419e+00  -6.43755897e-11  0.00000000e+00   
136     1.01357500e-06   -2.49656419e+00  -6.43755897e-11  0.00000000e+00   
137     1.01367500e-06   -2.49656419e+00  -6.43755897e-11  0.00000000e+00   
138     1.01377500e-06   -2.49656419e+00  -6.43755897e-11  0.00000000e+00   
139     1.01387500e-06   -2.49656419e+00  -6.43755897e-11  0.00000000e+00   
140     1.01397500e-06   -2.49656419e+00  -6.43755897e-11  0.00000000e+00   
141     1.01407500e-06   -2.49656419e+00  -6.43755897e-11  0.00000000e+00   
142     1.01417500e-06   -2.49656419e+00  -6.43755897e-11  0.00000000e+00   
143     1.01427500e-06   -2.49656419e+00  -6.43755897e-11  0.00000000e+00   
144     1.01437500e-06   -2.49656419e+00  -6.43755897e-11  0.00000000e+00   
145     1.01447500e-06   -2.49656419e+00  -6.43755897e-11  0.00000000e+00   
146     1.01457500e-06   -2.49656419e+00  -6.43755897e-11  0.00000000e+00   
147     1.01467500e-06   -2.49656419e+00  -6.43755897e-11  0.00000000e+00   
148     1.01477500e-06   -2.49656419e+00  -6.43755897e-11  0.00000000e+00   
149     1.01487500e-06   -2.49656419e+00  -6.43755897e-11  0.00000000e+00   
150     1.01497500e-06   -2.49656419e+00  -6.43755897e-11  0.00000000e+00   
151     1.01500000e-06   -2.49656419e+00  -6.43755897e-11  0.00000000e+00   
152     1.01502500e-06   -2.48294257e+00  1.43534645e-02   6.00000000e-02   
153     1.01504372e-06   -2.47252812e+00  2.54226691e-02   1.04930646e-01   
154     1.01506244e-06   -2.46193669e+00  3.67953569e-02   1.49861291e-01   
155     1.01508116e-06   -2.45120197e+00  4.84556992e-02   1.94791937e-01   
156     1.01509988e-06   -2.44035470e+00  6.03891129e-02   2.39722583e-01   
157     1.01513733e-06   -2.41841800e+00  8.52452824e-02   3.29583874e-01   
158     1.01517477e-06   -2.39640945e+00  1.11006085e-01   4.19445166e-01   
159     1.01521221e-06   -2.37447178e+00  1.37597489e-01   5.09306457e-01   
160     1.01524965e-06   -2.35272353e+00  1.64955544e-01   5.99167749e-01   
161     1.01532454e-06   -2.31067150e+00  2.22310781e-01   7.78890332e-01   
162     1.01539942e-06   -2.27050366e+00  2.82022121e-01   9.58612915e-01   
163     1.01547431e-06   -2.23252978e+00  3.43849712e-01   1.13833550e+00   
164     1.01554919e-06   -2.19695390e+00  4.07601421e-01   1.31805808e+00   
165     1.01562408e-06   -2.16390464e+00  4.73120556e-01   1.49778066e+00   
166     1.01572408e-06   -2.12442800e+00  5.63410894e-01   1.73778066e+00   
167     1.01582408e-06   -2.08963730e+00  6.56313675e-01   1.97778066e+00   
168     1.01592408e-06   -2.05952742e+00  7.51625655e-01   2.21778066e+00   
169     1.01602408e-06   -2.03406096e+00  8.49169144e-01   2.45778066e+00   
170     1.01612408e-06   -2.01318542e+00  9.48784187e-01   2.69778066e+00   
171     1.01622408e-06   -1.99684488e+00  1.05032316e+00   2.93778066e+00   
172     1.01632408e-06   -1.98498824e+00  1.15364704e+00   3.17778066e+00   
173     1.01642408e-06   -1.97757529e+00  1.25862276e+00   3.41778066e+00   
174     1.01652408e-06   -1.97458159e+00  1.36512145e+00   3.65778066e+00   
175     1.01662408e-06   -1.97600269e+00  1.47301705e+00   3.89778066e+00   
176     1.01672408e-06   -1.98185834e+00  1.58218534e+00   4.13778066e+00   
177     1.01682408e-06   -1.99219687e+00  1.69250313e+00   4.37778066e+00   
178     1.01692408e-06   -2.00710022e+00  1.80384754e+00   4.61778066e+00   
179     1.01702408e-06   -2.02668990e+00  1.91609518e+00   4.85778066e+00   
180     1.01712408e-06   -2.05113414e+00  2.02912132e+00   5.09778066e+00   
181     1.01722408e-06   -2.08065684e+00  2.14279877e+00   5.33778066e+00   
182     1.01732408e-06   -2.11554883e+00  2.25699646e+00   5.57778066e+00   
183     1.01742408e-06   -2.15618212e+00  2.37157756e+00   5.81778066e+00   
184     1.01752408e-06   -2.20302848e+00  2.48639703e+00   6.05778066e+00   
185     1.01762408e-06   -2.25668358e+00  2.60129824e+00   6.29778066e+00   
186     1.01772408e-06   -2.31789929e+00  2.71610833e+00   6.53778066e+00   
187     1.01782408e-06   -2.38762712e+00  2.83063192e+00   6.77778066e+00   
188     1.01792408e-06   -2.46707808e+00  2.94464222e+00   7.01778066e+00   
189     1.01802408e-06   -2.55780669e+00  3.05786835e+00   7.25778066e+00   
190     1.01812408e-06   -2.66183149e+00  3.16997691e+00   7.49778066e+00   
191     1.01821285e-06   -2.76534490e+00  3.26868694e+00   7.71082916e+00   
192     1.01830162e-06   -2.87898533e+00  3.36697153e+00   7.92387765e+00   
193     1.01837862e-06   -2.98484402e+00  3.45214471e+00   8.10867634e+00   
194     1.01841038e-06   -3.02996450e+00  3.48732485e+00   8.18492034e+00   
195     1.01844215e-06   -3.07623296e+00  3.52251355e+00   8.26116434e+00   
196     1.01847392e-06   -3.12362045e+00  3.55772156e+00   8.33740833e+00   
197     1.01853746e-06   -3.22227790e+00  3.62822021e+00   8.48989632e+00   
198     1.01860099e-06   -3.32502516e+00  3.69891836e+00   8.64238431e+00   
199     1.01870099e-06   -3.49547128e+00  3.81072618e+00   8.88238431e+00   
200     1.01880099e-06   -3.67476685e+00  3.92330415e+00   9.12238431e+00   
201     1.01890099e-06   -3.86224356e+00  4.03674811e+00   9.36238431e+00   
202     1.01900099e-06   -4.05721103e+00  4.15113226e+00   9.60238431e+00   
203     1.01910099e-06   -4.25893997e+00  4.26651526e+00   9.84238431e+00   
204     1.01920099e-06   -4.46665112e+00  4.38294478e+00   1.00823843e+01   
205     1.01930099e-06   -4.67950649e+00  4.50046080e+00   1.03223843e+01   
206     1.01940099e-06   -4.89660224e+00  4.61909818e+00   1.05623843e+01   
207     1.01950099e-06   -5.11696275e+00  4.73888848e+00   1.08023843e+01   
208     1.01960099e-06   -5.33953546e+00  4.85986150e+00   1.10423843e+01   
209     1.01970099e-06   -5.56318631e+00  4.98204635e+00   1.12823843e+01   
210     1.01980099e-06   -5.78669550e+00  5.10547257e+00   1.15223843e+01   
211     1.01990099e-06   -6.00875337e+00  5.23017085e+00   1.17623843e+01   
212     1.02000000e-06   -6.22583251e+00  5.35491369e+00   1.20000000e+01   
213     1.02010000e-06   -6.50486214e+00  5.41261728e+00   1.20000000e+01   
214     1.02016671e-06   -6.69318834e+00  5.44624237e+00   1.20000000e+01   
215     1.02023342e-06   -6.88231489e+00  5.47574948e+00   1.20000000e+01   
216     1.02030013e-06   -7.07146842e+00  5.50180988e+00   1.20000000e+01   
217     1.02036683e-06   -7.26000086e+00  5.52498566e+00   1.20000000e+01   
218     1.02043354e-06   -7.44737182e+00  5.54574574e+00   1.20000000e+01   
219     1.02050025e-06   -7.63313291e+00  5.56448009e+00   1.20000000e+01   
220     1.02056696e-06   -7.81691396e+00  5.58151232e+00   1.20000000e+01   
221     1.02063367e-06   -7.99841112e+00  5.59711036e+00   1.20000000e+01   
222     1.02070038e-06   -8.17737659e+00  5.61149578e+00   1.20000000e+01   
223     1.02076708e-06   -8.35360992e+00  5.62485157e+00   1.20000000e+01   
224     1.02083379e-06   -8.52695061e+00  5.63732873e+00   1.20000000e+01   
225     1.02090050e-06   -8.69727183e+00  5.64905179e+00   1.20000000e+01   
226     1.02096721e-06   -8.86447516e+00  5.66012344e+00   1.20000000e+01   
227     1.02103392e-06   -9.02848616e+00  5.67062838e+00   1.20000000e+01   
228     1.02110063e-06   -9.18925062e+00  5.68063646e+00   1.20000000e+01   
229     1.02116733e-06   -9.34673144e+00  5.69020537e+00   1.20000000e+01   
230     1.02123404e-06   -9.50090597e+00  5.69938278e+00   1.20000000e+01   
231     1.02130075e-06   -9.65176383e+00  5.70820817e+00   1.20000000e+01   
232     1.02136746e-06   -9.79930503e+00  5.71671428e+00   1.20000000e+01   
233     1.02146746e-06   -1.00128433e+01  5.72882540e+00   1.20000000e+01   
234     1.02156746e-06   -1.02190907e+01  5.74037026e+00   1.20000000e+01   
235     1.02166746e-06   -1.04181409e+01  5.75140053e+00   1.20000000e+01   
236     1.02176746e-06   -1.06101087e+01  5.76195708e+00   1.20000000e+01   
237     1.02186746e-06   -1.07951253e+01  5.77207276e+00   1.20000000e+01   
238     1.02196746e-06   -1.09733352e+01  5.78177443e+00   1.20000000e+01   
239     1.02206746e-06   -1.11448930e+01  5.79108447e+00   1.20000000e+01   
240     1.02216746e-06   -1.13099604e+01  5.80002192e+00   1.20000000e+01   
241     1.02226746e-06   -1.14687061e+01  5.80860338e+00   1.20000000e+01   
242     1.02236746e-06   -1.16213023e+01  5.81684357e+00   1.20000000e+01   
243     1.02246746e-06   -1.17679242e+01  5.82475582e+00   1.20000000e+01   
244     1.02256746e-06   -1.19087482e+01  5.83235240e+00   1.20000000e+01   
245     1.02266746e-06   -1.20439517e+01  5.83964478e+00   1.20000000e+01   
246     1.02276746e-06   -1.21737117e+01  5.84664379e+00   1.20000000e+01   
247     1.02286746e-06   -1.22982044e+01  5.85335977e+00   1.20000000e+01   
248     1.02296746e-06   -1.24176044e+01  5.85980265e+00   1.20000000e+01   
249     1.02306746e-06   -1.25320845e+01  5.86598203e+00   1.20000000e+01   
250     1.02316746e-06   -1.26418149e+01  5.87190720e+00   1.20000000e+01   
251     1.02326746e-06   -1.27469632e+01  5.87758718e+00   1.20000000e+01   
252     1.02336746e-06   -1.28476935e+01  5.88303078e+00   1.20000000e+01   
253     1.02346746e-06   -1.29441670e+01  5.88824654e+00   1.20000000e+01   
254     1.02356746e-06   -1.30365412e+01  5.89324280e+00   1.20000000e+01   
255     1.02366746e-06   -1.31249698e+01  5.89802769e+00   1.20000000e+01   
256     1.02376746e-06   -1.32096026e+01  5.90260910e+00   1.20000000e+01   
257     1.02386746e-06   -1.32905857e+01  5.90699473e+00   1.20000000e+01   
