Index       TIME           {V(1)+6.0}     {NINT(V(1)+6.0)} 
0        0.00000000e+00    6.00000000e+00    6.00000000e+00
1        1.00000000e-09    6.00003142e+00    6.00000000e+00
2        3.00000000e-09    6.00009425e+00    6.00000000e+00
3        7.00000000e-09    6.00021991e+00    6.00000000e+00
4        1.50000000e-08    6.00047124e+00    6.00000000e+00
5        3.10000000e-08    6.00097389e+00    6.00000000e+00
6        6.30000000e-08    6.00197920e+00    6.00000000e+00
7        1.27000000e-07    6.00398982e+00    6.00000000e+00
8        2.55000000e-07    6.00801106e+00    6.00000000e+00
9        5.11000000e-07    6.01605351e+00    6.00000000e+00
10       1.02300000e-06    6.03213827e+00    6.00000000e+00
11       2.04700000e-06    6.06430663e+00    6.00000000e+00
12       4.09500000e-06    6.12863403e+00    6.00000000e+00
13       8.19100000e-06    6.25721427e+00    6.00000000e+00
14       1.22870000e-05    6.38562416e+00    6.00000000e+00
15       1.63830000e-05    6.51377866e+00    7.00000000e+00
16       2.04790000e-05    6.64159288e+00    7.00000000e+00
17       2.45750000e-05    6.76898217e+00    7.00000000e+00
18       2.86710000e-05    6.89586216e+00    7.00000000e+00
19       3.27670000e-05    7.02214882e+00    7.00000000e+00
20       3.68630000e-05    7.14775851e+00    7.00000000e+00
21       4.50550000e-05    7.39661472e+00    7.00000000e+00
22       5.32470000e-05    7.64177161e+00    8.00000000e+00
23       6.14390000e-05    7.88257984e+00    8.00000000e+00
24       6.96310000e-05    8.11840156e+00    8.00000000e+00
25       7.78230000e-05    8.34861212e+00    8.00000000e+00
26       8.60150000e-05    8.57260176e+00    9.00000000e+00
27       9.42070000e-05    8.78977717e+00    9.00000000e+00
28       1.02399000e-04    8.99956312e+00    9.00000000e+00
29       1.10591000e-04    9.20140392e+00    9.00000000e+00
30       1.18783000e-04    9.39476495e+00    9.00000000e+00
31       1.26975000e-04    9.57913403e+00    1.00000000e+01
32       1.35167000e-04    9.75402283e+00    1.00000000e+01
33       1.43359000e-04    9.91896809e+00    1.00000000e+01
34       1.51551000e-04    1.00735329e+01    1.00000000e+01
35       1.59743000e-04    1.02173079e+01    1.00000000e+01
36       1.67935000e-04    1.03499122e+01    1.00000000e+01
37       1.76127000e-04    1.04709947e+01    1.00000000e+01
38       1.84319000e-04    1.05802345e+01    1.10000000e+01
39       1.92511000e-04    1.06773423e+01    1.10000000e+01
40       2.00703000e-04    1.07620609e+01    1.10000000e+01
41       2.08895000e-04    1.08341660e+01    1.10000000e+01
42       2.17087000e-04    1.08934665e+01    1.10000000e+01
43       2.25279000e-04    1.09398053e+01    1.10000000e+01
44       2.33471000e-04    1.09730597e+01    1.10000000e+01
45       2.41663000e-04    1.09931416e+01    1.10000000e+01
46       2.49855000e-04    1.09999979e+01    1.10000000e+01
47       2.58047000e-04    1.09936104e+01    1.10000000e+01
48       2.66239000e-04    1.09739959e+01    1.10000000e+01
49       2.74431000e-04    1.09412065e+01    1.10000000e+01
50       2.82623000e-04    1.08953290e+01    1.10000000e+01
51       2.90815000e-04    1.08364849e+01    1.10000000e+01
52       2.99007000e-04    1.07648301e+01    1.10000000e+01
53       3.07199000e-04    1.06805543e+01    1.10000000e+01
54       3.15391000e-04    1.05838809e+01    1.10000000e+01
55       3.23583000e-04    1.04750658e+01    1.00000000e+01
56       3.31775000e-04    1.03543973e+01    1.00000000e+01
57       3.39967000e-04    1.02221950e+01    1.00000000e+01
58       3.48159000e-04    1.00788092e+01    1.00000000e+01
59       3.56351000e-04    9.92461947e+00    1.00000000e+01
60       3.64543000e-04    9.76003438e+00    1.00000000e+01
61       3.72735000e-04    9.58548983e+00    1.00000000e+01
62       3.80927000e-04    9.40144816e+00    9.00000000e+00
63       3.89119000e-04    9.20839684e+00    9.00000000e+00
64       3.97311000e-04    9.00684722e+00    9.00000000e+00
65       4.05503000e-04    8.79733317e+00    9.00000000e+00
66       4.13695000e-04    8.58040964e+00    9.00000000e+00
67       4.21887000e-04    8.35665120e+00    8.00000000e+00
68       4.30079000e-04    8.12665054e+00    8.00000000e+00
69       4.38271000e-04    7.89101688e+00    8.00000000e+00
70       4.46463000e-04    7.65037436e+00    8.00000000e+00
71       4.54655000e-04    7.40536038e+00    7.00000000e+00
72       4.62847000e-04    7.15662393e+00    7.00000000e+00
73       4.71039000e-04    6.90482385e+00    7.00000000e+00
74       4.79231000e-04    6.65062711e+00    7.00000000e+00
75       4.87423000e-04    6.39470700e+00    6.00000000e+00
76       4.95615000e-04    6.13774141e+00    6.00000000e+00
77       5.03807000e-04    5.88041097e+00    6.00000000e+00
78       5.11999000e-04    5.62339730e+00    6.00000000e+00
79       5.19356968e-04    5.39338105e+00    5.00000000e+00
80       5.26714935e-04    5.16466114e+00    5.00000000e+00
81       5.34072903e-04    4.93772631e+00    5.00000000e+00
82       5.41430871e-04    4.71306153e+00    5.00000000e+00
83       5.48788838e-04    4.49114689e+00    4.00000000e+00
84       5.56146806e-04    4.27245663e+00    4.00000000e+00
85       5.63504774e-04    4.05745808e+00    4.00000000e+00
86       5.70862741e-04    3.84661067e+00    4.00000000e+00
87       5.78220709e-04    3.64036499e+00    4.00000000e+00
88       5.85578677e-04    3.43916178e+00    3.00000000e+00
89       5.92936644e-04    3.24343099e+00    3.00000000e+00
90       6.00294612e-04    3.05359091e+00    3.00000000e+00
91       6.07652580e-04    2.87004721e+00    3.00000000e+00
92       6.15010547e-04    2.69319213e+00    3.00000000e+00
93       6.22368515e-04    2.52340358e+00    3.00000000e+00
94       6.29726483e-04    2.36104442e+00    2.00000000e+00
95       6.37084450e-04    2.20646158e+00    2.00000000e+00
96       6.44442418e-04    2.05998542e+00    2.00000000e+00
97       6.51800386e-04    1.92192895e+00    2.00000000e+00
98       6.59158353e-04    1.79258719e+00    2.00000000e+00
99       6.66516321e-04    1.67223654e+00    2.00000000e+00
100      6.73874289e-04    1.56113418e+00    2.00000000e+00
101      6.81232256e-04    1.45951753e+00    1.00000000e+00
102      6.88590224e-04    1.36760376e+00    1.00000000e+00
103      6.95948192e-04    1.28558927e+00    1.00000000e+00
104      7.03306159e-04    1.21364933e+00    1.00000000e+00
105      7.10664127e-04    1.15193767e+00    1.00000000e+00
106      7.18022095e-04    1.10058616e+00    1.00000000e+00
107      7.25380062e-04    1.05970455e+00    1.00000000e+00
108      7.32738030e-04    1.02938019e+00    1.00000000e+00
109      7.40095998e-04    1.00967790e+00    1.00000000e+00
110      7.47453966e-04    1.00063976e+00    1.00000000e+00
111      7.54811933e-04    1.00228510e+00    1.00000000e+00
112      7.62169901e-04    1.01461040e+00    1.00000000e+00
113      7.69527869e-04    1.03758932e+00    1.00000000e+00
114      7.76885836e-04    1.07117276e+00    1.00000000e+00
115      7.84243804e-04    1.11528895e+00    1.00000000e+00
116      7.91601772e-04    1.16984361e+00    1.00000000e+00
117      7.98959739e-04    1.23472016e+00    1.00000000e+00
118      8.06317707e-04    1.30977996e+00    1.00000000e+00
119      8.13675675e-04    1.39486262e+00    1.00000000e+00
120      8.21033642e-04    1.48978631e+00    1.00000000e+00
121      8.28391610e-04    1.59434819e+00    2.00000000e+00
122      8.35749578e-04    1.70832480e+00    2.00000000e+00
123      8.43107545e-04    1.83147259e+00    2.00000000e+00
124      8.50465513e-04    1.96352840e+00    2.00000000e+00
125      8.57823481e-04    2.10421001e+00    2.00000000e+00
126      8.65181448e-04    2.25321681e+00    2.00000000e+00
127      8.72539416e-04    2.41023036e+00    2.00000000e+00
128      8.79897384e-04    2.57491514e+00    3.00000000e+00
129      8.87255351e-04    2.74691922e+00    3.00000000e+00
130      8.94613319e-04    2.92587503e+00    3.00000000e+00
131      9.01971287e-04    3.11140015e+00    3.00000000e+00
132      9.09329254e-04    3.30309811e+00    3.00000000e+00
133      9.16687222e-04    3.50055927e+00    4.00000000e+00
134      9.24045190e-04    3.70336165e+00    4.00000000e+00
135      9.31403157e-04    3.91107188e+00    4.00000000e+00
136      9.38761125e-04    4.12324609e+00    4.00000000e+00
137      9.46119093e-04    4.33943085e+00    4.00000000e+00
138      9.53477060e-04    4.55916421e+00    5.00000000e+00
139      9.60835028e-04    4.78197658e+00    5.00000000e+00
140      9.68192996e-04    5.00739183e+00    5.00000000e+00
141      9.75550963e-04    5.23492825e+00    5.00000000e+00
142      9.82908931e-04    5.46409961e+00    5.00000000e+00
143      9.90266899e-04    5.69441616e+00    6.00000000e+00
144      9.97624866e-04    5.92538575e+00    6.00000000e+00
145      1.00290473e-03    6.09124969e+00    6.00000000e+00
146      1.00762141e-03    6.23934219e+00    6.00000000e+00
147      1.01233809e-03    6.38722449e+00    6.00000000e+00
148      1.01705477e-03    6.53476673e+00    7.00000000e+00
149      1.02177146e-03    6.68183933e+00    7.00000000e+00
150      1.02648814e-03    6.82831312e+00    7.00000000e+00
151      1.03120482e-03    6.97405948e+00    7.00000000e+00
152      1.03592150e-03    7.11895040e+00    7.00000000e+00
153      1.04063818e-03    7.26285864e+00    7.00000000e+00
154      1.04535487e-03    7.40565783e+00    7.00000000e+00
155      1.05007155e-03    7.54722254e+00    8.00000000e+00
156      1.05478823e-03    7.68742845e+00    8.00000000e+00
157      1.05950491e-03    7.82615244e+00    8.00000000e+00
158      1.06422159e-03    7.96327268e+00    8.00000000e+00
159      1.06893828e-03    8.09866874e+00    8.00000000e+00
160      1.07365496e-03    8.23222171e+00    8.00000000e+00
161      1.07837164e-03    8.36381432e+00    8.00000000e+00
162      1.08308832e-03    8.49333098e+00    8.00000000e+00
163      1.08780500e-03    8.62065796e+00    9.00000000e+00
164      1.09252168e-03    8.74568344e+00    9.00000000e+00
165      1.09723837e-03    8.86829762e+00    9.00000000e+00
166      1.10195505e-03    8.98839282e+00    9.00000000e+00
167      1.10667173e-03    9.10586356e+00    9.00000000e+00
168      1.11138841e-03    9.22060668e+00    9.00000000e+00
169      1.11610509e-03    9.33252142e+00    9.00000000e+00
170      1.12082178e-03    9.44150948e+00    9.00000000e+00
171      1.12553846e-03    9.54747516e+00    1.00000000e+01
172      1.13025514e-03    9.65032539e+00    1.00000000e+01
173      1.13497182e-03    9.74996985e+00    1.00000000e+01
174      1.13968850e-03    9.84632103e+00    1.00000000e+01
175      1.14440518e-03    9.93929430e+00    1.00000000e+01
176      1.14912187e-03    1.00288080e+01    1.00000000e+01
177      1.15383855e-03    1.01147836e+01    1.00000000e+01
178      1.15855523e-03    1.01971455e+01    1.00000000e+01
179      1.16327191e-03    1.02758214e+01    1.00000000e+01
180      1.16798859e-03    1.03507422e+01    1.00000000e+01
181      1.17270528e-03    1.04218421e+01    1.00000000e+01
182      1.17742196e-03    1.04890587e+01    1.00000000e+01
183      1.18213864e-03    1.05523329e+01    1.10000000e+01
184      1.18685532e-03    1.06116092e+01    1.10000000e+01
185      1.19157200e-03    1.06668355e+01    1.10000000e+01
186      1.19628869e-03    1.07179634e+01    1.10000000e+01
187      1.20100537e-03    1.07649478e+01    1.10000000e+01
188      1.20572205e-03    1.08077476e+01    1.10000000e+01
189      1.21043873e-03    1.08463251e+01    1.10000000e+01
190      1.21515541e-03    1.08806466e+01    1.10000000e+01
191      1.21987209e-03    1.09106817e+01    1.10000000e+01
192      1.22458878e-03    1.09364042e+01    1.10000000e+01
193      1.22930546e-03    1.09577915e+01    1.10000000e+01
194      1.23402214e-03    1.09748248e+01    1.10000000e+01
195      1.23873882e-03    1.09874892e+01    1.10000000e+01
196      1.24345550e-03    1.09957734e+01    1.10000000e+01
197      1.24817219e-03    1.09996703e+01    1.10000000e+01
198      1.25288887e-03    1.09991763e+01    1.10000000e+01
199      1.25760555e-03    1.09942921e+01    1.10000000e+01
200      1.26232223e-03    1.09850217e+01    1.10000000e+01
201      1.26703891e-03    1.09713735e+01    1.10000000e+01
202      1.27175559e-03    1.09533593e+01    1.10000000e+01
203      1.27647228e-03    1.09309950e+01    1.10000000e+01
204      1.28118896e-03    1.09043002e+01    1.10000000e+01
205      1.28590564e-03    1.08732983e+01    1.10000000e+01
206      1.29062232e-03    1.08380167e+01    1.10000000e+01
207      1.29533900e-03    1.07984862e+01    1.10000000e+01
208      1.30005569e-03    1.07547417e+01    1.10000000e+01
209      1.30477237e-03    1.07068214e+01    1.10000000e+01
210      1.30948905e-03    1.06547676e+01    1.10000000e+01
211      1.31420573e-03    1.05986259e+01    1.10000000e+01
212      1.31892241e-03    1.05384455e+01    1.10000000e+01
213      1.32363910e-03    1.04742795e+01    1.00000000e+01
214      1.32835578e-03    1.04061840e+01    1.00000000e+01
215      1.33307246e-03    1.03342190e+01    1.00000000e+01
216      1.33778914e-03    1.02584476e+01    1.00000000e+01
217      1.34250582e-03    1.01789364e+01    1.00000000e+01
218      1.34722250e-03    1.00957551e+01    1.00000000e+01
219      1.35193919e-03    1.00089769e+01    1.00000000e+01
220      1.35665587e-03    9.91867800e+00    1.00000000e+01
221      1.36137255e-03    9.82493762e+00    1.00000000e+01
222      1.36608923e-03    9.72783811e+00    1.00000000e+01
223      1.37080591e-03    9.62746476e+00    1.00000000e+01
224      1.37552260e-03    9.52390571e+00    1.00000000e+01
225      1.38023928e-03    9.41725192e+00    9.00000000e+00
226      1.38495596e-03    9.30759704e+00    9.00000000e+00
227      1.38967264e-03    9.19503738e+00    9.00000000e+00
228      1.39438932e-03    9.07967179e+00    9.00000000e+00
229      1.39910600e-03    8.96160158e+00    9.00000000e+00
230      1.40382269e-03    8.84093044e+00    9.00000000e+00
231      1.40853937e-03    8.71776436e+00    9.00000000e+00
232      1.41325605e-03    8.59221150e+00    9.00000000e+00
233      1.41797273e-03    8.46438211e+00    8.00000000e+00
234      1.42268941e-03    8.33438847e+00    8.00000000e+00
235      1.42740610e-03    8.20234472e+00    8.00000000e+00
236      1.43212278e-03    8.06836685e+00    8.00000000e+00
237      1.43683946e-03    7.93257250e+00    8.00000000e+00
238      1.44155614e-03    7.79508094e+00    8.00000000e+00
239      1.44627282e-03    7.65601291e+00    8.00000000e+00
240      1.45098951e-03    7.51549055e+00    8.00000000e+00
241      1.45570619e-03    7.37363726e+00    7.00000000e+00
242      1.46042287e-03    7.23057761e+00    7.00000000e+00
243      1.46513955e-03    7.08643726e+00    7.00000000e+00
244      1.46985623e-03    6.94134278e+00    7.00000000e+00
245      1.47457291e-03    6.79542159e+00    7.00000000e+00
246      1.48400628e-03    6.50161234e+00    7.00000000e+00
247      1.49343964e-03    6.20604137e+00    6.00000000e+00
248      1.50287301e-03    5.90974677e+00    6.00000000e+00
249      1.50886352e-03    5.72168814e+00    6.00000000e+00
250      1.51485404e-03    5.53402376e+00    6.00000000e+00
251      1.52084456e-03    5.34701946e+00    5.00000000e+00
252      1.52683507e-03    5.16094015e+00    5.00000000e+00
253      1.53282559e-03    4.97604943e+00    5.00000000e+00
254      1.53881611e-03    4.79260920e+00    5.00000000e+00
255      1.54480663e-03    4.61087932e+00    5.00000000e+00
256      1.55079714e-03    4.43111722e+00    4.00000000e+00
257      1.55678766e-03    4.25357756e+00    4.00000000e+00
258      1.56277818e-03    4.07851181e+00    4.00000000e+00
259      1.56876869e-03    3.90616798e+00    4.00000000e+00
260      1.57475921e-03    3.73679021e+00    4.00000000e+00
261      1.58074973e-03    3.57061842e+00    4.00000000e+00
262      1.58674025e-03    3.40788802e+00    3.00000000e+00
263      1.59273076e-03    3.24882951e+00    3.00000000e+00
264      1.59872128e-03    3.09366822e+00    3.00000000e+00
265      1.60471180e-03    2.94262395e+00    3.00000000e+00
266      1.61070231e-03    2.79591065e+00    3.00000000e+00
267      1.61669283e-03    2.65373616e+00    3.00000000e+00
268      1.62268335e-03    2.51630188e+00    3.00000000e+00
269      1.62867387e-03    2.38380249e+00    2.00000000e+00
270      1.63466438e-03    2.25642568e+00    2.00000000e+00
271      1.64065490e-03    2.13435190e+00    2.00000000e+00
272      1.64664542e-03    2.01775407e+00    2.00000000e+00
273      1.65263593e-03    1.90679735e+00    2.00000000e+00
274      1.65862645e-03    1.80163893e+00    2.00000000e+00
275      1.66461697e-03    1.70242777e+00    2.00000000e+00
276      1.67060749e-03    1.60930441e+00    2.00000000e+00
277      1.67659800e-03    1.52240076e+00    2.00000000e+00
278      1.68258852e-03    1.44183993e+00    1.00000000e+00
279      1.68857904e-03    1.36773604e+00    1.00000000e+00
280      1.69456955e-03    1.30019406e+00    1.00000000e+00
281      1.70056007e-03    1.23930967e+00    1.00000000e+00
282      1.70655059e-03    1.18516912e+00    1.00000000e+00
283      1.71254111e-03    1.13784910e+00    1.00000000e+00
284      1.71853162e-03    1.09741664e+00    1.00000000e+00
285      1.72452214e-03    1.06392901e+00    1.00000000e+00
286      1.73051266e-03    1.03743367e+00    1.00000000e+00
287      1.73650317e-03    1.01796813e+00    1.00000000e+00
288      1.74249369e-03    1.00555997e+00    1.00000000e+00
289      1.74848421e-03    1.00022676e+00    1.00000000e+00
290      1.75447473e-03    1.00197608e+00    1.00000000e+00
291      1.76046524e-03    1.01080542e+00    1.00000000e+00
292      1.76645576e-03    1.02670230e+00    1.00000000e+00
293      1.77244628e-03    1.04964419e+00    1.00000000e+00
294      1.77843679e-03    1.07959858e+00    1.00000000e+00
295      1.78442731e-03    1.11652305e+00    1.00000000e+00
296      1.79041783e-03    1.16036530e+00    1.00000000e+00
297      1.79640835e-03    1.21106321e+00    1.00000000e+00
298      1.80239886e-03    1.26854497e+00    1.00000000e+00
299      1.80838938e-03    1.33272915e+00    1.00000000e+00
300      1.81437990e-03    1.40352484e+00    1.00000000e+00
301      1.82037041e-03    1.48083173e+00    1.00000000e+00
302      1.82636093e-03    1.56454034e+00    2.00000000e+00
303      1.83235145e-03    1.65453207e+00    2.00000000e+00
304      1.83834197e-03    1.75067944e+00    2.00000000e+00
305      1.84433248e-03    1.85284626e+00    2.00000000e+00
306      1.85032300e-03    1.96088780e+00    2.00000000e+00
307      1.85631352e-03    2.07465102e+00    2.00000000e+00
308      1.86230403e-03    2.19397475e+00    2.00000000e+00
309      1.86829455e-03    2.31868998e+00    2.00000000e+00
310      1.87428507e-03    2.44862002e+00    2.00000000e+00
311      1.88027559e-03    2.58358084e+00    3.00000000e+00
312      1.88626610e-03    2.72338124e+00    3.00000000e+00
313      1.89225662e-03    2.86782319e+00    3.00000000e+00
314      1.89824714e-03    3.01670207e+00    3.00000000e+00
315      1.90423765e-03    3.16980700e+00    3.00000000e+00
316      1.91022817e-03    3.32692109e+00    3.00000000e+00
317      1.91621869e-03    3.48782177e+00    3.00000000e+00
318      1.92220921e-03    3.65228112e+00    4.00000000e+00
319      1.92819972e-03    3.82006617e+00    4.00000000e+00
320      1.93419024e-03    3.99093924e+00    4.00000000e+00
321      1.94018076e-03    4.16465828e+00    4.00000000e+00
322      1.94617127e-03    4.34097721e+00    4.00000000e+00
323      1.95216179e-03    4.51964625e+00    5.00000000e+00
324      1.95815231e-03    4.70041232e+00    5.00000000e+00
325      1.96414283e-03    4.88301933e+00    5.00000000e+00
326      1.97013334e-03    5.06720863e+00    5.00000000e+00
327      1.97612386e-03    5.25271928e+00    5.00000000e+00
328      1.98211438e-03    5.43928851e+00    5.00000000e+00
329      1.98810489e-03    5.62665202e+00    6.00000000e+00
330      1.99409541e-03    5.81454441e+00    6.00000000e+00
331      2.00607645e-03    6.19085078e+00    6.00000000e+00
