Index       TIME              V(VI)             V(1)              V(2)              V(3)              V(4)              V(VO)      
0        0.00000000e+00    5.00000000e-01    1.73061377e-01    9.89799497e-01    8.45991428e-03    9.99837222e-01    7.91548026e-03
1        1.00000000e-08    5.31395260e-01    1.67898889e-01    9.89073980e-01    8.35369900e-03    9.99819863e-01    7.91207898e-03
2        1.66118375e-08    5.52092921e-01    1.58807020e-01    9.87828092e-01    8.18081340e-03    9.99792452e-01    7.90735626e-03
3        2.25624912e-08    5.70644974e-01    1.47834293e-01    9.86736910e-01    8.14444422e-03    9.99797623e-01    7.91709906e-03
4        2.85131449e-08    5.89098280e-01    1.35855005e-01    9.85881457e-01    8.21286551e-03    9.99823142e-01    7.92922648e-03
5        3.44637986e-08    6.07427047e-01    1.23335690e-01    9.85423017e-01    8.37810700e-03    9.99861031e-01    7.93462081e-03
6        4.63651061e-08    6.43608694e-01    9.98504425e-02    9.85792949e-01    8.77055804e-03    9.99920905e-01    7.92604718e-03
7        5.82664135e-08    6.78987688e-01    8.04989667e-02    9.87364745e-01    9.02529081e-03    9.99930991e-01    7.90999657e-03
8        7.01677209e-08    7.13366291e-01    6.55623031e-02    9.89449810e-01    9.06806391e-03    9.99899365e-01    7.90061720e-03
9        9.39703358e-08    7.78360398e-01    4.52060834e-02    9.93271594e-01    8.81338537e-03    9.99819666e-01    7.90421258e-03
10       1.15392689e-07    8.31580314e-01    3.36489689e-02    9.95701138e-01    8.49431938e-03    9.99780117e-01    7.91416912e-03
11       1.36815043e-07    8.78801947e-01    2.57308478e-02    9.97218906e-01    8.25293833e-03    9.99777001e-01    7.92029516e-03
12       1.58237396e-07    9.19171056e-01    2.00581272e-02    9.98116752e-01    8.11173585e-03    9.99792495e-01    7.92125147e-03
13       1.79659749e-07    9.51957365e-01    1.58826963e-02    9.98649769e-01    8.03745863e-03    9.99810152e-01    7.91962767e-03
14       2.01082103e-07    9.76567770e-01    1.27605191e-02    9.98981609e-01    7.99814014e-03    9.99823049e-01    7.91778125e-03
15       2.43926809e-07    9.99636017e-01    8.66231868e-03    9.99399426e-01    7.95759622e-03    9.99835505e-01    7.91583877e-03
16       2.86771516e-07    9.86714128e-01    6.69882178e-03    9.99653577e-01    7.93781087e-03    9.99838771e-01    7.91530379e-03
17       3.29616223e-07    9.38732902e-01    7.02242138e-03    9.99895740e-01    7.92855482e-03    9.99839245e-01    7.91530178e-03
18       3.88804717e-07    8.21596328e-01    1.43058264e-02    1.00049178e+00    7.91785962e-03    9.99838837e-01    7.91534421e-03
19       4.42074362e-07    6.77987647e-01    3.61304073e-02    1.00176615e+00    7.90287443e-03    9.99838067e-01    7.91538335e-03
20       4.74700855e-07    5.79145315e-01    6.52733080e-02    1.00345466e+00    7.90291926e-03    9.99838963e-01    7.91550320e-03
21       5.04064699e-07    4.87231761e-01    1.16005790e-01    1.00620425e+00    7.90611824e-03    9.99839635e-01    7.91542240e-03
22       5.18995945e-07    4.40464069e-01    1.60332291e-01    1.00852223e+00    7.94576645e-03    9.99845712e-01    7.91639734e-03
23       5.30598122e-07    4.04464236e-01    2.13146768e-01    1.01067137e+00    7.93473408e-03    9.99841002e-01    7.91375809e-03
24       5.42200299e-07    3.68971876e-01    2.92452465e-01    1.00962303e+00    7.26341233e-03    9.99720326e-01    7.88451870e-03
25       5.52039362e-07    3.39411083e-01    3.76920687e-01    9.97279303e-01    4.86325693e-03    9.99319212e-01    7.80627301e-03
26       5.60799157e-07    3.13605733e-01    4.59580819e-01    9.68374350e-01    7.31358691e-04    9.98711589e-01    7.74997894e-03
27       5.68370027e-07    2.91754796e-01    5.29783144e-01    9.23264356e-01   -4.27745695e-03    9.98078381e-01    7.74761721e-03
28       5.75183810e-07    2.72490385e-01    5.89077995e-01    8.61975419e-01   -9.50869372e-03    9.97535131e-01    7.79678074e-03
29       5.81997593e-07    2.53642910e-01    6.45412932e-01    7.73225799e-01   -1.56289614e-02    9.96962663e-01    7.82021648e-03
30       5.86470518e-07    2.41513784e-01    6.83864642e-01    6.91417546e-01   -2.15240593e-02    9.96259250e-01    7.66498639e-03
31       5.90496151e-07    2.30771850e-01    7.19325943e-01    5.97483919e-01   -2.73908576e-02    9.95647791e-01    7.67646039e-03
32       5.94521783e-07    2.20202153e-01    7.49454435e-01    4.93181162e-01   -2.77983350e-02    9.96459488e-01    8.57469835e-03
33       5.97729142e-07    2.11908710e-01    7.66643522e-01    4.12019146e-01   -1.94994536e-02    9.99005985e-01    9.99431450e-03
34       6.00506117e-07    2.04822515e-01    7.77581547e-01    3.47884135e-01   -3.79393530e-03    1.00283457e+00    1.14379972e-02
35       6.03283091e-07    1.97826182e-01    7.86891786e-01    2.91189470e-01    2.15221330e-02    1.00830762e+00    1.29127886e-02
36       6.06060066e-07    1.90921841e-01    7.95595148e-01    2.40928193e-01    5.94497074e-02    1.01595878e+00    1.46877171e-02
37       6.08837040e-07    1.84111594e-01    8.03289885e-01    1.92129242e-01    1.15354293e-01    1.02709009e+00    1.74134913e-02
38       6.11336317e-07    1.78064536e-01    8.10037045e-01    1.51335167e-01    1.74859519e-01    1.03867380e+00    1.89056668e-02
39       6.13585667e-07    1.72690017e-01    8.17179601e-01    1.21754500e-01    2.29012279e-01    1.04824574e+00    1.81558756e-02
40       6.15610081e-07    1.67908818e-01    8.24746131e-01    1.01829908e-01    2.77094880e-01    1.05509000e+00    1.59692569e-02
41       6.17634495e-07    1.63181347e-01    8.33286608e-01    8.79032827e-02    3.23787041e-01    1.05929320e+00    1.25691909e-02
42       6.19658910e-07    1.58508371e-01    8.42422993e-01    7.86070056e-02    3.68564498e-01    1.06021949e+00    8.32388290e-03
43       6.21683324e-07    1.53890644e-01    8.51741898e-01    7.24053296e-02    4.11069273e-01    1.05749854e+00    3.59515739e-03
44       6.23707739e-07    1.49328915e-01    8.60925466e-01    6.80762799e-02    4.51060517e-01    1.05096086e+00   -1.33200706e-03
45       6.25732153e-07    1.44823921e-01    8.69768890e-01    6.47827020e-02    4.88401262e-01    1.04059430e+00   -6.24699957e-03
46       6.27756567e-07    1.40376391e-01    8.78157532e-01    6.19985124e-02    5.23036731e-01    1.02649896e+00   -1.10024710e-02
47       6.31805396e-07    1.31656592e-01    8.93433955e-01    5.69399332e-02    5.84582870e-01    9.87800611e-01   -1.97796170e-02
48       6.35854225e-07    1.23175161e-01    9.06765335e-01    5.20531026e-02    6.37019675e-01    9.35579557e-01   -2.78164098e-02
49       6.39903054e-07    1.14937587e-01    9.18343594e-01    4.72768739e-02    6.81899055e-01    8.68959311e-01   -3.58114546e-02
50       6.43951883e-07    1.06949201e-01    9.28518395e-01    4.32924244e-02    7.23072514e-01    7.83113207e-01   -4.62490870e-02
51       6.47595829e-07    9.99769839e-02    9.36750913e-01    4.10310556e-02    7.60908221e-01    6.81252158e-01   -6.10817893e-02
52       6.50788299e-07    9.40408116e-02    9.43022975e-01    3.87173537e-02    7.90594185e-01    5.79537167e-01   -6.79350961e-02
53       6.53368245e-07    8.93628113e-02    9.47309231e-01    3.56959259e-02    8.08501212e-01    4.98495436e-01   -6.02668618e-02
54       6.55464267e-07    8.56416530e-02    9.50364107e-01    3.26638725e-02    8.18883179e-01    4.37554931e-01   -4.31687882e-02
55       6.57560290e-07    8.19923604e-02    9.53201734e-01    2.96978043e-02    8.26960718e-01    3.83010723e-01   -1.50814665e-02
56       6.59656313e-07    7.84155664e-02    9.55935247e-01    2.72202343e-02    8.34183454e-01    3.36040004e-01    2.88051745e-02
57       6.60878193e-07    7.63641652e-02    9.57502511e-01    2.60856075e-02    8.38406809e-01    3.12416205e-01    6.86584353e-02
58       6.61560439e-07    7.52296058e-02    9.58372462e-01    2.55640647e-02    8.40857508e-01    3.00576085e-01    1.03630437e-01
59       6.61902600e-07    7.46635383e-02    9.58810093e-01    2.53442268e-02    8.42155802e-01    2.95178807e-01    1.32648436e-01
60       6.62098186e-07    7.43408447e-02    9.59065083e-01    2.52499780e-02    8.42976190e-01    2.92516820e-01    1.62357059e-01
61       6.62205403e-07    7.41642219e-02    9.59212538e-01    2.52343150e-02    8.43526292e-01    2.91536783e-01    1.94496244e-01
62       6.62276480e-07    7.40472415e-02    9.59320772e-01    2.52698063e-02    8.44021454e-01    2.91491835e-01    2.35649777e-01
63       6.62340449e-07    7.39420317e-02    9.59425996e-01    2.53359501e-02    8.44565629e-01    2.91908868e-01    2.88077771e-01
64       6.62383345e-07    7.38715197e-02    9.59494116e-01    2.53705782e-02    8.44904369e-01    2.92073468e-01    3.20677326e-01
65       6.62421951e-07    7.38080854e-02    9.59551250e-01    2.53844752e-02    8.45161225e-01    2.92005153e-01    3.44151086e-01
66       6.62460557e-07    7.37446761e-02    9.59604843e-01    2.53837390e-02    8.45377188e-01    2.91752409e-01    3.62532530e-01
67       6.62537769e-07    7.36179328e-02    9.59705171e-01    2.53542015e-02    8.45730000e-01    2.90891654e-01    3.89239540e-01
68       6.62607260e-07    7.35039496e-02    9.59791008e-01    2.53097919e-02    8.45996610e-01    2.89890972e-01    4.06634177e-01
69       6.62676751e-07    7.33900478e-02    9.59874559e-01    2.52566546e-02    8.46237520e-01    2.88778850e-01    4.20516019e-01
70       6.62746242e-07    7.32762273e-02    9.59956738e-01    2.51986342e-02    8.46463287e-01    2.87603259e-01    4.32189733e-01
71       6.62815733e-07    7.31624881e-02    9.60038028e-01    2.51377597e-02    8.46679463e-01    2.86389375e-01    4.42344417e-01
72       6.62954715e-07    7.29352539e-02    9.60199009e-01    2.50119252e-02    8.47095263e-01    2.83901891e-01    4.59628816e-01
73       6.63093697e-07    7.27083454e-02    9.60358773e-01    2.48844868e-02    8.47499644e-01    2.81382801e-01    4.74271234e-01
74       6.63232679e-07    7.24817627e-02    9.60517888e-01    2.47578241e-02    8.47899278e-01    2.78861924e-01    4.87172482e-01
75       6.63371661e-07    7.22555060e-02    9.60676645e-01    2.46331674e-02    8.48297710e-01    2.76354873e-01    4.98840768e-01
76       6.63649626e-07    7.18039713e-02    9.60993590e-01    2.43919798e-02    8.49097674e-01    2.71411098e-01    5.19611501e-01
77       6.63927590e-07    7.13537428e-02    9.61310102e-01    2.41630153e-02    8.49906996e-01    2.66582442e-01    5.38027354e-01
78       6.64205554e-07    7.09048217e-02    9.61626232e-01    2.39464895e-02    8.50727886e-01    2.61876505e-01    5.54814324e-01
79       6.64761482e-07    7.00109075e-02    9.62256353e-01    2.35465333e-02    8.52399975e-01    2.52807061e-01    5.84928920e-01
80       6.65317410e-07    6.91222397e-02    9.62882281e-01    2.31848679e-02    8.54104804e-01    2.44149842e-01    6.11762025e-01
81       6.65873339e-07    6.82388289e-02    9.63502439e-01    2.28545019e-02    8.55831343e-01    2.35845974e-01    6.36170671e-01
82       6.66429267e-07    6.73606862e-02    9.64115376e-01    2.25487999e-02    8.57568224e-01    2.27837654e-01    6.58607777e-01
83       6.67541124e-07    6.56202472e-02    9.65314886e-01    2.19881912e-02    8.61032134e-01    2.12504142e-01    6.98507760e-01
84       6.68652980e-07    6.39010077e-02    9.66476472e-01    2.14784209e-02    8.64457411e-01    1.97925016e-01    7.33025253e-01
85       6.69764837e-07    6.22030516e-02    9.67598967e-01    2.10081835e-02    8.67831810e-01    1.83997853e-01    7.63150083e-01
86       6.70876693e-07    6.05264617e-02    9.68682625e-01    2.05717482e-02    8.71155748e-01    1.70680061e-01    7.89565310e-01
87       6.73100406e-07    5.72377069e-02    9.70738842e-01    1.97906690e-02    8.77693033e-01    1.45891508e-01    8.33381336e-01
88       6.75324120e-07    5.40353854e-02    9.72657020e-01    1.91337506e-02    8.84177948e-01    1.23767121e-01    8.67799199e-01
89       6.77547833e-07    5.09201223e-02    9.74446785e-01    1.85962748e-02    8.90700861e-01    1.04525338e-01    8.95023401e-01
90       6.79771546e-07    4.78925257e-02    9.76113623e-01    1.81551914e-02    8.97289011e-01    8.82036080e-02    9.16644358e-01
91       6.81995259e-07    4.49531867e-02    9.77660090e-01    1.77747842e-02    9.03903667e-01    7.46205011e-02    9.33845166e-01
92       6.84218972e-07    4.21026790e-02    9.79088588e-01    1.74186911e-02    9.10466556e-01    6.34475019e-02    9.47525611e-01
93       6.86442685e-07    3.93415591e-02    9.80403499e-01    1.70597042e-02    9.16891843e-01    5.43103870e-02    9.58388389e-01
94       6.88666398e-07    3.66703660e-02    9.81611667e-01    1.66828920e-02    9.23106051e-01    4.68571028e-02    9.66989043e-01
95       6.93113825e-07    3.15998285e-02    9.83749928e-01    1.58666523e-02    9.34677843e-01    3.56461856e-02    9.79330245e-01
96       6.97561251e-07    2.68950256e-02    9.85574781e-01    1.49975725e-02    9.44976556e-01    2.80615922e-02    9.87052277e-01
97       7.02008677e-07    2.25596308e-02    9.87146023e-01    1.41189767e-02    9.53952554e-01    2.29293200e-02    9.91745454e-01
98       7.06456104e-07    1.85970294e-02    9.88516813e-01    1.32756116e-02    9.61646231e-01    1.93845353e-02    9.94559599e-01
99       7.10903530e-07    1.50103154e-02    9.89730335e-01    1.25033134e-02    9.68161340e-01    1.68614552e-02    9.96252732e-01
100      7.15350956e-07    1.18022893e-02    9.90819278e-01    1.18223369e-02    9.73631103e-01    1.50068729e-02    9.97292927e-01
101      7.24245809e-07    6.53202291e-03    9.92721606e-01    1.07327809e-02    9.82078519e-01    1.24415928e-02    9.98477475e-01
102      7.33140661e-07    2.80268746e-03    9.94341528e-01    9.95393926e-03    9.87943112e-01    1.08439322e-02    9.99051588e-01
103      7.42035514e-07    6.25928369e-04    9.95749956e-01    9.40727040e-03    9.91928512e-01    9.83306006e-03    9.99344244e-01
104      7.50930366e-07    8.54292415e-06    9.97001836e-01    9.02172988e-03    9.94599810e-01    9.17987711e-03    9.99510609e-01
105      7.68720072e-07    3.45472908e-03    9.99210811e-01    8.52556925e-03    9.97709863e-01    8.42566615e-03    9.99701919e-01
106      7.86509777e-07    1.30982345e-02    1.00116367e+00    8.24497050e-03    9.99107852e-01    8.08751509e-03    9.99791354e-01
107      8.04299482e-07    2.88186998e-02    1.00294827e+00    8.07390710e-03    9.99654275e-01    7.95515569e-03    9.99827990e-01
108      8.22089187e-07    5.04199199e-02    1.00459347e+00    7.95091782e-03    9.99827727e-01    7.91292832e-03    9.99840112e-01
109      8.57668597e-07    1.10116184e-01    1.00705645e+00    7.72500078e-03    9.99890114e-01    7.89712284e-03    9.99844726e-01
110      8.93248007e-07    1.89216078e-01    1.00496435e+00    7.36951770e-03    9.99844383e-01    7.90386653e-03    9.99842608e-01
111      9.28827418e-07    2.83782982e-01    9.87247295e-01    6.69044314e-03    9.99775288e-01    7.91098066e-03    9.99840587e-01
112      9.57791410e-07    3.68946738e-01    9.48269300e-01    6.10487849e-03    9.99751132e-01    7.91762768e-03    9.99840391e-01
113      9.81253636e-07    4.41242645e-01    8.89486486e-01    6.36939352e-03    9.99844364e-01    7.92902721e-03    9.99841766e-01
114      1.00189355e-06    5.05948627e-01    8.04070498e-01    8.52014730e-03    1.00015269e+00    7.94894404e-03    9.99844295e-01
115      1.01382410e-06    5.43375090e-01    7.30892547e-01    1.13514129e-02    1.00050968e+00    7.96925551e-03    9.99847350e-01
116      1.02317826e-06    5.72559542e-01    6.51993887e-01    1.53431870e-02    1.00101292e+00    8.00757614e-03    9.99857361e-01
117      1.03159702e-06    5.98614162e-01    5.57527313e-01    2.30094364e-02    1.00209403e+00    8.14370833e-03    9.99906557e-01
118      1.03917389e-06    6.21829520e-01    4.56995163e-01    4.06256861e-02    1.00486968e+00    8.58780821e-03    1.00007628e+00
119      1.04439941e-06    6.37682684e-01    3.84489007e-01    6.53262464e-02    1.00892518e+00    9.26176314e-03    1.00032613e+00
120      1.04910238e-06    6.51824125e-01    3.21341465e-01    1.04060219e-01    1.01544171e+00    1.03384119e-02    1.00071141e+00
121      1.05333506e-06    6.64438433e-01    2.63842370e-01    1.60350770e-01    1.02528881e+00    1.19505278e-02    1.00127877e+00
122      1.05714446e-06    6.75692129e-01    2.13085354e-01    2.25779288e-01    1.03625200e+00    1.31355964e-02    1.00136177e+00
123      1.06095387e-06    6.86845177e-01    1.70285796e-01    2.97422590e-01    1.04491301e+00    1.26103917e-02    1.00025873e+00
124      1.06411233e-06    6.96011538e-01    1.42931838e-01    3.58113937e-01    1.04735247e+00    1.04235365e-02    9.98511649e-01
125      1.06727080e-06    7.05100706e-01    1.23309728e-01    4.17056388e-01    1.04320715e+00    6.68486067e-03    9.96391533e-01
126      1.07042927e-06    7.14109101e-01    1.09751218e-01    4.72575523e-01    1.03135164e+00    1.82888878e-03    9.94396034e-01
127      1.07358773e-06    7.23033175e-01    1.00183713e-01    5.23675188e-01    1.01141994e+00   -3.65784270e-03    9.92846997e-01
128      1.07674620e-06    7.31869414e-01    9.30003908e-02    5.70093555e-01    9.83406413e-01   -9.41350377e-03    9.91829182e-01
129      1.07990467e-06    7.40614339e-01    8.71211893e-02    6.11742176e-01    9.47382414e-01   -1.52215234e-02    9.91272534e-01
130      1.08306313e-06    7.49264505e-01    8.19217401e-02    6.48796698e-01    9.03171413e-01   -2.09974551e-02    9.91031962e-01
131      1.08805270e-06    7.62728200e-01    7.48197104e-02    7.01000825e-01    8.13534408e-01   -3.05826825e-02    9.90616211e-01
132      1.09160376e-06    7.72153760e-01    7.10557487e-02    7.37363375e-01    7.28426258e-01   -3.96886808e-02    9.89006226e-01
133      1.09479972e-06    7.80521061e-01    6.83360520e-02    7.69855934e-01    6.33988571e-01   -4.89477054e-02    9.87441647e-01
134      1.09725715e-06    7.86878106e-01    6.55918325e-02    7.90852195e-01    5.55661516e-01   -5.27998773e-02    9.89152622e-01
135      1.09946885e-06    7.92541013e-01    6.22786253e-02    8.05086407e-01    4.85698453e-01   -5.15287393e-02    9.93879621e-01
136      1.10168054e-06    7.98147427e-01    5.84014178e-02    8.15152998e-01    4.19963327e-01   -4.45180422e-02    1.00151096e+00
137      1.10389223e-06    8.03696267e-01    5.45232054e-02    8.22681806e-01    3.60464802e-01   -3.13375254e-02    1.01132430e+00
138      1.10610393e-06    8.09186460e-01    5.10671486e-02    8.29196671e-01    3.07950922e-01   -1.16170606e-02    1.02282415e+00
139      1.10831562e-06    8.14616946e-01    4.81777306e-02    8.35533924e-01    2.62101349e-01    1.55696685e-02    1.03620545e+00
140      1.11052731e-06    8.19986678e-01    4.57547660e-02    8.41760479e-01    2.20950396e-01    5.28225092e-02    1.05308165e+00
141      1.11273901e-06    8.25294616e-01    4.35066739e-02    8.47155132e-01    1.80203506e-01    1.04889607e-01    1.07720556e+00
142      1.11472953e-06    8.30018081e-01    4.17424431e-02    8.51842779e-01    1.45606694e-01    1.58622508e-01    1.10106097e+00
143      1.11652100e-06    8.34225085e-01    4.05767215e-02    8.56874327e-01    1.19713614e-01    2.05750835e-01    1.11748228e+00
144      1.11812959e-06    8.37966553e-01    3.98541019e-02    8.62223732e-01    1.01342887e-01    2.46058879e-01    1.12569009e+00
145      1.11973818e-06    8.41673497e-01    3.93606594e-02    8.68298439e-01    8.74485816e-02    2.84182430e-01    1.12677716e+00
146      1.12134677e-06    8.45345538e-01    3.89899877e-02    8.74876631e-01    7.73055007e-02    3.20085476e-01    1.12097030e+00
147      1.12456395e-06    8.52583416e-01    3.82271148e-02    8.88399207e-01    6.41903007e-02    3.85429204e-01    1.09226713e+00
148      1.12745942e-06    8.58974413e-01    3.73209292e-02    9.00159189e-01    5.72700104e-02    4.37670013e-01    1.05108905e+00
149      1.13035488e-06    8.65246603e-01    3.61479679e-02    9.11000425e-01    5.25445569e-02    4.83967836e-01    9.98911593e-01
