Index       TIME              V(N1)           V(N1,N2)          V(N1,N3)      I(YMEMRISTOR!MR1)     I(RPTG2)      N(YMEMRISTOR!MR1_X)       V(N4)      
0        0.00000000e+00    0.00000000e+00    0.00000000e+00    0.00000000e+00    0.00000000e+00    0.00000000e+00    0.00000000e+00    1.10000000e-01
1        5.00000000e-13    0.00000000e+00    0.00000000e+00    0.00000000e+00    0.00000000e+00    0.00000000e+00    1.10000000e-01    1.10000000e-01
2        5.15625000e-13    0.00000000e+00    0.00000000e+00    0.00000000e+00    0.00000000e+00    0.00000000e+00    1.10000000e-01    1.10000000e-01
3        5.31250000e-13    0.00000000e+00    0.00000000e+00    0.00000000e+00    0.00000000e+00    0.00000000e+00    1.10000000e-01    1.10000000e-01
4        5.43754472e-13    0.00000000e+00    0.00000000e+00    0.00000000e+00    0.00000000e+00    0.00000000e+00    1.10000000e-01    1.10000000e-01
5        5.68763417e-13    0.00000000e+00    0.00000000e+00    0.00000000e+00    0.00000000e+00    0.00000000e+00    1.10000000e-01    1.10000000e-01
6        6.18781306e-13    0.00000000e+00    0.00000000e+00    0.00000000e+00    0.00000000e+00    0.00000000e+00    1.10000000e-01    1.10000000e-01
7        7.18817083e-13    0.00000000e+00    0.00000000e+00    0.00000000e+00    0.00000000e+00    0.00000000e+00    1.10000000e-01    1.10000000e-01
8        9.18888639e-13    0.00000000e+00    0.00000000e+00    0.00000000e+00    0.00000000e+00    0.00000000e+00    1.10000000e-01    1.10000000e-01
9        1.31903175e-12    0.00000000e+00    0.00000000e+00    0.00000000e+00    0.00000000e+00    0.00000000e+00    1.10000000e-01    1.10000000e-01
10       2.11931797e-12    0.00000000e+00    0.00000000e+00    0.00000000e+00    0.00000000e+00    0.00000000e+00    1.10000000e-01    1.10000000e-01
11       3.71989042e-12    0.00000000e+00    0.00000000e+00    0.00000000e+00    0.00000000e+00    0.00000000e+00    1.10000000e-01    1.10000000e-01
12       6.92103531e-12    0.00000000e+00    0.00000000e+00    0.00000000e+00    0.00000000e+00    0.00000000e+00    1.10000000e-01    1.10000000e-01
13       1.33233251e-11    0.00000000e+00    0.00000000e+00    0.00000000e+00    0.00000000e+00    0.00000000e+00    1.10000000e-01    1.10000000e-01
14       2.61279046e-11    0.00000000e+00    0.00000000e+00    0.00000000e+00    0.00000000e+00    0.00000000e+00    1.10000000e-01    1.10000000e-01
15       5.17370638e-11    0.00000000e+00    0.00000000e+00    0.00000000e+00    0.00000000e+00    0.00000000e+00    1.10000000e-01    1.10000000e-01
16       1.00000000e-10    0.00000000e+00    0.00000000e+00    0.00000000e+00    0.00000000e+00    0.00000000e+00    1.10000000e-01    1.10000000e-01
17       1.05121832e-10    0.00000000e+00    0.00000000e+00    0.00000000e+00    0.00000000e+00    0.00000000e+00    1.10000000e-01    1.10000000e-01
18       1.15365495e-10    0.00000000e+00    0.00000000e+00    0.00000000e+00    0.00000000e+00    0.00000000e+00    1.10000000e-01    1.10000000e-01
19       1.35852823e-10    0.00000000e+00    0.00000000e+00    0.00000000e+00    0.00000000e+00    0.00000000e+00    1.10000000e-01    1.10000000e-01
20       1.76827477e-10    0.00000000e+00    0.00000000e+00    0.00000000e+00    0.00000000e+00    0.00000000e+00    1.10000000e-01    1.10000000e-01
21       2.58776787e-10    0.00000000e+00    0.00000000e+00    0.00000000e+00    0.00000000e+00    0.00000000e+00    1.10000000e-01    1.10000000e-01
22       4.22675405e-10    0.00000000e+00    0.00000000e+00    0.00000000e+00    0.00000000e+00    0.00000000e+00    1.10000000e-01    1.10000000e-01
23       7.50472642e-10    0.00000000e+00    0.00000000e+00    0.00000000e+00    0.00000000e+00    0.00000000e+00    1.10000000e-01    1.10000000e-01
24       1.40606711e-09    0.00000000e+00    0.00000000e+00    0.00000000e+00    0.00000000e+00    0.00000000e+00    1.10000000e-01    1.10000000e-01
25       2.71725606e-09    0.00000000e+00    0.00000000e+00    0.00000000e+00    0.00000000e+00    0.00000000e+00    1.10000000e-01    1.10000000e-01
26       5.33963395e-09    0.00000000e+00    0.00000000e+00    0.00000000e+00    0.00000000e+00    0.00000000e+00    1.10000000e-01    1.10000000e-01
27       1.05843897e-08    0.00000000e+00    0.00000000e+00    0.00000000e+00    0.00000000e+00    0.00000000e+00    1.10000000e-01    1.10000000e-01
28       2.10739013e-08    0.00000000e+00    0.00000000e+00    0.00000000e+00    0.00000000e+00    0.00000000e+00    1.10000000e-01    1.10000000e-01
29       4.20529245e-08    0.00000000e+00    0.00000000e+00    0.00000000e+00    0.00000000e+00    0.00000000e+00    1.10000000e-01    1.10000000e-01
30       8.40109708e-08    0.00000000e+00    0.00000000e+00    0.00000000e+00    0.00000000e+00    0.00000000e+00    1.10000000e-01    1.10000000e-01
31       1.67927063e-07    0.00000000e+00    0.00000000e+00    0.00000000e+00    0.00000000e+00    0.00000000e+00    1.10000000e-01    1.10000000e-01
32       3.35759249e-07    0.00000000e+00    0.00000000e+00    0.00000000e+00    0.00000000e+00    0.00000000e+00    1.10000000e-01    1.10000000e-01
33       6.71423619e-07    0.00000000e+00    0.00000000e+00    0.00000000e+00    0.00000000e+00    0.00000000e+00    1.10000000e-01    1.10000000e-01
34       1.34275236e-06    0.00000000e+00    0.00000000e+00    0.00000000e+00    0.00000000e+00    0.00000000e+00    1.10000000e-01    1.10000000e-01
35       2.68540984e-06    0.00000000e+00    0.00000000e+00    0.00000000e+00    0.00000000e+00    0.00000000e+00    1.10000000e-01    1.10000000e-01
36       5.37072480e-06    0.00000000e+00    0.00000000e+00    0.00000000e+00    0.00000000e+00    0.00000000e+00    1.10000000e-01    1.10000000e-01
37       1.00000000e-05    0.00000000e+00    0.00000000e+00    0.00000000e+00    0.00000000e+00    0.00000000e+00    1.10000000e-01    1.10000000e-01
38       1.00001000e-05    0.00000000e+00    0.00000000e+00    0.00000000e+00    0.00000000e+00    0.00000000e+00    1.10000000e-01    1.10000000e-01
39       1.00003000e-05    0.00000000e+00    0.00000000e+00    0.00000000e+00    0.00000000e+00    0.00000000e+00    1.10000000e-01    1.10000000e-01
40       1.00007000e-05    0.00000000e+00    0.00000000e+00    0.00000000e+00    0.00000000e+00    0.00000000e+00    1.10000000e-01    1.10000000e-01
41       1.00010000e-05    0.00000000e+00    0.00000000e+00    0.00000000e+00    0.00000000e+00    0.00000000e+00    1.10000000e-01    1.10000000e-01
42       1.00010800e-05    0.00000000e+00    0.00000000e+00    0.00000000e+00    0.00000000e+00    0.00000000e+00    1.10000000e-01    1.10000000e-01
43       1.00012400e-05    0.00000000e+00    0.00000000e+00    0.00000000e+00    0.00000000e+00    0.00000000e+00    1.10000000e-01    1.10000000e-01
44       1.00015600e-05    0.00000000e+00    0.00000000e+00    0.00000000e+00    0.00000000e+00    0.00000000e+00    1.10000000e-01    1.10000000e-01
45       1.00022000e-05    0.00000000e+00    0.00000000e+00    0.00000000e+00    0.00000000e+00    0.00000000e+00    1.10000000e-01    1.10000000e-01
46       1.00034800e-05    0.00000000e+00    0.00000000e+00    0.00000000e+00    0.00000000e+00    0.00000000e+00    1.10000000e-01    1.10000000e-01
47       1.00060400e-05    0.00000000e+00    0.00000000e+00    0.00000000e+00    0.00000000e+00    0.00000000e+00    1.10000000e-01    1.10000000e-01
48       1.00111600e-05    0.00000000e+00    0.00000000e+00    0.00000000e+00    0.00000000e+00    0.00000000e+00    1.10000000e-01    1.10000000e-01
49       1.00214000e-05    0.00000000e+00    0.00000000e+00    0.00000000e+00    0.00000000e+00    0.00000000e+00    1.10000000e-01    1.10000000e-01
50       1.00418800e-05    0.00000000e+00    0.00000000e+00    0.00000000e+00    0.00000000e+00    0.00000000e+00    1.10000000e-01    1.10000000e-01
51       1.00828400e-05    0.00000000e+00    0.00000000e+00    0.00000000e+00    0.00000000e+00    0.00000000e+00    1.10000000e-01    1.10000000e-01
52       1.01647600e-05    0.00000000e+00    0.00000000e+00    0.00000000e+00    0.00000000e+00    0.00000000e+00    1.10000000e-01    1.10000000e-01
53       1.03286000e-05    0.00000000e+00    0.00000000e+00    0.00000000e+00    0.00000000e+00    0.00000000e+00    1.10000000e-01    1.10000000e-01
54       1.06562800e-05    0.00000000e+00    0.00000000e+00    0.00000000e+00    0.00000000e+00    0.00000000e+00    1.10000000e-01    1.10000000e-01
55       1.13116400e-05    0.00000000e+00    0.00000000e+00    0.00000000e+00    0.00000000e+00    0.00000000e+00    1.10000000e-01    1.10000000e-01
56       1.26223600e-05    0.00000000e+00    0.00000000e+00    0.00000000e+00    0.00000000e+00    0.00000000e+00    1.10000000e-01    1.10000000e-01
57       1.52438000e-05    0.00000000e+00    0.00000000e+00    0.00000000e+00    0.00000000e+00    0.00000000e+00    1.10000000e-01    1.10000000e-01
58       2.00000000e-05    0.00000000e+00    0.00000000e+00    0.00000000e+00    0.00000000e+00    0.00000000e+00    1.10000000e-01    1.10000000e-01
59       2.00000016e-05    4.68750000e-03    4.47814664e-03    4.47814664e-03    4.18706715e-06    4.18706715e-06    1.10000000e-01    1.10000000e-01
60       2.00000031e-05    9.37500000e-03    8.95629328e-03    8.95629328e-03    8.37413450e-06    8.37413449e-06    1.10000000e-01    1.10000000e-01
61       2.00000063e-05    1.87500000e-02    1.79125865e-02    1.79125865e-02    1.67482706e-05    1.67482706e-05    1.10000000e-01    1.10000000e-01
62       2.00000125e-05    3.75000000e-02    3.58251723e-02    3.58251723e-02    3.34965540e-05    3.34965540e-05    1.10000000e-01    1.10000000e-01
63       2.00000250e-05    7.50000000e-02    7.16503395e-02    7.16503395e-02    6.69932107e-05    6.69932107e-05    1.10000000e-01    1.10000000e-01
64       2.00000500e-05    1.50000000e-01    1.43300638e-01    1.43300638e-01    1.33987243e-04    1.33987243e-04    1.10000000e-01    1.10000000e-01
65       2.00001000e-05    3.00000000e-01    2.86600949e-01    2.86600945e-01    2.67981097e-04    2.67981094e-04    1.10000016e-01    1.10000016e-01
66       2.00002000e-05    6.00000000e-01    5.73199264e-01    5.73199227e-01    5.36015501e-04    5.36015466e-04    1.10000168e-01    1.10000168e-01
67       2.00004000e-05    1.20000000e+00    1.14637736e+00    1.14637694e+00    1.07246152e-03    1.07246113e-03    1.10001197e-01    1.10001197e-01
68       2.00008000e-05    2.40000000e+00    2.29258660e+00    2.29257760e+00    2.14845649e-03    2.14844802e-03    1.10009757e-01    1.10009757e-01
69       2.00010000e-05    3.00000000e+00    2.86555496e+00    2.86555241e+00    2.68895427e-03    2.68895185e-03    1.10019802e-01    1.10019802e-01
70       2.00010800e-05    3.00000000e+00    2.86555853e+00    2.86554629e+00    2.68908579e-03    2.68907422e-03    1.10025046e-01    1.10025045e-01
71       2.00012400e-05    3.00000000e+00    2.86553405e+00    2.86553405e+00    2.68931895e-03    2.68931895e-03    1.10035532e-01    1.10035532e-01
72       2.00015600e-05    3.00000000e+00    2.86550958e+00    2.86550958e+00    2.68980840e-03    2.68980840e-03    1.10056504e-01    1.10056504e-01
73       2.00022000e-05    3.00000000e+00    2.86546063e+00    2.86546064e+00    2.69078723e-03    2.69078723e-03    1.10098447e-01    1.10098447e-01
74       2.00034800e-05    3.00000000e+00    2.86536276e+00    2.86536277e+00    2.69274463e-03    2.69274463e-03    1.10182327e-01    1.10182327e-01
75       2.00060400e-05    3.00000000e+00    2.86516705e+00    2.86516708e+00    2.69665840e-03    2.69665842e-03    1.10350060e-01    1.10350060e-01
76       2.00111600e-05    3.00000000e+00    2.86477581e+00    2.86477590e+00    2.70448184e-03    2.70448193e-03    1.10685421e-01    1.10685421e-01
77       2.00214000e-05    3.00000000e+00    2.86399397e+00    2.86399437e+00    2.72011229e-03    2.72011267e-03    1.11355722e-01    1.11355722e-01
78       2.00418800e-05    3.00000000e+00    2.86243298e+00    2.86243454e+00    2.75130774e-03    2.75130929e-03    1.12694640e-01    1.12694642e-01
79       2.00828400e-05    3.00000000e+00    2.85932160e+00    2.85932777e+00    2.81343826e-03    2.81344467e-03    1.15365783e-01    1.15365796e-01
80       2.01647600e-05    3.00000000e+00    2.85314105e+00    2.85316515e+00    2.93666959e-03    2.93669697e-03    1.20681545e-01    1.20681643e-01
81       2.03286000e-05    3.00000000e+00    2.84094647e+00    2.84103861e+00    3.17910578e-03    3.17922785e-03    1.31208959e-01    1.31209712e-01
82       2.06562800e-05    3.00000000e+00    2.81720579e+00    2.81754254e+00    3.64857794e-03    3.64914917e-03    1.51862622e-01    1.51868102e-01
83       2.13116400e-05    3.00000000e+00    2.77365041e+00    2.77330990e+00    4.53422747e-03    4.53380195e-03    1.91708526e-01    1.91714244e-01
84       2.19670000e-05    3.00000000e+00    2.73202206e+00    2.73235020e+00    5.35222800e-03    5.35299607e-03    2.29763835e-01    2.29769015e-01
85       2.32777200e-05    3.00000000e+00    2.65895177e+00    2.65863288e+00    6.82803061e-03    6.82734233e-03    3.01222538e-01    3.01228537e-01
86       2.45884400e-05    3.00000000e+00    2.59776250e+00    2.59810419e+00    8.03677205e-03    8.03791616e-03    3.62946665e-01    3.62950300e-01
87       2.58991600e-05    3.00000000e+00    2.55109114e+00    2.55076912e+00    8.98564453e-03    8.98461760e-03    4.13263737e-01    4.13268981e-01
88       2.72098800e-05    3.00000000e+00    2.51196629e+00    2.51228116e+00    9.75307437e-03    9.75437685e-03    4.55583069e-01    4.55586477e-01
89       2.85206000e-05    3.00000000e+00    2.48042457e+00    2.48011063e+00    1.03990282e-02    1.03977874e-02    4.91965947e-01    4.91969858e-01
90       2.98313200e-05    3.00000000e+00    2.45235257e+00    2.45265928e+00    1.09453799e-02    1.09468144e-02    5.23770793e-01    5.23773572e-01
91       3.24527600e-05    3.00000000e+00    2.40810049e+00    2.40773477e+00    1.18470569e-02    1.18453047e-02    5.77388455e-01    5.77391196e-01
92       3.50742000e-05    3.00000000e+00    2.37211407e+00    2.37247985e+00    1.25484422e-02    1.25504029e-02    6.20894152e-01    6.20894950e-01
93       3.76956400e-05    3.00000000e+00    2.34421689e+00    2.34385592e+00    1.31248738e-02    1.31228816e-02    6.57180178e-01    6.57182113e-01
94       4.00000000e-05    3.00000000e+00    2.32236312e+00    2.32271973e+00    1.35434965e-02    1.35456054e-02    6.84551653e-01    6.84552628e-01
95       4.00001000e-05    3.00000000e+00    2.32272135e+00    2.32271891e+00    1.35456169e-02    1.35456219e-02    6.84552761e-01    6.84553736e-01
96       4.00003000e-05    3.00000000e+00    2.32271796e+00    2.32271721e+00    1.35456409e-02    1.35456558e-02    6.84554978e-01    6.84555952e-01
97       4.00007000e-05    3.00000000e+00    2.32271456e+00    2.32271382e+00    1.35457087e-02    1.35457236e-02    6.84559410e-01    6.84560384e-01
98       4.00010000e-05    3.00000000e+00    2.32271202e+00    2.32271127e+00    1.35457596e-02    1.35457745e-02    6.84562734e-01    6.84563708e-01
99       4.00010800e-05    3.00000000e+00    2.32271270e+00    2.32271060e+00    1.35457811e-02    1.35457881e-02    6.84563620e-01    6.84564594e-01
100      4.00012400e-05    3.00000000e+00    2.32270998e+00    2.32270924e+00    1.35458003e-02    1.35458152e-02    6.84565393e-01    6.84566367e-01
101      4.00015600e-05    3.00000000e+00    2.32270727e+00    2.32270653e+00    1.35458546e-02    1.35458695e-02    6.84568938e-01    6.84569913e-01
102      4.00022000e-05    3.00000000e+00    2.32270185e+00    2.32270110e+00    1.35459631e-02    1.35459780e-02    6.84576029e-01    6.84577004e-01
103      4.00034800e-05    3.00000000e+00    2.32269099e+00    2.32269025e+00    1.35461801e-02    1.35461950e-02    6.84590210e-01    6.84591184e-01
104      4.00060400e-05    3.00000000e+00    2.32266929e+00    2.32266855e+00    1.35466141e-02    1.35466290e-02    6.84618569e-01    6.84619543e-01
105      4.00111600e-05    3.00000000e+00    2.32262590e+00    2.32262516e+00    1.35474819e-02    1.35474968e-02    6.84675275e-01    6.84676248e-01
106      4.00214000e-05    3.00000000e+00    2.32253913e+00    2.32253842e+00    1.35492165e-02    1.35492316e-02    6.84788637e-01    6.84789610e-01
107      4.00418800e-05    3.00000000e+00    2.32236574e+00    2.32236511e+00    1.35526822e-02    1.35526978e-02    6.85015168e-01    6.85016140e-01
108      4.00828400e-05    3.00000000e+00    2.32201943e+00    2.32201916e+00    1.35595992e-02    1.35596168e-02    6.85467456e-01    6.85468426e-01
109      4.01647600e-05    3.00000000e+00    2.32132879e+00    2.32132993e+00    1.35733756e-02    1.35734014e-02    6.86368948e-01    6.86369914e-01
110      4.03286000e-05    3.00000000e+00    2.31995539e+00    2.31996202e+00    1.36007013e-02    1.36007595e-02    6.88159707e-01    6.88160675e-01
111      4.06562800e-05    3.00000000e+00    2.31723981e+00    2.31726761e+00    1.36544632e-02    1.36546479e-02    6.91693187e-01    6.91694208e-01
112      4.13116400e-05    3.00000000e+00    2.31193190e+00    2.31203798e+00    1.37585768e-02    1.37592405e-02    6.98574559e-01    6.98576059e-01
113      4.26223600e-05    3.00000000e+00    2.30179447e+00    2.30216909e+00    1.39542422e-02    1.39566183e-02    7.11643456e-01    7.11648266e-01
114      4.52438000e-05    3.00000000e+00    2.28488711e+00    2.28448042e+00    1.43128626e-02    1.43103917e-02    7.35357489e-01    7.35362035e-01
115      4.78652400e-05    3.00000000e+00    2.26870323e+00    2.26910185e+00    1.46153165e-02    1.46179631e-02    7.56276531e-01    7.56279997e-01
116      5.00000000e-05    3.00000000e+00    2.25840131e+00    2.25798580e+00    1.48429624e-02    1.48402840e-02    7.71574721e-01    7.71578093e-01
117      5.00000063e-05    2.98125000e+00    2.24389042e+00    2.24388800e+00    1.47471916e-02    1.47472401e-02    7.71574763e-01    7.71578135e-01
118      5.00000125e-05    2.96250000e+00    2.22979235e+00    2.22978994e+00    1.46541530e-02    1.46542011e-02    7.71574804e-01    7.71578176e-01
119      5.00000250e-05    2.92500000e+00    2.20159540e+00    2.20159302e+00    1.44680920e-02    1.44681395e-02    7.71574886e-01    7.71578258e-01
120      5.00000500e-05    2.85000000e+00    2.14519827e+00    2.14519596e+00    1.40960344e-02    1.40960808e-02    7.71575041e-01    7.71578413e-01
121      5.00001000e-05    2.70000000e+00    2.03239152e+00    2.03238934e+00    1.33521693e-02    1.33522133e-02    7.71575323e-01    7.71578694e-01
122      5.00002000e-05    2.40000000e+00    1.80673107e+00    1.80672916e+00    1.18653775e-02    1.18654168e-02    7.71575786e-01    7.71579158e-01
123      5.00004000e-05    1.80000000e+00    1.35524714e+00    1.35524573e+00    8.89505577e-03    8.89508537e-03    7.71576407e-01    7.71579778e-01
124      5.00008000e-05    6.00000000e-01    4.51824909e-01    4.51824406e-01    2.96350224e-03    2.96351189e-03    7.71576912e-01    7.71580284e-01
125      5.00010000e-05    0.00000000e+00   -1.56873121e-08   -1.23922714e-12   -1.02883731e-10    2.47845428e-14    7.71576944e-01    7.71580316e-01
126      5.00010800e-05    0.00000000e+00    0.00000000e+00    0.00000000e+00    0.00000000e+00    0.00000000e+00    7.71576944e-01    7.71580316e-01
127      5.00012400e-05    0.00000000e+00    0.00000000e+00    0.00000000e+00    0.00000000e+00    0.00000000e+00    7.71576944e-01    7.71580316e-01
128      5.00015600e-05    0.00000000e+00    0.00000000e+00    0.00000000e+00    0.00000000e+00    0.00000000e+00    7.71576944e-01    7.71580316e-01
129      5.00022000e-05    0.00000000e+00    0.00000000e+00    0.00000000e+00    0.00000000e+00    0.00000000e+00    7.71576944e-01    7.71580316e-01
130      5.00034800e-05    0.00000000e+00    0.00000000e+00    0.00000000e+00    0.00000000e+00    0.00000000e+00    7.71576944e-01    7.71580316e-01
131      5.00060400e-05    0.00000000e+00    0.00000000e+00    0.00000000e+00    0.00000000e+00    0.00000000e+00    7.71576944e-01    7.71580316e-01
