#H
SOURCE='PSPICE' VERSION='PSpice 16.6.0 (October 2012)'
TITLE='*Test of Xyce's core model using openly available PSPICE core data for'
SUBTITLE=''
TIME='14:39:30' DATE='11/14/13' TEMPERATURE='2.700E01'
ANALYSIS='Transient Analysis' SERIALNO='61413'
ALLVALUES='NO' COMPLEXVALUES='NO' NODES='13'
SWEEPVAR='Time' SWEEPMODE='VAR_STEP'
XBEGIN='0.000E00' XEND='4.000E00'
FORMAT='0 VOLTSorAMPS;EFLOAT : NODEorBRANCH;NODE  '
DGTLDATA='NO' 
#N 
'V(1)' 'H(ktrans1)' 'B(ktrans1)' 'I(Rt1)' 'I(Lp1)' 'I(I3)' 'I(I2)' 'I(I1)' 'W(Rt1)' 'W(Lp1)' 'W(I3)' 'W(I2)' 'W(I1)' 
#C 0.0000000000E00 13
0.000E00:1 0.000E00:2 0.000E00:3 0.000E00:4 0.000E00:5 0.000E00:6 0.000E00:7 0.000E00:8 0.000E00:9 0.000E00:a 0.000E00:b 
0.000E00:c 0.000E00:d 
#C 1.0000000000E-04 13
0.000E00:1 0.000E00:2 0.000E00:3 0.000E00:4 0.000E00:5 0.000E00:6 0.000E00:7 0.000E00:8 0.000E00:9 0.000E00:a 0.000E00:b 
0.000E00:c 0.000E00:d 
#C 2.0000000000E-04 13
0.000E00:1 0.000E00:2 0.000E00:3 0.000E00:4 0.000E00:5 0.000E00:6 0.000E00:7 0.000E00:8 0.000E00:9 0.000E00:a 0.000E00:b 
0.000E00:c 0.000E00:d 
#C 4.0000000000E-04 13
0.000E00:1 0.000E00:2 0.000E00:3 0.000E00:4 0.000E00:5 0.000E00:6 0.000E00:7 0.000E00:8 0.000E00:9 0.000E00:a 0.000E00:b 
0.000E00:c 0.000E00:d 
#C 8.0000000000E-04 13
0.000E00:1 0.000E00:2 0.000E00:3 0.000E00:4 0.000E00:5 0.000E00:6 0.000E00:7 0.000E00:8 0.000E00:9 0.000E00:a 0.000E00:b 
0.000E00:c 0.000E00:d 
#C 1.6000000000E-03 13
0.000E00:1 0.000E00:2 0.000E00:3 0.000E00:4 0.000E00:5 0.000E00:6 0.000E00:7 0.000E00:8 0.000E00:9 0.000E00:a 0.000E00:b 
0.000E00:c 0.000E00:d 
#C 3.2000000000E-03 13
0.000E00:1 0.000E00:2 0.000E00:3 0.000E00:4 0.000E00:5 0.000E00:6 0.000E00:7 0.000E00:8 0.000E00:9 0.000E00:a 0.000E00:b 
0.000E00:c 0.000E00:d 
#C 6.4000000000E-03 13
0.000E00:1 0.000E00:2 0.000E00:3 0.000E00:4 0.000E00:5 0.000E00:6 0.000E00:7 0.000E00:8 0.000E00:9 0.000E00:a 0.000E00:b 
0.000E00:c 0.000E00:d 
#C 1.2800000000E-02 13
0.000E00:1 0.000E00:2 0.000E00:3 0.000E00:4 0.000E00:5 0.000E00:6 0.000E00:7 0.000E00:8 0.000E00:9 0.000E00:a 0.000E00:b 
0.000E00:c 0.000E00:d 
#C 2.2800000000E-02 13
0.000E00:1 0.000E00:2 0.000E00:3 0.000E00:4 0.000E00:5 0.000E00:6 0.000E00:7 0.000E00:8 0.000E00:9 0.000E00:a 0.000E00:b 
0.000E00:c 0.000E00:d 
#C 3.2800000000E-02 13
0.000E00:1 0.000E00:2 0.000E00:3 0.000E00:4 0.000E00:5 0.000E00:6 0.000E00:7 0.000E00:8 0.000E00:9 0.000E00:a 0.000E00:b 
0.000E00:c 0.000E00:d 
#C 4.2800000000E-02 13
0.000E00:1 0.000E00:2 0.000E00:3 0.000E00:4 0.000E00:5 0.000E00:6 0.000E00:7 0.000E00:8 0.000E00:9 0.000E00:a 0.000E00:b 
0.000E00:c 0.000E00:d 
#C 5.2800000000E-02 13
0.000E00:1 0.000E00:2 0.000E00:3 0.000E00:4 0.000E00:5 0.000E00:6 0.000E00:7 0.000E00:8 0.000E00:9 0.000E00:a 0.000E00:b 
0.000E00:c 0.000E00:d 
#C 6.2800000000E-02 13
0.000E00:1 0.000E00:2 0.000E00:3 0.000E00:4 0.000E00:5 0.000E00:6 0.000E00:7 0.000E00:8 0.000E00:9 0.000E00:a 0.000E00:b 
0.000E00:c 0.000E00:d 
#C 7.2800000000E-02 13
0.000E00:1 0.000E00:2 0.000E00:3 0.000E00:4 0.000E00:5 0.000E00:6 0.000E00:7 0.000E00:8 0.000E00:9 0.000E00:a 0.000E00:b 
0.000E00:c 0.000E00:d 
#C 8.2800000000E-02 13
0.000E00:1 0.000E00:2 0.000E00:3 0.000E00:4 0.000E00:5 0.000E00:6 0.000E00:7 0.000E00:8 0.000E00:9 0.000E00:a 0.000E00:b 
0.000E00:c 0.000E00:d 
#C 9.2800000000E-02 13
0.000E00:1 0.000E00:2 0.000E00:3 0.000E00:4 0.000E00:5 0.000E00:6 0.000E00:7 0.000E00:8 0.000E00:9 0.000E00:a 0.000E00:b 
0.000E00:c 0.000E00:d 
#C 1.0280000000E-01 13
0.000E00:1 0.000E00:2 0.000E00:3 0.000E00:4 0.000E00:5 0.000E00:6 0.000E00:7 0.000E00:8 0.000E00:9 0.000E00:a 0.000E00:b 
0.000E00:c 0.000E00:d 
#C 1.1280000000E-01 13
0.000E00:1 0.000E00:2 0.000E00:3 0.000E00:4 0.000E00:5 0.000E00:6 0.000E00:7 0.000E00:8 0.000E00:9 0.000E00:a 0.000E00:b 
0.000E00:c 0.000E00:d 
#C 1.2280000000E-01 13
0.000E00:1 0.000E00:2 0.000E00:3 0.000E00:4 0.000E00:5 0.000E00:6 0.000E00:7 0.000E00:8 0.000E00:9 0.000E00:a 0.000E00:b 
0.000E00:c 0.000E00:d 
#C 1.3280000000E-01 13
0.000E00:1 0.000E00:2 0.000E00:3 0.000E00:4 0.000E00:5 0.000E00:6 0.000E00:7 0.000E00:8 0.000E00:9 0.000E00:a 0.000E00:b 
0.000E00:c 0.000E00:d 
#C 1.4280000000E-01 13
0.000E00:1 0.000E00:2 0.000E00:3 0.000E00:4 0.000E00:5 0.000E00:6 0.000E00:7 0.000E00:8 0.000E00:9 0.000E00:a 0.000E00:b 
0.000E00:c 0.000E00:d 
#C 1.5280000000E-01 13
0.000E00:1 0.000E00:2 0.000E00:3 0.000E00:4 0.000E00:5 0.000E00:6 0.000E00:7 0.000E00:8 0.000E00:9 0.000E00:a 0.000E00:b 
0.000E00:c 0.000E00:d 
#C 1.6280000000E-01 13
0.000E00:1 0.000E00:2 0.000E00:3 0.000E00:4 0.000E00:5 0.000E00:6 0.000E00:7 0.000E00:8 0.000E00:9 0.000E00:a 0.000E00:b 
0.000E00:c 0.000E00:d 
#C 1.7280000000E-01 13
0.000E00:1 0.000E00:2 0.000E00:3 0.000E00:4 0.000E00:5 0.000E00:6 0.000E00:7 0.000E00:8 0.000E00:9 0.000E00:a 0.000E00:b 
0.000E00:c 0.000E00:d 
#C 1.8280000000E-01 13
0.000E00:1 0.000E00:2 0.000E00:3 0.000E00:4 0.000E00:5 0.000E00:6 0.000E00:7 0.000E00:8 0.000E00:9 0.000E00:a 0.000E00:b 
0.000E00:c 0.000E00:d 
#C 1.9280000000E-01 13
0.000E00:1 0.000E00:2 0.000E00:3 0.000E00:4 0.000E00:5 0.000E00:6 0.000E00:7 0.000E00:8 0.000E00:9 0.000E00:a 0.000E00:b 
0.000E00:c 0.000E00:d 
#C 2.0280000000E-01 13
0.000E00:1 0.000E00:2 0.000E00:3 0.000E00:4 0.000E00:5 0.000E00:6 0.000E00:7 0.000E00:8 0.000E00:9 0.000E00:a 0.000E00:b 
0.000E00:c 0.000E00:d 
#C 2.1280000000E-01 13
0.000E00:1 0.000E00:2 0.000E00:3 0.000E00:4 0.000E00:5 0.000E00:6 0.000E00:7 0.000E00:8 0.000E00:9 0.000E00:a 0.000E00:b 
0.000E00:c 0.000E00:d 
#C 2.2280000000E-01 13
0.000E00:1 0.000E00:2 0.000E00:3 0.000E00:4 0.000E00:5 0.000E00:6 0.000E00:7 0.000E00:8 0.000E00:9 0.000E00:a 0.000E00:b 
0.000E00:c 0.000E00:d 
#C 2.3280000000E-01 13
0.000E00:1 0.000E00:2 0.000E00:3 0.000E00:4 0.000E00:5 0.000E00:6 0.000E00:7 0.000E00:8 0.000E00:9 0.000E00:a 0.000E00:b 
0.000E00:c 0.000E00:d 
#C 2.4280000000E-01 13
0.000E00:1 0.000E00:2 0.000E00:3 0.000E00:4 0.000E00:5 0.000E00:6 0.000E00:7 0.000E00:8 0.000E00:9 0.000E00:a 0.000E00:b 
0.000E00:c 0.000E00:d 
#C 2.5280000000E-01 13
0.000E00:1 0.000E00:2 0.000E00:3 0.000E00:4 0.000E00:5 0.000E00:6 0.000E00:7 0.000E00:8 0.000E00:9 0.000E00:a 0.000E00:b 
0.000E00:c 0.000E00:d 
#C 2.6280000000E-01 13
0.000E00:1 0.000E00:2 0.000E00:3 0.000E00:4 0.000E00:5 0.000E00:6 0.000E00:7 0.000E00:8 0.000E00:9 0.000E00:a 0.000E00:b 
0.000E00:c 0.000E00:d 
#C 2.7280000000E-01 13
0.000E00:1 0.000E00:2 0.000E00:3 0.000E00:4 0.000E00:5 0.000E00:6 0.000E00:7 0.000E00:8 0.000E00:9 0.000E00:a 0.000E00:b 
0.000E00:c 0.000E00:d 
#C 2.8280000000E-01 13
0.000E00:1 0.000E00:2 0.000E00:3 0.000E00:4 0.000E00:5 0.000E00:6 0.000E00:7 0.000E00:8 0.000E00:9 0.000E00:a 0.000E00:b 
0.000E00:c 0.000E00:d 
#C 2.9280000000E-01 13
0.000E00:1 0.000E00:2 0.000E00:3 0.000E00:4 0.000E00:5 0.000E00:6 0.000E00:7 0.000E00:8 0.000E00:9 0.000E00:a 0.000E00:b 
0.000E00:c 0.000E00:d 
#C 3.0280000000E-01 13
0.000E00:1 0.000E00:2 0.000E00:3 0.000E00:4 0.000E00:5 0.000E00:6 0.000E00:7 0.000E00:8 0.000E00:9 0.000E00:a 0.000E00:b 
0.000E00:c 0.000E00:d 
#C 3.1280000000E-01 13
0.000E00:1 0.000E00:2 0.000E00:3 0.000E00:4 0.000E00:5 0.000E00:6 0.000E00:7 0.000E00:8 0.000E00:9 0.000E00:a 0.000E00:b 
0.000E00:c 0.000E00:d 
#C 3.2280000000E-01 13
0.000E00:1 0.000E00:2 0.000E00:3 0.000E00:4 0.000E00:5 0.000E00:6 0.000E00:7 0.000E00:8 0.000E00:9 0.000E00:a 0.000E00:b 
0.000E00:c 0.000E00:d 
#C 3.3280000000E-01 13
0.000E00:1 0.000E00:2 0.000E00:3 0.000E00:4 0.000E00:5 0.000E00:6 0.000E00:7 0.000E00:8 0.000E00:9 0.000E00:a 0.000E00:b 
0.000E00:c 0.000E00:d 
#C 3.4280000000E-01 13
0.000E00:1 0.000E00:2 0.000E00:3 0.000E00:4 0.000E00:5 0.000E00:6 0.000E00:7 0.000E00:8 0.000E00:9 0.000E00:a 0.000E00:b 
0.000E00:c 0.000E00:d 
#C 3.5280000000E-01 13
0.000E00:1 0.000E00:2 0.000E00:3 0.000E00:4 0.000E00:5 0.000E00:6 0.000E00:7 0.000E00:8 0.000E00:9 0.000E00:a 0.000E00:b 
0.000E00:c 0.000E00:d 
#C 3.6280000000E-01 13
0.000E00:1 0.000E00:2 0.000E00:3 0.000E00:4 0.000E00:5 0.000E00:6 0.000E00:7 0.000E00:8 0.000E00:9 0.000E00:a 0.000E00:b 
0.000E00:c 0.000E00:d 
#C 3.7280000000E-01 13
0.000E00:1 0.000E00:2 0.000E00:3 0.000E00:4 0.000E00:5 0.000E00:6 0.000E00:7 0.000E00:8 0.000E00:9 0.000E00:a 0.000E00:b 
0.000E00:c 0.000E00:d 
#C 3.8280000000E-01 13
0.000E00:1 0.000E00:2 0.000E00:3 0.000E00:4 0.000E00:5 0.000E00:6 0.000E00:7 0.000E00:8 0.000E00:9 0.000E00:a 0.000E00:b 
0.000E00:c 0.000E00:d 
#C 3.9280000000E-01 13
0.000E00:1 0.000E00:2 0.000E00:3 0.000E00:4 0.000E00:5 0.000E00:6 0.000E00:7 0.000E00:8 0.000E00:9 0.000E00:a 0.000E00:b 
0.000E00:c 0.000E00:d 
#C 4.0280000000E-01 13
0.000E00:1 0.000E00:2 0.000E00:3 0.000E00:4 0.000E00:5 0.000E00:6 0.000E00:7 0.000E00:8 0.000E00:9 0.000E00:a 0.000E00:b 
0.000E00:c 0.000E00:d 
#C 4.1280000000E-01 13
0.000E00:1 0.000E00:2 0.000E00:3 0.000E00:4 0.000E00:5 0.000E00:6 0.000E00:7 0.000E00:8 0.000E00:9 0.000E00:a 0.000E00:b 
0.000E00:c 0.000E00:d 
#C 4.2280000000E-01 13
0.000E00:1 0.000E00:2 0.000E00:3 0.000E00:4 0.000E00:5 0.000E00:6 0.000E00:7 0.000E00:8 0.000E00:9 0.000E00:a 0.000E00:b 
0.000E00:c 0.000E00:d 
#C 4.3280000000E-01 13
0.000E00:1 0.000E00:2 0.000E00:3 0.000E00:4 0.000E00:5 0.000E00:6 0.000E00:7 0.000E00:8 0.000E00:9 0.000E00:a 0.000E00:b 
0.000E00:c 0.000E00:d 
#C 4.4280000000E-01 13
0.000E00:1 0.000E00:2 0.000E00:3 0.000E00:4 0.000E00:5 0.000E00:6 0.000E00:7 0.000E00:8 0.000E00:9 0.000E00:a 0.000E00:b 
0.000E00:c 0.000E00:d 
#C 4.5280000000E-01 13
0.000E00:1 0.000E00:2 0.000E00:3 0.000E00:4 0.000E00:5 0.000E00:6 0.000E00:7 0.000E00:8 0.000E00:9 0.000E00:a 0.000E00:b 
0.000E00:c 0.000E00:d 
#C 4.6280000000E-01 13
0.000E00:1 0.000E00:2 0.000E00:3 0.000E00:4 0.000E00:5 0.000E00:6 0.000E00:7 0.000E00:8 0.000E00:9 0.000E00:a 0.000E00:b 
0.000E00:c 0.000E00:d 
#C 4.7280000000E-01 13
0.000E00:1 0.000E00:2 0.000E00:3 0.000E00:4 0.000E00:5 0.000E00:6 0.000E00:7 0.000E00:8 0.000E00:9 0.000E00:a 0.000E00:b 
0.000E00:c 0.000E00:d 
#C 4.8280000000E-01 13
0.000E00:1 0.000E00:2 0.000E00:3 0.000E00:4 0.000E00:5 0.000E00:6 0.000E00:7 0.000E00:8 0.000E00:9 0.000E00:a 0.000E00:b 
0.000E00:c 0.000E00:d 
#C 4.9280000000E-01 13
0.000E00:1 0.000E00:2 0.000E00:3 0.000E00:4 0.000E00:5 0.000E00:6 0.000E00:7 0.000E00:8 0.000E00:9 0.000E00:a 0.000E00:b 
0.000E00:c 0.000E00:d 
#C 5.0280000000E-01 13
0.000E00:1 0.000E00:2 0.000E00:3 0.000E00:4 0.000E00:5 0.000E00:6 0.000E00:7 0.000E00:8 0.000E00:9 0.000E00:a 0.000E00:b 
0.000E00:c 0.000E00:d 
#C 5.1280000000E-01 13
0.000E00:1 0.000E00:2 0.000E00:3 0.000E00:4 0.000E00:5 0.000E00:6 0.000E00:7 0.000E00:8 0.000E00:9 0.000E00:a 0.000E00:b 
0.000E00:c 0.000E00:d 
#C 5.2280000000E-01 13
0.000E00:1 0.000E00:2 0.000E00:3 0.000E00:4 0.000E00:5 0.000E00:6 0.000E00:7 0.000E00:8 0.000E00:9 0.000E00:a 0.000E00:b 
0.000E00:c 0.000E00:d 
#C 5.3280000000E-01 13
0.000E00:1 0.000E00:2 0.000E00:3 0.000E00:4 0.000E00:5 0.000E00:6 0.000E00:7 0.000E00:8 0.000E00:9 0.000E00:a 0.000E00:b 
0.000E00:c 0.000E00:d 
#C 5.4280000000E-01 13
0.000E00:1 0.000E00:2 0.000E00:3 0.000E00:4 0.000E00:5 0.000E00:6 0.000E00:7 0.000E00:8 0.000E00:9 0.000E00:a 0.000E00:b 
0.000E00:c 0.000E00:d 
#C 5.5280000000E-01 13
0.000E00:1 0.000E00:2 0.000E00:3 0.000E00:4 0.000E00:5 0.000E00:6 0.000E00:7 0.000E00:8 0.000E00:9 0.000E00:a 0.000E00:b 
0.000E00:c 0.000E00:d 
#C 5.6280000000E-01 13
0.000E00:1 0.000E00:2 0.000E00:3 0.000E00:4 0.000E00:5 0.000E00:6 0.000E00:7 0.000E00:8 0.000E00:9 0.000E00:a 0.000E00:b 
0.000E00:c 0.000E00:d 
#C 5.7280000000E-01 13
0.000E00:1 0.000E00:2 0.000E00:3 0.000E00:4 0.000E00:5 0.000E00:6 0.000E00:7 0.000E00:8 0.000E00:9 0.000E00:a 0.000E00:b 
0.000E00:c 0.000E00:d 
#C 5.8280000000E-01 13
0.000E00:1 0.000E00:2 0.000E00:3 0.000E00:4 0.000E00:5 0.000E00:6 0.000E00:7 0.000E00:8 0.000E00:9 0.000E00:a 0.000E00:b 
0.000E00:c 0.000E00:d 
#C 5.9280000000E-01 13
0.000E00:1 0.000E00:2 0.000E00:3 0.000E00:4 0.000E00:5 0.000E00:6 0.000E00:7 0.000E00:8 0.000E00:9 0.000E00:a 0.000E00:b 
0.000E00:c 0.000E00:d 
#C 6.0280000000E-01 13
0.000E00:1 0.000E00:2 0.000E00:3 0.000E00:4 0.000E00:5 0.000E00:6 0.000E00:7 0.000E00:8 0.000E00:9 0.000E00:a 0.000E00:b 
0.000E00:c 0.000E00:d 
#C 6.1280000000E-01 13
0.000E00:1 0.000E00:2 0.000E00:3 0.000E00:4 0.000E00:5 0.000E00:6 0.000E00:7 0.000E00:8 0.000E00:9 0.000E00:a 0.000E00:b 
0.000E00:c 0.000E00:d 
#C 6.2280000000E-01 13
0.000E00:1 0.000E00:2 0.000E00:3 0.000E00:4 0.000E00:5 0.000E00:6 0.000E00:7 0.000E00:8 0.000E00:9 0.000E00:a 0.000E00:b 
0.000E00:c 0.000E00:d 
#C 6.3280000000E-01 13
0.000E00:1 0.000E00:2 0.000E00:3 0.000E00:4 0.000E00:5 0.000E00:6 0.000E00:7 0.000E00:8 0.000E00:9 0.000E00:a 0.000E00:b 
0.000E00:c 0.000E00:d 
#C 6.4280000000E-01 13
0.000E00:1 0.000E00:2 0.000E00:3 0.000E00:4 0.000E00:5 0.000E00:6 0.000E00:7 0.000E00:8 0.000E00:9 0.000E00:a 0.000E00:b 
0.000E00:c 0.000E00:d 
#C 6.5280000000E-01 13
0.000E00:1 0.000E00:2 0.000E00:3 0.000E00:4 0.000E00:5 0.000E00:6 0.000E00:7 0.000E00:8 0.000E00:9 0.000E00:a 0.000E00:b 
0.000E00:c 0.000E00:d 
#C 6.6280000000E-01 13
0.000E00:1 0.000E00:2 0.000E00:3 0.000E00:4 0.000E00:5 0.000E00:6 0.000E00:7 0.000E00:8 0.000E00:9 0.000E00:a 0.000E00:b 
0.000E00:c 0.000E00:d 
#C 6.7280000000E-01 13
0.000E00:1 0.000E00:2 0.000E00:3 0.000E00:4 0.000E00:5 0.000E00:6 0.000E00:7 0.000E00:8 0.000E00:9 0.000E00:a 0.000E00:b 
0.000E00:c 0.000E00:d 
#C 6.8280000000E-01 13
0.000E00:1 0.000E00:2 0.000E00:3 0.000E00:4 0.000E00:5 0.000E00:6 0.000E00:7 0.000E00:8 0.000E00:9 0.000E00:a 0.000E00:b 
0.000E00:c 0.000E00:d 
#C 6.9280000000E-01 13
0.000E00:1 0.000E00:2 0.000E00:3 0.000E00:4 0.000E00:5 0.000E00:6 0.000E00:7 0.000E00:8 0.000E00:9 0.000E00:a 0.000E00:b 
0.000E00:c 0.000E00:d 
#C 7.0280000000E-01 13
0.000E00:1 0.000E00:2 0.000E00:3 0.000E00:4 0.000E00:5 0.000E00:6 0.000E00:7 0.000E00:8 0.000E00:9 0.000E00:a 0.000E00:b 
0.000E00:c 0.000E00:d 
#C 7.1280000000E-01 13
0.000E00:1 0.000E00:2 0.000E00:3 0.000E00:4 0.000E00:5 0.000E00:6 0.000E00:7 0.000E00:8 0.000E00:9 0.000E00:a 0.000E00:b 
0.000E00:c 0.000E00:d 
#C 7.2280000000E-01 13
0.000E00:1 0.000E00:2 0.000E00:3 0.000E00:4 0.000E00:5 0.000E00:6 0.000E00:7 0.000E00:8 0.000E00:9 0.000E00:a 0.000E00:b 
0.000E00:c 0.000E00:d 
#C 7.3280000000E-01 13
0.000E00:1 0.000E00:2 0.000E00:3 0.000E00:4 0.000E00:5 0.000E00:6 0.000E00:7 0.000E00:8 0.000E00:9 0.000E00:a 0.000E00:b 
0.000E00:c 0.000E00:d 
#C 7.4280000000E-01 13
0.000E00:1 0.000E00:2 0.000E00:3 0.000E00:4 0.000E00:5 0.000E00:6 0.000E00:7 0.000E00:8 0.000E00:9 0.000E00:a 0.000E00:b 
0.000E00:c 0.000E00:d 
#C 7.5280000000E-01 13
0.000E00:1 0.000E00:2 0.000E00:3 0.000E00:4 0.000E00:5 0.000E00:6 0.000E00:7 0.000E00:8 0.000E00:9 0.000E00:a 0.000E00:b 
0.000E00:c 0.000E00:d 
#C 7.6280000000E-01 13
0.000E00:1 0.000E00:2 0.000E00:3 0.000E00:4 0.000E00:5 0.000E00:6 0.000E00:7 0.000E00:8 0.000E00:9 0.000E00:a 0.000E00:b 
0.000E00:c 0.000E00:d 
#C 7.7280000000E-01 13
0.000E00:1 0.000E00:2 0.000E00:3 0.000E00:4 0.000E00:5 0.000E00:6 0.000E00:7 0.000E00:8 0.000E00:9 0.000E00:a 0.000E00:b 
0.000E00:c 0.000E00:d 
#C 7.8280000000E-01 13
0.000E00:1 0.000E00:2 0.000E00:3 0.000E00:4 0.000E00:5 0.000E00:6 0.000E00:7 0.000E00:8 0.000E00:9 0.000E00:a 0.000E00:b 
0.000E00:c 0.000E00:d 
#C 7.9280000000E-01 13
0.000E00:1 0.000E00:2 0.000E00:3 0.000E00:4 0.000E00:5 0.000E00:6 0.000E00:7 0.000E00:8 0.000E00:9 0.000E00:a 0.000E00:b 
0.000E00:c 0.000E00:d 
#C 8.0280000000E-01 13
0.000E00:1 0.000E00:2 0.000E00:3 0.000E00:4 0.000E00:5 0.000E00:6 0.000E00:7 0.000E00:8 0.000E00:9 0.000E00:a 0.000E00:b 
0.000E00:c 0.000E00:d 
#C 8.1280000000E-01 13
0.000E00:1 0.000E00:2 0.000E00:3 0.000E00:4 0.000E00:5 0.000E00:6 0.000E00:7 0.000E00:8 0.000E00:9 0.000E00:a 0.000E00:b 
0.000E00:c 0.000E00:d 
#C 8.2280000000E-01 13
0.000E00:1 0.000E00:2 0.000E00:3 0.000E00:4 0.000E00:5 0.000E00:6 0.000E00:7 0.000E00:8 0.000E00:9 0.000E00:a 0.000E00:b 
0.000E00:c 0.000E00:d 
#C 8.3280000000E-01 13
0.000E00:1 0.000E00:2 0.000E00:3 0.000E00:4 0.000E00:5 0.000E00:6 0.000E00:7 0.000E00:8 0.000E00:9 0.000E00:a 0.000E00:b 
0.000E00:c 0.000E00:d 
#C 8.4280000000E-01 13
0.000E00:1 0.000E00:2 0.000E00:3 0.000E00:4 0.000E00:5 0.000E00:6 0.000E00:7 0.000E00:8 0.000E00:9 0.000E00:a 0.000E00:b 
0.000E00:c 0.000E00:d 
#C 8.5280000000E-01 13
0.000E00:1 0.000E00:2 0.000E00:3 0.000E00:4 0.000E00:5 0.000E00:6 0.000E00:7 0.000E00:8 0.000E00:9 0.000E00:a 0.000E00:b 
0.000E00:c 0.000E00:d 
#C 8.6280000000E-01 13
0.000E00:1 0.000E00:2 0.000E00:3 0.000E00:4 0.000E00:5 0.000E00:6 0.000E00:7 0.000E00:8 0.000E00:9 0.000E00:a 0.000E00:b 
0.000E00:c 0.000E00:d 
#C 8.7280000000E-01 13
0.000E00:1 0.000E00:2 0.000E00:3 0.000E00:4 0.000E00:5 0.000E00:6 0.000E00:7 0.000E00:8 0.000E00:9 0.000E00:a 0.000E00:b 
0.000E00:c 0.000E00:d 
#C 8.8280000000E-01 13
0.000E00:1 0.000E00:2 0.000E00:3 0.000E00:4 0.000E00:5 0.000E00:6 0.000E00:7 0.000E00:8 0.000E00:9 0.000E00:a 0.000E00:b 
0.000E00:c 0.000E00:d 
#C 8.9280000000E-01 13
0.000E00:1 0.000E00:2 0.000E00:3 0.000E00:4 0.000E00:5 0.000E00:6 0.000E00:7 0.000E00:8 0.000E00:9 0.000E00:a 0.000E00:b 
0.000E00:c 0.000E00:d 
#C 9.0280000000E-01 13
0.000E00:1 0.000E00:2 0.000E00:3 0.000E00:4 0.000E00:5 0.000E00:6 0.000E00:7 0.000E00:8 0.000E00:9 0.000E00:a 0.000E00:b 
0.000E00:c 0.000E00:d 
#C 9.1280000000E-01 13
0.000E00:1 0.000E00:2 0.000E00:3 0.000E00:4 0.000E00:5 0.000E00:6 0.000E00:7 0.000E00:8 0.000E00:9 0.000E00:a 0.000E00:b 
0.000E00:c 0.000E00:d 
#C 9.2280000000E-01 13
0.000E00:1 0.000E00:2 0.000E00:3 0.000E00:4 0.000E00:5 0.000E00:6 0.000E00:7 0.000E00:8 0.000E00:9 0.000E00:a 0.000E00:b 
0.000E00:c 0.000E00:d 
#C 9.3280000000E-01 13
0.000E00:1 0.000E00:2 0.000E00:3 0.000E00:4 0.000E00:5 0.000E00:6 0.000E00:7 0.000E00:8 0.000E00:9 0.000E00:a 0.000E00:b 
0.000E00:c 0.000E00:d 
#C 9.4280000000E-01 13
0.000E00:1 0.000E00:2 0.000E00:3 0.000E00:4 0.000E00:5 0.000E00:6 0.000E00:7 0.000E00:8 0.000E00:9 0.000E00:a 0.000E00:b 
0.000E00:c 0.000E00:d 
#C 9.5280000000E-01 13
0.000E00:1 0.000E00:2 0.000E00:3 0.000E00:4 0.000E00:5 0.000E00:6 0.000E00:7 0.000E00:8 0.000E00:9 0.000E00:a 0.000E00:b 
0.000E00:c 0.000E00:d 
#C 9.6280000000E-01 13
0.000E00:1 0.000E00:2 0.000E00:3 0.000E00:4 0.000E00:5 0.000E00:6 0.000E00:7 0.000E00:8 0.000E00:9 0.000E00:a 0.000E00:b 
0.000E00:c 0.000E00:d 
#C 9.7280000000E-01 13
0.000E00:1 0.000E00:2 0.000E00:3 0.000E00:4 0.000E00:5 0.000E00:6 0.000E00:7 0.000E00:8 0.000E00:9 0.000E00:a 0.000E00:b 
0.000E00:c 0.000E00:d 
#C 9.8280000000E-01 13
0.000E00:1 0.000E00:2 0.000E00:3 0.000E00:4 0.000E00:5 0.000E00:6 0.000E00:7 0.000E00:8 0.000E00:9 0.000E00:a 0.000E00:b 
0.000E00:c 0.000E00:d 
#C 9.9280000000E-01 13
0.000E00:1 0.000E00:2 0.000E00:3 0.000E00:4 0.000E00:5 0.000E00:6 0.000E00:7 0.000E00:8 0.000E00:9 0.000E00:a 0.000E00:b 
0.000E00:c 0.000E00:d 
#C 1.0028000000E00 13
-4.815E-04:1 -3.782E-03:2 -1.029E01:3 -4.815E-04:4 -1.278E-03:5 0.000E00:6 0.000E00:7 1.759E-03:8 2.319E-07:9 6.152E-07:a 
0.000E00:b 0.000E00:c -8.471E-07:d 
#C 1.0128000000E00 13
-1.550E-03:1 -1.919E-02:2 -5.370E01:3 -1.550E-03:4 -6.484E-03:5 0.000E00:6 0.000E00:7 8.034E-03:8 2.403E-06:9 1.005E-05:a 
0.000E00:b 0.000E00:c -1.245E-05:d 
#C 1.0228000000E00 13
-1.177E-03:1 -3.878E-02:2 -1.120E02:3 -1.177E-03:4 -1.310E-02:5 0.000E00:6 0.000E00:7 1.428E-02:8 1.386E-06:9 1.542E-05:a 
0.000E00:b 0.000E00:c -1.681E-05:d 
#C 1.0328000000E00 13
-1.401E-03:1 -5.643E-02:2 -1.671E02:3 -1.401E-03:4 -1.906E-02:5 0.000E00:6 0.000E00:7 2.046E-02:8 1.964E-06:9 2.671E-05:a 
0.000E00:b 0.000E00:c -2.868E-05:d 
#C 1.0428000000E00 13
-1.359E-03:1 -7.463E-02:2 -2.261E02:3 -1.359E-03:4 -2.521E-02:5 0.000E00:6 0.000E00:7 2.657E-02:8 1.847E-06:9 3.426E-05:a 
0.000E00:b 0.000E00:c -3.610E-05:d 
#C 1.0528000000E00 13
-1.399E-03:1 -9.227E-02:2 -2.850E02:3 -1.399E-03:4 -3.117E-02:5 0.000E00:6 0.000E00:7 3.257E-02:8 1.958E-06:9 4.362E-05:a 
0.000E00:b 0.000E00:c -4.558E-05:d 
#C 1.0628000000E00 13
-1.389E-03:1 -1.097E-01:2 -3.446E02:3 -1.389E-03:4 -3.705E-02:5 0.000E00:6 0.000E00:7 3.844E-02:8 1.929E-06:9 5.147E-05:a 
0.000E00:b 0.000E00:c -5.339E-05:d 
#C 1.0728000000E00 13
-1.379E-03:1 -1.267E-01:2 -4.037E02:3 -1.379E-03:4 -4.278E-02:5 0.000E00:6 0.000E00:7 4.416E-02:8 1.901E-06:9 5.899E-05:a 
0.000E00:b 0.000E00:c -6.089E-05:d 
