# Hz Z RI R 50
!      Freq              ReZ11             ImZ11      
   1.00000000e+01    2.00000000e-02   -1.59154943e+00
   1.25892541e+01    2.00000000e-02   -1.26421265e+00
   1.58489319e+01    2.00000000e-02   -1.00419980e+00
   1.99526231e+01    2.00000000e-02   -7.97664256e-01
   2.51188643e+01    2.00000000e-02   -6.33607240e-01
   3.16227766e+01    2.00000000e-02   -5.03292121e-01
   3.98107171e+01    2.00000000e-02   -3.99779142e-01
   5.01187234e+01    2.00000000e-02   -3.17555860e-01
   6.30957344e+01    2.00000000e-02   -2.52243586e-01
   7.94328235e+01    2.00000000e-02   -2.00364202e-01
   1.00000000e+02    2.00000000e-02   -1.59154943e-01
   1.25892541e+02    2.00000000e-02   -1.26421265e-01
   1.58489319e+02    2.00000000e-02   -1.00419980e-01
   1.99526231e+02    2.00000000e-02   -7.97664256e-02
   2.51188643e+02    2.00000000e-02   -6.33607240e-02
   3.16227766e+02    2.00000000e-02   -5.03292121e-02
   3.98107171e+02    2.00000000e-02   -3.99779142e-02
   5.01187234e+02    2.00000000e-02   -3.17555860e-02
   6.30957344e+02    2.00000000e-02   -2.52243586e-02
   7.94328235e+02    2.00000000e-02   -2.00364202e-02
   1.00000000e+03    2.00000000e-02   -1.59154943e-02
   1.25892541e+03    2.00000000e-02   -1.26421265e-02
   1.58489319e+03    2.00000000e-02   -1.00419980e-02
   1.99526231e+03    2.00000000e-02   -7.97664256e-03
   2.51188643e+03    2.00000000e-02   -6.33607240e-03
   3.16227766e+03    2.00000000e-02   -5.03292121e-03
   3.98107171e+03    2.00000000e-02   -3.99779142e-03
   5.01187234e+03    2.00000000e-02   -3.17555860e-03
   6.30957344e+03    2.00000000e-02   -2.52243586e-03
   7.94328235e+03    2.00000000e-02   -2.00364202e-03
   1.00000000e+04    2.00000000e-02   -1.59154943e-03
   1.25892541e+04    2.00000000e-02   -1.26421265e-03
   1.58489319e+04    2.00000000e-02   -1.00419980e-03
   1.99526231e+04    2.00000000e-02   -7.97664256e-04
   2.51188643e+04    2.00000000e-02   -6.33607240e-04
   3.16227766e+04    2.00000000e-02   -5.03292121e-04
   3.98107171e+04    2.00000000e-02   -3.99779142e-04
   5.01187234e+04    2.00000000e-02   -3.17555860e-04
   6.30957344e+04    2.00000000e-02   -2.52243586e-04
   7.94328235e+04    2.00000000e-02   -2.00364202e-04
   1.00000000e+05    2.00000000e-02   -1.59154943e-04
