# Hz Y RI R 50
!      Freq              ReY11             ImY11      
   1.00000000e+01    7.89443690e-03    6.28219327e-01
   1.25892541e+01    1.25106840e-02    7.90808245e-01
   1.58489319e+01    1.98251965e-02    9.95422917e-01
   1.99526231e+01    3.14135337e-02    1.25287265e+00
   2.51188643e+01    4.97688071e-02    1.57669383e+00
   3.16227766e+01    7.88323483e-02    1.98378499e+00
   3.98107171e+01    1.24825742e-01    2.49513639e+00
   5.01187234e+01    1.97547011e-01    3.13661055e+00
   6.30957344e+01    3.12369066e-01    3.93965466e+00
   7.94328235e+01    4.93269176e-01    4.94167424e+00
   1.00000000e+02    7.77293822e-01    6.18550769e+00
   1.25892541e+02    1.22082710e+00    7.71692531e+00
   1.58489319e+02    1.90763746e+00    9.57824578e+00
   1.99526231e+02    2.95740626e+00    1.17950863e+01
   2.51188643e+02    4.53044092e+00    1.43526009e+01
   3.16227766e+02    6.81888792e+00    1.71594628e+01
   3.98107171e+02    1.00088397e+01    2.00066267e+01
   5.01187234e+02    1.42003374e+01    2.25470017e+01
   6.30957344e+02    1.93000217e+01    2.43415334e+01
   7.94328235e+02    2.49545162e+01    2.49999586e+01
   1.00000000e+03    3.06136682e+01    2.43615831e+01
   1.25892541e+03    3.57255544e+01    2.25823489e+01
   1.58489319e+03    3.99327752e+01    2.00502425e+01
   1.99526231e+03    4.31381423e+01    1.72048771e+01
   2.51188643e+03    4.54394871e+01    1.43953940e+01
   3.16227766e+03    4.70222794e+01    1.18329714e+01
   3.98107171e+03    4.80789646e+01    9.61048359e+00
   5.01187234e+03    4.87704753e+01    7.74367511e+00
   6.30957344e+03    4.92171177e+01    6.20735113e+00
   7.94328235e+03    4.95031638e+01    4.95933096e+00
   1.00000000e+04    4.96853638e+01    3.95383562e+00
   1.25892541e+04    4.98010159e+01    3.14795371e+00
   1.58489319e+04    4.98742648e+01    2.50418634e+00
   1.99526231e+04    4.99205928e+01    1.99099362e+00
   2.51188643e+04    4.99498680e+01    1.58242990e+00
   3.16227766e+04    4.99683572e+01    1.25743402e+00
   3.98107171e+04    4.99800301e+01    9.99048676e-01
   5.01187234e+04    4.99873980e+01    7.93689557e-01
   6.30957344e+04    4.99920479e+01    6.30508671e-01
   7.94328235e+04    4.99949823e+01    5.00860237e-01
   1.00000000e+05    4.99968339e+01    3.97862162e-01
