# Hz S RI R 50
!      Freq              ReS11             ImS11
   1.00000000e+01   -9.97178373e-01   -6.35467433e-02
   1.25892541e+01   -9.97924081e-01   -5.04958196e-02
   1.58489319e+01   -9.98394878e-01   -4.01197069e-02
   1.99526231e+01   -9.98692045e-01   -3.18729549e-02
   2.51188643e+01   -9.98879590e-01   -2.53199636e-02
   3.16227766e+01   -9.98997941e-01   -2.01135528e-02
   3.98107171e+01   -9.99072623e-01   -1.59773598e-02
   5.01187234e+01   -9.99119746e-01   -1.26915672e-02
   6.30957344e+01   -9.99149481e-01   -1.00814201e-02
   7.94328235e+01   -9.99168242e-01   -8.00803178e-03
   1.00000000e+02   -9.99180080e-01   -6.36104341e-03
   1.25892541e+02   -9.99187549e-01   -5.05277526e-03
   1.58489319e+02   -9.99192262e-01   -4.01357152e-03
   1.99526231e+02   -9.99195236e-01   -3.18809792e-03
   2.51188643e+02   -9.99197112e-01   -2.53239857e-03
   3.16227766e+02   -9.99198296e-01   -2.01155688e-03
   3.98107171e+02   -9.99199043e-01   -1.59783702e-03
   5.01187234e+02   -9.99199514e-01   -1.26920736e-03
   6.30957344e+02   -9.99199811e-01   -1.00816739e-03
   7.94328235e+02   -9.99199999e-01   -8.00815899e-04
   1.00000000e+03   -9.99200117e-01   -6.36110717e-04
   1.25892541e+03   -9.99200192e-01   -5.05280722e-04
   1.58489319e+03   -9.99200239e-01   -4.01358753e-04
   1.99526231e+03   -9.99200269e-01   -3.18810595e-04
   2.51188643e+03   -9.99200288e-01   -2.53240259e-04
   3.16227766e+03   -9.99200300e-01   -2.01155889e-04
   3.98107171e+03   -9.99200307e-01   -1.59783803e-04
   5.01187234e+03   -9.99200312e-01   -1.26920787e-04
   6.30957344e+03   -9.99200315e-01   -1.00816764e-04
   7.94328235e+03   -9.99200317e-01   -8.00816026e-05
   1.00000000e+04   -9.99200318e-01   -6.36110781e-05
   1.25892541e+04   -9.99200319e-01   -5.05280754e-05
   1.58489319e+04   -9.99200319e-01   -4.01358769e-05
   1.99526231e+04   -9.99200319e-01   -3.18810603e-05
   2.51188643e+04   -9.99200320e-01   -2.53240263e-05
   3.16227766e+04   -9.99200320e-01   -2.01155891e-05
   3.98107171e+04   -9.99200320e-01   -1.59783804e-05
   5.01187234e+04   -9.99200320e-01   -1.26920787e-05
   6.30957344e+04   -9.99200320e-01   -1.00816765e-05
   7.94328235e+04   -9.99200320e-01   -8.00816027e-06
   1.00000000e+05   -9.99200320e-01   -6.36110781e-06
