# Hz S RI R 100 50
!      Freq              ReS11             ImS11             ReS21             ImS21             ReS12             ImS12             ReS22             ImS22      
   1.00000000e+01    3.33464450e-01   -3.53193109e-03    5.56057503e-04   -1.49786295e-02    5.56057503e-04   -1.49786295e-02   -9.96842109e-01   -6.35235333e-02
   1.25892541e+01    3.33416104e-01   -2.80694846e-03    3.51026651e-04   -1.19039943e-02    3.51026651e-04   -1.19039943e-02   -9.97711633e-01   -5.04841768e-02
   1.58489319e+01    3.33385575e-01   -2.23036641e-03    2.21553680e-04   -9.45871145e-03    2.21553680e-04   -9.45871145e-03   -9.98260721e-01   -4.01138685e-02
   1.99526231e+01    3.33366302e-01   -1.77201784e-03    1.39819017e-04   -7.51484231e-03    1.39819017e-04   -7.51484231e-03   -9.98607353e-01   -3.18700277e-02
   2.51188643e+01    3.33354138e-01   -1.40776403e-03    8.82309040e-05   -5.97001385e-03    8.82309040e-05   -5.97001385e-03   -9.98826135e-01   -2.53184962e-02
   3.16227766e+01    3.33346461e-01   -1.11834259e-03    5.56742243e-05   -4.74253276e-03    5.56742243e-05   -4.74253276e-03   -9.98964206e-01   -2.01128173e-02
   3.98107171e+01    3.33341617e-01   -8.88408678e-04    3.51296478e-05   -3.76731925e-03    3.51296478e-05   -3.76731925e-03   -9.99051335e-01   -1.59769911e-02
   5.01187234e+01    3.33338560e-01   -7.05751543e-04    2.21658211e-05   -2.99258408e-03    2.21658211e-05   -2.99258408e-03   -9.99106314e-01   -1.26913824e-02
   6.30957344e+01    3.33336631e-01   -5.60661095e-04    1.39857714e-05   -2.37714216e-03    1.39857714e-05   -2.37714216e-03   -9.99141005e-01   -1.00813275e-02
   7.94328235e+01    3.33335414e-01   -4.45419295e-04    8.82433852e-06   -1.88825525e-03    8.82433852e-06   -1.88825525e-03   -9.99162894e-01   -8.00798537e-03
   1.00000000e+02    3.33334646e-01   -3.53893388e-04    5.56762668e-06   -1.49990655e-03    5.56762668e-06   -1.49990655e-03   -9.99176706e-01   -6.36102015e-03
   1.25892541e+02    3.33334162e-01   -2.81211433e-04    3.51275341e-06   -1.19142418e-03    3.51275341e-06   -1.19142418e-03   -9.99185420e-01   -5.05276361e-03
   1.58489319e+02    3.33333856e-01   -2.23503931e-04    2.21620527e-06   -9.46384906e-04    2.21620527e-06   -9.46384906e-04   -9.99190919e-01   -4.01356568e-03
   1.99526231e+02    3.33333663e-01   -1.77698284e-04    1.39813442e-06   -7.51741774e-04    1.39813442e-06   -7.51741774e-04   -9.99194388e-01   -3.18809499e-03
   2.51188643e+02    3.33333541e-01   -1.41355448e-04    8.81964905e-07   -5.97130479e-04    8.81964905e-07   -5.97130479e-04   -9.99196577e-01   -2.53239710e-03
   3.16227766e+02    3.33333464e-01   -1.12540169e-04    5.56283279e-07   -4.74317982e-04    5.56283279e-07   -4.74317982e-04   -9.99197958e-01   -2.01155614e-03
   3.98107171e+02    3.33333416e-01   -8.97179950e-05    3.50791795e-07   -3.76764357e-04    3.50791795e-07   -3.76764357e-04   -9.99198830e-01   -1.59783665e-03
   5.01187234e+02    3.33333385e-01   -7.16735976e-05    2.21135327e-07   -2.99274662e-04    2.21135327e-07   -2.99274662e-04   -9.99199380e-01   -1.26920717e-03
   6.30957344e+02    3.33333366e-01   -5.74460635e-05    1.39327583e-07   -2.37722362e-04    1.39327583e-07   -2.37722362e-04   -9.99199727e-01   -1.00816730e-03
   7.94328235e+02    3.33333354e-01   -4.62777331e-05    8.77103690e-08   -1.88829609e-04    8.77103690e-08   -1.88829609e-04   -9.99199946e-01   -8.00815853e-04
   1.00000000e+03    3.33333346e-01   -3.75738565e-05    5.51421020e-08   -1.49992702e-04    5.51421020e-08   -1.49992702e-04   -9.99200084e-01   -6.36110694e-04
   1.25892541e+03    3.33333341e-01   -3.08709226e-05    3.45929121e-08   -1.19143444e-04    3.45929121e-08   -1.19143444e-04   -9.99200171e-01   -5.05280710e-04
   1.58489319e+03    3.33333338e-01   -2.58119768e-05    2.16272487e-08   -9.46390046e-05    2.16272487e-08   -9.46390046e-05   -9.99200226e-01   -4.01358748e-04
   1.99526231e+03    3.33333336e-01   -2.21276123e-05    1.34464677e-08   -7.51744350e-05    1.34464677e-08   -7.51744350e-05   -9.99200261e-01   -3.18810592e-04
   2.51188643e+03    3.33333335e-01   -1.96216237e-05    8.28474369e-09   -5.97131770e-05    8.28474369e-09   -5.97131770e-05   -9.99200282e-01   -2.53240258e-04
   3.16227766e+03    3.33333334e-01   -1.81605579e-05    5.02791594e-09   -4.74318629e-05    5.02791594e-09   -4.74318629e-05   -9.99200296e-01   -2.01155889e-04
   3.98107171e+03    3.33333334e-01   -1.76666079e-05    2.97299654e-09   -3.76764681e-05    2.97299653e-09   -3.76764681e-05   -9.99200305e-01   -1.59783803e-04
   5.01187234e+03    3.33333333e-01   -1.81134693e-05    1.67643003e-09   -2.99274825e-05    1.67643003e-09   -2.99274825e-05   -9.99200310e-01   -1.26920786e-04
   6.30957344e+03    3.33333333e-01   -1.95249388e-05    8.58351867e-10   -2.37722444e-05    8.58351866e-10   -2.37722444e-05   -9.99200314e-01   -1.00816764e-04
   7.94328235e+03    3.33333333e-01   -2.19761826e-05    3.42179439e-10   -1.88829649e-05    3.42179439e-10   -1.88829649e-05   -9.99200316e-01   -8.00816026e-05
   1.00000000e+04    3.33333333e-01   -2.55977382e-05    1.64966543e-11   -1.49992722e-05    1.64966540e-11   -1.49992722e-05   -9.99200318e-01   -6.36110781e-05
   1.25892541e+04    3.33333332e-01   -3.05824668e-05   -1.88995291e-10   -1.19143454e-05   -1.88995291e-10   -1.19143454e-05   -9.99200318e-01   -5.05280754e-05
   1.58489319e+04    3.33333332e-01   -3.71958231e-05   -3.18651943e-10   -9.46390095e-06   -3.18651943e-10   -9.46390095e-06   -9.99200319e-01   -4.01358769e-05
   1.99526231e+04    3.33333331e-01   -4.57899927e-05   -4.00459759e-10   -7.51744373e-06   -4.00459759e-10   -7.51744373e-06   -9.99200319e-01   -3.18810603e-05
   2.51188643e+04    3.33333330e-01   -5.68226463e-05   -4.52077001e-10   -5.97131779e-06   -4.52077001e-10   -5.97131779e-06   -9.99200319e-01   -2.53240263e-05
   3.16227766e+04    3.33333328e-01   -7.08813130e-05   -4.84645278e-10   -4.74318630e-06   -4.84645278e-10   -4.74318630e-06   -9.99200320e-01   -2.01155891e-05
   3.98107171e+04    3.33333325e-01   -8.87146678e-05   -5.05194470e-10   -3.76764678e-06   -5.05194470e-10   -3.76764678e-06   -9.99200320e-01   -1.59783804e-05
   5.01187234e+04    3.33333320e-01   -1.11272402e-04   -5.18160132e-10   -2.99274819e-06   -5.18160132e-10   -2.99274819e-06   -9.99200320e-01   -1.26920787e-05
   6.30957344e+04    3.33333312e-01   -1.39755796e-04   -5.26340908e-10   -2.37722435e-06   -5.26340908e-10   -2.37722435e-06   -9.99200320e-01   -1.00816765e-05
   7.94328235e+04    3.33333300e-01   -1.75681695e-04   -5.31502622e-10   -1.88829638e-06   -5.31502623e-10   -1.88829638e-06   -9.99200320e-01   -8.00816028e-06
   1.00000000e+05    3.33333281e-01   -2.20963282e-04   -5.34759435e-10   -1.49992707e-06   -5.34759435e-10   -1.49992707e-06   -9.99200320e-01   -6.36110782e-06
