# Hz S RI R 100 50
!      Freq              ReS11             ImS11             ReS21             ImS21             ReS12             ImS12             ReS22             ImS22      
  -1.00000000e+05    3.33333281e-01    2.20963282e-04   -5.34759435e-10    1.49992707e-06   -5.34759435e-10    1.49992707e-06   -9.99200320e-01    6.36110782e-06
  -8.00000000e+04    3.33333300e-01    1.76929784e-04   -5.31627313e-10    1.87490891e-06   -5.31627313e-10    1.87490891e-06   -9.99200320e-01    7.95138477e-06
  -6.00000000e+04    3.33333314e-01    1.32955230e-04   -5.24860361e-10    2.49987862e-06   -5.24860361e-10    2.49987862e-06   -9.99200320e-01    1.06018464e-05
  -4.00000000e+04    3.33333325e-01    8.91280402e-05   -5.05526190e-10    3.74981800e-06   -5.05526190e-10    3.74981800e-06   -9.99200320e-01    1.59027695e-05
  -2.00000000e+04    3.33333331e-01    4.58903116e-05   -4.01121624e-10    7.49963609e-06   -4.01121625e-10    7.49963609e-06   -9.99200319e-01    3.18055391e-05
   0.00000000e+00    4.28604080e-01    0.00000000e+00    4.04037930e-01    0.00000000e+00    4.04037930e-01    0.00000000e+00    7.14302040e-01    0.00000000e+00
   2.00000000e+04    3.33333331e-01   -4.58903116e-05   -4.01121624e-10   -7.49963609e-06   -4.01121625e-10   -7.49963609e-06   -9.99200319e-01   -3.18055391e-05
   4.00000000e+04    3.33333325e-01   -8.91280402e-05   -5.05526190e-10   -3.74981800e-06   -5.05526190e-10   -3.74981800e-06   -9.99200320e-01   -1.59027695e-05
   6.00000000e+04    3.33333314e-01   -1.32955230e-04   -5.24860361e-10   -2.49987862e-06   -5.24860361e-10   -2.49987862e-06   -9.99200320e-01   -1.06018464e-05
   8.00000000e+04    3.33333300e-01   -1.76929784e-04   -5.31627313e-10   -1.87490891e-06   -5.31627313e-10   -1.87490891e-06   -9.99200320e-01   -7.95138477e-06
   1.00000000e+05    3.33333281e-01   -2.20963282e-04   -5.34759435e-10   -1.49992707e-06   -5.34759435e-10   -1.49992707e-06   -9.99200320e-01   -6.36110782e-06
  -1.00000000e+05    3.33333281e-01    2.20786443e-04   -2.68771779e-10    7.49963535e-07   -2.68771779e-10    7.49963535e-07   -9.99200320e-01    3.18055391e-06
  -8.00000000e+04    3.33333300e-01    1.76708736e-04   -2.67988752e-10    9.37454454e-07   -2.67988752e-10    9.37454454e-07   -9.99200320e-01    3.97569239e-06
  -6.00000000e+04    3.33333315e-01    1.32660499e-04   -2.66297017e-10    1.24993931e-06   -2.66297017e-10    1.24993931e-06   -9.99200320e-01    5.30092318e-06
  -4.00000000e+04    3.33333325e-01    8.86859432e-05   -2.61463476e-10    1.87490900e-06   -2.61463476e-10    1.87490900e-06   -9.99200320e-01    7.95138477e-06
  -2.00000000e+04    3.33333331e-01    4.50061175e-05   -2.35362336e-10    3.74981804e-06   -2.35362336e-10    3.74981804e-06   -9.99200320e-01    1.59027695e-05
   0.00000000e+00    4.28604080e-01    0.00000000e+00    4.04037930e-01    0.00000000e+00    4.04037930e-01    0.00000000e+00    7.14302040e-01    0.00000000e+00
   2.00000000e+04    3.33333331e-01   -4.50061175e-05   -2.35362336e-10   -3.74981804e-06   -2.35362336e-10   -3.74981804e-06   -9.99200320e-01   -1.59027695e-05
   4.00000000e+04    3.33333325e-01   -8.86859432e-05   -2.61463476e-10   -1.87490900e-06   -2.61463476e-10   -1.87490900e-06   -9.99200320e-01   -7.95138477e-06
   6.00000000e+04    3.33333315e-01   -1.32660499e-04   -2.66297017e-10   -1.24993931e-06   -2.66297017e-10   -1.24993931e-06   -9.99200320e-01   -5.30092318e-06
   8.00000000e+04    3.33333300e-01   -1.76708736e-04   -2.67988752e-10   -9.37454454e-07   -2.67988752e-10   -9.37454454e-07   -9.99200320e-01   -3.97569239e-06
   1.00000000e+05    3.33333281e-01   -2.20786443e-04   -2.68771779e-10   -7.49963535e-07   -2.68771779e-10   -7.49963535e-07   -9.99200320e-01   -3.18055391e-06
