# Hz S RI R 50
!      Freq              ReS11             ImS11             ReS12             ImS12             ReS13             ImS13             ReS14             ImS14
!                        ReS15             ImS15             ReS21             ImS21             ReS22             ImS22             ReS23             ImS23
!                        ReS24             ImS24             ReS25             ImS25             ReS31             ImS31             ReS32             ImS32
!                        ReS33             ImS33             ReS34             ImS34             ReS35             ImS35             ReS41             ImS41
!                        ReS42             ImS42             ReS43             ImS43             ReS44             ImS44             ReS45             ImS45
!                        ReS51             ImS51             ReS52             ImS52             ReS53             ImS53             ReS54             ImS54
!                        ReS55             ImS55
   1.00000000e+01   -9.95981641e-01   -6.34477960e-02    1.14965912e-04   -2.26625161e-03    9.24326149e-04   -1.82206630e-02    5.28843306e-04   -1.04247574e-02
                     3.44897794e-04   -6.79875484e-03    1.14965912e-04   -2.26625161e-03    4.23597365e-01   -8.09555344e-05    8.57228183e-02   -6.50813613e-04
                     1.48547881e-01   -3.72357433e-04    2.70792096e-01   -2.42844115e-04    9.24326149e-04   -1.82206630e-02    8.57228183e-02   -6.50813613e-04
                    -3.10788541e-01   -5.23253312e-03    3.94324964e-01   -2.99373833e-03    2.57168455e-01   -1.95243858e-03    5.28843306e-04   -1.04247574e-02
                     1.48547881e-01   -3.72357433e-04    3.94324964e-01   -2.99373833e-03   -3.16679747e-01   -1.71283676e-03    4.45643643e-01   -1.11706838e-03
                     3.44897794e-04   -6.79875484e-03    2.70792096e-01   -2.42844115e-04    2.57168455e-01   -1.95243858e-03    4.45643643e-01   -1.11706838e-03
                    -1.87623711e-01   -7.28525199e-04
   1.25892541e+01   -9.97167545e-01   -5.04461629e-02    7.26073533e-05   -1.80185452e-03    5.83763341e-04   -1.44869103e-02    3.33993939e-04   -8.28853079e-03
                     2.17822120e-04   -5.40556356e-03    7.26073533e-05   -1.80185452e-03    4.23595852e-01   -6.43702892e-05    8.57106540e-02   -5.17450406e-04
                     1.48540921e-01   -2.96055460e-04    2.70787557e-01   -1.93082557e-04    5.83763341e-04   -1.44869103e-02    8.57106540e-02   -5.17450406e-04
                    -3.10886342e-01   -4.16029079e-03    3.94269008e-01   -2.38026647e-03    2.57131962e-01   -1.55234837e-03    3.33993939e-04   -8.28853079e-03
                     1.48540921e-01   -2.96055460e-04    3.94269008e-01   -2.38026647e-03   -3.16711761e-01   -1.36184576e-03    4.45622764e-01   -8.88161445e-04
                     2.17822120e-04   -5.40556356e-03    2.70787557e-01   -1.93082557e-04    2.57131962e-01   -1.55234837e-03    4.45622764e-01   -8.88161445e-04
                    -1.87637328e-01   -5.79238674e-04
   1.58489319e+01   -9.97916958e-01   -4.00947989e-02    4.58395540e-05   -1.43212071e-03    3.68550235e-04   -1.15142505e-02    2.10862062e-04   -6.58775526e-03
                     1.37518722e-04   -4.29636213e-03    4.58395540e-05   -1.43212071e-03    4.23594896e-01   -5.11668470e-05    8.57029669e-02   -4.11272278e-04
                     1.48536523e-01   -2.35307231e-04    2.70784689e-01   -1.53464900e-04    3.68550235e-04   -1.15142505e-02    8.57029669e-02   -4.11272278e-04
                    -3.10948146e-01   -3.30661592e-03    3.94233648e-01   -1.89184568e-03    2.57108901e-01   -1.23381325e-03    2.10862062e-04   -6.58775526e-03
                     1.48536523e-01   -2.35307231e-04    3.94233648e-01   -1.89184568e-03   -3.16731993e-01   -1.08240149e-03    4.45609570e-01   -7.05915481e-04
                     1.37518722e-04   -4.29636213e-03    2.70784689e-01   -1.53464900e-04    2.57108901e-01   -1.23381325e-03    4.45609570e-01   -7.05915481e-04
                    -1.87645933e-01   -4.60383374e-04
   1.99526231e+01   -9.98390267e-01   -3.18604647e-02    2.89337187e-05   -1.13800375e-03    2.32627319e-04   -9.14955011e-03    1.33095219e-04   -5.23481723e-03
                     8.68012159e-05   -3.41401124e-03    2.89337187e-05   -1.13800375e-03    4.23594293e-01   -4.06650518e-05    8.56981120e-02   -3.26809577e-04
                     1.48533746e-01   -1.86983369e-04    2.70782878e-01   -1.21950286e-04    2.32627319e-04   -9.14955011e-03    8.56981120e-02   -3.26809577e-04
                    -3.10987180e-01   -2.62753239e-03    3.94211315e-01   -1.50331550e-03    2.57094336e-01   -9.80424219e-04    1.33095219e-04   -5.23481723e-03
                     1.48533746e-01   -1.86983369e-04    3.94211315e-01   -1.50331550e-03   -3.16744770e-01   -8.60108676e-04    4.45601237e-01   -5.60942287e-04
                     8.68012159e-05   -3.41401124e-03    2.70782878e-01   -1.21950286e-04    2.57094336e-01   -9.80424219e-04    4.45601237e-01   -5.60942287e-04
                    -1.87651367e-01   -3.65836600e-04
   2.51188643e+01   -9.98689089e-01   -2.53137016e-02    1.82602826e-05   -9.04164065e-04    1.46812893e-04   -7.26947908e-03    8.39974135e-05   -4.15915470e-03
                     5.47809077e-05   -2.71249220e-03    1.82602826e-05   -9.04164065e-04    4.23593911e-01   -3.23171903e-05    8.56950468e-02   -2.59657183e-04
                     1.48531992e-01   -1.48563562e-04    2.70781734e-01   -9.68950832e-05    1.46812893e-04   -7.26947908e-03    8.56950468e-02   -2.59657183e-04
                    -3.11011824e-01   -2.08762285e-03    3.94197215e-01   -1.19441228e-03    2.57085140e-01   -7.78965870e-04    8.39974135e-05   -4.15915470e-03
                     1.48531992e-01   -1.48563562e-04    3.94197215e-01   -1.19441228e-03   -3.16752837e-01   -6.83373723e-04    4.45595976e-01   -4.45680839e-04
                     5.47809077e-05   -2.71249220e-03    2.70781734e-01   -9.68950832e-05    2.57085140e-01   -7.78965870e-04    4.45595976e-01   -4.45680839e-04
                    -1.87654798e-01   -2.90667300e-04
   3.16227766e+01   -9.98877707e-01   -2.01104138e-02    1.15231801e-05   -7.18311123e-04    9.26465888e-05   -5.77522143e-03    5.30067422e-05   -3.30423117e-03
                     3.45696003e-05   -2.15493337e-03    1.15231801e-05   -7.18311123e-04    4.23593671e-01   -2.56845043e-05    8.56931121e-02   -2.06285587e-04
                     1.48530885e-01   -1.18028475e-04    2.70781012e-01   -7.69823992e-05    9.26465888e-05   -5.77522143e-03    8.56931121e-02   -2.06285587e-04
                    -3.11027379e-01   -1.65850981e-03    3.94188316e-01   -9.48900149e-04    2.57079336e-01   -6.18849611e-04    5.30067422e-05   -3.30423117e-03
                     1.48530885e-01   -1.18028475e-04    3.94188316e-01   -9.48900149e-04   -3.16757929e-01   -5.42907495e-04    4.45592655e-01   -3.54073031e-04
                     3.45696003e-05   -2.15493337e-03    2.70781012e-01   -7.69823992e-05    2.57079336e-01   -6.18849611e-04    4.45592655e-01   -3.54073031e-04
                    -1.87656964e-01   -2.30924601e-04
   3.98107171e+01   -9.98996745e-01   -1.59757863e-02    7.27131245e-06   -5.70628987e-04    5.84615727e-05   -4.58785705e-03    3.34481509e-05   -2.62489334e-03
                     2.18139973e-05   -1.71188696e-03    7.27131245e-06   -5.70628987e-04    4.23593519e-01   -2.04166872e-05    8.56918911e-02   -1.63875937e-04
                     1.48530186e-01   -9.37653822e-05    2.70780556e-01   -6.11605347e-05    5.84615727e-05   -4.58785705e-03    8.56918911e-02   -1.63875937e-04
                    -3.11037196e-01   -1.31752940e-03    3.94182699e-01   -7.53812247e-04    2.57075673e-01   -4.91618808e-04    3.34481509e-05   -2.62489334e-03
                     1.48530186e-01   -9.37653822e-05    3.94182699e-01   -7.53812247e-04   -3.16761142e-01   -4.31291184e-04    4.45590559e-01   -2.81280542e-04
                     2.18139973e-05   -1.71188696e-03    2.70780556e-01   -6.11605347e-05    2.57075673e-01   -4.91618808e-04    4.45590559e-01   -2.81280542e-04
                    -1.87658331e-01   -1.83453156e-04
   5.01187234e+01   -9.99071865e-01   -1.26907785e-02    4.58814981e-06   -4.53293874e-04    3.68889451e-05   -3.64448275e-03    2.11056028e-05   -2.08515182e-03
                     1.37645094e-05   -1.35988162e-03    4.58814981e-06   -4.53293874e-04    4.23593423e-01   -1.62346668e-05    8.56911205e-02   -1.30181489e-04
                     1.48529746e-01   -7.44888929e-05    2.70780269e-01   -4.85912930e-05    3.68889451e-05   -3.64448275e-03    8.56911205e-02   -1.30181489e-04
                    -3.11043391e-01   -1.04661746e-03    3.94179154e-01   -5.98813369e-04    2.57073362e-01   -3.90533133e-04    2.11056028e-05   -2.08515182e-03
                     1.48529746e-01   -7.44888929e-05    3.94179154e-01   -5.98813369e-04   -3.16763170e-01   -3.42611676e-04    4.45589237e-01   -2.23447034e-04
                     1.37645094e-05   -1.35988162e-03    2.70780269e-01   -4.85912930e-05    2.57073362e-01   -3.90533133e-04    4.45589237e-01   -2.23447034e-04
                    -1.87659193e-01   -1.45738066e-04
   6.30957344e+01   -9.99119267e-01   -1.00810248e-02    2.89502319e-06   -3.60077736e-04    2.32762071e-05   -2.89502500e-03    1.33172203e-05   -1.65635758e-03
                     8.68512953e-06   -1.08023321e-03    2.89502319e-06   -3.60077736e-04    4.23593362e-01   -1.29164667e-05    8.56906343e-02   -1.03413770e-04
                     1.48529467e-01   -5.91758278e-05    2.70780087e-01   -3.86075098e-05    2.32762071e-05   -2.89502500e-03    8.56906343e-02   -1.03413770e-04
                    -3.11047300e-01   -8.31394207e-04    3.94176918e-01   -4.75676302e-04    2.57071903e-01   -3.10227043e-04    1.33172203e-05   -1.65635758e-03
                     1.48529467e-01   -5.91758278e-05    3.94176918e-01   -4.75676302e-04   -3.16764450e-01   -2.72161937e-04    4.45588402e-01   -1.77502752e-04
                     8.68512953e-06   -1.08023321e-03    2.70780087e-01   -3.86075098e-05    2.57071903e-01   -3.10227043e-04    4.45588402e-01   -1.77502752e-04
                    -1.87659738e-01   -1.15777443e-04
   7.94328235e+01   -9.99149178e-01   -8.00783366e-03    1.82666664e-06   -2.86026735e-04    1.46866204e-05   -2.29965495e-03    8.40278017e-06   -1.31572298e-03
                     5.48005988e-06   -8.58080206e-04    1.82666664e-06   -2.86026735e-04    4.23593324e-01   -1.02857471e-05    8.56903275e-02   -8.21502502e-05
                     1.48529292e-01   -4.70123966e-05    2.70779973e-01   -3.06786120e-05    1.46866204e-05   -2.29965495e-03    8.56903275e-02   -8.21502502e-05
                    -3.11049767e-01   -6.60421910e-04    3.94175506e-01   -3.77857108e-04    2.57070982e-01   -2.46432788e-04    8.40278017e-06   -1.31572298e-03
                     1.48529292e-01   -4.70123966e-05    3.94175506e-01   -3.77857108e-04   -3.16765257e-01   -2.16198017e-04    4.45587876e-01   -1.41006055e-04
                     5.48005988e-06   -8.58080206e-04    2.70779973e-01   -3.06786120e-05    2.57070982e-01   -2.46432788e-04    4.45587876e-01   -1.41006055e-04
                    -1.87660081e-01   -9.19790756e-05
   1.00000000e+02   -9.99168051e-01   -6.36094412e-03    1.15255300e-06   -2.27202532e-04    9.26674677e-06   -1.82670835e-03    5.30185744e-06   -1.04513164e-03
                     3.45771896e-06   -6.81607594e-04    1.15255300e-06   -2.27202532e-04    4.23593300e-01   -8.20259639e-06    8.56901339e-02   -6.52600457e-05
                     1.48529181e-01   -3.73516974e-05    2.70779901e-01   -2.43829082e-05    9.26674677e-06   -1.82670835e-03    8.56901339e-02   -6.52600457e-05
                    -3.11051323e-01   -5.24607551e-04    3.94174616e-01   -3.00153353e-04    2.57070402e-01   -1.95757524e-04    5.30185744e-06   -1.04513164e-03
                     1.48529181e-01   -3.73516974e-05    3.94174616e-01   -3.00153353e-04   -3.16765767e-01   -1.71743523e-04    4.45587543e-01   -1.12015896e-04
                     3.45771896e-06   -6.81607594e-04    2.70779901e-01   -2.43829082e-05    2.57070402e-01   -1.95757524e-04    4.45587543e-01   -1.12015896e-04
                    -1.87660298e-01   -7.30772675e-05
   1.25892541e+02   -9.99179959e-01   -5.05272550e-03    7.27205608e-07   -1.80475100e-04    5.84695373e-06   -1.45101980e-03    3.34525943e-06   -8.30185459e-04
                     2.18167678e-06   -5.41425299e-04    7.27205608e-07   -1.80475100e-04    4.23593285e-01   -6.55617129e-06    8.56900117e-02   -5.18444325e-05
                     1.48529111e-01   -2.96796866e-05    2.70779855e-01   -1.93854055e-05    5.84695373e-06   -1.45101980e-03    8.56900117e-02   -5.18444325e-05
                    -3.11052305e-01   -4.16724475e-04    3.94174054e-01   -2.38430436e-04    2.57070035e-01   -1.55504829e-04    3.34525943e-06   -8.30185459e-04
                     1.48529111e-01   -2.96796866e-05    3.94174054e-01   -2.38430436e-04   -3.16766088e-01   -1.36433038e-04    4.45587334e-01   -8.89897151e-05
                     2.18167678e-06   -5.41425299e-04    2.70779855e-01   -1.93854055e-05    2.57070035e-01   -1.55504829e-04    4.45587334e-01   -8.89897151e-05
                    -1.87660435e-01   -5.80662573e-05
   1.58489319e+02   -9.99187473e-01   -4.01354658e-03    4.58825389e-07   -1.43357326e-04    3.68917677e-06   -1.15259290e-03    2.11071042e-06   -6.59443701e-04
                     1.37653613e-06   -4.30071979e-04    4.58825389e-07   -1.43357326e-04    4.23593275e-01   -5.25883983e-06    8.56899347e-02   -4.11893515e-05
                     1.48529067e-01   -2.35880140e-05    2.70779826e-01   -1.54201072e-05    3.68917677e-06   -1.15259290e-03    8.56899347e-02   -4.11893515e-05
                    -3.11052925e-01   -3.31030497e-04    3.94173700e-01   -1.89403093e-04    2.57069804e-01   -1.23532215e-04    2.11071042e-06   -6.59443701e-04
                     1.48529067e-01   -2.35880140e-05    3.94173700e-01   -1.89403093e-04   -3.16766291e-01   -1.08387130e-04    4.45587201e-01   -7.07019206e-05
                     1.37653613e-06   -4.30071979e-04    2.70779826e-01   -1.54201072e-05    2.57069804e-01   -1.23532215e-04    4.45587201e-01   -7.07019206e-05
                    -1.87660521e-01   -4.61470696e-05
   1.99526231e+02   -9.99192214e-01   -3.18808542e-03    2.89487264e-07   -1.13873203e-04    2.32769825e-06   -9.15540548e-04    1.33175505e-06   -5.23816732e-04
                     8.68521750e-07   -3.41619608e-04    2.89487264e-07   -1.13873203e-04    4.23593269e-01   -4.24153752e-06    8.56898860e-02   -3.27275666e-05
                     1.48529039e-01   -1.87523821e-05    2.70779808e-01   -1.22759160e-05    2.32769825e-06   -9.15540548e-04    8.56898860e-02   -3.27275666e-05
                    -3.11053316e-01   -2.62963598e-04    3.94173476e-01   -1.50461295e-04    2.57069658e-01   -9.81375810e-05    1.33175505e-06   -5.23816732e-04
                     1.48529039e-01   -1.87523821e-05    3.94173476e-01   -1.50461295e-04   -3.16766419e-01   -8.61127387e-05    4.45587118e-01   -5.61789403e-05
                     8.68521750e-07   -3.41619608e-04    2.70779808e-01   -1.22759160e-05    2.57069658e-01   -9.81375810e-05    4.45587118e-01   -5.61789403e-05
                    -1.87660575e-01   -3.66851724e-05
   2.51188643e+02   -9.99195206e-01   -2.53239231e-03    1.82641471e-07   -9.04529158e-05    1.46865808e-06   -7.27241442e-04    8.40264404e-07   -4.16083412e-04
                     5.47984373e-07   -2.71358747e-04    1.82641471e-07   -9.04529158e-05    4.23593266e-01   -3.45010089e-06    8.56898554e-02   -2.60085504e-05
                     1.48529022e-01   -1.49153294e-05    2.70779797e-01   -9.78542722e-06    1.46865808e-06   -7.27241442e-04    8.56898554e-02   -2.60085504e-05
                    -3.11053563e-01   -2.08899716e-04    3.94173335e-01   -1.19531680e-04    2.57069566e-01   -7.79688498e-05    8.40264404e-07   -4.16083412e-04
                     1.48529022e-01   -1.49153294e-05    3.94173335e-01   -1.19531680e-04   -3.16766500e-01   -6.84239185e-05    4.45587065e-01   -4.46475327e-05
                     5.47984373e-07   -2.71358747e-04    2.70779797e-01   -9.78542722e-06    2.57069566e-01   -7.79688498e-05    4.45587065e-01   -4.46475327e-05
                    -1.87660610e-01   -2.91767895e-05
   3.16227766e+02   -9.99197093e-01   -2.01155374e-03    1.15226072e-07   -7.18494131e-05    9.26638263e-07   -5.77669281e-04    5.30153565e-07   -3.30507300e-04
                     3.45738173e-07   -2.15548239e-04    1.15226072e-07   -7.18494131e-05    4.23593263e-01   -2.84238888e-06    8.56898360e-02   -2.06745373e-05
                     1.48529011e-01   -1.18725455e-05    2.70779790e-01   -7.81603058e-06    9.26638263e-07   -5.77669281e-04    8.56898360e-02   -2.06745373e-05
                    -3.11053718e-01   -1.65960128e-04    3.94173246e-01   -9.49673458e-05    2.57069508e-01   -6.19521033e-05    5.30153565e-07   -3.30507300e-04
                     1.48529011e-01   -1.18725455e-05    3.94173246e-01   -9.49673458e-05   -3.16766551e-01   -5.43787980e-05    4.45587032e-01   -3.54936883e-05
                     3.45738173e-07   -2.15548239e-04    2.70779790e-01   -7.81603058e-06    2.57069508e-01   -6.19521033e-05    4.45587032e-01   -3.54936883e-05
                    -1.87660631e-01   -2.32221245e-05
   3.98107171e+02   -9.99198284e-01   -1.59783545e-03    7.26897255e-08   -5.70720717e-05    5.84646041e-07   -4.58859456e-04    3.34486373e-07   -2.62531529e-04
                     2.18129135e-07   -1.71216215e-04    7.26897255e-08   -5.70720717e-05    4.23593262e-01   -2.38604151e-06    8.56898238e-02   -1.64414952e-05
                     1.48529004e-01   -9.46200451e-06    2.70779785e-01   -6.26285728e-06    5.84646041e-07   -4.58859456e-04    8.56898238e-02   -1.64414952e-05
                    -3.11053817e-01   -1.31858333e-04    3.94173189e-01   -7.54602610e-05    2.57069471e-01   -4.92344616e-05    3.34486373e-07   -2.62531529e-04
                     1.48529004e-01   -9.46200451e-06    3.94173189e-01   -7.54602610e-05   -3.16766583e-01   -4.32294847e-05    4.45587011e-01   -2.82299719e-05
                     2.18129135e-07   -1.71216215e-04    2.70779785e-01   -6.26285728e-06    2.57069471e-01   -4.92344616e-05    4.45587011e-01   -2.82299719e-05
                    -1.87660645e-01   -1.85040960e-05
   5.01187234e+02   -9.99199035e-01   -1.26920657e-03    4.58510639e-08   -4.53339851e-05    3.68863203e-07   -3.64485240e-04    2.11028530e-07   -2.08536331e-04
                     1.37613151e-07   -1.36001955e-04    4.58510639e-08   -4.53339851e-05    4.23593261e-01   -2.05675808e-06    8.56898161e-02   -1.30840109e-05
                     1.48528999e-01   -7.55534299e-06    2.70779782e-01   -5.04319957e-06    3.68863202e-07   -3.64485240e-04    8.56898161e-02   -1.30840109e-05
                    -3.11053879e-01   -1.04778380e-04    3.94173154e-01   -5.99716561e-05    2.57069448e-01   -3.91386992e-05    2.11028530e-07   -2.08536331e-04
                     1.48528999e-01   -7.55534299e-06    3.94173154e-01   -5.99716561e-05   -3.16766603e-01   -3.43822682e-05    4.45586998e-01   -2.24695842e-05
                     1.37613151e-07   -1.36001955e-04    2.70779782e-01   -5.04319957e-06    2.57069448e-01   -3.91386992e-05    4.45586998e-01   -2.24695842e-05
                    -1.87660654e-01   -1.47714648e-05
   6.30957344e+02   -9.99199509e-01   -1.00816700e-03    2.89169968e-08   -3.60100780e-05    2.32713303e-07   -2.89521027e-04    1.33131821e-07   -1.65646359e-04
                     8.68109492e-08   -1.08030234e-04    2.89169968e-08   -3.60100780e-05    4.23593260e-01   -1.83700379e-06    8.56898112e-02   -1.04232920e-05
                     1.48528996e-01   -6.05102765e-06    2.70779780e-01   -4.09210842e-06    2.32713303e-07   -2.89521027e-04    8.56898112e-02   -1.04232920e-05
