[Version] 2.0
# Hz S DB R 50
[Number of Ports] 2
[Two-Port Data Order] 12_21
[Number of Frequencies] 41
[Reference] 50 50
[Network Data]
!      Freq            magdbS11           angS11           magdbS12           angS12           magdbS21           angS21           magdbS22           angS22      
     1.000000e+01     -1.045823e-02     -1.763538e+02     -3.791160e+01     -8.781326e+01     -3.791160e+01     -8.781326e+01     -4.435492e+00     -2.427776e-01
     1.258925e+01     -9.163931e-03     -1.771033e+02     -3.990926e+01     -8.826270e+01     -3.990926e+01     -8.826270e+01     -4.436038e+00     -1.929614e-01
     1.584893e+01     -8.346763e-03     -1.776989e+02     -4.190779e+01     -8.861986e+01     -4.190779e+01     -8.861986e+01     -4.436384e+00     -1.533336e-01
     1.995262e+01     -7.830959e-03     -1.781721e+02     -4.390686e+01     -8.890364e+01     -4.390686e+01     -8.890364e+01     -4.436602e+00     -1.218274e-01
     2.511886e+01     -7.505427e-03     -1.785480e+02     -4.590627e+01     -8.912909e+01     -4.590627e+01     -8.912909e+01     -4.436740e+00     -9.678692e-02
     3.162278e+01     -7.299997e-03     -1.788466e+02     -4.790590e+01     -8.930819e+01     -4.790590e+01     -8.930819e+01     -4.436826e+00     -7.688967e-02
     3.981072e+01     -7.170366e-03     -1.790838e+02     -4.990567e+01     -8.945047e+01     -4.990567e+01     -8.945047e+01     -4.436881e+00     -6.108153e-02
     5.011872e+01     -7.088570e-03     -1.792722e+02     -5.190552e+01     -8.956349e+01     -5.190552e+01     -8.956349e+01     -4.436916e+00     -4.852342e-02
     6.309573e+01     -7.036958e-03     -1.794219e+02     -5.390543e+01     -8.965327e+01     -5.390543e+01     -8.965327e+01     -4.436938e+00     -3.854798e-02
     7.943282e+01     -7.004392e-03     -1.795408e+02     -5.590537e+01     -8.972459e+01     -5.590537e+01     -8.972459e+01     -4.436951e+00     -3.062465e-02
     1.000000e+02     -6.983844e-03     -1.796352e+02     -5.790533e+01     -8.978124e+01     -5.790533e+01     -8.978124e+01     -4.436960e+00     -2.433186e-02
     1.258925e+02     -6.970879e-03     -1.797103e+02     -5.990531e+01     -8.982624e+01     -5.990531e+01     -8.982624e+01     -4.436966e+00     -1.933464e-02
     1.584893e+02     -6.962698e-03     -1.797699e+02     -6.190530e+01     -8.986199e+01     -6.190530e+01     -8.986199e+01     -4.436969e+00     -1.536698e-02
     1.995262e+02     -6.957537e-03     -1.798172e+02     -6.390529e+01     -8.989038e+01     -6.390529e+01     -8.989038e+01     -4.436971e+00     -1.221763e-02
     2.511886e+02     -6.954280e-03     -1.798548e+02     -6.590528e+01     -8.991294e+01     -6.590528e+01     -8.991294e+01     -4.436973e+00     -9.718881e-03
     3.162278e+02     -6.952225e-03     -1.798847e+02     -6.790528e+01     -8.993087e+01     -6.790528e+01     -8.993087e+01     -4.436974e+00     -7.737690e-03
     3.981072e+02     -6.950929e-03     -1.799084e+02     -6.990528e+01     -8.994511e+01     -6.990528e+01     -8.994511e+01     -4.436974e+00     -6.168554e-03
     5.011872e+02     -6.950111e-03     -1.799272e+02     -7.190527e+01     -8.995643e+01     -7.190527e+01     -8.995643e+01     -4.436974e+00     -4.927913e-03
     6.309573e+02     -6.949595e-03     -1.799422e+02     -7.390527e+01     -8.996543e+01     -7.390527e+01     -8.996543e+01     -4.436975e+00     -3.949700e-03
     7.943282e+02     -6.949269e-03     -1.799541e+02     -7.590527e+01     -8.997259e+01     -7.590527e+01     -8.997259e+01     -4.436975e+00     -3.181822e-03
     1.000000e+03     -6.949063e-03     -1.799635e+02     -7.790527e+01     -8.997829e+01     -7.790527e+01     -8.997829e+01     -4.436975e+00     -2.583388e-03
     1.258925e+03     -6.948934e-03     -1.799710e+02     -7.990527e+01     -8.998283e+01     -7.990527e+01     -8.998283e+01     -4.436975e+00     -2.122528e-03
     1.584893e+03     -6.948852e-03     -1.799770e+02     -8.190527e+01     -8.998646e+01     -8.190527e+01     -8.998646e+01     -4.436975e+00     -1.774701e-03
     1.995262e+03     -6.948800e-03     -1.799817e+02     -8.390527e+01     -8.998937e+01     -8.390527e+01     -8.998937e+01     -4.436975e+00     -1.521383e-03
     2.511886e+03     -6.948768e-03     -1.799855e+02     -8.590527e+01     -8.999171e+01     -8.590527e+01     -8.999171e+01     -4.436975e+00     -1.349083e-03
     3.162278e+03     -6.948747e-03     -1.799885e+02     -8.790527e+01     -8.999361e+01     -8.790527e+01     -8.999361e+01     -4.436975e+00     -1.248628e-03
     3.981072e+03     -6.948734e-03     -1.799908e+02     -8.990527e+01     -8.999518e+01     -8.990527e+01     -8.999518e+01     -4.436975e+00     -1.214666e-03
     5.011872e+03     -6.948726e-03     -1.799927e+02     -9.190527e+01     -8.999648e+01     -9.190527e+01     -8.999648e+01     -4.436975e+00     -1.245390e-03
     6.309573e+03     -6.948721e-03     -1.799942e+02     -9.390527e+01     -8.999760e+01     -9.390527e+01     -8.999760e+01     -4.436975e+00     -1.342436e-03
     7.943282e+03     -6.948718e-03     -1.799954e+02     -9.590527e+01     -8.999858e+01     -9.590527e+01     -8.999858e+01     -4.436975e+00     -1.510971e-03
     1.000000e+04     -6.948716e-03     -1.799964e+02     -9.790527e+01     -8.999950e+01     -9.790527e+01     -8.999950e+01     -4.436975e+00     -1.759971e-03
     1.258925e+04     -6.948714e-03     -1.799971e+02     -9.990527e+01     -9.000038e+01     -9.990527e+01     -9.000038e+01     -4.436975e+00     -2.102696e-03
     1.584893e+04     -6.948713e-03     -1.799977e+02     -1.019053e+02     -9.000129e+01     -1.019053e+02     -9.000129e+01     -4.436975e+00     -2.557396e-03
     1.995262e+04     -6.948713e-03     -1.799982e+02     -1.039053e+02     -9.000227e+01     -1.039053e+02     -9.000227e+01     -4.436975e+00     -3.148288e-03
     2.511886e+04     -6.948713e-03     -1.799985e+02     -1.059053e+02     -9.000336e+01     -1.059053e+02     -9.000336e+01     -4.436975e+00     -3.906837e-03
     3.162278e+04     -6.948712e-03     -1.799988e+02     -1.079053e+02     -9.000464e+01     -1.079053e+02     -9.000464e+01     -4.436975e+00     -4.873440e-03
     3.981072e+04     -6.948712e-03     -1.799991e+02     -1.099053e+02     -9.000616e+01     -1.099053e+02     -9.000616e+01     -4.436975e+00     -6.099571e-03
     5.011872e+04     -6.948712e-03     -1.799993e+02     -1.119053e+02     -9.000801e+01     -1.119053e+02     -9.000801e+01     -4.436975e+00     -7.650527e-03
     6.309573e+04     -6.948712e-03     -1.799994e+02     -1.139053e+02     -9.001028e+01     -1.139053e+02     -9.001028e+01     -4.436975e+00     -9.608901e-03
     7.943282e+04     -6.948712e-03     -1.799995e+02     -1.159053e+02     -9.001311e+01     -1.159053e+02     -9.001311e+01     -4.436975e+00     -1.207898e-02
     1.000000e+05     -6.948712e-03     -1.799996e+02     -1.179053e+02     -9.001663e+01     -1.179053e+02     -9.001663e+01     -4.436975e+00     -1.519232e-02
