# Hz S RI R 50 50 100
!      Freq              ReS11             ImS11             ReS12             ImS12             ReS13             ImS13
!                        ReS21             ImS21             ReS22             ImS22             ReS23             ImS23
!                        ReS31             ImS31             ReS32             ImS32             ReS33             ImS33
   1.00000000e+01   -9.96375336e-01   -6.34853715e-02    3.88202252e-04   -8.72400628e-03    1.04310206e-03   -2.34414552e-02
                     3.88202252e-04   -8.72400628e-03    5.60492906e-01   -1.19884561e-03    2.33255466e-01   -3.22127389e-03
                     1.04310206e-03   -2.34414552e-02    2.33255466e-01   -3.22127389e-03   -3.73241217e-01   -8.65557167e-03
   1.25892541e+01   -9.97416575e-01   -5.04650269e-02    2.45117743e-04   -6.93478200e-03    6.58633159e-04   -1.86337992e-02
                     2.45117743e-04   -6.93478200e-03    5.60473244e-01   -9.52978294e-04    2.33202633e-01   -2.56061893e-03
                     6.58633159e-04   -1.86337992e-02    2.33202633e-01   -2.56061893e-03   -3.73383179e-01   -6.88038542e-03
   1.58489319e+01   -9.98074334e-01   -4.01042633e-02    1.54730010e-04   -5.51103091e-03    4.15760800e-04   -1.48081718e-02
                     1.54730010e-04   -5.51103091e-03    5.60460823e-01   -7.57334345e-04    2.33169258e-01   -2.03491235e-03
                     4.15760800e-04   -1.48081718e-02    2.33169258e-01   -2.03491235e-03   -3.73472857e-01   -5.46780560e-03
   1.99526231e+01   -9.98489664e-01   -3.18652113e-02    9.76563420e-05   -4.37884031e-03    2.62403524e-04   -1.17659692e-02
                     9.76563420e-05   -4.37884031e-03    5.60452980e-01   -6.01757093e-04    2.33148184e-01   -1.61686259e-03
                     2.62403524e-04   -1.17659692e-02    2.33148184e-01   -1.61686259e-03   -3.73529483e-01   -4.34449943e-03
   2.51188643e+01   -9.98751844e-01   -2.53160816e-02    6.16282112e-05   -3.47887473e-03    1.65595729e-04   -9.34775646e-03
                     6.16282112e-05   -3.47887473e-03    5.60448029e-01   -4.78093106e-04    2.33134881e-01   -1.28456064e-03
                     1.65595729e-04   -9.34775646e-03    2.33134881e-01   -1.28456064e-03   -3.73565229e-01   -3.45159708e-03
   3.16227766e+01   -9.98917318e-01   -2.01116069e-02    3.88891935e-05   -2.76368840e-03    1.04495857e-04   -7.42604666e-03
                     3.88891935e-05   -2.76368840e-03    5.60444904e-01   -3.79822874e-04    2.33126485e-01   -1.02048769e-03
                     1.04495857e-04   -7.42604666e-03    2.33126485e-01   -1.02048769e-03   -3.73587789e-01   -2.74202513e-03
   3.98107171e+01   -9.99021745e-01   -1.59763844e-02    2.45391336e-05   -2.19543612e-03    6.59371633e-05   -5.89914952e-03
                     2.45391336e-05   -2.19543612e-03    5.60442933e-01   -3.01746283e-04    2.33121187e-01   -8.10669917e-04
                     6.59371633e-05   -5.89914952e-03    2.33121187e-01   -8.10669917e-04   -3.73602027e-01   -2.17823549e-03
   5.01187234e+01   -9.99087641e-01   -1.26910783e-02    1.54837789e-05   -1.74397730e-03    4.16053730e-05   -4.68607706e-03
                     1.54837789e-05   -1.74397730e-03    5.60441688e-01   -2.39722081e-04    2.33117843e-01   -6.43978400e-04
                     4.16053730e-05   -4.68607706e-03    2.33117843e-01   -6.43978400e-04   -3.73611011e-01   -1.73032426e-03
   6.30957344e+01   -9.99129223e-01   -1.00811751e-02    9.76980677e-06   -1.38533071e-03    2.62518968e-05   -3.72239160e-03
                     9.76980677e-06   -1.38533071e-03    5.60440903e-01   -1.90455582e-04    2.33115733e-01   -5.11558588e-04
                     2.62518968e-05   -3.72239160e-03    2.33115733e-01   -5.11558588e-04   -3.73616680e-01   -1.37449866e-03
   7.94328235e+01   -9.99155460e-01   -8.00790897e-03    6.16436300e-06   -1.10042749e-03    1.65640487e-05   -2.95685502e-03
                     6.16436300e-06   -1.10042749e-03    5.60440408e-01   -1.51327342e-04    2.33114402e-01   -4.06369861e-04
                     1.65640487e-05   -2.95685502e-03    2.33114402e-01   -4.06369861e-04   -3.73620258e-01   -1.09183984e-03
   1.00000000e+02   -9.99172015e-01   -6.36098187e-03    3.88941368e-06   -8.74110751e-04    1.04512467e-05   -2.34874063e-03
                     3.88941368e-06   -8.74110751e-04    5.60440095e-01   -1.20255732e-04    2.33113562e-01   -3.22816160e-04
                     1.04512467e-05   -2.34874063e-03    2.33113562e-01   -3.22816160e-04   -3.73622515e-01   -8.67310285e-04
   1.25892541e+02   -9.99182460e-01   -5.05274442e-03    2.45399058e-06   -6.94335923e-04    6.59425657e-06   -1.86568463e-03
                     2.45399058e-06   -6.94335923e-04    5.60439898e-01   -9.55871238e-05    2.33113032e-01   -2.56450764e-04
                     6.59425657e-06   -1.86568463e-03    2.33113032e-01   -2.56450764e-04   -3.73623939e-01   -6.88960556e-04
   1.58489319e+02   -9.99189051e-01   -4.01355606e-03    1.54828905e-06   -5.51533171e-04    4.16063132e-06   -1.48197281e-03
                     1.54828905e-06   -5.51533171e-04    5.60439773e-01   -7.60083503e-05    2.33112697e-01   -2.03740888e-04
                     4.16063132e-06   -1.48197281e-03    2.33112697e-01   -2.03740888e-04   -3.73624837e-01   -5.47296673e-04
   1.99526231e+02   -9.99193210e-01   -3.18809017e-03    9.76825710e-07   -4.38099645e-04    2.62510604e-06   -1.17717627e-03
                     9.76825710e-07   -4.38099645e-04    5.60439695e-01   -6.04770338e-05    2.33112486e-01   -1.61880245e-04
                     2.62510604e-06   -1.17717627e-03    2.33112486e-01   -1.61880245e-04   -3.73625404e-01   -4.34776423e-04
   2.51188643e+02   -9.99195834e-01   -2.53239469e-03    6.16255011e-07   -3.47995556e-04    1.65625049e-06   -9.35066066e-04
                     6.16255011e-07   -3.47995556e-04    5.60439645e-01   -4.81662072e-05    2.33112353e-01   -1.28639958e-04
                     1.65625049e-06   -9.35066066e-04    2.33112353e-01   -1.28639958e-04   -3.73625762e-01   -3.45408644e-04
   3.16227766e+02   -9.99197489e-01   -2.01155493e-03    3.88749599e-07   -2.76423016e-04    1.04494214e-06   -7.42750238e-04
                     3.88749599e-07   -2.76423016e-04    5.60439614e-01   -3.84203403e-05    2.33112269e-01   -1.02250040e-04
                     1.04494214e-06   -7.42750238e-04    2.33112269e-01   -1.02250040e-04   -3.73625988e-01   -2.74434655e-04
   3.98107171e+02   -9.99198534e-01   -1.59783605e-03    2.45203117e-07   -2.19570767e-04    6.59231913e-07   -5.89987916e-04
                     2.45203117e-07   -2.19570767e-04    5.60439594e-01   -3.07204632e-05    2.33112216e-01   -8.13052202e-05
                     6.59231913e-07   -5.89987916e-04    2.33112216e-01   -8.13052202e-05   -3.73626130e-01   -2.18075071e-04
   5.01187234e+02   -9.99199193e-01   -1.26920687e-03    1.54631302e-07   -1.74411340e-04    4.15864924e-07   -4.68644276e-04
                     1.54631302e-07   -1.74411340e-04    5.60439582e-01   -2.46565461e-05    2.33112183e-01   -6.46901546e-05
                     4.15864924e-07   -4.68644276e-04    2.33112183e-01   -6.46901546e-05   -3.73626220e-01   -1.73328659e-04
   6.30957344e+02   -9.99199609e-01   -1.00816715e-03    9.74843075e-08   -1.38539892e-04    2.62310620e-07   -3.72257489e-04
                     9.74843075e-08   -1.38539892e-04    5.60439574e-01   -1.99056717e-05    2.33112162e-01   -5.15200531e-05
                     2.62310620e-07   -3.72257489e-04    2.33112162e-01   -5.15200531e-05   -3.73626277e-01   -1.37812571e-04
   7.94328235e+02   -9.99199871e-01   -8.00815777e-04    6.14269743e-08   -1.10046168e-04    1.65424358e-07   -2.95694688e-04
                     6.14269743e-08   -1.10046168e-04    5.60439569e-01   -1.62148426e-05    2.33112148e-01   -4.10935711e-05
                     1.65424358e-07   -2.95694688e-04    2.33112148e-01   -4.10935711e-05   -3.73626313e-01   -1.09635473e-04
   1.00000000e+03   -9.99200037e-01   -6.36110656e-04    3.86763283e-08   -8.74127886e-05    1.04293241e-07   -2.34878667e-04
                     3.86763283e-08   -8.74127886e-05    5.60439566e-01   -1.33875110e-05    2.33112140e-01   -3.28554659e-05
                     1.04293241e-07   -2.34878667e-04    2.33112140e-01   -3.28554659e-05   -3.73626335e-01   -8.72968495e-05
   1.25892541e+03   -9.99200141e-01   -5.05280691e-04    2.43216384e-08   -6.94344511e-05    6.57221061e-08   -1.86570771e-04
                     2.43216384e-08   -6.94344511e-05    5.60439564e-01   -1.12731120e-05    2.33112135e-01   -2.63670312e-05
                     6.57221061e-08   -1.86570771e-04    2.33112135e-01   -2.63670312e-05   -3.73626349e-01   -6.96070938e-05
   1.58489319e+03   -9.99200207e-01   -4.01358738e-04    1.52644404e-08   -5.51537475e-05    4.13853626e-08   -1.48198438e-04
                     1.52644404e-08   -5.51537475e-05    5.60439563e-01   -9.75904688e-06    2.33112131e-01   -2.12827357e-05
                     4.13853626e-08   -1.48198438e-04    2.33112131e-01   -2.12827357e-05   -3.73626358e-01   -5.56241658e-05
   1.99526231e+03   -9.99200249e-01   -3.18810587e-04    9.54973425e-09   -4.38101802e-05    2.60299144e-08   -1.17718207e-04
                     9.54973426e-09   -4.38101802e-05    5.60439562e-01   -8.76468631e-06    2.33112129e-01   -1.73318228e-05
                     2.60299144e-08   -1.17718207e-04    2.33112129e-01   -1.73318228e-05   -3.73626364e-01   -4.46034255e-05
   2.51188643e+03   -9.99200275e-01   -2.53240256e-04    5.94399832e-09   -3.47996637e-05    1.63412811e-08   -9.35068971e-05
                     5.94399831e-09   -3.47996637e-05    5.60439561e-01   -8.23707711e-06    2.33112128e-01   -1.43038923e-05
                     1.63412811e-08   -9.35068971e-05    2.33112128e-01   -1.43038923e-05   -3.73626368e-01   -3.59579794e-05
   3.16227766e+03   -9.99200292e-01   -2.01155887e-04    3.66893267e-09   -2.76423558e-05    1.02281666e-08   -7.42751694e-05
                     3.66893267e-09   -2.76423558e-05    5.60439561e-01   -8.14812223e-06    2.33112127e-01   -1.20376960e-05
                     1.02281666e-08   -7.42751694e-05    2.33112127e-01   -1.20376960e-05   -3.73626370e-01   -2.92274263e-05
   3.98107171e+03   -9.99200302e-01   -1.59783802e-04    2.23346326e-09   -2.19571038e-05    6.37105201e-09   -5.89988646e-05
                     2.23346326e-09   -2.19571038e-05    5.60439561e-01   -8.49308455e-06    2.33112126e-01   -1.04125508e-05
                     6.37105201e-09   -5.89988646e-05    2.33112126e-01   -1.04125508e-05   -3.73626371e-01   -2.40533399e-05
   5.01187234e+03   -9.99200309e-01   -1.26920786e-04    1.32774329e-09   -1.74411476e-05    3.93737722e-09   -4.68644642e-05
                     1.32774328e-09   -1.74411476e-05    5.60439561e-01   -9.29033457e-06    2.33112126e-01   -9.34191193e-06
                     3.93737721e-09   -4.68644642e-05    2.33112126e-01   -9.34191193e-06   -3.73626372e-01   -2.01601815e-05
   6.30957344e+03   -9.99200313e-01   -1.00816764e-04    7.56272610e-10   -1.38539960e-05    2.40183221e-09   -3.72257672e-05
                     7.56272610e-10   -1.38539960e-05    5.60439560e-01   -1.05823288e-05    2.33112126e-01   -8.76876388e-06
                     2.40183221e-09   -3.72257672e-05    2.33112126e-01   -8.76876388e-06   -3.73626373e-01   -1.73406263e-05
   7.94328235e+03   -9.99200315e-01   -8.00816025e-05    3.95698989e-10   -1.10046202e-05    1.43296881e-09   -2.95694780e-05
                     3.95698989e-10   -1.10046202e-05    5.60439560e-01   -1.24378706e-05    2.33112126e-01   -8.66258447e-06
                     1.43296881e-09   -2.95694780e-05    2.33112126e-01   -8.66258447e-06   -3.73626373e-01   -1.54445226e-05
   1.00000000e+04   -9.99200317e-01   -6.36110781e-05    1.68192413e-10   -8.74128057e-06    8.21657334e-10   -2.34878713e-05
                     1.68192413e-10   -8.74128057e-06    5.60439560e-01   -1.49557743e-05    2.33112126e-01   -9.01771927e-06
                     8.21657334e-10   -2.34878713e-05    2.33112126e-01   -9.01771927e-06   -3.73626373e-01   -1.43708960e-05
   1.25892541e+04   -9.99200318e-01   -5.05280754e-05    2.46454687e-11   -6.94344597e-06    4.35945866e-10   -1.86570794e-05
                     2.46454686e-11   -6.94344597e-06    5.60439560e-01   -1.82701276e-05    2.33112125e-01   -9.85308049e-06
                     4.35945866e-10   -1.86570794e-05    2.33112125e-01   -9.85308049e-06   -3.73626374e-01   -1.40625720e-05
   1.58489319e+04   -9.99200319e-01   -4.01358769e-05   -6.59265307e-11   -5.51537518e-06    1.92578381e-10   -1.48198449e-05
                    -6.59265305e-11   -5.51537518e-06    5.60439560e-01   -2.25574318e-05    2.33112125e-01   -1.12131542e-05
                     1.92578382e-10   -1.48198449e-05    2.33112125e-01   -1.12131542e-05   -3.73626374e-01   -1.45031313e-05
   1.99526231e+04   -9.99200319e-01   -3.18810603e-05   -1.23073599e-10   -4.38101823e-06    3.90238800e-11   -1.17718213e-05
                    -1.23073599e-10   -4.38101823e-06    5.60439560e-01   -2.80460015e-05    2.33112125e-01   -1.31703692e-05
                     3.90238801e-11   -1.17718213e-05    2.33112125e-01   -1.31703692e-05   -3.73626374e-01   -1.57160351e-05
   2.51188643e+04   -9.99200319e-01   -2.53240263e-05   -1.59130961e-10   -3.47996647e-06   -5.78624604e-11   -9.35068999e-06
                    -1.59130961e-10   -3.47996647e-06    5.60439559e-01   -3.50281230e-05    2.33112125e-01   -1.58289544e-05
                    -5.78624603e-11   -9.35068999e-06    2.33112125e-01   -1.58289544e-05   -3.73626374e-01   -1.77658752e-05
   3.16227766e+04   -9.99200320e-01   -2.01155891e-05   -1.81881618e-10   -2.76423562e-06   -1.18993608e-10   -7.42751707e-06
                    -1.81881618e-10   -2.76423562e-06    5.60439558e-01   -4.38756197e-05    2.33112124e-01   -1.93304892e-05
                    -1.18993608e-10   -7.42751707e-06    2.33112124e-01   -1.93304892e-05   -3.73626375e-01   -2.07618129e-05
   3.98107171e+04   -9.99200320e-01   -1.59783804e-05   -1.96236312e-10   -2.19571039e-06   -1.57564755e-10   -5.89988652e-06
                    -1.96236312e-10   -2.19571039e-06    5.60439557e-01   -5.50596532e-05    2.33112124e-01   -2.38614429e-05
                    -1.57564755e-10   -5.89988652e-06    2.33112124e-01   -2.38614429e-05   -3.73626375e-01   -2.48633928e-05
   5.01187234e+04   -9.99200320e-01   -1.26920787e-05   -2.05293511e-10   -1.74411475e-06   -1.81901503e-10   -4.68644644e-06
                    -2.05293511e-10   -1.74411475e-06    5.60439555e-01   -6.91758139e-05    2.33112123e-01   -2.96631055e-05
                    -1.81901503e-10   -4.68644644e-06    2.33112123e-01   -2.96631055e-05   -3.73626376e-01   -3.02890390e-05
   6.30957344e+04   -9.99200320e-01   -1.00816765e-05   -2.11008217e-10   -1.38539958e-06   -1.97256953e-10   -3.72257672e-06
                    -2.11008217e-10   -1.38539958e-06    5.60439553e-01   -8.69758387e-05    2.33112121e-01   -3.70444364e-05
                    -1.97256953e-10   -3.72257672e-06    2.33112121e-01   -3.70444364e-05   -3.73626377e-01   -3.73276869e-05
   7.94328235e+04   -9.99200320e-01   -8.00816028e-06   -2.14613952e-10   -1.10046199e-06   -2.06945585e-10   -2.95694779e-06
                    -2.14613952e-10   -1.10046199e-06    5.60439548e-01   -1.09407644e-04    2.33112119e-01   -4.63985185e-05
                    -2.06945585e-10   -2.95694779e-06    2.33112119e-01   -4.63985185e-05   -3.73626379e-01   -4.63541701e-05
   1.00000000e+05   -9.99200320e-01   -6.36110782e-06   -2.16889015e-10   -8.74128016e-07   -2.13058698e-10   -2.34878710e-06
                    -2.16889015e-10   -8.74128016e-07    5.60439541e-01   -1.37665804e-04    2.33112115e-01   -5.82234904e-05
                    -2.13058698e-10   -2.34878710e-06    2.33112115e-01   -5.82234904e-05   -3.73626382e-01   -5.78491816e-05
