# Hz S DB R 50
!      Freq            magdbS11           angS11
   1.00000000e+01   -6.94167869e-03   -1.76353668e+02
   1.25892541e+01   -6.94427265e-03   -1.77103255e+02
   1.58489319e+01   -6.94591033e-03   -1.77698853e+02
   1.99526231e+01   -6.94694403e-03   -1.78172043e+02
   2.51188643e+01   -6.94759641e-03   -1.78547957e+02
   3.16227766e+01   -6.94800810e-03   -1.78846578e+02
   3.98107171e+01   -6.94826788e-03   -1.79083793e+02
   5.01187234e+01   -6.94843180e-03   -1.79272225e+02
   6.30957344e+01   -6.94853524e-03   -1.79421905e+02
   7.94328235e+01   -6.94860050e-03   -1.79540801e+02
   1.00000000e+02   -6.94864168e-03   -1.79635245e+02
   1.25892541e+02   -6.94866766e-03   -1.79710264e+02
   1.58489319e+02   -6.94868405e-03   -1.79769855e+02
   1.99526231e+02   -6.94869440e-03   -1.79817189e+02
   2.51188643e+02   -6.94870092e-03   -1.79854788e+02
   3.16227766e+02   -6.94870504e-03   -1.79884654e+02
   3.98107171e+02   -6.94870764e-03   -1.79908377e+02
   5.01187234e+02   -6.94870928e-03   -1.79927222e+02
   6.30957344e+02   -6.94871031e-03   -1.79942190e+02
   7.94328235e+02   -6.94871097e-03   -1.79954080e+02
   1.00000000e+03   -6.94871138e-03   -1.79963524e+02
   1.25892541e+03   -6.94871164e-03   -1.79971026e+02
   1.58489319e+03   -6.94871180e-03   -1.79976985e+02
   1.99526231e+03   -6.94871190e-03   -1.79981719e+02
   2.51188643e+03   -6.94871197e-03   -1.79985479e+02
   3.16227766e+03   -6.94871201e-03   -1.79988465e+02
   3.98107171e+03   -6.94871204e-03   -1.79990838e+02
   5.01187234e+03   -6.94871205e-03   -1.79992722e+02
   6.30957344e+03   -6.94871206e-03   -1.79994219e+02
   7.94328235e+03   -6.94871207e-03   -1.79995408e+02
   1.00000000e+04   -6.94871207e-03   -1.79996352e+02
   1.25892541e+04   -6.94871208e-03   -1.79997103e+02
   1.58489319e+04   -6.94871208e-03   -1.79997699e+02
   1.99526231e+04   -6.94871208e-03   -1.79998172e+02
   2.51188643e+04   -6.94871208e-03   -1.79998548e+02
   3.16227766e+04   -6.94871208e-03   -1.79998847e+02
   3.98107171e+04   -6.94871208e-03   -1.79999084e+02
   5.01187234e+04   -6.94871208e-03   -1.79999272e+02
   6.30957344e+04   -6.94871208e-03   -1.79999422e+02
   7.94328235e+04   -6.94871208e-03   -1.79999541e+02
   1.00000000e+05   -6.94871208e-03   -1.79999635e+02
