# Hz S MA R 50
!      Freq             magS11            angS11
   1.00000000e+01    9.99201129e-01   -1.76353668e+02
   1.25892541e+01    9.99200831e-01   -1.77103255e+02
   1.58489319e+01    9.99200642e-01   -1.77698853e+02
   1.99526231e+01    9.99200523e-01   -1.78172043e+02
   2.51188643e+01    9.99200448e-01   -1.78547957e+02
   3.16227766e+01    9.99200401e-01   -1.78846578e+02
   3.98107171e+01    9.99200371e-01   -1.79083793e+02
   5.01187234e+01    9.99200352e-01   -1.79272225e+02
   6.30957344e+01    9.99200340e-01   -1.79421905e+02
   7.94328235e+01    9.99200333e-01   -1.79540801e+02
   1.00000000e+02    9.99200328e-01   -1.79635245e+02
   1.25892541e+02    9.99200325e-01   -1.79710264e+02
   1.58489319e+02    9.99200323e-01   -1.79769855e+02
   1.99526231e+02    9.99200322e-01   -1.79817189e+02
   2.51188643e+02    9.99200321e-01   -1.79854788e+02
   3.16227766e+02    9.99200321e-01   -1.79884654e+02
   3.98107171e+02    9.99200320e-01   -1.79908377e+02
   5.01187234e+02    9.99200320e-01   -1.79927222e+02
   6.30957344e+02    9.99200320e-01   -1.79942190e+02
   7.94328235e+02    9.99200320e-01   -1.79954080e+02
   1.00000000e+03    9.99200320e-01   -1.79963524e+02
   1.25892541e+03    9.99200320e-01   -1.79971026e+02
   1.58489319e+03    9.99200320e-01   -1.79976985e+02
   1.99526231e+03    9.99200320e-01   -1.79981719e+02
   2.51188643e+03    9.99200320e-01   -1.79985479e+02
   3.16227766e+03    9.99200320e-01   -1.79988465e+02
   3.98107171e+03    9.99200320e-01   -1.79990838e+02
   5.01187234e+03    9.99200320e-01   -1.79992722e+02
   6.30957344e+03    9.99200320e-01   -1.79994219e+02
   7.94328235e+03    9.99200320e-01   -1.79995408e+02
   1.00000000e+04    9.99200320e-01   -1.79996352e+02
   1.25892541e+04    9.99200320e-01   -1.79997103e+02
   1.58489319e+04    9.99200320e-01   -1.79997699e+02
   1.99526231e+04    9.99200320e-01   -1.79998172e+02
   2.51188643e+04    9.99200320e-01   -1.79998548e+02
   3.16227766e+04    9.99200320e-01   -1.79998847e+02
   3.98107171e+04    9.99200320e-01   -1.79999084e+02
   5.01187234e+04    9.99200320e-01   -1.79999272e+02
   6.30957344e+04    9.99200320e-01   -1.79999422e+02
   7.94328235e+04    9.99200320e-01   -1.79999541e+02
   1.00000000e+05    9.99200320e-01   -1.79999635e+02
