Index       FREQ             SP(1,1)           SP(1,2)           SP(2,1)           SP(2,2)           YP(1,1)           YP(1,2)           YP(2,1)           YP(2,2)           ZP(1,1)           ZP(1,2)           ZP(2,1)           ZP(2,2)     
0        1.00000000e+01   -1.76353815e+02   -8.78132557e+01   -8.78132557e+01   -2.42777578e-01    8.88241742e+01    1.79280109e+02    1.79280109e+02    7.48259425e-05   -8.92800379e+01   -9.00000040e+01   -9.00000040e+01   -4.55938546e-01
1        1.25892541e+01   -1.77103328e+02   -8.82626968e+01   -8.82626968e+01   -1.92961397e-01    8.87315745e+01    1.79093739e+02    1.79093739e+02    9.41919136e-05   -8.90936493e+01   -9.00000050e+01   -9.00000050e+01   -3.62169003e-01
2        1.58489319e+01   -1.77698890e+02   -8.86198559e+01   -8.86198559e+01   -1.53333570e-01    8.85714622e+01    1.78859140e+02    1.78859140e+02    1.18563903e-04   -8.88590277e+01   -9.00000063e+01   -9.00000063e+01   -2.87684142e-01
3        1.99526231e+01   -1.78172061e+02   -8.89036356e+01   -8.89036356e+01   -1.21827387e-01    8.83353429e+01    1.78563853e+02    1.78563853e+02    1.49229822e-04   -8.85637121e+01   -9.00000079e+01   -9.00000079e+01   -2.28518440e-01
4        2.51188643e+01   -1.78547966e+02   -8.91290891e+01   -8.91290891e+01   -9.67869224e-02    8.80107082e+01    1.78192220e+02    1.78192220e+02    1.87802835e-04   -8.81920421e+01   -9.00000099e+01   -9.00000099e+01   -1.81521640e-01
5        3.16227766e+01   -1.78846583e+02   -8.93081932e+01   -8.93081932e+01   -7.68896660e-02    8.75804025e+01    1.77724581e+02    1.77724581e+02    2.36297440e-04   -8.77243574e+01   -9.00000125e+01   -9.00000125e+01   -1.44191261e-01
6        3.98107171e+01   -1.79083795e+02   -8.94504709e+01   -8.94504709e+01   -6.10815257e-02    8.70217738e+01    1.77136298e+02    1.77136298e+02    2.97217235e-04   -8.71360161e+01   -9.00000158e+01   -9.00000158e+01   -1.14539457e-01
7        5.01187234e+01   -1.79272226e+02   -8.95634917e+01   -8.95634917e+01   -4.85234228e-02    8.63055982e+01    1.76396566e+02    1.76396566e+02    3.73649594e-04   -8.63962118e+01   -9.00000198e+01   -9.00000198e+01   -9.09872300e-02
8        6.30957344e+01   -1.79421906e+02   -8.96532706e+01   -8.96532706e+01   -3.85479773e-02    8.53947802e+01    1.75467036e+02    1.75467036e+02    4.69353921e-04   -8.54665912e+01   -9.00000250e+01   -9.00000250e+01   -7.22803705e-02
9        7.94328235e+01   -1.79540802e+02   -8.97245868e+01   -8.97245868e+01   -3.06246545e-02    8.42428847e+01    1.74300276e+02    1.74300276e+02    5.88812779e-04   -8.42997186e+01   -9.00000315e+01   -9.00000315e+01   -5.74226873e-02
10       1.00000000e+02   -1.79635245e+02   -8.97812371e+01   -8.97812371e+01   -2.43318567e-02    8.27926584e+01    1.72838242e+02    1.72838242e+02    7.37182194e-04   -8.28375442e+01   -9.00000396e+01   -9.00000396e+01   -4.56229630e-02
11       1.25892541e+02   -1.79710264e+02   -8.98262379e+01   -8.98262379e+01   -1.93346437e-02    8.09749076e+01    1.71011111e+02    1.71011111e+02    9.20018312e-04   -8.10102404e+01   -9.00000499e+01   -9.00000499e+01   -3.62528236e-02
12       1.58489319e+02   -1.79769855e+02   -8.98619856e+01   -8.98619856e+01   -1.53669831e-02    7.87084859e+01    1.68737236e+02    1.68737236e+02    1.14256266e-03   -7.87361566e+01   -9.00000628e+01   -9.00000628e+01   -2.88132772e-02
13       1.99526231e+02   -1.79817189e+02   -8.98903836e+01   -8.98903836e+01   -1.22176265e-02    7.59027869e+01    1.65925616e+02    1.65925616e+02    1.40824496e-03   -7.59242868e+01   -9.00000790e+01   -9.00000790e+01   -2.29081417e-02
14       2.51188643e+02   -1.79854788e+02   -8.99129442e+01   -8.99129442e+01   -9.71888089e-03    7.24650374e+01    1.62483161e+02    1.62483161e+02    1.71598700e-03   -7.24815444e+01   -9.00000995e+01   -9.00000995e+01   -1.82229478e-02
15       3.16227766e+02   -1.79884654e+02   -8.99308687e+01   -8.99308687e+01   -7.73769010e-03    6.83154899e+01    1.58329873e+02    1.58329873e+02    2.05610883e-03   -6.83279420e+01   -9.00001252e+01   -9.00001252e+01   -1.45081921e-02
16       3.98107171e+02   -1.79908377e+02   -8.99451118e+01   -8.99451118e+01   -6.16855399e-03    6.34131286e+01    1.53424537e+02    1.53424537e+02    2.40564504e-03   -6.34222890e+01   -9.00001577e+01   -9.00001577e+01   -1.15660503e-02
17       5.01187234e+02   -1.79927222e+02   -8.99564319e+01   -8.99564319e+01   -4.92791309e-03    5.77903337e+01    1.47799375e+02    1.47799375e+02    2.72606696e-03   -5.77968475e+01   -9.00001985e+01   -9.00001985e+01   -9.23984284e-03
18       6.30957344e+02   -1.79942190e+02   -8.99654319e+01   -8.99654319e+01   -3.94970014e-03    5.15852134e+01    1.41592369e+02    1.41592369e+02    2.96862694e-03   -5.15896504e+01   -9.00002499e+01   -9.00002499e+01   -7.40569067e-03
19       7.94328235e+02   -1.79954080e+02   -8.99725910e+01   -8.99725910e+01   -3.18182243e-03    4.50492453e+01    1.35054897e+02    1.35054897e+02    3.09056789e-03   -4.50521206e+01   -9.00003146e+01   -9.00003146e+01   -5.96591851e-03
20       1.00000000e+03   -1.79963524e+02   -8.99782904e+01   -8.99782904e+01   -2.58338801e-03    3.85101193e+01    1.28514567e+02    1.28514567e+02    3.07594323e-03   -3.85118872e+01   -9.00003960e+01   -9.00003960e+01   -4.84385325e-03
21       1.25892541e+03   -1.79971026e+02   -8.99828337e+01   -8.99828337e+01   -2.12252826e-03    3.22962055e+01    1.22299687e+02    1.22299687e+02    2.94572932e-03   -3.22972395e+01   -9.00004985e+01   -9.00004985e+01   -3.97974084e-03
22       1.58489319e+03   -1.79976985e+02   -8.99864629e+01   -8.99864629e+01   -1.77470078e-03    2.66606434e+01    1.16663343e+02    1.16663343e+02    2.74830211e-03   -2.66612227e+01   -9.00006276e+01   -9.00006276e+01   -3.32756414e-03
23       1.99526231e+03   -1.79981719e+02   -8.99893711e+01   -8.99893711e+01   -1.52138255e-03    2.17433880e+01    1.11745451e+02    1.11745451e+02    2.53897313e-03   -2.17437017e+01   -9.00007901e+01   -9.00007901e+01   -2.85259237e-03
24       2.51188643e+03   -1.79985479e+02   -8.99917134e+01   -8.99917134e+01   -1.34908346e-03    1.75782246e+01    1.07579759e+02    1.07579759e+02    2.36396773e-03   -1.75783902e+01   -9.00009947e+01   -9.00009947e+01   -2.52953154e-03
25       3.16227766e+03   -1.79988465e+02   -8.99936143e+01   -8.99936143e+01   -1.24862798e-03    1.41248877e+01    1.04125977e+02    1.04125977e+02    2.25531189e-03   -1.41249736e+01   -9.00012523e+01   -9.00012523e+01   -2.34117748e-03
26       3.98107171e+03   -1.79990838e+02   -8.99951752e+01   -8.99951752e+01   -1.21466649e-03    1.13038046e+01    1.01304506e+02    1.01304506e+02    2.23350062e-03   -1.13038486e+01   -9.00015765e+01   -9.00015765e+01   -2.27749967e-03
27       5.01187234e+03   -1.79992722e+02   -8.99964791e+01   -8.99964791e+01   -1.24539041e-03    9.02196987e+00    9.90223203e+01    9.90223203e+01    2.31274037e-03   -9.02199223e+00   -9.00019847e+01   -9.00019847e+01   -2.33510702e-03
28       6.30957344e+03   -1.79994219e+02   -8.99975956e+01   -8.99975956e+01   -1.34243591e-03    7.18828144e+00    9.71882999e+01    9.71882999e+01    2.50575663e-03   -7.18829275e+00   -9.00024986e+01   -9.00024986e+01   -2.51706733e-03
29       7.94328235e+03   -1.79995408e+02   -8.99985840e+01   -8.99985840e+01   -1.51097102e-03    5.72091757e+00    9.57206051e+01    9.57206051e+01    2.82737040e-03   -5.72092327e+00   -9.00031455e+01   -9.00031455e+01   -2.83307065e-03
30       1.00000000e+04   -1.79996352e+02   -8.99994970e+01   -8.99994970e+01   -1.75997084e-03    4.54986244e+00    9.45492024e+01    9.45492024e+01    3.29707909e-03   -4.54986530e+00   -9.00039600e+01   -9.00039600e+01   -3.29994532e-03
31       1.25892541e+04   -1.79997103e+02   -9.00003832e+01   -9.00003832e+01   -2.10269553e-03    3.61688895e+00    9.36158462e+01    9.36158462e+01    3.94111518e-03   -3.61689038e+00   -9.00049853e+01   -9.00049853e+01   -3.94255411e-03
32       1.58489319e+04   -1.79997699e+02   -9.00012898e+01   -9.00012898e+01   -2.55739642e-03    2.87440592e+00    9.28729249e+01    9.28729249e+01    4.79439679e-03   -2.87440664e+00   -9.00062762e+01   -9.00062762e+01   -4.79511827e-03
33       1.99526231e+04   -1.79998172e+02   -9.00022651e+01   -9.00022651e+01   -3.14828800e-03    2.28392892e+00    9.22819307e+01    9.22819307e+01    5.90267863e-03   -2.28392929e+00   -9.00079012e+01   -9.00079012e+01   -5.90303997e-03
34       2.51188643e+04   -1.79998548e+02   -9.00033610e+01   -9.00033610e+01   -3.90683739e-03    1.81454397e+00    9.18119222e+01    9.18119222e+01    7.32513932e-03   -1.81454415e+00   -9.00099471e+01   -9.00099471e+01   -7.32532005e-03
35       3.16227766e+04   -1.79998847e+02   -9.00046360e+01   -9.00046360e+01   -4.87344012e-03    1.44152139e+00    9.14381365e+01    9.14381365e+01    9.13760988e-03   -1.44152149e+00   -9.00125226e+01   -9.00125226e+01   -9.13770012e-03
36       3.98107171e+04   -1.79999084e+02   -9.00061578e+01   -9.00061578e+01   -6.09957130e-03    1.14513033e+00    9.11408020e+01    9.11408020e+01    1.14366510e-02   -1.14513038e+00   -9.00157650e+01   -9.00157650e+01   -1.14366960e-02
37       5.01187234e+04   -1.79999272e+02   -9.00080075e+01   -9.00080075e+01   -7.65052690e-03    9.09654067e-01    9.09041518e+01    9.09041518e+01    1.43447152e-02   -9.09654089e-01   -9.00198470e+01   -9.00198470e+01   -1.43447375e-02
38       6.30957344e+04   -1.79999422e+02   -9.00102836e+01   -9.00102836e+01   -9.60890094e-03    7.22586321e-01    9.07156171e+01    9.07156171e+01    1.80166774e-02   -7.22586332e-01   -9.00249859e+01   -9.00249859e+01   -1.80166884e-02
39       7.94328235e+04   -1.79999541e+02   -9.00131074e+01   -9.00131074e+01   -1.20789840e-02    5.73981950e-01    9.05651746e+01    9.05651746e+01    2.26480879e-02   -5.73981955e-01   -9.00314554e+01   -9.00314554e+01   -2.26480933e-02
40       1.00000000e+05   -1.79999635e+02   -9.00166292e+01   -9.00166292e+01   -1.51923169e-02    4.55935699e-01    9.04448213e+01    9.04448213e+01    2.84855884e-02   -4.55935702e-01   -9.00396000e+01   -9.00396000e+01   -2.84855909e-02
End of Xyce(TM) Simulation
