# Hz S RI R 50
!       Freq             ReS11             ImS11             ReS21             ImS21             ReS12             ImS12             ReS22             ImS22
     1.000000e+01     -9.967749e-01     -6.351846e-02      4.852773e-04     -1.270877e-02      4.852773e-04     -1.270877e-02      6.000971e-01     -2.542787e-03
     1.258925e+01     -9.976692e-01     -5.048163e-02      3.063537e-04     -1.010037e-02      3.063537e-04     -1.010037e-02      6.000613e-01     -2.020901e-03
     1.584893e+01     -9.982339e-01     -4.011259e-02      1.933616e-04     -8.025728e-03      1.933616e-04     -8.025728e-03      6.000387e-01     -1.605813e-03
     1.995262e+01     -9.985904e-01     -3.186939e-02      1.220289e-04     -6.376427e-03      1.220289e-04     -6.376427e-03      6.000244e-01     -1.275827e-03
     2.511886e+01     -9.988154e-01     -2.531818e-02      7.700530e-05     -5.065661e-03      7.700530e-05     -5.065661e-03      6.000154e-01     -1.013577e-03
     3.162278e+01     -9.989575e-01     -2.011266e-02      4.859106e-05     -4.024140e-03      4.859106e-05     -4.024140e-03      6.000097e-01     -8.052002e-04
     3.981072e+01     -9.990471e-01     -1.597691e-02      3.066040e-05     -3.196660e-03      3.066040e-05     -3.196660e-03      6.000061e-01     -6.396510e-04
     5.011872e+01     -9.991036e-01     -1.269134e-02      1.934592e-05     -2.539284e-03      1.934592e-05     -2.539284e-03      6.000039e-01     -5.081395e-04
     6.309573e+01     -9.991393e-01     -1.008131e-02      1.220658e-05     -2.017068e-03      1.220658e-05     -2.017068e-03      6.000024e-01     -4.036752e-04
     7.943282e+01     -9.991618e-01     -8.007975e-03      7.701795e-06     -1.602236e-03      7.701795e-06     -1.602236e-03      6.000015e-01     -3.207015e-04
     1.000000e+02     -9.991760e-01     -6.361015e-03      4.859407e-06     -1.272712e-03      4.859407e-06     -1.272712e-03      6.000010e-01     -2.548030e-04
     1.258925e+02     -9.991850e-01     -5.052761e-03      3.065957e-06     -1.010956e-03      3.065957e-06     -1.010956e-03      6.000006e-01     -2.024721e-04
     1.584893e+02     -9.991907e-01     -4.013564e-03      1.934357e-06     -8.030340e-04      1.934357e-06     -8.030340e-04      6.000004e-01     -1.609228e-04
     1.995262e+02     -9.991942e-01     -3.188094e-03      1.220361e-06     -6.378739e-04      1.220361e-06     -6.378739e-04      6.000002e-01     -1.279427e-04
     2.511886e+02     -9.991965e-01     -2.532397e-03      7.698587e-07     -5.066819e-04      7.698587e-07     -5.066819e-04      6.000002e-01     -1.017759e-04
     3.162278e+02     -9.991979e-01     -2.011556e-03      4.856103e-07     -4.024721e-04      4.856103e-07     -4.024721e-04      6.000001e-01     -8.102891e-05
     3.981072e+02     -9.991988e-01     -1.597837e-03      3.062614e-07     -3.196951e-04      3.062614e-07     -3.196951e-04      6.000001e-01     -6.459695e-05
     5.011872e+02     -9.991994e-01     -1.269207e-03      1.930998e-07     -2.539430e-04      1.930998e-07     -2.539430e-04      6.000000e-01     -5.160499e-05
     6.309573e+02     -9.991997e-01     -1.008167e-03      1.216997e-07     -2.017141e-04      1.216997e-07     -2.017141e-04      6.000000e-01     -4.136116e-05
     7.943282e+02     -9.991999e-01     -8.008158e-04      7.664920e-08     -1.602272e-04      7.664920e-08     -1.602272e-04      6.000000e-01     -3.331997e-05
     1.000000e+03     -9.992001e-01     -6.361107e-04      4.822427e-08     -1.272730e-04      4.822427e-08     -1.272730e-04      6.000000e-01     -2.705318e-05
     1.258925e+03     -9.992002e-01     -5.052807e-04      3.028934e-08     -1.010966e-04      3.028934e-08     -1.010966e-04      6.000000e-01     -2.222706e-05
     1.584893e+03     -9.992002e-01     -4.013587e-04      1.897317e-08     -8.030386e-05      1.897317e-08     -8.030386e-05      6.000000e-01     -1.858462e-05
     1.995262e+03     -9.992003e-01     -3.188106e-04      1.183315e-08     -6.378762e-05      1.183315e-08     -6.378762e-05      6.000000e-01     -1.593188e-05
     2.511886e+03     -9.992003e-01     -2.532403e-04      7.328096e-09     -5.066831e-05      7.328096e-09     -5.066831e-05      6.000000e-01     -1.412757e-05
     3.162278e+03     -9.992003e-01     -2.011559e-04      4.485602e-09     -4.024727e-05      4.485602e-09     -4.024727e-05      6.000000e-01     -1.307560e-05
     3.981072e+03     -9.992003e-01     -1.597838e-04      2.692109e-09     -3.196954e-05      2.692109e-09     -3.196954e-05      6.000000e-01     -1.271996e-05
     5.011872e+03     -9.992003e-01     -1.269208e-04      1.560492e-09     -2.539431e-05      1.560492e-09     -2.539431e-05      6.000000e-01     -1.304170e-05
     6.309573e+03     -9.992003e-01     -1.008168e-04      8.464894e-10     -2.017142e-05      8.464894e-10     -2.017142e-05      6.000000e-01     -1.405796e-05
     7.943282e+03     -9.992003e-01     -8.008160e-05      3.959844e-10     -1.602273e-05      3.959844e-10     -1.602273e-05      6.000000e-01     -1.582285e-05
     1.000000e+04     -9.992003e-01     -6.361108e-05      1.117349e-10     -1.272730e-05      1.117349e-10     -1.272730e-05      6.000000e-01     -1.843037e-05
     1.258925e+04     -9.992003e-01     -5.052808e-05     -6.761434e-11     -1.010966e-05     -6.761434e-11     -1.010966e-05      6.000000e-01     -2.201938e-05
     1.584893e+04     -9.992003e-01     -4.013588e-05     -1.807761e-10     -8.030386e-06     -1.807761e-10     -8.030386e-06      6.000000e-01     -2.678099e-05
     1.995262e+04     -9.992003e-01     -3.188106e-05     -2.521763e-10     -6.378763e-06     -2.521763e-10     -6.378763e-06      6.000000e-01     -3.296879e-05
     2.511886e+04     -9.992003e-01     -2.532403e-05     -2.972268e-10     -5.066831e-06     -2.972268e-10     -5.066831e-06      6.000000e-01     -4.091231e-05
     3.162278e+04     -9.992003e-01     -2.011559e-05     -3.256518e-10     -4.024727e-06     -3.256518e-10     -4.024727e-06      6.000000e-01     -5.103455e-05
     3.981072e+04     -9.992003e-01     -1.597838e-05     -3.435867e-10     -3.196954e-06     -3.435867e-10     -3.196954e-06      6.000000e-01     -6.387456e-05
     5.011872e+04     -9.992003e-01     -1.269208e-05     -3.549029e-10     -2.539431e-06     -3.549029e-10     -2.539431e-06      6.000000e-01     -8.011613e-05
     6.309573e+04     -9.992003e-01     -1.008168e-05     -3.620429e-10     -2.017142e-06     -3.620429e-10     -2.017142e-06      6.000000e-01     -1.006242e-04
     7.943282e+04     -9.992003e-01     -8.008160e-06     -3.665479e-10     -1.602273e-06     -3.665479e-10     -1.602273e-06      6.000000e-01     -1.264908e-04
     1.000000e+05     -9.992003e-01     -6.361108e-06     -3.693904e-10     -1.272730e-06     -3.693904e-10     -1.272730e-06      6.000000e-01     -1.590936e-04
