# Hz S RI R 50
!      Freq              ReS11             ImS11             ReS12             ImS12             ReS13             ImS13             ReS14             ImS14
!                        ReS21             ImS21             ReS22             ImS22             ReS23             ImS23             ReS24             ImS24
!                        ReS31             ImS31             ReS32             ImS32             ReS33             ImS33             ReS34             ImS34
!                        ReS41             ImS41             ReS42             ImS42             ReS43             ImS43             ReS44             ImS44
   1.00000000e+01   -9.96020464e-01   -6.34517211e-02    1.91265430e-04   -3.81656456e-03    9.86929902e-04   -1.96934731e-02    6.50302618e-04   -1.29763195e-02
                     1.91265430e-04   -3.81656456e-03    4.85340990e-01   -2.29573584e-04    1.44359507e-01   -1.18454756e-03    2.50159365e-01   -7.80518492e-04
                     9.86929902e-04   -1.96934731e-02    1.44359507e-01   -1.18454756e-03   -2.55104943e-01   -6.11225464e-03    4.90822325e-01   -4.02745578e-03
                     6.50302618e-04   -1.29763195e-02    2.50159365e-01   -7.80518492e-04    4.90822325e-01   -4.02745578e-03   -1.49458158e-01   -2.65375263e-03
   1.25892541e+01   -9.97192110e-01   -5.04481338e-02    1.20791975e-04   -3.03441036e-03    6.23286878e-04   -1.56575574e-02    4.10692873e-04   -1.03169952e-02
                     1.20791975e-04   -3.03441036e-03    4.85336751e-01   -1.82530455e-04    1.44337634e-01   -9.41791510e-04    2.50144953e-01   -6.20563647e-04
                     6.23286878e-04   -1.56575574e-02    1.44337634e-01   -9.41791510e-04   -2.55217806e-01   -4.85963066e-03    4.90747957e-01   -3.20208369e-03
                     4.10692873e-04   -1.03169952e-02    2.50144953e-01   -6.20563647e-04    4.90747957e-01   -3.20208369e-03   -1.49507160e-01   -2.10990350e-03
   1.58489319e+01   -9.97932485e-01   -4.00957878e-02    7.62590828e-05   -2.41172596e-03    3.93497152e-04   -1.24445059e-02    2.59281038e-04   -8.19986826e-03
                     7.62590828e-05   -2.41172596e-03    4.85334072e-01   -1.45080005e-04    1.44323813e-01   -7.48530193e-04    2.50135846e-01   -4.93221785e-04
                     3.93497152e-04   -1.24445059e-02    1.44323813e-01   -7.48530193e-04   -2.55289126e-01   -3.86239876e-03    4.90700964e-01   -2.54499329e-03
                     2.59281038e-04   -8.19986826e-03    2.50135846e-01   -4.93221785e-04    4.90700964e-01   -2.54499329e-03   -1.49538125e-01   -1.67693783e-03
   1.99526231e+01   -9.98400075e-01   -3.18609607e-02    4.81339445e-05   -1.91640844e-03    2.48371438e-04   -9.88866753e-03    1.63655568e-04   -6.51578869e-03
                     4.81339445e-05   -1.91640844e-03    4.85332381e-01   -1.15291456e-04    1.44315084e-01   -5.94799882e-04    2.50130094e-01   -3.91927711e-04
                     2.48371438e-04   -9.88866753e-03    1.44315084e-01   -5.94799882e-04   -2.55334169e-01   -3.06914594e-03    4.90671284e-01   -2.02230780e-03
                     1.63655568e-04   -6.51578869e-03    2.50130094e-01   -3.91927711e-04    4.90671284e-01   -2.02230780e-03   -1.49557681e-01   -1.33253377e-03
   2.51188643e+01   -9.98695282e-01   -2.53139504e-02    3.03775069e-05   -1.52261159e-03    1.56748220e-04   -7.85667580e-03    1.03283680e-04   -5.17687940e-03
                     3.03775069e-05   -1.52261159e-03    4.85331313e-01   -9.16104134e-05    1.44309573e-01   -4.72578767e-04    2.50126463e-01   -3.11395792e-04
                     1.56748220e-04   -7.85667580e-03    1.44309573e-01   -4.72578767e-04   -2.55362606e-01   -2.43847944e-03    4.90652547e-01   -1.60675296e-03
                     1.03283680e-04   -5.17687940e-03    2.50126463e-01   -3.11395792e-04    4.90652547e-01   -1.60675296e-03   -1.49570027e-01   -1.05871995e-03
   3.16227766e+01   -9.98881616e-01   -2.01105384e-02    1.91696991e-05   -1.20963099e-03    9.89159325e-05   -6.24169592e-03    6.51771338e-05   -4.11274537e-03
                     1.91696991e-05   -1.20963099e-03    4.85330638e-01   -7.27918174e-05    1.44306094e-01   -3.75440902e-04    2.50124170e-01   -2.47391952e-04
                     9.89159325e-05   -6.24169592e-03    1.44306094e-01   -3.75440902e-04   -2.55380555e-01   -1.93724106e-03    4.90640720e-01   -1.27648037e-03
                     6.51771338e-05   -4.11274537e-03    2.50124170e-01   -2.47391952e-04    4.90640720e-01   -1.27648037e-03   -1.49577820e-01   -8.41100234e-04
   3.98107171e+01   -9.98999213e-01   -1.59758488e-02    1.20963566e-05   -9.60933092e-04    6.24174850e-05   -4.95841475e-03    4.11277692e-05   -3.26717251e-03
                     1.20963566e-05   -9.60933092e-04    4.85330213e-01   -5.78415572e-05    1.44303899e-01   -2.98254868e-04    2.50122724e-01   -1.96535116e-04
                     6.24174850e-05   -4.95841475e-03    1.44303899e-01   -2.98254868e-04   -2.55391883e-01   -1.53895233e-03    4.90633255e-01   -1.01404302e-03
                     4.11277692e-05   -3.26717251e-03    2.50122724e-01   -1.96535116e-04    4.90633255e-01   -1.01404302e-03   -1.49582739e-01   -6.68178601e-04
   5.01187234e+01   -9.99073422e-01   -1.26908098e-02    7.63270460e-06   -7.63340920e-04    3.93850407e-05   -3.93883914e-03    2.59513524e-05   -2.59535913e-03
                     7.63270460e-06   -7.63340920e-04    4.85329944e-01   -4.59675129e-05    1.44302513e-01   -2.36931056e-04    2.50121811e-01   -1.56130695e-04
                     3.93850407e-05   -3.93883914e-03    1.44302513e-01   -2.36931056e-04   -2.55399032e-01   -1.22251037e-03    4.90628545e-01   -8.05535962e-04
                     2.59513524e-05   -2.59535913e-03    2.50121811e-01   -1.56130695e-04    4.90628545e-01   -8.05535962e-04   -1.49585842e-01   -5.30793007e-04
   6.30957344e+01   -9.99120250e-01   -1.00810405e-02    4.81606199e-06   -6.06365617e-04    2.48511649e-05   -3.12884658e-03    1.63747675e-05   -2.06164310e-03
                     4.81606199e-06   -6.06365617e-04    4.85329775e-01   -3.65393722e-05    1.44301639e-01   -1.88214190e-04    2.50121235e-01   -1.24033886e-04
                     2.48511649e-05   -3.12884658e-03    1.44301639e-01   -1.88214190e-04   -2.55403542e-01   -9.71117395e-04    4.90625573e-01   -6.39890947e-04
                     1.63747675e-05   -2.06164310e-03    2.50121235e-01   -1.24033886e-04    4.90625573e-01   -6.39890947e-04   -1.49587801e-01   -4.21650561e-04
   7.94328235e+01   -9.99149798e-01   -8.00784154e-03    3.03877370e-06   -4.81664543e-04    1.56803573e-05   -2.48538904e-03    1.03319873e-05   -1.63765945e-03
                     3.03877370e-06   -4.81664543e-04    4.85329668e-01   -2.90560667e-05    1.44301087e-01   -1.49515155e-04    2.50120872e-01   -9.85388678e-05
                     1.56803573e-05   -2.48538904e-03    1.44301087e-01   -1.49515155e-04   -2.55406389e-01   -7.71412813e-04    4.90623697e-01   -5.08304570e-04
                     1.03319873e-05   -1.63765945e-03    2.50120872e-01   -9.85388678e-05    4.90623697e-01   -5.08304570e-04   -1.49589037e-01   -3.34950759e-04
   1.00000000e+02   -9.99168442e-01   -6.36094807e-03    1.91733802e-06   -3.82605366e-04    9.89374921e-06   -1.97424369e-03    6.51910602e-06   -1.30085824e-03
                     1.91733802e-06   -3.82605366e-04    4.85329601e-01   -2.31195917e-05    1.44300739e-01   -1.18775710e-04    2.50120642e-01   -7.82896659e-05
                     9.89374921e-06   -1.97424369e-03    1.44300739e-01   -1.18775710e-04   -2.55408185e-01   -6.12775169e-04    4.90622514e-01   -4.03778299e-04
                     6.51910602e-06   -1.30085824e-03    2.50120642e-01   -7.82896659e-05    4.90622514e-01   -4.03778299e-04   -1.49589816e-01   -2.66082399e-04
   1.25892541e+02   -9.99180206e-01   -5.05272748e-03    1.20974299e-06   -3.03917062e-04    6.24255886e-06   -1.56821204e-03    4.11328292e-06   -1.03331801e-03
                     1.20974299e-06   -3.03917062e-04    4.85329558e-01   -1.84140631e-05    1.44300520e-01   -9.43601832e-05    2.50120498e-01   -6.22088033e-05
                     6.24255886e-06   -1.56821204e-03    1.44300520e-01   -9.43601832e-05   -2.55409318e-01   -4.86763218e-04    4.90621767e-01   -3.20750202e-04
                     4.11328292e-06   -1.03331801e-03    2.50120498e-01   -6.22088033e-05    4.90621767e-01   -3.20750202e-04   -1.49590308e-01   -2.11380935e-04
   1.58489319e+02   -9.99187629e-01   -4.01354757e-03    7.63273964e-07   -2.41411315e-04    3.93877867e-06   -1.24568238e-03    2.59528822e-06   -8.20798471e-04
                     7.63273964e-07   -2.41411315e-04    4.85329531e-01   -1.46890221e-05    1.44300381e-01   -7.49690178e-05    2.50120406e-01   -4.94403499e-05
                     3.93877867e-06   -1.24568238e-03    1.44300381e-01   -7.49690178e-05   -2.55410033e-01   -3.86669765e-04    4.90621296e-01   -2.54800970e-04
                     2.59528822e-06   -8.20798471e-04    2.50120406e-01   -4.94403499e-05    4.90621296e-01   -2.54800970e-04   -1.49590619e-01   -1.67934793e-04
   1.99526231e+02   -9.99192312e-01   -3.18808592e-03    4.81568364e-07   -1.91760531e-04    2.48517778e-06   -9.89484341e-04    1.63748918e-06   -6.51985806e-04
                     4.81568364e-07   -1.91760531e-04    4.85329514e-01   -1.17461608e-05    1.44300294e-01   -5.95698939e-05    2.50120349e-01   -3.93045567e-05
                     2.48517778e-06   -9.89484341e-04    1.44300294e-01   -5.95698939e-05   -2.55410484e-01   -3.07166173e-04    4.90620999e-01   -2.02419690e-04
                     1.63748918e-06   -6.51985806e-04    2.50120349e-01   -3.93045567e-05    4.90620999e-01   -2.02419690e-04   -1.49590815e-01   -1.33431048e-04
   2.51188643e+02   -9.99195268e-01   -2.53239256e-03    3.03823077e-07   -1.52321159e-04    1.56801210e-06   -7.85977179e-04    1.03315520e-06   -5.17891940e-04
                     3.03823077e-07   -1.52321159e-04    4.85329504e-01   -9.42879308e-06    1.44300239e-01   -4.73429177e-05    2.50120312e-01   -3.12617647e-05
                     1.56801210e-06   -7.85977179e-04    1.44300239e-01   -4.73429177e-05   -2.55410769e-01   -2.44019442e-04    4.90620811e-01   -1.60817431e-04
                     1.03315520e-06   -5.17891940e-04    2.50120312e-01   -3.12617647e-05    4.90620811e-01   -1.60817431e-04   -1.49590938e-01   -1.06032619e-04
   3.16227766e+02   -9.99197132e-01   -2.01155386e-03    1.91672957e-07   -1.20993175e-04    9.89317478e-07   -6.24324782e-04    6.51844795e-07   -4.11376795e-04
                     1.91672957e-07   -1.20993175e-04    4.85329497e-01   -7.61352685e-06    1.44300204e-01   -3.76370410e-05    2.50120289e-01   -2.48837208e-05
                     9.89317478e-07   -6.24324782e-04    1.44300204e-01   -3.76370410e-05   -2.55410948e-01   -1.93867205e-04    4.90620693e-01   -1.27779003e-04
                     6.51844795e-07   -4.11376795e-04    2.50120289e-01   -2.48837208e-05    4.90620693e-01   -1.27779003e-04   -1.49591016e-01   -8.42806273e-05
   3.98107171e+02   -9.99198308e-01   -1.59783551e-03    1.20910845e-07   -9.61083842e-05    6.24184983e-07   -4.95919262e-04    4.11253616e-07   -3.26768506e-04
                     1.20910845e-07   -9.61083842e-05    4.85329493e-01   -6.20370058e-06    1.44300182e-01   -2.99354323e-05    2.50120275e-01   -1.98307982e-05
                     6.24184983e-07   -4.95919262e-04    1.44300182e-01   -2.99354323e-05   -2.55411062e-01   -1.54038889e-04    4.90620618e-01   -1.01545131e-04
                     4.11253616e-07   -3.26768506e-04    2.50120275e-01   -1.98307982e-05    4.90620618e-01   -1.01545131e-04   -1.49591066e-01   -6.70167926e-05
   5.01187234e+02   -9.99199051e-01   -1.26920660e-03    7.62629036e-08   -7.63416478e-05    3.93801605e-07   -3.93922902e-04    2.59450615e-07   -2.59561602e-04
                     7.62629036e-08   -7.63416478e-05    4.85329490e-01   -5.12423993e-06    1.44300168e-01   -2.38279736e-05    2.50120266e-01   -1.58339241e-05
                     3.93801605e-07   -3.93922902e-04    1.44300168e-01   -2.38279736e-05   -2.55411133e-01   -1.22413597e-04    4.90620571e-01   -8.07188356e-05
                     2.59450615e-07   -2.59561602e-04    2.50120266e-01   -1.58339241e-05    4.90620571e-01   -8.07188356e-05   -1.49591097e-01   -5.33217996e-05
   6.30957344e+02   -9.99199519e-01   -1.00816701e-03    4.80919301e-08   -6.06403487e-05    2.48439382e-07   -3.12904199e-04    1.63669306e-07   -2.06177185e-04
                     4.80919301e-08   -6.06403487e-05    4.85329488e-01   -4.31766171e-06    1.44300159e-01   -1.89894308e-05    2.50120260e-01   -1.26802573e-05
                     2.48439382e-07   -3.12904199e-04    1.44300159e-01   -1.89894308e-05   -2.55411178e-01   -9.73072206e-05    4.90620541e-01   -6.41910772e-05
                     1.63669306e-07   -2.06177185e-04    2.50120260e-01   -1.26802573e-05    4.90620541e-01   -6.41910772e-05   -1.49591116e-01   -4.24663633e-05
   7.94328235e+02   -9.99199815e-01   -8.00815709e-04    3.03172368e-08   -4.81683524e-05    1.56721965e-07   -2.48548698e-04    1.03235349e-07   -1.63772398e-04
                     3.03172368e-08   -4.81683524e-05    4.85329487e-01   -3.74101370e-06    1.44300154e-01   -1.51621392e-05    2.50120256e-01   -1.02018570e-05
                     1.56721965e-07   -2.48548698e-04    1.44300154e-01   -1.51621392e-05   -2.55411207e-01   -7.73827819e-05    4.90620523e-01   -5.10817099e-05
                     1.03235349e-07   -1.63772398e-04    2.50120256e-01   -1.02018570e-05    4.90620523e-01   -5.10817099e-05   -1.49591128e-01   -3.38724040e-05
   1.00000000e+03   -9.99200001e-01   -6.36110622e-04    1.91021593e-08   -3.82614879e-05    9.88521650e-08   -1.97429277e-04    6.51040851e-08   -1.30089059e-04
                     1.91021593e-08   -3.82614879e-05    4.85329486e-01   -3.36358780e-06    1.44300150e-01   -1.21422842e-05    2.50120254e-01   -8.26674105e-06
                     9.88521650e-08   -1.97429277e-04    1.44300150e-01   -1.21422842e-05   -2.55411225e-01   -6.15792448e-05    4.90620511e-01   -4.06926209e-05
                     6.51040851e-08   -1.30089059e-04    2.50120254e-01   -8.26674105e-06    4.90620511e-01   -4.06926209e-05   -1.49591136e-01   -2.70822677e-05
   1.25892541e+03   -9.99200119e-01   -5.05280674e-04    1.20259221e-08   -3.03921830e-05    6.23387809e-08   -1.56823664e-04    4.10448785e-08   -1.03333422e-04
                     1.20259221e-08   -3.03921830e-05    4.85329486e-01   -3.16528496e-06    1.44300148e-01   -9.76904874e-06    2.50120253e-01   -6.77185831e-06
                     6.23387809e-08   -1.56823664e-04    1.44300148e-01   -9.76904874e-06   -2.55411236e-01   -4.90550203e-05    4.90620503e-01   -3.24705579e-05
                     4.10448785e-08   -1.03333422e-04    2.50120253e-01   -6.77185831e-06    4.90620503e-01   -3.24705579e-05   -1.49591141e-01   -2.17343580e-05
   1.58489319e+03   -9.99200193e-01   -4.01358730e-04    7.56111754e-09   -2.41413705e-05    3.93003896e-08   -1.24569471e-04    2.58645431e-08   -8.20806595e-05
                     7.56111754e-09   -2.41413705e-05    4.85329486e-01   -3.13554496e-06    1.44300147e-01   -7.91605010e-06    2.50120252e-01   -5.63760129e-06
                     3.93003896e-08   -1.24569471e-04    1.44300147e-01   -7.91605010e-06   -2.55411243e-01   -3.91431511e-05    4.90620499e-01   -2.59776682e-05
                     2.58645431e-08   -8.20806595e-05    2.50120252e-01   -5.63760129e-06    4.90620499e-01   -2.59776682e-05   -1.49591144e-01   -1.75438807e-05
   1.99526231e+03   -9.99200240e-01   -3.18810583e-04    4.74401606e-09   -1.91761729e-05    2.47641459e-08   -9.89490520e-05    1.62863981e-08   -6.51989878e-05
                     4.74401606e-09   -1.91761729e-05    4.85329486e-01   -3.27278410e-06    1.44300146e-01   -6.48460967e-06    2.50120251e-01   -4.80356687e-06
                     2.47641459e-08   -9.89490520e-05    1.44300146e-01   -6.48460967e-06   -2.55411248e-01   -3.13157956e-05    4.90620496e-01   -2.08681830e-05
                     1.62863981e-08   -6.51989878e-05    2.50120251e-01   -4.80356687e-06    4.90620496e-01   -2.08681830e-05   -1.49591146e-01   -1.42876782e-05
   2.51188643e+03   -9.99200269e-01   -2.53240253e-04    2.96654509e-09   -1.52321759e-05    1.55923957e-08   -7.85980277e-05    1.02429968e-08   -5.17893981e-05
                     2.96654509e-09   -1.52321759e-05    4.85329485e-01   -3.58431089e-06    1.44300145e-01   -5.39849818e-06    2.50120251e-01   -4.22533979e-06
                     1.55923957e-08   -7.85980277e-05    1.44300145e-01   -5.39849818e-06   -2.55411251e-01   -2.51561197e-05    4.90620494e-01   -1.68700040e-05
                     1.02429967e-08   -5.17893981e-05    2.50120251e-01   -4.22533979e-06    4.90620494e-01   -1.68700040e-05   -1.49591148e-01   -1.17923463e-05
   3.16227766e+03   -9.99200288e-01   -2.01155886e-04    1.84503668e-09   -1.20993476e-05    9.80541233e-09   -6.24326335e-05    6.42986816e-09   -4.11377818e-05
                     1.84503668e-09   -1.20993476e-05    4.85329485e-01   -4.08671529e-06    1.44300145e-01   -4.59987633e-06    2.50120250e-01   -3.87212741e-06
                     9.80541233e-09   -6.24326335e-05    1.44300145e-01   -4.59987633e-06   -2.55411252e-01   -2.03360984e-05    4.90620493e-01   -1.37702140e-05
                     6.42986816e-09   -4.11377818e-05    2.50120250e-01   -3.87212741e-06    4.90620493e-01   -1.37702140e-05   -1.49591148e-01   -9.92499962e-06
   3.98107171e+03   -9.99200300e-01   -1.59783802e-04    1.13741269e-09   -9.61085349e-06    6.15407257e-09   -4.95920040e-05    4.02394661e-09   -3.26769019e-05
                     1.13741269e-09   -9.61085349e-06    4.85329485e-01   -4.80675218e-06    1.44300145e-01   -4.04621462e-06    2.50120250e-01   -3.72511991e-06
                     6.15407257e-09   -4.95920040e-05    1.44300145e-01   -4.04621462e-06   -2.55411254e-01   -1.65990483e-05    4.90620492e-01   -1.14037379e-05
                     4.02394662e-09   -3.26769019e-05    2.50120250e-01   -3.72511991e-06    4.90620492e-01   -1.14037379e-05   -1.49591149e-01   -8.58619530e-06
   5.01187234e+03   -9.99200307e-01   -1.26920786e-04    6.90932137e-10   -7.63417234e-06    3.85023290e-09   -3.93923292e-05    2.50591272e-09   -2.59561859e-05
                     6.90932137e-10   -7.63417234e-06    4.85329485e-01   -5.78276614e-06    1.44300144e-01   -3.70802857e-06    2.50120250e-01   -3.77648862e-06
                     3.85023290e-09   -3.93923292e-05    1.44300144e-01   -3.70802857e-06   -2.55411254e-01   -1.37459579e-05    4.90620491e-01   -9.64455243e-06
                     2.50591272e-09   -2.59561859e-05    2.50120250e-01   -3.77648862e-06    4.90620491e-01   -9.64455243e-06   -1.49591149e-01   -7.70463715e-06
   6.30957344e+03   -9.99200312e-01   -1.00816764e-04    4.09221948e-10   -6.06403866e-06    2.39660832e-09   -3.12904394e-05    1.54809808e-09   -2.06177314e-05
                     4.09221948e-10   -6.06403866e-06    4.85329485e-01   -7.06673348e-06    1.44300144e-01   -3.56730855e-06    2.50120250e-01   -4.02896910e-06
                     2.39660832e-09   -3.12904394e-05    1.44300144e-01   -3.56730855e-06   -2.55411255e-01   -1.16248899e-05    4.90620491e-01   -8.39897448e-06
                     1.54809808e-09   -2.06177314e-05    2.50120250e-01   -4.02896910e-06    4.90620491e-01   -8.39897448e-06   -1.49591149e-01   -7.23337899e-06
   7.94328235e+03   -9.99200315e-01   -8.00816025e-05    2.31474834e-10   -4.81683713e-06    1.47943322e-09   -2.48548796e-05    9.43757893e-10   -1.63772462e-05
                     2.31474834e-10   -4.81683713e-06    4.85329485e-01   -8.72703015e-06    1.44300144e-01   -3.61656072e-06    2.50120250e-01   -4.49600688e-06
                     1.47943322e-09   -2.48548796e-05    1.44300144e-01   -3.61656072e-06   -2.55411255e-01   -1.01228896e-05    4.90620491e-01   -7.60067253e-06
