# Hz S MA R 50
!      Freq             magS11            angS11            magS21            angS21            magS12            angS12            magS22            angS22
     1.000000e+01      9.987967e-01     -1.763538e+02      1.271804e-02     -8.781326e+01      1.271804e-02     -8.781326e+01      6.001025e-01     -2.427776e-01
     1.258925e+01      9.989455e-01     -1.771033e+02      1.010501e-02     -8.826270e+01      1.010501e-02     -8.826270e+01      6.000647e-01     -1.929614e-01
     1.584893e+01      9.990395e-01     -1.776989e+02      8.028057e-03     -8.861986e+01      8.028057e-03     -8.861986e+01      6.000408e-01     -1.533336e-01
     1.995262e+01      9.990988e-01     -1.781721e+02      6.377595e-03     -8.890364e+01      6.377595e-03     -8.890364e+01      6.000258e-01     -1.218274e-01
     2.511886e+01      9.991363e-01     -1.785480e+02      5.066246e-03     -8.912909e+01      5.066246e-03     -8.912909e+01      6.000163e-01     -9.678692e-02
     3.162278e+01      9.991599e-01     -1.788466e+02      4.024434e-03     -8.930819e+01      4.024434e-03     -8.930819e+01      6.000103e-01     -7.688967e-02
     3.981072e+01      9.991748e-01     -1.790838e+02      3.196807e-03     -8.945047e+01      3.196807e-03     -8.945047e+01      6.000065e-01     -6.108153e-02
     5.011872e+01      9.991842e-01     -1.792722e+02      2.539357e-03     -8.956349e+01      2.539357e-03     -8.956349e+01      6.000041e-01     -4.852342e-02
     6.309573e+01      9.991902e-01     -1.794219e+02      2.017105e-03     -8.965327e+01      2.017105e-03     -8.965327e+01      6.000026e-01     -3.854798e-02
     7.943282e+01      9.991939e-01     -1.795408e+02      1.602254e-03     -8.972459e+01      1.602254e-03     -8.972459e+01      6.000016e-01     -3.062465e-02
     1.000000e+02      9.991963e-01     -1.796352e+02      1.272721e-03     -8.978124e+01      1.272721e-03     -8.978124e+01      6.000010e-01     -2.433186e-02
     1.258925e+02      9.991978e-01     -1.797103e+02      1.010961e-03     -8.982624e+01      1.010961e-03     -8.982624e+01      6.000006e-01     -1.933464e-02
     1.584893e+02      9.991987e-01     -1.797699e+02      8.030363e-04     -8.986199e+01      8.030363e-04     -8.986199e+01      6.000004e-01     -1.536698e-02
     1.995262e+02      9.991993e-01     -1.798172e+02      6.378751e-04     -8.989038e+01      6.378751e-04     -8.989038e+01      6.000003e-01     -1.221763e-02
     2.511886e+02      9.991997e-01     -1.798548e+02      5.066825e-04     -8.991294e+01      5.066825e-04     -8.991294e+01      6.000002e-01     -9.718881e-03
     3.162278e+02      9.991999e-01     -1.798847e+02      4.024724e-04     -8.993087e+01      4.024724e-04     -8.993087e+01      6.000001e-01     -7.737690e-03
     3.981072e+02      9.992001e-01     -1.799084e+02      3.196953e-04     -8.994511e+01      3.196953e-04     -8.994511e+01      6.000001e-01     -6.168554e-03
     5.011872e+02      9.992002e-01     -1.799272e+02      2.539430e-04     -8.995643e+01      2.539430e-04     -8.995643e+01      6.000000e-01     -4.927913e-03
     6.309573e+02      9.992002e-01     -1.799422e+02      2.017141e-04     -8.996543e+01      2.017141e-04     -8.996543e+01      6.000000e-01     -3.949700e-03
     7.943282e+02      9.992003e-01     -1.799541e+02      1.602273e-04     -8.997259e+01      1.602273e-04     -8.997259e+01      6.000000e-01     -3.181822e-03
     1.000000e+03      9.992003e-01     -1.799635e+02      1.272730e-04     -8.997829e+01      1.272730e-04     -8.997829e+01      6.000000e-01     -2.583388e-03
     1.258925e+03      9.992003e-01     -1.799710e+02      1.010966e-04     -8.998283e+01      1.010966e-04     -8.998283e+01      6.000000e-01     -2.122528e-03
     1.584893e+03      9.992003e-01     -1.799770e+02      8.030386e-05     -8.998646e+01      8.030386e-05     -8.998646e+01      6.000000e-01     -1.774701e-03
     1.995262e+03      9.992003e-01     -1.799817e+02      6.378762e-05     -8.998937e+01      6.378762e-05     -8.998937e+01      6.000000e-01     -1.521383e-03
     2.511886e+03      9.992003e-01     -1.799855e+02      5.066831e-05     -8.999171e+01      5.066831e-05     -8.999171e+01      6.000000e-01     -1.349083e-03
     3.162278e+03      9.992003e-01     -1.799885e+02      4.024727e-05     -8.999361e+01      4.024727e-05     -8.999361e+01      6.000000e-01     -1.248628e-03
     3.981072e+03      9.992003e-01     -1.799908e+02      3.196954e-05     -8.999518e+01      3.196954e-05     -8.999518e+01      6.000000e-01     -1.214666e-03
     5.011872e+03      9.992003e-01     -1.799927e+02      2.539431e-05     -8.999648e+01      2.539431e-05     -8.999648e+01      6.000000e-01     -1.245390e-03
     6.309573e+03      9.992003e-01     -1.799942e+02      2.017142e-05     -8.999760e+01      2.017142e-05     -8.999760e+01      6.000000e-01     -1.342436e-03
     7.943282e+03      9.992003e-01     -1.799954e+02      1.602273e-05     -8.999858e+01      1.602273e-05     -8.999858e+01      6.000000e-01     -1.510971e-03
     1.000000e+04      9.992003e-01     -1.799964e+02      1.272730e-05     -8.999950e+01      1.272730e-05     -8.999950e+01      6.000000e-01     -1.759971e-03
     1.258925e+04      9.992003e-01     -1.799971e+02      1.010966e-05     -9.000038e+01      1.010966e-05     -9.000038e+01      6.000000e-01     -2.102696e-03
     1.584893e+04      9.992003e-01     -1.799977e+02      8.030386e-06     -9.000129e+01      8.030386e-06     -9.000129e+01      6.000000e-01     -2.557396e-03
     1.995262e+04      9.992003e-01     -1.799982e+02      6.378763e-06     -9.000227e+01      6.378763e-06     -9.000227e+01      6.000000e-01     -3.148288e-03
     2.511886e+04      9.992003e-01     -1.799985e+02      5.066831e-06     -9.000336e+01      5.066831e-06     -9.000336e+01      6.000000e-01     -3.906837e-03
     3.162278e+04      9.992003e-01     -1.799988e+02      4.024727e-06     -9.000464e+01      4.024727e-06     -9.000464e+01      6.000000e-01     -4.873440e-03
     3.981072e+04      9.992003e-01     -1.799991e+02      3.196954e-06     -9.000616e+01      3.196954e-06     -9.000616e+01      6.000000e-01     -6.099571e-03
     5.011872e+04      9.992003e-01     -1.799993e+02      2.539431e-06     -9.000801e+01      2.539431e-06     -9.000801e+01      6.000000e-01     -7.650527e-03
     6.309573e+04      9.992003e-01     -1.799994e+02      2.017142e-06     -9.001028e+01      2.017142e-06     -9.001028e+01      6.000000e-01     -9.608901e-03
     7.943282e+04      9.992003e-01     -1.799995e+02      1.602273e-06     -9.001311e+01      1.602273e-06     -9.001311e+01      6.000000e-01     -1.207898e-02
     1.000000e+05      9.992003e-01     -1.799996e+02      1.272730e-06     -9.001663e+01      1.272730e-06     -9.001663e+01      6.000000e-01     -1.519232e-02
