# Hz Y DB R 50
!      Freq            magdbY11           angY11           magdbY21           angY21           magdbY12           angY12           magdbY22           angY22      
   1.00000000e+01   -4.03768178e+00    8.88241742e+01   -4.60221541e+01    1.79280109e+02   -4.60221541e+01    1.79280109e+02   -4.60214683e+01    7.48259425e-05
   1.25892541e+01   -2.03818424e+00    8.87315745e+01   -4.60225550e+01    1.79093739e+02   -4.60225550e+01    1.79093739e+02   -4.60214682e+01    9.41919136e-05
   1.58489319e+01   -3.88836815e-02    8.85714622e+01   -4.60231905e+01    1.78859140e+02   -4.60231905e+01    1.78859140e+02   -4.60214681e+01    1.18563903e-04
   1.99526231e+01    1.96006905e+00    8.83353429e+01   -4.60241973e+01    1.78563853e+02   -4.60241973e+01    1.78563853e+02   -4.60214679e+01    1.49229822e-04
   2.51188643e+01    3.95844826e+00    8.80107082e+01   -4.60257926e+01    1.78192220e+02   -4.60257926e+01    1.78192220e+02   -4.60214676e+01    1.87802835e-04
   3.16227766e+01    5.95590500e+00    8.75804025e+01   -4.60283198e+01    1.77724581e+02   -4.60283198e+01    1.77724581e+02   -4.60214671e+01    2.36297440e-04
   3.98107171e+01    7.95189256e+00    8.70217738e+01   -4.60323221e+01    1.77136298e+02   -4.60323221e+01    1.77136298e+02   -4.60214663e+01    2.97217235e-04
   5.01187234e+01    9.94555050e+00    8.63055982e+01   -4.60386577e+01    1.76396566e+02   -4.60386577e+01    1.76396566e+02   -4.60214650e+01    3.73649594e-04
   6.30957344e+01    1.19355240e+01    8.53947802e+01   -4.60486802e+01    1.75467036e+02   -4.60486802e+01    1.75467036e+02   -4.60214630e+01    4.69353921e-04
   7.94328235e+01    1.39196842e+01    8.42428847e+01   -4.60645174e+01    1.74300276e+02   -4.60645174e+01    1.74300276e+02   -4.60214599e+01    5.88812779e-04
   1.00000000e+02    1.58946999e+01    8.27926584e+01   -4.60895001e+01    1.72838242e+02   -4.60895001e+01    1.72838242e+02   -4.60214550e+01    7.37182194e-04
   1.25892541e+02    1.78553960e+01    8.09749076e+01   -4.61288030e+01    1.71011111e+02   -4.61288030e+01    1.71011111e+02   -4.60214473e+01    9.20018312e-04
   1.58489319e+02    1.97938241e+01    7.87084859e+01   -4.61903742e+01    1.68737236e+02   -4.61903742e+01    1.68737236e+02   -4.60214353e+01    1.14256266e-03
   1.99526231e+02    2.16979934e+01    7.59027869e+01   -4.62862045e+01    1.65925616e+02   -4.62862045e+01    1.65925616e+02   -4.60214171e+01    1.40824496e-03
   2.51188643e+02    2.35503153e+01    7.24650374e+01   -4.64338824e+01    1.62483161e+02   -4.64338824e+01    1.62483161e+02   -4.60213898e+01    1.71598700e-03
   3.16227766e+02    2.53260857e+01    6.83154899e+01   -4.66581118e+01    1.58329873e+02   -4.66581118e+01    1.58329873e+02   -4.60213500e+01    2.05610883e-03
   3.98107171e+02    2.69928429e+01    6.34131286e+01   -4.69913546e+01    1.53424537e+02   -4.69913546e+01    1.53424537e+02   -4.60212946e+01    2.40564504e-03
   5.01187234e+02    2.85120649e+01    5.77903337e+01   -4.74721325e+01    1.47799375e+02   -4.74721325e+01    1.47799375e+02   -4.60212218e+01    2.72606696e-03
   6.30957344e+02    2.98447448e+01    5.15852134e+01   -4.81394526e+01    1.41592369e+02   -4.81394526e+01    1.41592369e+02   -4.60211332e+01    2.96862694e-03
   7.94328235e+02    3.09607565e+01    4.50492453e+01   -4.90234408e+01    1.35054897e+02   -4.90234408e+01    1.35054897e+02   -4.60210350e+01    3.09056789e-03
   1.00000000e+03    3.18485170e+01    3.85101193e+01   -5.01356803e+01    1.28514567e+02   -5.01356803e+01    1.28514567e+02   -4.60209367e+01    3.07594323e-03
   1.25892541e+03    3.25192419e+01    3.22962055e+01   -5.14649554e+01    1.22299687e+02   -5.14649554e+01    1.22299687e+02   -4.60208479e+01    2.94572932e-03
   1.58489319e+03    3.30028201e+01    2.66606434e+01   -5.29813772e+01    1.16663343e+02   -5.29813772e+01    1.16663343e+02   -4.60207748e+01    2.74830211e-03
   1.99526231e+03    3.33381952e+01    2.17433880e+01   -5.46460021e+01    1.11745451e+02   -5.46460021e+01    1.11745451e+02   -4.60207191e+01    2.53897313e-03
   2.51188643e+03    3.35639550e+01    1.75782246e+01   -5.64202423e+01    1.07579759e+02   -5.64202423e+01    1.07579759e+02   -4.60206791e+01    2.36396773e-03
   3.16227766e+03    3.37126851e+01    1.41248877e+01   -5.82715122e+01    1.04125977e+02   -5.82715122e+01    1.04125977e+02   -4.60206516e+01    2.25531189e-03
   3.98107171e+03    3.38092177e+01    1.13038046e+01   -6.01749796e+01    1.01304506e+02   -6.01749796e+01    1.01304506e+02   -4.60206333e+01    2.23350062e-03
   5.01187234e+03    3.38712486e+01    9.02196987e+00   -6.21129487e+01    9.90223203e+01   -6.21129487e+01    9.90223203e+01   -4.60206213e+01    2.31274037e-03
   6.30957344e+03    3.39108482e+01    7.18828144e+00   -6.40733491e+01    9.71882999e+01   -6.40733491e+01    9.71882999e+01   -4.60206135e+01    2.50575663e-03
   7.94328235e+03    3.39360210e+01    5.72091757e+00   -6.60481763e+01    9.57206051e+01   -6.60481763e+01    9.57206051e+01   -4.60206085e+01    2.82737040e-03
   1.00000000e+04    3.39519793e+01    4.54986244e+00   -6.80322180e+01    9.45492024e+01   -6.80322180e+01    9.45492024e+01   -4.60206054e+01    3.29707909e-03
   1.25892541e+04    3.39620786e+01    3.61688895e+00   -7.00221187e+01    9.36158462e+01   -7.00221187e+01    9.36158462e+01   -4.60206033e+01    3.94111518e-03
   1.58489319e+04    3.39684629e+01    2.87440592e+00   -7.20157344e+01    9.28729249e+01   -7.20157344e+01    9.28729249e+01   -4.60206021e+01    4.79439679e-03
   1.99526231e+04    3.39724960e+01    2.28392892e+00   -7.40117013e+01    9.22819307e+01   -7.40117013e+01    9.22819307e+01   -4.60206012e+01    5.90267863e-03
   2.51188643e+04    3.39750426e+01    1.81454397e+00   -7.60091547e+01    9.18119222e+01   -7.60091547e+01    9.18119222e+01   -4.60206007e+01    7.32513932e-03
   3.16227766e+04    3.39766502e+01    1.44152139e+00   -7.80075471e+01    9.14381365e+01   -7.80075471e+01    9.14381365e+01   -4.60206003e+01    9.13760988e-03
   3.98107171e+04    3.39776648e+01    1.14513033e+00   -8.00065325e+01    9.11408020e+01   -8.00065325e+01    9.11408020e+01   -4.60206000e+01    1.14366510e-02
   5.01187234e+04    3.39783051e+01    9.09654067e-01   -8.20058922e+01    9.09041518e+01   -8.20058922e+01    9.09041518e+01   -4.60205998e+01    1.43447152e-02
   6.30957344e+04    3.39787092e+01    7.22586321e-01   -8.40054881e+01    9.07156171e+01   -8.40054881e+01    9.07156171e+01   -4.60205995e+01    1.80166774e-02
   7.94328235e+04    3.39789641e+01    5.73981950e-01   -8.60052332e+01    9.05651746e+01   -8.60052332e+01    9.05651746e+01   -4.60205991e+01    2.26480879e-02
   1.00000000e+05    3.39791250e+01    4.55935699e-01   -8.80050724e+01    9.04448213e+01   -8.80050724e+01    9.04448213e+01   -4.60205986e+01    2.84855884e-02
