# Hz Y MA R 50
!      Freq             magY11            angY11            magY21            angY21            magY12            angY12            magY22            angY22      
   1.00000000e+01    6.28226007e-01    8.88241742e+01    4.99910543e-03    1.79280109e+02    4.99910543e-03    1.79280109e+02    4.99950013e-03    7.48259425e-05
   1.25892541e+01    7.90843935e-01    8.87315745e+01    4.99887466e-03    1.79093739e+02    4.99887466e-03    1.79093739e+02    4.99950018e-03    9.41919136e-05
   1.58489319e+01    9.95533356e-01    8.85714622e+01    4.99850899e-03    1.78859140e+02    4.99850899e-03    1.78859140e+02    4.99950025e-03    1.18563903e-04
   1.99526231e+01    1.25315114e+00    8.83353429e+01    4.99792960e-03    1.78563853e+02    4.99792960e-03    1.78563853e+02    4.99950036e-03    1.49229822e-04
   2.51188643e+01    1.57732945e+00    8.80107082e+01    4.99701174e-03    1.78192220e+02    4.99701174e-03    1.78192220e+02    4.99950055e-03    1.87802835e-04
   3.16227766e+01    1.98515879e+00    8.75804025e+01    4.99555806e-03    1.77724581e+02    4.99555806e-03    1.77724581e+02    4.99950084e-03    2.36297440e-04
   3.98107171e+01    2.49801262e+00    8.70217738e+01    4.99325673e-03    1.77136298e+02    4.99325673e-03    1.77136298e+02    4.99950130e-03    2.97217235e-04
   5.01187234e+01    3.14251620e+00    8.63055982e+01    4.98961588e-03    1.76396566e+02    4.98961588e-03    1.76396566e+02    4.99950202e-03    3.73649594e-04
   6.30957344e+01    3.95162934e+00    8.53947802e+01    4.98386180e-03    1.75467036e+02    4.98386180e-03    1.75467036e+02    4.99950317e-03    4.69353921e-04
   7.94328235e+01    4.96574266e+00    8.42428847e+01    4.97478284e-03    1.74300276e+02    4.97478284e-03    1.74300276e+02    4.99950498e-03    5.88812779e-04
   1.00000000e+02    6.23354351e+00    8.27926584e+01    4.96049474e-03    1.72838242e+02    4.96049474e-03    1.72838242e+02    4.99950782e-03    7.37182194e-04
   1.25892541e+02    7.81213612e+00    8.09749076e+01    4.93809967e-03    1.71011111e+02    4.93809967e-03    1.71011111e+02    4.99951226e-03    9.20018312e-04
   1.58489319e+02    9.76542630e+00    7.87084859e+01    4.90321896e-03    1.68737236e+02    4.90321896e-03    1.68737236e+02    4.99951912e-03    1.14256266e-03
   1.99526231e+02    1.21590508e+01    7.59027869e+01    4.84941970e-03    1.65925616e+02    4.84941970e-03    1.65925616e+02    4.99952962e-03    1.40824496e-03
   2.51188643e+02    1.50492815e+01    7.24650374e+01    4.76766663e-03    1.62483161e+02    4.76766663e-03    1.62483161e+02    4.99954534e-03    1.71598700e-03
   3.16227766e+02    1.84630857e+01    6.83154899e+01    4.64616264e-03    1.58329873e+02    4.64616264e-03    1.58329873e+02    4.99956822e-03    2.05610883e-03
   3.98107171e+02    2.23687720e+01    6.34131286e+01    4.47128415e-03    1.53424537e+02    4.47128415e-03    1.53424537e+02    4.99960012e-03    2.40564504e-03
   5.01187234e+02    2.66442343e+01    5.77903337e+01    4.23051632e-03    1.47799375e+02    4.23051632e-03    1.47799375e+02    4.99964202e-03    2.72606696e-03
   6.30957344e+02    3.10625596e+01    5.15852134e+01    3.91766567e-03    1.41592369e+02    3.91766567e-03    1.41592369e+02    4.99969301e-03    2.96862694e-03
   7.94328235e+02    3.53213933e+01    4.50492453e+01    3.53857138e-03    1.35054897e+02    3.53857138e-03    1.35054897e+02    4.99974955e-03    3.09056789e-03
   1.00000000e+03    3.91224325e+01    3.85101193e+01    3.11326425e-03    1.28514567e+02    3.11326425e-03    1.28514567e+02    4.99980614e-03    3.07594323e-03
   1.25892541e+03    4.22631723e+01    3.22962055e+01    2.67148185e-03    1.22299687e+02    2.67148185e-03    1.22299687e+02    4.99985726e-03    2.94572932e-03
   1.58489319e+03    4.46828643e+01    2.66606434e+01    2.24352617e-03    1.16663343e+02    2.24352617e-03    1.16663343e+02    4.99989933e-03    2.74830211e-03
   1.99526231e+03    4.64418767e+01    2.17433880e+01    1.85225125e-03    1.11745451e+02    1.85225125e-03    1.11745451e+02    4.99993138e-03    2.53897313e-03
   2.51188643e+03    4.76647974e+01    1.75782246e+01    1.51003804e-03    1.07579759e+02    1.51003804e-03    1.07579759e+02    4.99995440e-03    2.36396773e-03
   3.16227766e+03    4.84879982e+01    1.41248877e+01    1.22018137e-03    1.04125977e+02    1.22018137e-03    1.04125977e+02    4.99997023e-03    2.25531189e-03
   3.98107171e+03    4.90298864e+01    1.13038046e+01    9.80056295e-04    1.01304506e+02    9.80056295e-04    1.01304506e+02    4.99998079e-03    2.23350062e-03
   5.01187234e+03    4.93812897e+01    9.02196987e+00    7.84065896e-04    9.90223203e+01    7.84065896e-04    9.90223203e+01    4.99998771e-03    2.31274037e-03
   6.30957344e+03    4.96069368e+01    7.18828144e+00    6.25651581e-04    9.71882999e+01    6.25651581e-04    9.71882999e+01    4.99999218e-03    2.50575663e-03
   7.94328235e+03    4.97509123e+01    5.72091757e+00    4.98415092e-04    9.57206051e+01    4.98415092e-04    9.57206051e+01    4.99999504e-03    2.82737040e-03
   1.00000000e+04    4.98424022e+01    4.54986244e+00    3.96633234e-04    9.45492024e+01    3.96633234e-04    9.45492024e+01    4.99999686e-03    3.29707909e-03
   1.25892541e+04    4.99003889e+01    3.61688895e+00    3.15423514e-04    9.36158462e+01    3.15423514e-04    9.36158462e+01    4.99999803e-03    3.94111518e-03
   1.58489319e+04    4.99370803e+01    2.87440592e+00    2.50734031e-04    9.28729249e+01    2.50734031e-04    9.28729249e+01    4.99999877e-03    4.79439679e-03
   1.99526231e+04    4.99602727e+01    2.28392892e+00    1.99257619e-04    9.22819307e+01    1.99257619e-04    9.22819307e+01    4.99999924e-03    5.90267863e-03
   2.51188643e+04    4.99749227e+01    1.81454397e+00    1.58322364e-04    9.18119222e+01    1.58322364e-04    9.18119222e+01    4.99999955e-03    7.32513932e-03
   3.16227766e+04    4.99841729e+01    1.44152139e+00    1.25783202e-04    9.14381365e+01    1.25783202e-04    9.14381365e+01    4.99999977e-03    9.13760988e-03
   3.98107171e+04    4.99900120e+01    1.14513033e+00    9.99248204e-05    9.11408020e+01    9.99248204e-05    9.11408020e+01    4.99999993e-03    1.14366510e-02
   5.01187234e+04    4.99936973e+01    9.09654067e-01    7.93789575e-05    9.09041518e+01    7.93789575e-05    9.09041518e+01    5.00000008e-03    1.43447152e-02
   6.30957344e+04    4.99960230e+01    7.22586321e-01    6.30558803e-05    9.07156171e+01    6.30558803e-05    9.07156171e+01    5.00000024e-03    1.80166774e-02
   7.94328235e+04    4.99974906e+01    5.73981950e-01    5.00885362e-05    9.05651746e+01    5.00885362e-05    9.05651746e+01    5.00000045e-03    2.26480879e-02
   1.00000000e+05    4.99984166e+01    4.55935699e-01    3.97874753e-05    9.04448213e+01    3.97874753e-05    9.04448213e+01    5.00000076e-03    2.84855884e-02
