[Version] 2.0
# Hz Y RI R 50
[Number of Ports] 2
[Two-Port Data Order] 12_21
[Number of Frequencies] 41
[Reference] 50 50
[Network Data]
!      Freq              ReY11             ImY11             ReY12             ImY12             ReY21             ImY21             ReY22             ImY22      
   1.00000000e+01    1.28915693e-02    6.28093721e-01   -4.99871084e-03    6.28094695e-05   -4.99871084e-03    6.28094695e-05    4.99950013e-03    6.52914251e-09
   1.25892541e+01    1.75064322e-02    7.90650146e-01   -4.99824935e-03    7.90651372e-05   -4.99824935e-03    7.90651372e-05    4.99950018e-03    8.21897341e-09
   1.58489319e+01    2.48187517e-02    9.95223941e-01   -4.99751812e-03    9.95225484e-05   -4.99751812e-03    9.95225484e-05    4.99950025e-03    1.03456183e-08
   1.99526231e+01    3.64036155e-02    1.25262227e+00   -4.99635963e-03    1.25262421e-04   -4.99635963e-03    1.25262421e-04    4.99950036e-03    1.30214573e-08
   2.51188643e+01    5.47533894e-02    1.57637885e+00   -4.99452465e-03    1.57638129e-04   -4.99452465e-03    1.57638129e-04    4.99950055e-03    1.63872519e-08
   3.16227766e+01    8.38082281e-02    1.98338891e+00   -4.99161916e-03    1.98339199e-04   -4.99161916e-03    1.98339199e-04    4.99950084e-03    2.06187831e-08
   3.98107171e+01    1.29787864e-01    2.49463868e+00   -4.98702119e-03    2.49464255e-04   -4.98702119e-03    2.49464255e-04    4.99950130e-03    2.59345097e-08
   5.01187234e+01    2.02487415e-01    3.13598580e+00   -4.97975123e-03    3.13599066e-04   -4.97975123e-03    3.13599066e-04    4.99950202e-03    3.26038308e-08
   6.30957344e+01    3.17275264e-01    3.93887177e+00   -4.96827243e-03    3.93887788e-04   -4.96827243e-03    3.93887788e-04    4.99950317e-03    4.09547865e-08
   7.94328235e+01    4.98121697e-01    4.94069580e+00   -4.95018775e-03    4.94070346e-04   -4.95018775e-03    4.94070346e-04    4.99950498e-03    5.13785212e-08
   1.00000000e+02    7.82062595e-01    6.18429000e+00   -4.92179362e-03    6.18429958e-04   -4.92179362e-03    6.18429958e-04    4.99950782e-03    6.43249499e-08
   1.25892541e+02    1.22546638e+00    7.71541982e+00   -4.87745317e-03    7.71543178e-04   -4.87745317e-03    7.71543178e-04    4.99951225e-03    8.02789117e-08
   1.58489319e+02    1.91207933e+00    9.57640347e+00   -4.80879177e-03    9.57641832e-04   -4.80879177e-03    9.57641832e-04    4.99951912e-03    9.96978118e-08
   1.99526231e+02    2.96155368e+00    1.17928671e+01   -4.70384417e-03    1.17928854e-03   -4.70384417e-03    1.17928854e-03    4.99952962e-03    1.22880995e-07
   2.51188643e+02    4.53416362e+00    1.43499908e+01   -4.54658294e-03    1.43500130e-03   -4.54658294e-03    1.43500130e-03    4.99954534e-03    1.49734498e-07
   3.16227766e+02    6.82202806e+00    1.71564993e+01   -4.31779614e-03    1.71565259e-03   -4.31779614e-03    1.71565259e-03    4.99956822e-03    1.79413850e-07
   3.98107171e+02    1.00112377e+01    2.00034267e+01   -3.99887468e-03    2.00034577e-03   -3.99887468e-03    2.00034577e-03    4.99960011e-03    2.09915343e-07
   5.01187234e+02    1.42018839e+01    2.25437733e+01   -3.57980941e-03    2.25438083e-03   -3.57980941e-03    2.25438083e-03    4.99964202e-03    2.37877189e-07
   6.30957344e+02    1.93007217e+01    2.43385445e+01   -3.06992483e-03    2.43385822e-03   -3.06992483e-03    2.43385822e-03    4.99969301e-03    2.59045666e-07
   7.94328235e+02    2.49545209e+01    2.49974542e+01   -2.50454405e-03    2.49974930e-03   -2.50454405e-03    2.49974930e-03    4.99974955e-03    2.69689417e-07
   1.00000000e+03    3.06132330e+01    2.43596940e+01   -1.93867196e-03    2.43597318e-03   -1.93867196e-03    2.43597318e-03    4.99980613e-03    2.68416277e-07
   1.25892541e+03    3.57249421e+01    2.25810595e+01   -1.42750025e-03    2.25810945e-03   -1.42750025e-03    2.25810945e-03    4.99985725e-03    2.57056039e-07
   1.58489319e+03    3.99321739e+01    2.00494351e+01   -1.00677642e-03    2.00494662e-03   -1.00677642e-03    2.00494662e-03    4.99989932e-03    2.39829774e-07
   1.99526231e+03    4.31376444e+01    1.72044048e+01   -6.86228870e-04    1.72044315e-03   -6.86228870e-04    1.72044315e-03    4.99993138e-03    2.21564163e-07
   2.51188643e+03    4.54391142e+01    1.43951314e+01   -4.56081535e-04    1.43951537e-03   -4.56081535e-04    1.43951537e-03    4.99995439e-03    2.06293220e-07
   3.16227766e+03    4.70220171e+01    1.18328304e+01   -2.97791004e-04    1.18328488e-03   -2.97791004e-04    1.18328488e-03    4.99997022e-03    1.96811918e-07
   3.98107171e+03    4.80787872e+01    9.61040975e+00   -1.92113826e-04    9.61042464e-04   -1.92113826e-04    9.61042464e-04    4.99998079e-03    1.94908950e-07
   5.01187234e+03    4.87703584e+01    7.74363703e+00   -1.22956602e-04    7.74364903e-04   -1.22956602e-04    7.74364903e-04    4.99998771e-03    2.01824175e-07
   6.30957344e+03    4.92170419e+01    6.20733169e+00   -7.82881804e-05    6.20734131e-04   -7.82881804e-05    6.20734131e-04    4.99999217e-03    2.18668175e-07
   7.94328235e+03    4.95031151e+01    4.95932110e+00   -4.96808162e-05    4.95932879e-04   -4.96808162e-05    4.95932879e-04    4.99999503e-03    2.46734369e-07
   1.00000000e+04    4.96853327e+01    3.95383064e+00   -3.14590297e-05    3.95383677e-04   -3.14590297e-05    3.95383677e-04    4.99999686e-03    2.87724249e-07
   1.25892541e+04    4.98009961e+01    3.14795120e+00   -1.98926693e-05    3.14795608e-04   -1.98926693e-05    3.14795608e-04    4.99999801e-03    3.43927045e-07
   1.58489319e+04    4.98742523e+01    2.50418508e+00   -1.25670377e-05    2.50418896e-04   -1.25670377e-05    2.50418896e-04    4.99999875e-03    4.18389944e-07
   1.99526231e+04    4.99205849e+01    1.99099299e+00   -7.93377610e-06    1.99099608e-04   -7.93377610e-06    1.99099608e-04    4.99999921e-03    5.15105804e-07
   2.51188643e+04    4.99498630e+01    1.58242959e+00   -5.00595330e-06    1.58243204e-04   -5.00595330e-06    1.58243204e-04    4.99999951e-03    6.39238937e-07
   3.16227766e+04    4.99683540e+01    1.25743386e+00   -3.15685410e-06    1.25743581e-04   -3.15685410e-06    1.25743581e-04    4.99999970e-03    7.97406850e-07
   3.98107171e+04    4.99800281e+01    9.99048597e-01   -1.98944674e-06    9.99050141e-05   -1.98944674e-06    9.99050141e-05    4.99999983e-03    9.98036060e-07
   5.01187234e+04    4.99873967e+01    7.93689518e-01   -1.25258175e-06    7.93690742e-05   -1.25258175e-06    7.93690742e-05    4.99999992e-03    1.25181256e-06
   6.30957344e+04    4.99920471e+01    6.30508651e-01   -7.87539559e-07    6.30509621e-05   -7.87539559e-07    6.30509621e-05    4.99999999e-03    1.57225176e-06
   7.94328235e+04    4.99949818e+01    5.00860227e-01   -4.94073244e-07    5.00860994e-05   -4.94073244e-07    5.00860994e-05    5.00000006e-03    1.97641865e-06
   1.00000000e+05    4.99968336e+01    3.97862158e-01   -3.08890787e-07    3.97862762e-05   -3.08890787e-07    3.97862762e-05    5.00000014e-03    2.48583681e-06
