# Hz Y MA R 50
!      Freq             magY11            angY11      
   1.00000000e+01    6.28268927e-01    8.92800379e+01
   1.25892541e+01    7.90907199e-01    8.90936493e+01
   1.58489319e+01    9.95620321e-01    8.88590277e+01
   1.99526231e+01    1.25326641e+00    8.85637121e+01
   2.51188643e+01    1.57747911e+00    8.81920421e+01
   3.16227766e+01    1.98535070e+00    8.77243574e+01
   3.98107171e+01    2.49825681e+00    8.71360161e+01
   5.01187234e+01    3.14282525e+00    8.63962118e+01
   6.30957344e+01    3.95201889e+00    8.54665912e+01
   7.94328235e+01    4.96623185e+00    8.42997186e+01
   1.00000000e+02    6.23415520e+00    8.28375442e+01
   1.25892541e+02    7.81289671e+00    8.10102404e+01
   1.58489319e+02    9.76636436e+00    7.87361566e+01
   1.99526231e+02    1.21601938e+01    7.59242868e+01
   2.51188643e+02    1.50506494e+01    7.24815444e+01
   3.16227766e+02    1.84646797e+01    6.83279420e+01
   3.98107171e+02    2.23705607e+01    6.34222890e+01
   5.01187234e+02    2.66461417e+01    5.77968475e+01
   6.30957344e+02    3.10644666e+01    5.15896504e+01
   7.94328235e+02    3.53231625e+01    4.50521206e+01
   1.00000000e+03    3.91239493e+01    3.85118872e+01
   1.25892541e+03    4.22643789e+01    3.22972395e+01
   1.58489319e+03    4.46837640e+01    2.66612227e+01
   1.99526231e+03    4.64425141e+01    2.17437017e+01
   2.51188643e+03    4.76652321e+01    1.75783902e+01
   3.16227766e+03    4.84882869e+01    1.41249736e+01
   3.98107171e+03    4.90300747e+01    1.13038486e+01
   5.01187234e+03    4.93814111e+01    9.02199223e+00
   6.30957344e+03    4.96070145e+01    7.18829275e+00
   7.94328235e+03    4.97509617e+01    5.72092327e+00
   1.00000000e+04    4.98424336e+01    4.54986530e+00
   1.25892541e+04    4.99004087e+01    3.61689038e+00
   1.58489319e+04    4.99370928e+01    2.87440664e+00
   1.99526231e+04    4.99602806e+01    2.28392929e+00
   2.51188643e+04    4.99749277e+01    1.81454415e+00
   3.16227766e+04    4.99841761e+01    1.44152149e+00
   3.98107171e+04    4.99900140e+01    1.14513038e+00
   5.01187234e+04    4.99936986e+01    9.09654089e-01
   6.30957344e+04    4.99960238e+01    7.22586332e-01
   7.94328235e+04    4.99974911e+01    5.73981955e-01
   1.00000000e+05    4.99984169e+01    4.55935702e-01
