# Hz Z MA R 50
!      Freq             magZ11            angZ11      
   1.00000000e+01    1.59167509e+00   -8.92800379e+01
   1.25892541e+01    1.26437084e+00   -8.90936493e+01
   1.58489319e+01    1.00439895e+00   -8.88590277e+01
   1.99526231e+01    7.97914948e-01   -8.85637121e+01
   2.51188643e+01    6.33922814e-01   -8.81920421e+01
   3.16227766e+01    5.03689347e-01   -8.77243574e+01
   3.98107171e+01    4.00279105e-01   -8.71360161e+01
   5.01187234e+01    3.18185047e-01   -8.63962118e+01
   6.30957344e+01    2.53035228e-01   -8.54665912e+01
   7.94328235e+01    2.01359910e-01   -8.42997186e+01
   1.00000000e+02    1.60406658e-01   -8.28375442e+01
   1.25892541e+02    1.27993501e-01   -8.10102404e+01
   1.58489319e+02    1.02392248e-01   -7.87361566e+01
   1.99526231e+02    8.22355315e-02   -7.59242868e+01
   2.51188643e+02    6.64423159e-02   -7.24815444e+01
   3.16227766e+02    5.41574518e-02   -6.83279420e+01
   3.98107171e+02    4.47016065e-02   -6.34222890e+01
   5.01187234e+02    3.75288854e-02   -5.77968475e+01
   6.30957344e+02    3.21911209e-02   -5.15896504e+01
   7.94328235e+02    2.83100359e-02   -4.50521206e+01
   1.00000000e+03    2.55597918e-02   -3.85118872e+01
   1.25892541e+03    2.36605867e-02   -3.22972395e+01
   1.58489319e+03    2.23794934e-02   -2.66612227e+01
   1.99526231e+03    2.15319954e-02   -2.17437017e+01
   2.51188643e+03    2.09796524e-02   -1.75783902e+01
   3.16227766e+03    2.06235374e-02   -1.41249736e+01
   3.98107171e+03    2.03956450e-02   -1.13038486e+01
   5.01187234e+03    2.02505351e-02   -9.02199223e+00
   6.30957344e+03    2.01584395e-02   -7.18829275e+00
   7.94328235e+03    2.01001140e-02   -5.72092327e+00
   1.00000000e+04    2.00632258e-02   -4.54986530e+00
   1.25892541e+04    2.00399160e-02   -3.61689038e+00
   1.58489319e+04    2.00251946e-02   -2.87440664e+00
   1.99526231e+04    2.00159004e-02   -2.28392929e+00
   2.51188643e+04    2.00100339e-02   -1.81454415e+00
   3.16227766e+04    2.00063316e-02   -1.44152149e+00
   3.98107171e+04    2.00039952e-02   -1.14513038e+00
   5.01187234e+04    2.00025209e-02   -9.09654089e-01
   6.30957344e+04    2.00015906e-02   -7.22586332e-01
   7.94328235e+04    2.00010036e-02   -5.73981955e-01
   1.00000000e+05    2.00006332e-02   -4.55935702e-01
