# Hz Z DB R 50
!      Freq            magdbZ11           angZ11           magdbZ21           angZ21           magdbZ12           angZ12           magdbZ22           angZ22      
   1.00000000e+01    4.03708838e+00   -8.92800379e+01    4.03640262e+00   -9.00000040e+01    4.03640262e+00   -9.00000040e+01    4.60208749e+01   -4.55938546e-01
   1.25892541e+01    2.03748942e+00   -8.90936493e+01    2.03640262e+00   -9.00000050e+01    2.03640262e+00   -9.00000050e+01    4.60207734e+01   -3.62169003e-01
   1.58489319e+01    3.81249603e-02   -8.88590277e+01    3.64026242e-02   -9.00000063e+01    3.64026242e-02   -9.00000063e+01    4.60207094e+01   -2.87684142e-01
   1.99526231e+01   -1.96086797e+00   -8.85637121e+01   -1.96359738e+00   -9.00000079e+01   -1.96359738e+00   -9.00000079e+01    4.60206690e+01   -2.28518440e-01
   2.51188643e+01   -3.95927236e+00   -8.81920421e+01   -3.96359738e+00   -9.00000099e+01   -3.96359738e+00   -9.00000099e+01    4.60206435e+01   -1.81521640e-01
   3.16227766e+01   -5.95674468e+00   -8.77243574e+01   -5.96359738e+00   -9.00000125e+01   -5.96359738e+00   -9.00000125e+01    4.60206274e+01   -1.44191261e-01
   3.98107171e+01   -7.95274159e+00   -8.71360161e+01   -7.96359738e+00   -9.00000158e+01   -7.96359738e+00   -9.00000158e+01    4.60206173e+01   -1.14539457e-01
   5.01187234e+01   -9.94640467e+00   -8.63962118e+01   -9.96359738e+00   -9.00000198e+01   -9.96359738e+00   -9.00000198e+01    4.60206109e+01   -9.09872300e-02
   6.30957344e+01   -1.19363802e+01   -8.54665912e+01   -1.19635974e+01   -9.00000250e+01   -1.19635974e+01   -9.00000250e+01    4.60206068e+01   -7.22803705e-02
   7.94328235e+01   -1.39205398e+01   -8.42997186e+01   -1.39635974e+01   -9.00000315e+01   -1.39635974e+01   -9.00000315e+01    4.60206043e+01   -5.74226873e-02
   1.00000000e+02   -1.58955522e+01   -8.28375442e+01   -1.59635974e+01   -9.00000396e+01   -1.59635974e+01   -9.00000396e+01    4.60206027e+01   -4.56229630e-02
   1.25892541e+02   -1.78562417e+01   -8.10102404e+01   -1.79635974e+01   -9.00000499e+01   -1.79635974e+01   -9.00000499e+01    4.60206016e+01   -3.62528236e-02
   1.58489319e+02   -1.97946585e+01   -7.87361566e+01   -1.99635974e+01   -9.00000628e+01   -1.99635974e+01   -9.00000628e+01    4.60206010e+01   -2.88132772e-02
   1.99526231e+02   -2.16988099e+01   -7.59242868e+01   -2.19635974e+01   -9.00000790e+01   -2.19635974e+01   -9.00000790e+01    4.60206006e+01   -2.29081417e-02
   2.51188643e+02   -2.35511048e+01   -7.24815444e+01   -2.39635974e+01   -9.00000995e+01   -2.39635974e+01   -9.00000995e+01    4.60206003e+01   -1.82229478e-02
   3.16227766e+02   -2.53268356e+01   -6.83279420e+01   -2.59635974e+01   -9.00001252e+01   -2.59635974e+01   -9.00001252e+01    4.60206002e+01   -1.45081921e-02
   3.98107171e+02   -2.69935374e+01   -6.34222890e+01   -2.79635974e+01   -9.00001577e+01   -2.79635974e+01   -9.00001577e+01    4.60206001e+01   -1.15660503e-02
   5.01187234e+02   -2.85126867e+01   -5.77968475e+01   -2.99635974e+01   -9.00001985e+01   -2.99635974e+01   -9.00001985e+01    4.60206000e+01   -9.23984284e-03
   6.30957344e+02   -2.98452780e+01   -5.15896504e+01   -3.19635974e+01   -9.00002499e+01   -3.19635974e+01   -9.00002499e+01    4.60206000e+01   -7.40569067e-03
   7.94328235e+02   -3.09611916e+01   -4.50521206e+01   -3.39635974e+01   -9.00003146e+01   -3.39635974e+01   -9.00003146e+01    4.60206000e+01   -5.96591851e-03
   1.00000000e+03   -3.18488538e+01   -3.85118872e+01   -3.59635974e+01   -9.00003960e+01   -3.59635974e+01   -9.00003960e+01    4.60205999e+01   -4.84385325e-03
   1.25892541e+03   -3.25194898e+01   -3.22972395e+01   -3.79635974e+01   -9.00004985e+01   -3.79635974e+01   -9.00004985e+01    4.60205999e+01   -3.97974084e-03
   1.58489319e+03   -3.30029950e+01   -2.66612227e+01   -3.99635974e+01   -9.00006276e+01   -3.99635974e+01   -9.00006276e+01    4.60205999e+01   -3.32756414e-03
   1.99526231e+03   -3.33383144e+01   -2.17437017e+01   -4.19635974e+01   -9.00007901e+01   -4.19635974e+01   -9.00007901e+01    4.60205999e+01   -2.85259237e-03
   2.51188643e+03   -3.35640342e+01   -1.75783902e+01   -4.39635974e+01   -9.00009947e+01   -4.39635974e+01   -9.00009947e+01    4.60205999e+01   -2.52953154e-03
   3.16227766e+03   -3.37127368e+01   -1.41249736e+01   -4.59635974e+01   -9.00012523e+01   -4.59635974e+01   -9.00012523e+01    4.60205999e+01   -2.34117748e-03
   3.98107171e+03   -3.38092511e+01   -1.13038486e+01   -4.79635974e+01   -9.00015765e+01   -4.79635974e+01   -9.00015765e+01    4.60205999e+01   -2.27749967e-03
   5.01187234e+03   -3.38712699e+01   -9.02199223e+00   -4.99635974e+01   -9.00019847e+01   -4.99635974e+01   -9.00019847e+01    4.60205999e+01   -2.33510702e-03
   6.30957344e+03   -3.39108618e+01   -7.18829275e+00   -5.19635974e+01   -9.00024986e+01   -5.19635974e+01   -9.00024986e+01    4.60205999e+01   -2.51706733e-03
   7.94328235e+03   -3.39360296e+01   -5.72092327e+00   -5.39635974e+01   -9.00031455e+01   -5.39635974e+01   -9.00031455e+01    4.60205999e+01   -2.83307065e-03
   1.00000000e+04   -3.39519848e+01   -4.54986530e+00   -5.59635974e+01   -9.00039600e+01   -5.59635974e+01   -9.00039600e+01    4.60205999e+01   -3.29994532e-03
   1.25892541e+04   -3.39620821e+01   -3.61689038e+00   -5.79635974e+01   -9.00049853e+01   -5.79635974e+01   -9.00049853e+01    4.60205999e+01   -3.94255411e-03
   1.58489319e+04   -3.39684651e+01   -2.87440664e+00   -5.99635974e+01   -9.00062762e+01   -5.99635974e+01   -9.00062762e+01    4.60205999e+01   -4.79511827e-03
   1.99526231e+04   -3.39724974e+01   -2.28392929e+00   -6.19635974e+01   -9.00079012e+01   -6.19635974e+01   -9.00079012e+01    4.60205999e+01   -5.90303997e-03
   2.51188643e+04   -3.39750435e+01   -1.81454415e+00   -6.39635975e+01   -9.00099471e+01   -6.39635975e+01   -9.00099471e+01    4.60205998e+01   -7.32532005e-03
   3.16227766e+04   -3.39766508e+01   -1.44152149e+00   -6.59635975e+01   -9.00125226e+01   -6.59635975e+01   -9.00125226e+01    4.60205998e+01   -9.13770012e-03
   3.98107171e+04   -3.39776652e+01   -1.14513038e+00   -6.79635976e+01   -9.00157650e+01   -6.79635976e+01   -9.00157650e+01    4.60205997e+01   -1.14366960e-02
   5.01187234e+04   -3.39783053e+01   -9.09654089e-01   -6.99635977e+01   -9.00198470e+01   -6.99635977e+01   -9.00198470e+01    4.60205996e+01   -1.43447375e-02
   6.30957344e+04   -3.39787093e+01   -7.22586332e-01   -7.19635980e+01   -9.00249859e+01   -7.19635980e+01   -9.00249859e+01    4.60205994e+01   -1.80166884e-02
   7.94328235e+04   -3.39789642e+01   -5.73981955e-01   -7.39635983e+01   -9.00314554e+01   -7.39635983e+01   -9.00314554e+01    4.60205990e+01   -2.26480933e-02
   1.00000000e+05   -3.39791251e+01   -4.55935702e-01   -7.59635988e+01   -9.00396000e+01   -7.59635988e+01   -9.00396000e+01    4.60205985e+01   -2.84855909e-02
