[Version] 2.0
# Hz Z MA R 50
[Number of Ports] 2
[Two-Port Data Order] 12_21
[Number of Frequencies] 41
[Reference] 50 50
[Network Data]
!      Freq             magZ11            angZ11            magZ12            angZ12            magZ21            angZ21            magZ22            angZ22      
   1.00000000e+01    1.59167509e+00   -8.92800379e+01    1.59154943e+00   -9.00000040e+01    1.59154943e+00   -9.00000040e+01    2.00006332e+02   -4.55938546e-01
   1.25892541e+01    1.26437084e+00   -8.90936493e+01    1.26421265e+00   -9.00000050e+01    1.26421265e+00   -9.00000050e+01    2.00003995e+02   -3.62169003e-01
   1.58489319e+01    1.00439895e+00   -8.88590277e+01    1.00419980e+00   -9.00000063e+01    1.00419980e+00   -9.00000063e+01    2.00002521e+02   -2.87684142e-01
   1.99526231e+01    7.97914948e-01   -8.85637121e+01    7.97664256e-01   -9.00000079e+01    7.97664256e-01   -9.00000079e+01    2.00001591e+02   -2.28518440e-01
   2.51188643e+01    6.33922814e-01   -8.81920421e+01    6.33607240e-01   -9.00000099e+01    6.33607240e-01   -9.00000099e+01    2.00001004e+02   -1.81521640e-01
   3.16227766e+01    5.03689347e-01   -8.77243574e+01    5.03292121e-01   -9.00000125e+01    5.03292121e-01   -9.00000125e+01    2.00000633e+02   -1.44191261e-01
   3.98107171e+01    4.00279105e-01   -8.71360161e+01    3.99779142e-01   -9.00000158e+01    3.99779142e-01   -9.00000158e+01    2.00000399e+02   -1.14539457e-01
   5.01187234e+01    3.18185047e-01   -8.63962118e+01    3.17555860e-01   -9.00000198e+01    3.17555860e-01   -9.00000198e+01    2.00000252e+02   -9.09872300e-02
   6.30957344e+01    2.53035228e-01   -8.54665912e+01    2.52243586e-01   -9.00000250e+01    2.52243586e-01   -9.00000250e+01    2.00000159e+02   -7.22803705e-02
   7.94328235e+01    2.01359910e-01   -8.42997186e+01    2.00364202e-01   -9.00000315e+01    2.00364202e-01   -9.00000315e+01    2.00000100e+02   -5.74226873e-02
   1.00000000e+02    1.60406658e-01   -8.28375442e+01    1.59154943e-01   -9.00000396e+01    1.59154943e-01   -9.00000396e+01    2.00000063e+02   -4.56229630e-02
   1.25892541e+02    1.27993501e-01   -8.10102404e+01    1.26421265e-01   -9.00000499e+01    1.26421265e-01   -9.00000499e+01    2.00000040e+02   -3.62528236e-02
   1.58489319e+02    1.02392248e-01   -7.87361566e+01    1.00419980e-01   -9.00000628e+01    1.00419980e-01   -9.00000628e+01    2.00000025e+02   -2.88132772e-02
   1.99526231e+02    8.22355315e-02   -7.59242868e+01    7.97664256e-02   -9.00000790e+01    7.97664256e-02   -9.00000790e+01    2.00000016e+02   -2.29081417e-02
   2.51188643e+02    6.64423159e-02   -7.24815444e+01    6.33607240e-02   -9.00000995e+01    6.33607240e-02   -9.00000995e+01    2.00000010e+02   -1.82229478e-02
   3.16227766e+02    5.41574518e-02   -6.83279420e+01    5.03292121e-02   -9.00001252e+01    5.03292121e-02   -9.00001252e+01    2.00000006e+02   -1.45081921e-02
   3.98107171e+02    4.47016065e-02   -6.34222890e+01    3.99779142e-02   -9.00001577e+01    3.99779142e-02   -9.00001577e+01    2.00000004e+02   -1.15660503e-02
   5.01187234e+02    3.75288854e-02   -5.77968475e+01    3.17555860e-02   -9.00001985e+01    3.17555860e-02   -9.00001985e+01    2.00000002e+02   -9.23984284e-03
   6.30957344e+02    3.21911209e-02   -5.15896504e+01    2.52243586e-02   -9.00002499e+01    2.52243586e-02   -9.00002499e+01    2.00000001e+02   -7.40569067e-03
   7.94328235e+02    2.83100359e-02   -4.50521206e+01    2.00364202e-02   -9.00003146e+01    2.00364202e-02   -9.00003146e+01    2.00000001e+02   -5.96591851e-03
   1.00000000e+03    2.55597918e-02   -3.85118872e+01    1.59154943e-02   -9.00003960e+01    1.59154943e-02   -9.00003960e+01    2.00000000e+02   -4.84385325e-03
   1.25892541e+03    2.36605867e-02   -3.22972395e+01    1.26421265e-02   -9.00004985e+01    1.26421265e-02   -9.00004985e+01    2.00000000e+02   -3.97974084e-03
   1.58489319e+03    2.23794934e-02   -2.66612227e+01    1.00419980e-02   -9.00006276e+01    1.00419980e-02   -9.00006276e+01    2.00000000e+02   -3.32756414e-03
   1.99526231e+03    2.15319954e-02   -2.17437017e+01    7.97664256e-03   -9.00007901e+01    7.97664256e-03   -9.00007901e+01    2.00000000e+02   -2.85259237e-03
   2.51188643e+03    2.09796524e-02   -1.75783902e+01    6.33607240e-03   -9.00009947e+01    6.33607240e-03   -9.00009947e+01    2.00000000e+02   -2.52953154e-03
   3.16227766e+03    2.06235374e-02   -1.41249736e+01    5.03292120e-03   -9.00012523e+01    5.03292120e-03   -9.00012523e+01    2.00000000e+02   -2.34117748e-03
   3.98107171e+03    2.03956450e-02   -1.13038486e+01    3.99779142e-03   -9.00015765e+01    3.99779142e-03   -9.00015765e+01    2.00000000e+02   -2.27749967e-03
   5.01187234e+03    2.02505351e-02   -9.02199223e+00    3.17555860e-03   -9.00019847e+01    3.17555860e-03   -9.00019847e+01    2.00000000e+02   -2.33510702e-03
   6.30957344e+03    2.01584395e-02   -7.18829275e+00    2.52243585e-03   -9.00024986e+01    2.52243585e-03   -9.00024986e+01    2.00000000e+02   -2.51706733e-03
   7.94328235e+03    2.01001140e-02   -5.72092327e+00    2.00364202e-03   -9.00031455e+01    2.00364202e-03   -9.00031455e+01    2.00000000e+02   -2.83307065e-03
   1.00000000e+04    2.00632258e-02   -4.54986530e+00    1.59154943e-03   -9.00039600e+01    1.59154943e-03   -9.00039600e+01    2.00000000e+02   -3.29994532e-03
   1.25892541e+04    2.00399160e-02   -3.61689038e+00    1.26421265e-03   -9.00049853e+01    1.26421265e-03   -9.00049853e+01    1.99999999e+02   -3.94255411e-03
   1.58489319e+04    2.00251946e-02   -2.87440664e+00    1.00419980e-03   -9.00062762e+01    1.00419980e-03   -9.00062762e+01    1.99999999e+02   -4.79511827e-03
   1.99526231e+04    2.00159004e-02   -2.28392929e+00    7.97664250e-04   -9.00079012e+01    7.97664250e-04   -9.00079012e+01    1.99999999e+02   -5.90303997e-03
   2.51188643e+04    2.00100339e-02   -1.81454415e+00    6.33607233e-04   -9.00099471e+01    6.33607233e-04   -9.00099471e+01    1.99999998e+02   -7.32532005e-03
   3.16227766e+04    2.00063316e-02   -1.44152149e+00    5.03292112e-04   -9.00125226e+01    5.03292112e-04   -9.00125226e+01    1.99999997e+02   -9.13770012e-03
   3.98107171e+04    2.00039952e-02   -1.14513038e+00    3.99779131e-04   -9.00157650e+01    3.99779131e-04   -9.00157650e+01    1.99999995e+02   -1.14366960e-02
   5.01187234e+04    2.00025209e-02   -9.09654089e-01    3.17555846e-04   -9.00198470e+01    3.17555846e-04   -9.00198470e+01    1.99999992e+02   -1.43447375e-02
   6.30957344e+04    2.00015906e-02   -7.22586332e-01    2.52243569e-04   -9.00249859e+01    2.52243569e-04   -9.00249859e+01    1.99999987e+02   -1.80166884e-02
   7.94328235e+04    2.00010036e-02   -5.73981955e-01    2.00364181e-04   -9.00314554e+01    2.00364181e-04   -9.00314554e+01    1.99999980e+02   -2.26480933e-02
   1.00000000e+05    2.00006332e-02   -4.55935702e-01    1.59154916e-04   -9.00396000e+01    1.59154916e-04   -9.00396000e+01    1.99999968e+02   -2.84855909e-02
[End]
