# Hz Z DB R 50
!      Freq            magdbZ11           angZ11      
   1.00000000e+01    4.03708838e+00   -8.92800379e+01
   1.25892541e+01    2.03748942e+00   -8.90936493e+01
   1.58489319e+01    3.81249603e-02   -8.88590277e+01
   1.99526231e+01   -1.96086797e+00   -8.85637121e+01
   2.51188643e+01   -3.95927236e+00   -8.81920421e+01
   3.16227766e+01   -5.95674468e+00   -8.77243574e+01
   3.98107171e+01   -7.95274159e+00   -8.71360161e+01
   5.01187234e+01   -9.94640467e+00   -8.63962118e+01
   6.30957344e+01   -1.19363802e+01   -8.54665912e+01
   7.94328235e+01   -1.39205398e+01   -8.42997186e+01
   1.00000000e+02   -1.58955522e+01   -8.28375442e+01
   1.25892541e+02   -1.78562417e+01   -8.10102404e+01
   1.58489319e+02   -1.97946585e+01   -7.87361566e+01
   1.99526231e+02   -2.16988099e+01   -7.59242868e+01
   2.51188643e+02   -2.35511048e+01   -7.24815444e+01
   3.16227766e+02   -2.53268356e+01   -6.83279420e+01
   3.98107171e+02   -2.69935374e+01   -6.34222890e+01
   5.01187234e+02   -2.85126867e+01   -5.77968475e+01
   6.30957344e+02   -2.98452780e+01   -5.15896504e+01
   7.94328235e+02   -3.09611916e+01   -4.50521206e+01
   1.00000000e+03   -3.18488538e+01   -3.85118872e+01
   1.25892541e+03   -3.25194898e+01   -3.22972395e+01
   1.58489319e+03   -3.30029950e+01   -2.66612227e+01
   1.99526231e+03   -3.33383144e+01   -2.17437017e+01
   2.51188643e+03   -3.35640342e+01   -1.75783902e+01
   3.16227766e+03   -3.37127368e+01   -1.41249736e+01
   3.98107171e+03   -3.38092511e+01   -1.13038486e+01
   5.01187234e+03   -3.38712699e+01   -9.02199223e+00
   6.30957344e+03   -3.39108618e+01   -7.18829275e+00
   7.94328235e+03   -3.39360296e+01   -5.72092327e+00
   1.00000000e+04   -3.39519848e+01   -4.54986530e+00
   1.25892541e+04   -3.39620821e+01   -3.61689038e+00
   1.58489319e+04   -3.39684651e+01   -2.87440664e+00
   1.99526231e+04   -3.39724974e+01   -2.28392929e+00
   2.51188643e+04   -3.39750435e+01   -1.81454415e+00
   3.16227766e+04   -3.39766508e+01   -1.44152149e+00
   3.98107171e+04   -3.39776652e+01   -1.14513038e+00
   5.01187234e+04   -3.39783053e+01   -9.09654089e-01
   6.30957344e+04   -3.39787093e+01   -7.22586332e-01
   7.94328235e+04   -3.39789642e+01   -5.73981955e-01
   1.00000000e+05   -3.39791251e+01   -4.55935702e-01
