[Version] 2.0
# Hz Z RI R 50
[Number of Ports] 2
[Two-Port Data Order] 12_21
[Number of Frequencies] 41
[Reference] 50 50
[Network Data]
!      Freq              ReZ11             ImZ11             ReZ12             ImZ12             ReZ21             ImZ21             ReZ22             ImZ22      
   1.00000000e+01    2.00000000e-02   -1.59154943e+00   -1.10000010e-07   -1.59154943e+00   -1.10000010e-07   -1.59154943e+00    2.00000000e+02   -1.59155936e+00
   1.25892541e+01    2.00000000e-02   -1.26421265e+00   -1.10000006e-07   -1.26421265e+00   -1.10000006e-07   -1.26421265e+00    2.00000000e+02   -1.26422515e+00
   1.58489319e+01    2.00000000e-02   -1.00419980e+00   -1.09999999e-07   -1.00419980e+00   -1.09999999e-07   -1.00419980e+00    2.00000000e+02   -1.00421554e+00
   1.99526231e+01    2.00000000e-02   -7.97664256e-01   -1.10000002e-07   -7.97664256e-01   -1.10000002e-07   -7.97664256e-01    2.00000000e+02   -7.97684063e-01
   2.51188643e+01    2.00000000e-02   -6.33607240e-01   -1.10000000e-07   -6.33607240e-01   -1.10000000e-07   -6.33607240e-01    2.00000000e+02   -6.33632177e-01
   3.16227766e+01    2.00000000e-02   -5.03292121e-01   -1.10000001e-07   -5.03292121e-01   -1.10000001e-07   -5.03292121e-01    2.00000000e+02   -5.03323514e-01
   3.98107171e+01    2.00000000e-02   -3.99779142e-01   -1.10000001e-07   -3.99779142e-01   -1.10000001e-07   -3.99779142e-01    2.00000000e+02   -3.99818663e-01
   5.01187234e+01    2.00000000e-02   -3.17555860e-01   -1.10000000e-07   -3.17555860e-01   -1.10000000e-07   -3.17555860e-01    2.00000000e+02   -3.17605615e-01
   6.30957344e+01    2.00000000e-02   -2.52243586e-01   -1.10000000e-07   -2.52243586e-01   -1.10000000e-07   -2.52243586e-01    2.00000000e+02   -2.52306223e-01
   7.94328235e+01    2.00000000e-02   -2.00364202e-01   -1.10000000e-07   -2.00364202e-01   -1.10000000e-07   -2.00364202e-01    2.00000000e+02   -2.00443058e-01
   1.00000000e+02    2.00000000e-02   -1.59154943e-01   -1.10000000e-07   -1.59154943e-01   -1.10000000e-07   -1.59154943e-01    2.00000000e+02   -1.59254217e-01
   1.25892541e+02    2.00000000e-02   -1.26421265e-01   -1.10000000e-07   -1.26421265e-01   -1.10000000e-07   -1.26421265e-01    2.00000000e+02   -1.26546244e-01
   1.58489319e+02    2.00000000e-02   -1.00419980e-01   -1.10000000e-07   -1.00419980e-01   -1.10000000e-07   -1.00419980e-01    2.00000000e+02   -1.00577319e-01
   1.99526231e+02    2.00000000e-02   -7.97664256e-02   -1.10000000e-07   -7.97664256e-02   -1.10000000e-07   -7.97664256e-02    2.00000000e+02   -7.99645039e-02
   2.51188643e+02    2.00000000e-02   -6.33607240e-02   -1.10000000e-07   -6.33607240e-02   -1.10000000e-07   -6.33607240e-02    2.00000000e+02   -6.36100898e-02
   3.16227766e+02    2.00000000e-02   -5.03292121e-02   -1.10000000e-07   -5.03292121e-02   -1.10000000e-07   -5.03292121e-02    2.00000000e+02   -5.06431450e-02
   3.98107171e+02    2.00000000e-02   -3.99779142e-02   -1.10000000e-07   -3.99779142e-02   -1.10000000e-07   -3.99779142e-02    2.00000000e+02   -4.03731324e-02
   5.01187234e+02    2.00000000e-02   -3.17555860e-02   -1.10000000e-07   -3.17555860e-02   -1.10000000e-07   -3.17555860e-02    2.00000000e+02   -3.22531362e-02
   6.30957344e+02    2.00000000e-02   -2.52243586e-02   -1.10000000e-07   -2.52243586e-02   -1.10000000e-07   -2.52243586e-02    2.00000000e+02   -2.58507372e-02
   7.94328235e+02    2.00000000e-02   -2.00364202e-02   -1.10000000e-07   -2.00364202e-02   -1.10000000e-07   -2.00364202e-02    2.00000000e+02   -2.08249842e-02
   1.00000000e+03    2.00000000e-02   -1.59154943e-02   -1.10000000e-07   -1.59154943e-02   -1.10000000e-07   -1.59154943e-02    2.00000000e+02   -1.69082376e-02
   1.25892541e+03    2.00000000e-02   -1.26421265e-02   -1.10000000e-07   -1.26421265e-02   -1.10000000e-07   -1.26421265e-02    2.00000000e+02   -1.38919162e-02
   1.58489319e+03    2.00000000e-02   -1.00419980e-02   -1.10000000e-07   -1.00419980e-02   -1.10000000e-07   -1.00419980e-02    2.00000000e+02   -1.16153901e-02
   1.99526231e+03    2.00000000e-02   -7.97664256e-03   -1.10000000e-07   -7.97664256e-03   -1.10000000e-07   -7.97664256e-03    2.00000000e+02   -9.95742580e-03
   2.51188643e+03    2.00000000e-02   -6.33607240e-03   -1.10000000e-07   -6.33607240e-03   -1.10000000e-07   -6.33607240e-03    2.00000000e+02   -8.82973077e-03
   3.16227766e+03    2.00000000e-02   -5.03292121e-03   -1.10000000e-07   -5.03292120e-03   -1.10000000e-07   -5.03292120e-03    2.00000000e+02   -8.17225109e-03
   3.98107171e+03    2.00000000e-02   -3.99779142e-03   -1.10000000e-07   -3.99779141e-03   -1.10000000e-07   -3.99779141e-03    2.00000000e+02   -7.94997358e-03
   5.01187234e+03    2.00000000e-02   -3.17555860e-03   -1.10000000e-07   -3.17555860e-03   -1.10000000e-07   -3.17555860e-03    2.00000000e+02   -8.15106116e-03
   6.30957344e+03    2.00000000e-02   -2.52243586e-03   -1.10000000e-07   -2.52243585e-03   -1.10000000e-07   -2.52243585e-03    2.00000000e+02   -8.78622246e-03
   7.94328235e+03    2.00000000e-02   -2.00364202e-03   -1.10000000e-07   -2.00364202e-03   -1.10000000e-07   -2.00364202e-03    1.99999999e+02   -9.88928215e-03
   1.00000000e+04    2.00000000e-02   -1.59154943e-03   -1.09999999e-07   -1.59154942e-03   -1.09999999e-07   -1.59154942e-03    1.99999999e+02   -1.15189822e-02
   1.25892541e+04    2.00000000e-02   -1.26421265e-03   -1.09999999e-07   -1.26421264e-03   -1.09999999e-07   -1.26421264e-03    1.99999999e+02   -1.37621100e-02
   1.58489319e+04    2.00000000e-02   -1.00419980e-03   -1.09999999e-07   -1.00419979e-03   -1.09999999e-07   -1.00419979e-03    1.99999998e+02   -1.67381203e-02
   1.99526231e+04    2.00000000e-02   -7.97664256e-04   -1.09999998e-07   -7.97664243e-04   -1.09999998e-07   -7.97664243e-04    1.99999998e+02   -2.06054965e-02
   2.51188643e+04    2.00000000e-02   -6.33607240e-04   -1.09999997e-07   -6.33607224e-04   -1.09999997e-07   -6.33607224e-04    1.99999996e+02   -2.55701904e-02
   3.16227766e+04    2.00000000e-02   -5.03292121e-04   -1.09999996e-07   -5.03292100e-04   -1.09999996e-07   -5.03292100e-04    1.99999994e+02   -3.18965900e-02
   3.98107171e+04    2.00000000e-02   -3.99779142e-04   -1.09999994e-07   -3.99779116e-04   -1.09999994e-07   -3.99779116e-04    1.99999991e+02   -3.99215988e-02
   5.01187234e+04    2.00000000e-02   -3.17555860e-04   -1.09999990e-07   -3.17555827e-04   -1.09999990e-07   -3.17555827e-04    1.99999986e+02   -5.00725774e-02
   6.30957344e+04    2.00000000e-02   -2.52243586e-04   -1.09999985e-07   -2.52243545e-04   -1.09999985e-07   -2.52243545e-04    1.99999977e+02   -6.28901016e-02
   7.94328235e+04    2.00000000e-02   -2.00364202e-04   -1.09999976e-07   -2.00364150e-04   -1.09999976e-07   -2.00364150e-04    1.99999964e+02   -7.90567495e-02
   1.00000000e+05    2.00000000e-02   -1.59154943e-04   -1.09999962e-07   -1.59154878e-04   -1.09999962e-07   -1.59154878e-04    1.99999944e+02   -9.94334503e-02
