Index        TIME               V(VOUT)              V(IN)               V(1)        
0        0.0000000000e+00    5.3365340366e-01    3.2999656750e+00    3.3000000000e+00
1        7.5000000000e-09    5.3365340366e-01    3.2999656750e+00    3.3000000000e+00
2        2.2500000000e-08    5.3365340366e-01    3.2999656750e+00    3.3000000000e+00
3        5.2500000000e-08    5.3365340366e-01    3.2999656750e+00    3.3000000000e+00
4        1.1250000000e-07    5.3365340366e-01    3.2999656750e+00    3.3000000000e+00
5        2.3250000000e-07    5.3365340366e-01    3.2999656750e+00    3.3000000000e+00
6        3.8250000000e-07    5.3365340366e-01    3.2999656750e+00    3.3000000000e+00
7        5.3250000000e-07    5.3365340366e-01    3.2999656750e+00    3.3000000000e+00
8        6.8250000000e-07    5.3365340366e-01    3.2999656750e+00    3.3000000000e+00
9        8.3250000000e-07    5.3365340366e-01    3.2999656750e+00    3.3000000000e+00
10       9.8250000000e-07    5.3365340366e-01    3.2999656750e+00    3.3000000000e+00
11       1.1325000000e-06    5.3365340366e-01    3.2999656750e+00    3.3000000000e+00
12       1.2825000000e-06    5.3365340366e-01    3.2999656750e+00    3.3000000000e+00
13       1.4325000000e-06    5.3365340366e-01    3.2999656750e+00    3.3000000000e+00
14       1.5000000000e-06    5.3365340366e-01    3.2999656750e+00    3.3000000000e+00
15       1.5000078125e-06    5.3355126351e-01    3.2985767889e+00    3.2948437500e+00
16       1.5000155428e-06    5.3337487230e-01    3.2962059526e+00    3.2897417720e+00
17       1.5000232730e-06    5.3314308404e-01    3.2931054674e+00    3.2846397940e+00
18       1.5000310033e-06    5.3288842908e-01    3.2896974539e+00    3.2795378160e+00
19       1.5000464638e-06    5.3228148987e-01    3.2815293736e+00    3.2693338600e+00
20       1.5000619244e-06    5.3160460674e-01    3.2722865997e+00    3.2591299040e+00
21       1.5000773849e-06    5.3090787460e-01    3.2625495632e+00    3.2489259480e+00
22       1.5001083060e-06    5.2954444729e-01    3.2425486639e+00    3.2285180360e+00
23       1.5001392271e-06    5.2828664828e-01    3.2223252974e+00    3.2081101240e+00
24       1.5002010692e-06    5.2638466263e-01    3.1819646048e+00    3.1672942999e+00
25       1.5002629114e-06    5.2588502180e-01    3.1418962354e+00    3.1264784759e+00
26       1.5003247536e-06    5.2755813417e-01    3.1019797174e+00    3.0856626519e+00
27       1.5003865957e-06    5.3182386520e-01    3.0620232062e+00    3.0448468279e+00
28       1.5004484379e-06    5.3873379542e-01    3.0219524947e+00    3.0040310038e+00
29       1.5005102800e-06    5.4813614294e-01    2.9817671743e+00    2.9632151798e+00
30       1.5005721222e-06    5.5983074336e-01    2.9414891644e+00    2.9223993558e+00
31       1.5006339643e-06    5.7361728963e-01    2.9011367935e+00    2.8815835318e+00
32       1.5006958065e-06    5.8932732568e-01    2.8607247659e+00    2.8407677077e+00
33       1.5007576487e-06    6.0682706495e-01    2.8202630500e+00    2.7999518837e+00
34       1.5008194908e-06    6.2602447633e-01    2.7797597848e+00    2.7591360597e+00
35       1.5008813330e-06    6.4686602224e-01    2.7392209471e+00    2.7183202357e+00
36       1.5009431751e-06    6.6933805210e-01    2.6986514473e+00    2.6775044117e+00
37       1.5010050173e-06    6.9346457250e-01    2.6580546570e+00    2.6366885876e+00
38       1.5010668594e-06    7.1930883178e-01    2.6174328205e+00    2.5958727636e+00
39       1.5011287016e-06    7.4697378569e-01    2.5767867986e+00    2.5550569396e+00
40       1.5011905438e-06    7.7660468135e-01    2.5361163557e+00    2.5142411156e+00
41       1.5012523859e-06    8.0839027727e-01    2.4954202471e+00    2.4734252915e+00
42       1.5013142281e-06    8.4256289896e-01    2.4546968421e+00    2.4326094675e+00
43       1.5013760702e-06    8.7939309581e-01    2.4139451133e+00    2.3917936435e+00
44       1.5014379124e-06    9.1917550872e-01    2.3731664707e+00    2.3509778195e+00
45       1.5014997546e-06    9.6220017405e-01    2.3323671684e+00    2.3101619955e+00
46       1.5015615967e-06    1.0087068542e+00    2.2915604928e+00    2.2693461714e+00
47       1.5016234389e-06    1.0588273688e+00    2.2507664488e+00    2.2285303474e+00
48       1.5016852810e-06    1.1125346213e+00    2.2100065424e+00    2.1877145234e+00
49       1.5017471232e-06    1.1696236080e+00    2.1692948099e+00    2.1468986994e+00
50       1.5018089653e-06    1.2297379659e+00    2.1286305464e+00    2.1060828753e+00
51       1.5018708075e-06    1.2924287265e+00    2.0879986815e+00    2.0652670513e+00
52       1.5019326497e-06    1.3572155604e+00    2.0473776249e+00    2.0244512273e+00
53       1.5019944918e-06    1.4236306077e+00    2.0067476878e+00    1.9836354033e+00
54       1.5020563340e-06    1.4912423206e+00    1.9660951816e+00    1.9428195793e+00
55       1.5021800183e-06    1.6285094632e+00    1.8847057033e+00    1.8611879312e+00
56       1.5023037026e-06    1.7664455261e+00    1.8031693231e+00    1.7795562832e+00
57       1.5024221019e-06    1.8966031162e+00    1.7249997930e+00    1.7014127214e+00
58       1.5024813683e-06    1.9603975640e+00    1.6858271420e+00    1.6622969315e+00
59       1.5025406346e-06    2.0226463676e+00    1.6466223757e+00    1.6231811416e+00
60       1.5025926735e-06    2.0756920964e+00    1.6121682842e+00    1.5888355163e+00
61       1.5026387521e-06    2.1210855568e+00    1.5816362921e+00    1.5584235974e+00
62       1.5026797931e-06    2.1600349406e+00    1.5544247564e+00    1.5313365814e+00
63       1.5027167299e-06    2.1937304066e+00    1.5299225993e+00    1.5069582669e+00
64       1.5027499731e-06    2.2228485895e+00    1.5078634972e+00    1.4850177839e+00
65       1.5027798919e-06    2.2480118163e+00    1.4880067334e+00    1.4652713492e+00
66       1.5028098107e-06    2.2721293858e+00    1.4681506857e+00    1.4455249146e+00
67       1.5028397296e-06    2.2951874865e+00    1.4482973974e+00    1.4257784799e+00
68       1.5028666565e-06    2.3150437672e+00    1.4304315904e+00    1.4080066886e+00
69       1.5028935835e-06    2.3342098860e+00    1.4125606564e+00    1.3902348974e+00
70       1.5029474374e-06    2.3696871665e+00    1.3768220036e+00    1.3546913150e+00
71       1.5030012913e-06    2.4020911743e+00    1.3411493100e+00    1.3191477325e+00
72       1.5030551452e-06    2.4316660381e+00    1.3054954501e+00    1.2836041501e+00
73       1.5031089991e-06    2.4588257667e+00    1.2698677648e+00    1.2480605676e+00
74       1.5031628531e-06    2.4838718387e+00    1.2342523124e+00    1.2125169852e+00
75       1.5032167070e-06    2.5071356843e+00    1.1986500826e+00    1.1769734027e+00
76       1.5032705609e-06    2.5288742486e+00    1.1630540409e+00    1.1414298203e+00
77       1.5033244148e-06    2.5493282976e+00    1.1274637346e+00    1.1058862378e+00
78       1.5033782687e-06    2.5686881575e+00    1.0918758285e+00    1.0703426554e+00
79       1.5034321226e-06    2.5871218509e+00    1.0562899079e+00    1.0347990729e+00
80       1.5035398304e-06    2.6217352529e+00    9.8511890499e-01    9.6371190804e-01
81       1.5036475383e-06    2.6540008929e+00    9.1394360045e-01    8.9262474315e-01
82       1.5037552461e-06    2.6845117258e+00    8.4276083785e-01    8.2153757825e-01
83       1.5038629539e-06    2.7136433610e+00    7.7156221621e-01    7.5045041336e-01
84       1.5039706617e-06    2.7416337390e+00    7.0034215936e-01    6.7936324846e-01
85       1.5040783696e-06    2.7685742359e+00    6.2908825725e-01    6.0827608356e-01
86       1.5041860774e-06    2.7944352036e+00    5.5778686973e-01    5.3718891867e-01
87       1.5042937852e-06    2.8190301258e+00    4.8641487705e-01    4.6610175377e-01
88       1.5044014930e-06    2.8419861456e+00    4.1494234240e-01    3.9501458888e-01
89       1.5045092009e-06    2.8626366291e+00    3.4332838825e-01    3.2392742398e-01
90       1.5046169087e-06    2.8799183522e+00    2.7152529887e-01    2.5284025909e-01
91       1.5047246165e-06    2.8923937333e+00    1.9945159188e-01    1.8175309419e-01
92       1.5048323243e-06    2.8986931961e+00    1.2695945000e-01    1.1066592930e-01
93       1.5049292614e-06    2.8992395136e+00    6.1478484643e-02    4.6687480890e-02
94       1.5050000000e-06    2.8978160836e+00    1.4137699359e-02    3.1974423109e-14
95       1.5050047157e-06    2.8977264488e+00    1.1575470644e-02    0.0000000000e+00
96       1.5050084399e-06    2.8976670932e+00    9.8529929172e-03    0.0000000000e+00
97       1.5050121641e-06    2.8976126148e+00    8.2686138095e-03    0.0000000000e+00
98       1.5050196124e-06    2.8975276879e+00    5.8080790317e-03    0.0000000000e+00
99       1.5050270607e-06    2.8974671302e+00    4.0815346402e-03    0.0000000000e+00
100      1.5050419573e-06    2.8973917905e+00    1.9746639885e-03    0.0000000000e+00
101      1.5050717506e-06    2.8973332386e+00    3.7125807254e-04    0.0000000000e+00
102      1.5051313372e-06    2.8973187119e+00   -2.2174850836e-05    0.0000000000e+00
103      1.5051849651e-06    2.8973210906e+00    4.1764006823e-05    0.0000000000e+00
104      1.5052385931e-06    2.8973207966e+00    3.4185157516e-05    0.0000000000e+00
105      1.5053458489e-06    2.8973208507e+00    3.5340886796e-05    0.0000000000e+00
106      1.5055603606e-06    2.8973208188e+00    3.4753822193e-05    0.0000000000e+00
107      1.5059893839e-06    2.8973208444e+00    3.5183960166e-05    0.0000000000e+00
108      1.5068474306e-06    2.8973208213e+00    3.4813890712e-05    0.0000000000e+00
109      1.5085635240e-06    2.8973208433e+00    3.5157529914e-05    0.0000000000e+00
110      1.5119957109e-06    2.8973208218e+00    3.4826303459e-05    0.0000000000e+00
111      1.5188600845e-06    2.8973208430e+00    3.5151513090e-05    0.0000000000e+00
112      1.5325888318e-06    2.8973208220e+00    3.4829265792e-05    0.0000000000e+00
113      1.5600463265e-06    2.8973208430e+00    3.5150043284e-05    0.0000000000e+00
114      1.6149613157e-06    2.8973208220e+00    3.4829997874e-05    0.0000000000e+00
115      1.7247912943e-06    2.8973208429e+00    3.5149677946e-05    0.0000000000e+00
116      1.9444512513e-06    2.8973208220e+00    3.4830180368e-05    0.0000000000e+00
117      2.2454512513e-06    2.8973208429e+00    3.5149572777e-05    0.0000000000e+00
118      2.5464512513e-06    2.8973208220e+00    3.4830269078e-05    0.0000000000e+00
119      2.8474512513e-06    2.8973208429e+00    3.5149484092e-05    0.0000000000e+00
120      3.0050000000e-06    2.8973208220e+00    3.4830398084e-05    0.0000000000e+00
121      3.0050078125e-06    2.8973919454e+00    1.4317224287e-03    5.1562500001e-03
122      3.0050155554e-06    2.8975049912e+00    3.8156376200e-03    1.0266581668e-02
123      3.0050232984e-06    2.8976452248e+00    6.9282895262e-03    1.5376913336e-02
124      3.0050310413e-06    2.8977952933e+00    1.0346181440e-02    2.0487245004e-02
125      3.0050465271e-06    2.8981319738e+00    1.8524090409e-02    3.0707908340e-02
126      3.0050620130e-06    2.8984831714e+00    2.7761349278e-02    4.0928571676e-02
127      3.0050929847e-06    2.8991253136e+00    4.7365335538e-02    6.1369898348e-02
128      3.0051239564e-06    2.8996063775e+00    6.7465598205e-02    8.1811225020e-02
129      3.0051858998e-06    2.8997464132e+00    1.0765754181e-01    1.2269387836e-01
130      3.0052478432e-06    2.8983072814e+00    1.4767722426e-01    1.6357653171e-01
131      3.0053097866e-06    2.8948886061e+00    1.8771639812e-01    2.0445918505e-01
132      3.0053717301e-06    2.8894572539e+00    2.2787584228e-01    2.4534183840e-01
133      3.0054336735e-06    2.8821685975e+00    2.6815365646e-01    2.8622449174e-01
134      3.0054956169e-06    2.8732806816e+00    3.0853035806e-01    3.2710714508e-01
135      3.0055575603e-06    2.8630521361e+00    3.4898390040e-01    3.6798979843e-01
136      3.0056195037e-06    2.8517318443e+00    3.8950263303e-01    4.0887245177e-01
137      3.0056814471e-06    2.8395219876e+00    4.3007618399e-01    4.4975510512e-01
138      3.0058053340e-06    2.8130651480e+00    5.1134754769e-01    5.3152041180e-01
139      3.0060531076e-06    2.7544718548e+00    6.7426064503e-01    6.9505102518e-01
140      3.0063008813e-06    2.6900115643e+00    8.3749684136e-01    8.5858163856e-01
141      3.0065486549e-06    2.6183922504e+00    1.0007904701e+00    1.0221122519e+00
142      3.0065847852e-06    2.6070644263e+00    1.0246195921e+00    1.0459582154e+00
143      3.0066209154e-06    2.5954862119e+00    1.0484398454e+00    1.0698041789e+00
144      3.0066931759e-06    2.5712609589e+00    1.0960706433e+00    1.1174961059e+00
145      3.0067654364e-06    2.5454808318e+00    1.1437119803e+00    1.1651880328e+00
146      3.0068376969e-06    2.5177152358e+00    1.1913451185e+00    1.2128799598e+00
147      3.0069099574e-06    2.4875438990e+00    1.2389783092e+00    1.2605718867e+00
148      3.0069822179e-06    2.4543646515e+00    1.2865977513e+00    1.3082638137e+00
149      3.0070544784e-06    2.4175398602e+00    1.3342020312e+00    1.3559557406e+00
150      3.0071267389e-06    2.3763245134e+00    1.3817759172e+00    1.4036476676e+00
151      3.0071989994e-06    2.3300358437e+00    1.4293116194e+00    1.4513395946e+00
152      3.0072712599e-06    2.2781372784e+00    1.4768006698e+00    1.4990315215e+00
153      3.0073435204e-06    2.2204444032e+00    1.5242505487e+00    1.5467234485e+00
154      3.0074157809e-06    2.1571908031e+00    1.5716802597e+00    1.5944153754e+00
155      3.0074880414e-06    2.0890111830e+00    1.6191182033e+00    1.6421073024e+00
156      3.0075603019e-06    2.0167694830e+00    1.6665881638e+00    1.6897992294e+00
157      3.0076325624e-06    1.9413833584e+00    1.7141047902e+00    1.7374911563e+00
158      3.0077048229e-06    1.8636883878e+00    1.7616727453e+00    1.7851830833e+00
159      3.0077770833e-06    1.7843916304e+00    1.8092915719e+00    1.8328750102e+00
160      3.0078493438e-06    1.7040786013e+00    1.8569590858e+00    1.8805669372e+00
161      3.0079938648e-06    1.5424614499e+00    1.9524217516e+00    1.9759507911e+00
162      3.0081383858e-06    1.3827919990e+00    2.0480911199e+00    2.0713346450e+00
163      3.0081638222e-06    1.3552897638e+00    2.0649381550e+00    2.0881226760e+00
164      3.0081892586e-06    1.3279680871e+00    2.0818047686e+00    2.1049107069e+00
165      3.0082401315e-06    1.2743338722e+00    2.1155416330e+00    2.1384867689e+00
166      3.0082910043e-06    1.2221920604e+00    2.1492715490e+00    2.1720628308e+00
167      3.0083418771e-06    1.1718744441e+00    2.1829924534e+00    2.2056388927e+00
168      3.0083927499e-06    1.1236744463e+00    2.2166909412e+00    2.2392149546e+00
169      3.0084436228e-06    1.0778464042e+00    2.2503592098e+00    2.2727910165e+00
170      3.0084944956e-06    1.0345486925e+00    2.2839943250e+00    2.3063670784e+00
171      3.0085453684e-06    9.9383938906e-01    2.3176018971e+00    2.3399431403e+00
172      3.0085962412e-06    9.5567747942e-01    2.3511925599e+00    2.3735192023e+00
173      3.0086471140e-06    9.1994953490e-01    2.3847787550e+00    2.4070952642e+00
174      3.0086979869e-06    8.8649696939e-01    2.4183711960e+00    2.4406713261e+00
175      3.0087488597e-06    8.5514236107e-01    2.4519774446e+00    2.4742473880e+00
176      3.0087997325e-06    8.2570758139e-01    2.4856016856e+00    2.5078234499e+00
177      3.0088506053e-06    7.9802571779e-01    2.5192455271e+00    2.5413995118e+00
178      3.0089014781e-06    7.7194732700e-01    2.5529089441e+00    2.5749755737e+00
179      3.0089523510e-06    7.4734341242e-01    2.5865911636e+00    2.6085516356e+00
180      3.0090032238e-06    7.2410620451e-01    2.6202912661e+00    2.6421276976e+00
181      3.0090540966e-06    7.0214893554e-01    2.6540085841e+00    2.6757037595e+00
182      3.0091049694e-06    6.8140512298e-01    2.6877429199e+00    2.7092798214e+00
183      3.0091558422e-06    6.6182784387e-01    2.7214946685e+00    2.7428558833e+00
184      3.0092067151e-06    6.4338919680e-01    2.7552648770e+00    2.7764319452e+00
185      3.0092575879e-06    6.2608012676e-01    2.7890552807e+00    2.8100080071e+00
186      3.0093084607e-06    6.0991064906e-01    2.8228683345e+00    2.8435840690e+00
187      3.0093593335e-06    5.9491044649e-01    2.8567072594e+00    2.8771601309e+00
188      3.0094102064e-06    5.8112966254e-01    2.8905761316e+00    2.9107361929e+00
189      3.0094610792e-06    5.6863957523e-01    2.9244800888e+00    2.9443122548e+00
190      3.0095119520e-06    5.5753269735e-01    2.9584257524e+00    2.9778883167e+00
191      3.0095628248e-06    5.4792169564e-01    2.9924219731e+00    3.0114643786e+00
192      3.0096136976e-06    5.3993600545e-01    3.0264808802e+00    3.0450404405e+00
193      3.0096645705e-06    5.3371313066e-01    3.0606186041e+00    3.0786165024e+00
194      3.0097154433e-06    5.2937589538e-01    3.0948528431e+00    3.1121925643e+00
195      3.0097663161e-06    5.2697564388e-01    3.1291888112e+00    3.1457686262e+00
196      3.0098171889e-06    5.2638520927e-01    3.1635817658e+00    3.1793446882e+00
197      3.0098680617e-06    5.2721608570e-01    3.1979024555e+00    3.2129207501e+00
198      3.0099189346e-06    5.2893821764e-01    3.2320081712e+00    3.2464968120e+00
199      3.0100000000e-06    5.3257210351e-01    3.2859359836e+00    3.3000000000e+00
200      3.0100048732e-06    5.3277020192e-01    3.2885575515e+00    3.3000000000e+00
201      3.0100086936e-06    5.3290258286e-01    3.2902997362e+00    3.3000000000e+00
202      3.0100125141e-06    5.3302446616e-01    3.2918983684e+00    3.3000000000e+00
203      3.0100201549e-06    5.3321418747e-01    3.2943641286e+00    3.3000000000e+00
204      3.0100277958e-06    5.3334735242e-01    3.2960770452e+00    3.3000000000e+00
205      3.0100430776e-06    5.3350905155e-01    3.2981405694e+00    3.3000000000e+00
206      3.0100736412e-06    5.3363007131e-01    3.2996718093e+00    3.3000000000e+00
207      3.0101347684e-06    5.3365766954e-01    3.3000192225e+00    3.3000000000e+00
208      3.0101897828e-06    5.3365283611e-01    3.2999586645e+00    3.3000000000e+00
209      3.0102447972e-06    5.3365347993e-01    3.2999665931e+00    3.3000000000e+00
210      3.0103548261e-06    5.3365336672e-01    3.2999652654e+00    3.3000000000e+00
211      3.0105748839e-06    5.3365342963e-01    3.2999659530e+00    3.3000000000e+00
212      3.0110149994e-06    5.3365338172e-01    3.2999654454e+00    3.3000000000e+00
213      3.0118952304e-06    5.3365342385e-01    3.2999658836e+00    3.3000000000e+00
214      3.0136556925e-06    5.3365338429e-01    3.2999654760e+00    3.3000000000e+00
215      3.0171766166e-06    5.3365342264e-01    3.2999658692e+00    3.3000000000e+00
216      3.0242184649e-06    5.3365338488e-01    3.2999654830e+00    3.3000000000e+00
217      3.0383021613e-06    5.3365342235e-01    3.2999658657e+00    3.3000000000e+00
218      3.0664695543e-06    5.3365338502e-01    3.2999654847e+00    3.3000000000e+00
219      3.1228043403e-06    5.3365342227e-01    3.2999658649e+00    3.3000000000e+00
220      3.2354739122e-06    5.3365338506e-01    3.2999654852e+00    3.3000000000e+00
221      3.4608130560e-06    5.3365342226e-01    3.2999658647e+00    3.3000000000e+00
222      3.7618130560e-06    5.3365338507e-01    3.2999654853e+00    3.3000000000e+00
223      4.0628130560e-06    5.3365342225e-01    3.2999658646e+00    3.3000000000e+00
224      4.3638130560e-06    5.3365338508e-01    3.2999654854e+00    3.3000000000e+00
225      4.5100000000e-06    5.3365342223e-01    3.2999658644e+00    3.3000000000e+00
226      4.5100078125e-06    5.3355127589e-01    3.2985769266e+00    3.2948437500e+00
227      4.5100155428e-06    5.3337487922e-01    3.2962060314e+00    3.2897417362e+00
228      4.5100232731e-06    5.3314308624e-01    3.2931054900e+00    3.2846397224e+00
229      4.5100310035e-06    5.3288842686e-01    3.2896974216e+00    3.2795377086e+00
230      4.5100464641e-06    5.3228148005e-01    3.2815292401e+00    3.2693336810e+00
