Index        TIME          {V(4)+1.0}          V(5)          {V(1)+1.0}
0       0.00000000e+00   5.99999936e+00   6.34691219e-01   1.03174088e+00   
1       5.00000000e-10   5.99999935e+00   6.34691377e-01   1.03188562e+00   
2       1.50000000e-09   5.99999917e+00   6.34692820e-01   1.03251013e+00   
3       3.50000000e-09   5.99999854e+00   6.34698878e-01   1.03445072e+00   
4       7.50000000e-09   5.99999626e+00   6.34739707e-01   1.04292315e+00   
5       1.55000000e-08   5.99998881e+00   6.34972978e-01   1.09184603e+00   
6       2.35000000e-08   5.99997430e+00   6.35330652e-01   1.21416017e+00   
7       3.15000000e-08   5.99996645e+00   6.35713290e-01   1.39219604e+00   
8       3.95000000e-08   5.99996663e+00   6.36100389e-01   1.62074429e+00   
9       4.75000000e-08   5.99996524e+00   6.36490257e-01   1.89557082e+00   
10      5.55000000e-08   5.99996958e+00   6.36881908e-01   2.21140605e+00   
11      6.35000000e-08   5.99997423e+00   6.37274379e-01   2.56164403e+00   
12      7.15000000e-08   5.99998235e+00   6.37667048e-01   2.93972258e+00   
13      7.95000000e-08   5.99999458e+00   6.38059224e-01   3.33813399e+00   
14      8.67000000e-08   6.00001003e+00   6.38411448e-01   3.70886520e+00   
15      9.39000000e-08   6.00002546e+00   6.38762775e-01   4.08758264e+00   
16      1.00000000e-07   6.00003577e+00   6.39059761e-01   4.41344531e+00   
17      1.00720000e-07   6.00003712e+00   6.39094672e-01   4.45105528e+00   
18      1.01270603e-07   6.00003830e+00   6.39121317e-01   4.47931845e+00   
19      1.02371808e-07   6.00004111e+00   6.39174500e-01   4.53491259e+00   
20      1.04574219e-07   6.00004880e+00   6.39280256e-01   4.64032039e+00   
21      1.08979040e-07   6.00006546e+00   6.39489585e-01   4.83000114e+00   
22      1.13383862e-07   6.00007808e+00   6.39696349e-01   4.99406559e+00   
23      1.17788683e-07   6.00008547e+00   6.39900938e-01   5.13573862e+00   
24      1.22193505e-07   6.00008898e+00   6.40103676e-01   5.25789809e+00   
25      1.26598327e-07   6.00008982e+00   6.40304838e-01   5.36310194e+00   
26      1.35407970e-07   6.00008708e+00   6.40703403e-01   5.53230618e+00   
27      1.44217613e-07   6.00008123e+00   6.41097977e-01   5.65690455e+00   
28      1.53027256e-07   6.00007494e+00   6.41489638e-01   5.74841654e+00   
29      1.61836899e-07   6.00006974e+00   6.41879157e-01   5.81536589e+00   
30      1.70646542e-07   6.00006545e+00   6.42267099e-01   5.86418302e+00   
31      1.88265828e-07   6.00005778e+00   6.43039947e-01   5.92703688e+00   
32      2.05885114e-07   6.00005166e+00   6.43810180e-01   5.96032037e+00   
33      2.23504400e-07   6.00004750e+00   6.44578998e-01   5.97827200e+00   
34      2.58742973e-07   6.00004305e+00   6.46114585e-01   5.99439965e+00   
35      2.93981545e-07   6.00004149e+00   6.47648662e-01   5.99886968e+00   
36      3.64458690e-07   6.00004025e+00   6.50714620e-01   6.00088388e+00   
37      4.34935834e-07   6.00003939e+00   6.53778249e-01   6.00084789e+00   
38      5.75890123e-07   6.00003702e+00   6.59899039e-01   6.00085206e+00   
39      7.16844413e-07   6.00003452e+00   6.66011208e-01   6.00085208e+00   
40      9.98752991e-07   6.00002975e+00   6.78209740e-01   6.00086703e+00   
41      1.56257015e-06   6.00002183e+00   7.02503943e-01   6.00089405e+00   
42      2.69020446e-06   6.00001113e+00   7.50683771e-01   6.00071494e+00   
43      3.81783878e-06   6.00000516e+00   7.98323403e-01   6.00015249e+00   
44      4.82072728e-06   6.00000200e+00   8.40243881e-01   6.00036041e+00   
45      5.82361578e-06   6.00000033e+00   8.81746083e-01   6.00034028e+00   
46      6.82650428e-06   5.99999916e+00   9.22834199e-01   6.00029070e+00   
47      7.82939278e-06   5.99999864e+00   9.63512375e-01   6.00037961e+00   
48      8.83228128e-06   5.99999823e+00   1.00378467e+00   6.00028369e+00   
49      1.08380583e-05   5.99999798e+00   1.08312983e+00   6.00037420e+00   
50      1.28438353e-05   5.99999794e+00   1.16089951e+00   6.00028085e+00   
51      1.68553893e-05   5.99999806e+00   1.31185188e+00   6.00035661e+00   
52      2.48784973e-05   5.99999833e+00   1.59629292e+00   6.00025501e+00   
53      3.29016053e-05   5.99999856e+00   1.85879564e+00   6.00031900e+00   
54      4.09247133e-05   5.99999862e+00   2.10104928e+00   6.00022232e+00   
55      4.21790654e-05   5.99999871e+00   2.13695364e+00   6.00025781e+00   
56      4.34334176e-05   5.99999864e+00   2.17263407e+00   6.00025852e+00   
57      4.59421218e-05   5.99999875e+00   2.24266820e+00   6.00025050e+00   
58      4.84508261e-05   5.99999872e+00   2.31096761e+00   6.00024871e+00   
59      5.09595304e-05   5.99999880e+00   2.37757644e+00   6.00024105e+00   
60      5.34682346e-05   5.99999877e+00   2.44253530e+00   6.00023917e+00   
61      5.59769389e-05   5.99999884e+00   2.50588461e+00   6.00023196e+00   
62      5.84856432e-05   5.99999882e+00   2.56766449e+00   6.00022994e+00   
63      6.35030517e-05   5.99999890e+00   2.68668863e+00   6.00021883e+00   
64      6.85204602e-05   5.99999890e+00   2.79988753e+00   6.00021263e+00   
65      7.85204602e-05   5.99999899e+00   3.00936738e+00   6.00019448e+00   
66      8.01000000e-05   5.99999900e+00   3.04055504e+00   6.00019388e+00   
67      8.01029499e-05   6.00000310e+00   3.04061130e+00   5.98500533e+00   
68      8.01054705e-05   6.00000817e+00   3.04065837e+00   5.96239027e+00   
69      8.01079910e-05   6.00001356e+00   3.04070497e+00   5.93525026e+00   
70      8.01130320e-05   6.00002297e+00   3.04079559e+00   5.85642089e+00   
71      8.01180731e-05   6.00002786e+00   3.04088319e+00   5.74977346e+00   
72      8.01231141e-05   6.00002882e+00   3.04096823e+00   5.62082278e+00   
73      8.01331962e-05   6.00002541e+00   3.04113204e+00   5.31413530e+00   
74      8.01432782e-05   6.00001939e+00   3.04128863e+00   4.96148059e+00   
75      8.01533603e-05   6.00001398e+00   3.04143871e+00   4.58182843e+00   
76      8.01735245e-05   6.00000615e+00   3.04171672e+00   3.79782769e+00   
77      8.01821222e-05   6.00000084e+00   3.04174580e+00   3.48191491e+00   
78      8.01832904e-05   5.99999473e+00   3.04173248e+00   3.45757904e+00   
79      8.01844587e-05   5.99998547e+00   3.04170792e+00   3.44022103e+00   
80      8.01867952e-05   5.99996123e+00   3.04158515e+00   3.41650180e+00   
81      8.01891316e-05   5.99994651e+00   3.04134964e+00   3.39945051e+00   
82      8.01938046e-05   5.99993721e+00   3.04048566e+00   3.37350886e+00   
83      8.01984776e-05   5.99993228e+00   3.03905176e+00   3.35177836e+00   
84      8.02000000e-05   5.99993006e+00   3.03845432e+00   3.34520760e+00   
85      8.02004673e-05   5.99992900e+00   3.03825465e+00   3.34325583e+00   
86      8.02014019e-05   5.99992665e+00   3.03783110e+00   3.33950051e+00   
87      8.02032711e-05   5.99992136e+00   3.03693625e+00   3.33229268e+00   
88      8.02070095e-05   5.99990748e+00   3.03486914e+00   3.31896132e+00   
89      8.02144862e-05   5.99986958e+00   3.02971869e+00   3.29537789e+00   
90      8.02294397e-05   5.99976765e+00   3.01608664e+00   3.25596225e+00   
91      8.02593467e-05   5.99953542e+00   2.98026162e+00   3.19394155e+00   
92      8.02892538e-05   5.99933231e+00   2.93838948e+00   3.14356343e+00   
93      8.03191608e-05   5.99918996e+00   2.89464542e+00   3.09802633e+00   
94      8.03789748e-05   5.99904963e+00   2.80701470e+00   3.01187984e+00   
95      8.04328075e-05   5.99901844e+00   2.72954487e+00   2.93729618e+00   
96      8.04866401e-05   5.99902381e+00   2.65398831e+00   2.86483959e+00   
97      8.05404727e-05   5.99904903e+00   2.58041948e+00   2.79443045e+00   
98      8.05943054e-05   5.99908205e+00   2.50883715e+00   2.72598233e+00   
99      8.07019707e-05   5.99915133e+00   2.37150229e+00   2.59484616e+00   
100     8.08096359e-05   5.99922416e+00   2.24172781e+00   2.47110364e+00   
101     8.09065347e-05   5.99929938e+00   2.13120861e+00   2.36600491e+00   
102     8.10034334e-05   5.99937060e+00   2.02653031e+00   2.26672965e+00   
103     8.11003322e-05   5.99943503e+00   1.92755160e+00   2.17307381e+00   
104     8.11972309e-05   5.99949833e+00   1.83410083e+00   2.08487606e+00   
105     8.12941297e-05   5.99955807e+00   1.74600427e+00   2.00194941e+00   
106     8.13910284e-05   5.99961478e+00   1.66307849e+00   1.92410593e+00   
107     8.15848259e-05   5.99971964e+00   1.51189663e+00   1.78281914e+00   
108     8.17786234e-05   5.99981278e+00   1.37921411e+00   1.65974634e+00   
109     8.19724209e-05   5.99989635e+00   1.26367586e+00   1.55355146e+00   
110     8.21662184e-05   5.99996878e+00   1.16388035e+00   1.46276237e+00   
111     8.23600159e-05   6.00003183e+00   1.07834026e+00   1.38584256e+00   
112     8.25538134e-05   6.00008388e+00   1.00555638e+00   1.32127823e+00   
113     8.27476109e-05   6.00012736e+00   9.44058183e-01   1.26756979e+00   
114     8.31352059e-05   6.00018672e+00   8.48754280e-01   1.18657079e+00   
115     8.35228009e-05   6.00021819e+00   7.82944744e-01   1.13316393e+00   
116     8.39103959e-05   6.00022519e+00   7.38039353e-01   1.09866251e+00   
117     8.42979909e-05   6.00021803e+00   7.07441562e-01   1.07653883e+00   
118     8.50731809e-05   6.00018160e+00   6.70949963e-01   1.05232485e+00   
119     8.58483709e-05   6.00013910e+00   6.53498976e-01   1.04189607e+00   
120     8.73987509e-05   6.00007166e+00   6.39233220e-01   1.03407830e+00   
121     8.89491309e-05   6.00003437e+00   6.35867393e-01   1.03233706e+00   
122     9.20498908e-05   6.00000447e+00   6.34600656e-01   1.03169636e+00   
123     9.51506508e-05   6.00000027e+00   6.34697994e-01   1.03174302e+00   
124     1.00000000e-04   5.99999907e+00   6.34689293e-01   1.03174120e+00   
125     1.00003143e-04   5.99999819e+00   6.34707665e-01   1.03541889e+00   
126     1.00005717e-04   5.99999715e+00   6.34741700e-01   1.04096132e+00   
127     1.00010865e-04   5.99999406e+00   6.34853543e-01   1.05983862e+00   
128     1.00021161e-04   5.99997931e+00   6.35251143e-01   1.17622243e+00   
129     1.00030388e-04   5.99996741e+00   6.35690330e-01   1.36852298e+00   
130     1.00039616e-04   5.99996580e+00   6.36136327e-01   1.62788338e+00   
131     1.00048844e-04   5.99996602e+00   6.36586141e-01   1.94901331e+00   
132     1.00058071e-04   5.99996981e+00   6.37038101e-01   2.32325297e+00   
133     1.00067299e-04   5.99997635e+00   6.37490940e-01   2.74085164e+00   
134     1.00076527e-04   5.99998380e+00   6.37943730e-01   3.19199473e+00   
135     1.00085755e-04   5.99999248e+00   6.38395780e-01   3.66751536e+00   
136     1.00100000e-04   6.00000632e+00   6.39091138e-01   4.43096862e+00   
137     1.00100950e-04   6.00000788e+00   6.39137248e-01   4.48093413e+00   
138     1.00101765e-04   6.00000972e+00   6.39176628e-01   4.52263612e+00   
139     1.00103393e-04   6.00001435e+00   6.39255158e-01   4.60401195e+00   
140     1.00106650e-04   6.00002730e+00   6.39410921e-01   4.75433625e+00   
141     1.00109907e-04   6.00004176e+00   6.39565105e-01   4.88910487e+00   
142     1.00113164e-04   6.00005527e+00   6.39717880e-01   5.00960899e+00   
143     1.00116421e-04   6.00006714e+00   6.39869399e-01   5.11712568e+00   
144     1.00122935e-04   6.00008423e+00   6.40169294e-01   5.29891581e+00   
145     1.00129448e-04   6.00009261e+00   6.40465708e-01   5.44298682e+00   
146     1.00135962e-04   6.00009445e+00   6.40759423e-01   5.55720223e+00   
147     1.00142476e-04   6.00009248e+00   6.41051037e-01   5.64782435e+00   
148     1.00148990e-04   6.00008858e+00   6.41341008e-01   5.71978740e+00   
149     1.00162018e-04   6.00007918e+00   6.41917443e-01   5.82359775e+00   
150     1.00175045e-04   6.00007016e+00   6.42490526e-01   5.88887072e+00   
151     1.00188073e-04   6.00006297e+00   6.43061503e-01   5.93003255e+00   
152     1.00214128e-04   6.00005350e+00   6.44200023e-01   5.97397038e+00   
153     1.00240183e-04   6.00004848e+00   6.45335970e-01   5.99058748e+00   
154     1.00266239e-04   6.00004617e+00   6.46470747e-01   5.99667549e+00   
155     1.00292294e-04   6.00004475e+00   6.47604886e-01   5.99864543e+00   
156     1.00318349e-04   6.00004330e+00   6.48738617e-01   5.99925552e+00   
157     1.00370460e-04   6.00004115e+00   6.51005129e-01   5.99970569e+00   
158     1.00422570e-04   6.00003978e+00   6.53270438e-01   5.99989454e+00   
159     1.00526791e-04   6.00003773e+00   6.57797503e-01   6.00009065e+00   
160     1.00735233e-04   6.00003410e+00   6.66837469e-01   6.00019515e+00   
161     1.01152117e-04   6.00002732e+00   6.84860982e-01   6.00023077e+00   
162     1.01985886e-04   6.00001704e+00   7.20683558e-01   6.00025459e+00   
163     1.02819654e-04   6.00001030e+00   7.56208739e-01   6.00028053e+00   
164     1.03653423e-04   6.00000587e+00   7.91438994e-01   6.00029921e+00   
165     1.04487191e-04   6.00000299e+00   8.26376771e-01   6.00031324e+00   
166     1.06154728e-04   5.99999980e+00   8.95385774e-01   6.00032754e+00   
167     1.09489801e-04   5.99999789e+00   1.03000863e+00   6.00033097e+00   
168     1.12824875e-04   5.99999792e+00   1.16021597e+00   6.00032319e+00   
169     1.19495022e-04   5.99999813e+00   1.40802529e+00   6.00030767e+00   
170     1.26165169e-04   5.99999844e+00   1.63984097e+00   6.00029238e+00   
171     1.32835316e-04   5.99999846e+00   1.85669523e+00   6.00027819e+00   
172     1.42835316e-04   5.99999873e+00   2.15600233e+00   6.00025774e+00   
173     1.52835316e-04   5.99999876e+00   2.42680766e+00   6.00023873e+00   
174     1.62835316e-04   5.99999891e+00   2.67182479e+00   6.00022090e+00   
175     1.64465980e-04   5.99999892e+00   2.70917233e+00   6.00021761e+00   
176     1.67727309e-04   5.99999888e+00   2.78266864e+00   6.00021303e+00   
177     1.68860325e-04   5.99999893e+00   2.80750401e+00   6.00021042e+00   
178     1.69993342e-04   5.99999891e+00   2.83219939e+00   6.00020910e+00   
179     1.72259375e-04   5.99999895e+00   2.88075961e+00   6.00020492e+00   
180     1.74525408e-04   5.99999895e+00   2.92823093e+00   6.00020177e+00   
181     1.76791440e-04   5.99999898e+00   2.97463820e+00   6.00019776e+00   
182     1.80100000e-04   5.99999898e+00   3.04054009e+00   6.00019310e+00   
183     1.80102950e-04   6.00000309e+00   3.04059635e+00   5.98500474e+00   
184     1.80105470e-04   6.00000816e+00   3.04064342e+00   5.96238990e+00   
185     1.80107991e-04   6.00001355e+00   3.04069003e+00   5.93525015e+00   
186     1.80113032e-04   6.00002296e+00   3.04078065e+00   5.85642151e+00   
187     1.80118073e-04   6.00002786e+00   3.04086825e+00   5.74977501e+00   
188     1.80123114e-04   6.00002882e+00   3.04095329e+00   5.62082540e+00   
189     1.80133196e-04   6.00002541e+00   3.04111712e+00   5.31414027e+00   
190     1.80143278e-04   6.00001939e+00   3.04127371e+00   4.96148798e+00   
191     1.80153360e-04   6.00001398e+00   3.04142381e+00   4.58183808e+00   
192     1.80173524e-04   6.00000615e+00   3.04170183e+00   3.79784008e+00   
193     1.80182122e-04   6.00000084e+00   3.04173096e+00   3.48191357e+00   
194     1.80183291e-04   5.99999473e+00   3.04171765e+00   3.45757392e+00   
195     1.80184459e-04   5.99998547e+00   3.04169309e+00   3.44021339e+00   
196     1.80186795e-04   5.99996122e+00   3.04157036e+00   3.41649168e+00   
197     1.80189132e-04   5.99994650e+00   3.04133487e+00   3.39943935e+00   
198     1.80193805e-04   5.99993720e+00   3.04047097e+00   3.37349687e+00   
199     1.80198478e-04   5.99993226e+00   3.03903715e+00   3.35176608e+00   
200     1.80200000e-04   5.99993005e+00   3.03843976e+00   3.34519544e+00   
201     1.80200467e-04   5.99992898e+00   3.03824010e+00   3.34324366e+00   
202     1.80201402e-04   5.99992664e+00   3.03781657e+00   3.33948831e+00   
203     1.80203271e-04   5.99992135e+00   3.03692176e+00   3.33228045e+00   
204     1.80207009e-04   5.99990747e+00   3.03485473e+00   3.31894905e+00   
205     1.80214486e-04   5.99986957e+00   3.02970446e+00   3.29536562e+00   
206     1.80229440e-04   5.99976763e+00   3.01607278e+00   3.25595004e+00   
207     1.80259346e-04   5.99953538e+00   2.98024841e+00   3.19392950e+00   
208     1.80289253e-04   5.99933222e+00   2.93837675e+00   3.14355149e+00   
209     1.80349067e-04   5.99909556e+00   2.85084261e+00   3.05412455e+00   
210     1.80408881e-04   5.99902364e+00   2.76373301e+00   2.97018321e+00   
211     1.80462713e-04   5.99901697e+00   2.68731408e+00   2.89676141e+00   
212     1.80516546e-04   5.99903580e+00   2.61285729e+00   2.82547174e+00   
213     1.80570378e-04   5.99906683e+00   2.54039653e+00   2.75614883e+00   
214     1.80678043e-04   5.99913752e+00   2.40134434e+00   2.62332590e+00   
215     1.80785707e-04   5.99920538e+00   2.26991225e+00   2.49795229e+00   
216     1.80882606e-04   5.99928020e+00   2.15793889e+00   2.39140062e+00   
217     1.80979504e-04   5.99935449e+00   2.05183105e+00   2.29069978e+00   
218     1.81076402e-04   5.99941905e+00   1.95146086e+00   2.19567831e+00   
219     1.81173301e-04   5.99948275e+00   1.85666248e+00   2.10614677e+00   
220     1.81270199e-04   5.99954414e+00   1.76726118e+00   2.02193920e+00   
221     1.81367097e-04   5.99960029e+00   1.68307697e+00   1.94285769e+00   
222     1.81463995e-04   5.99965678e+00   1.60392033e+00   1.86871174e+00   
223     1.81657792e-04   5.99975485e+00   1.45986317e+00   1.73443053e+00   
224     1.81851589e-04   5.99984648e+00   1.33379072e+00   1.61787344e+00   
225     1.82045385e-04   5.99992370e+00   1.22434801e+00   1.51765704e+00   
226     1.82239182e-04   5.99999478e+00   1.13009498e+00   1.43226709e+00   
227     1.82432978e-04   6.00005146e+00   1.04953088e+00   1.36017546e+00   
228     1.82626775e-04   6.00010238e+00   9.81165123e-01   1.29986960e+00   
229     1.82820571e-04   6.00013995e+00   9.23543249e-01   1.24987323e+00   
230     1.83208165e-04   6.00019562e+00   8.34496359e-01   1.17477800e+00   
231     1.83595758e-04   6.00021985e+00   7.73188173e-01   1.12550569e+00   
232     1.83983351e-04   6.00022576e+00   7.31397997e-01   1.09374597e+00   
233     1.84370944e-04   6.00021427e+00   7.02902297e-01   1.07338406e+00   
234     1.85146130e-04   6.00017852e+00   6.68828554e-01   1.05100831e+00   
235     1.85921316e-04   6.00013412e+00   6.52449266e-01   1.04130103e+00   
236     1.87471689e-04   6.00007040e+00   6.39001059e-01   1.03395264e+00   
237     1.89022061e-04   6.00003212e+00   6.35808593e-01   1.03231164e+00   
238     1.92122806e-04   6.00000536e+00   6.34605316e-01   1.03169406e+00   
239     1.95223551e-04   5.99999917e+00   6.34697683e-01   1.03174755e+00   
240     2.00000000e-04   6.00000015e+00   6.34689400e-01   1.03173655e+00   
241     2.00003143e-04   5.99999886e+00   6.34707765e-01   1.03541658e+00   
242     2.00005717e-04   5.99999749e+00   6.34741797e-01   1.04095997e+00   
243     2.00010865e-04   5.99999399e+00   6.34853634e-01   1.05983812e+00   
244     2.00021160e-04   5.99997925e+00   6.35251226e-01   1.17621783e+00   
245     2.00030388e-04   5.99996743e+00   6.35690416e-01   1.36851781e+00   
246     2.00039616e-04   5.99996580e+00   6.36136417e-01   1.62787922e+00   
247     2.00048844e-04   5.99996603e+00   6.36586234e-01   1.94901151e+00   
248     2.00058071e-04   5.99996982e+00   6.37038198e-01   2.32325471e+00   
249     2.00067299e-04   5.99997636e+00   6.37491041e-01   2.74085778e+00   
250     2.00076527e-04   5.99998381e+00   6.37943834e-01   3.19200578e+00   
251     2.00085755e-04   5.99999249e+00   6.38395889e-01   3.66753157e+00   
252     2.00100000e-04   6.00000631e+00   6.39091235e-01   4.43097582e+00   
253     2.00100951e-04   6.00000788e+00   6.39137347e-01   4.48094275e+00   
254     2.00101765e-04   6.00000972e+00   6.39176728e-01   4.52264575e+00   
255     2.00103393e-04   6.00001435e+00   6.39255259e-01   4.60402362e+00   
256     2.00106650e-04   6.00002729e+00   6.39411025e-01   4.75435224e+00   
257     2.00109907e-04   6.00004174e+00   6.39565212e-01   4.88912557e+00   
