Index       TIME              V(DD)             V(IN)            V(OUT)      
0        0.00000000e+00    2.00000000e+00    2.45811164e+00    4.58111640e-01
1        5.00000000e-13    2.00000000e+00    2.45811164e+00    4.58111639e-01
2        1.50000000e-12    2.00000000e+00    2.45811164e+00    4.58111639e-01
3        3.50000000e-12    2.00000000e+00    2.45811164e+00    4.58111638e-01
4        7.50000000e-12    2.00000000e+00    2.45811164e+00    4.58111638e-01
5        1.55000000e-11    2.00000000e+00    2.45811164e+00    4.58111637e-01
6        2.55000000e-11    2.00000000e+00    2.45811164e+00    4.58111637e-01
7        3.55000000e-11    2.00000000e+00    2.45811164e+00    4.58111637e-01
8        4.55000000e-11    2.00000000e+00    2.45811164e+00    4.58111637e-01
9        5.55000000e-11    2.00000000e+00    2.45811164e+00    4.58111637e-01
10       6.55000000e-11    2.00000000e+00    2.45811164e+00    4.58111637e-01
11       7.55000000e-11    2.00000000e+00    2.45811164e+00    4.58111637e-01
12       8.55000000e-11    2.00000000e+00    2.45811164e+00    4.58111637e-01
13       9.55000000e-11    2.00000000e+00    2.45811164e+00    4.58111637e-01
14       1.00000000e-10    2.00000000e+00    2.45811164e+00    4.58111637e-01
15       1.01000000e-10    2.00000000e+00    2.45775767e+00    4.58157669e-01
16       1.03000000e-10    2.00000000e+00    2.45706983e+00    4.58269832e-01
17       1.07000000e-10    2.00000000e+00    2.45567320e+00    4.58473201e-01
18       1.15000000e-10    2.00000000e+00    2.45268608e+00    4.58686083e-01
19       1.31000000e-10    2.00000000e+00    2.44634126e+00    4.58741261e-01
20       1.63000000e-10    2.00000000e+00    2.43351413e+00    4.58714130e-01
21       2.27000000e-10    2.00000000e+00    2.40789980e+00    4.58699801e-01
22       3.55000000e-10    2.00000000e+00    2.35670713e+00    4.58707128e-01
23       6.11000000e-10    2.00000000e+00    2.25446673e+00    4.58866729e-01
24       8.67000000e-10    2.00000000e+00    2.15241169e+00    4.59211689e-01
25       8.99000000e-10    2.00000000e+00    2.13960290e+00    4.59202901e-01
26       9.63000000e-10    2.00000000e+00    2.11403354e+00    4.59233539e-01
27       1.02700000e-09    2.00000000e+00    2.08846543e+00    4.59265430e-01
28       1.04300000e-09    2.00000000e+00    2.08206676e+00    4.59266759e-01
29       1.07500000e-09    2.00000000e+00    2.06918690e+00    4.59186900e-01
30       1.13900000e-09    2.00000000e+00    2.04296756e+00    4.58567560e-01
31       1.20300000e-09    2.00000000e+00    2.01775696e+00    4.58956957e-01
32       1.26700000e-09    2.00000000e+00    1.99193755e+00    4.58737551e-01
33       1.39500000e-09    2.00000000e+00    1.94083145e+00    4.58831454e-01
34       1.52300000e-09    2.00000000e+00    1.88956108e+00    4.58761083e-01
35       1.77900000e-09    2.00000000e+00    1.78718545e+00    4.58785452e-01
36       2.03500000e-09    2.00000000e+00    1.68488466e+00    4.58884657e-01
37       2.29100000e-09    2.00000000e+00    1.58255844e+00    4.58958442e-01
38       2.54700000e-09    2.00000000e+00    1.48024264e+00    4.59042644e-01
39       2.80300000e-09    2.00000000e+00    1.37772557e+00    4.58925570e-01
40       2.83043462e-09    2.00000000e+00    1.36683505e+00    4.59008895e-01
41       2.85786924e-09    2.00000000e+00    1.35587035e+00    4.59018047e-01
42       2.91273847e-09    2.00000000e+00    1.33389814e+00    4.58993532e-01
43       2.92231608e-09    2.00000000e+00    1.33007362e+00    4.59000055e-01
44       2.94147129e-09    2.00000000e+00    1.32241647e+00    4.59004983e-01
45       2.96062650e-09    2.00000000e+00    1.31475467e+00    4.59005267e-01
46       2.97978172e-09    2.00000000e+00    1.30709396e+00    4.59006643e-01
47       2.99893693e-09    2.00000000e+00    1.29943162e+00    4.59006391e-01
48       3.01514344e-09    2.00000000e+00    1.29294997e+00    4.59007345e-01
49       3.01739355e-09    2.00000000e+00    1.29205013e+00    4.59007552e-01
50       3.01964366e-09    2.00000000e+00    1.29115028e+00    4.59007738e-01
51       3.02414387e-09    2.00000000e+00    1.28935057e+00    4.59008118e-01
52       3.02864408e-09    2.00000000e+00    1.28755080e+00    4.59008437e-01
53       3.03314429e-09    2.00000000e+00    1.28575069e+00    4.59008405e-01
54       3.03764451e-09    2.00000000e+00    1.28394995e+00    4.59007751e-01
55       3.04214472e-09    2.00000000e+00    1.28214867e+00    4.59006554e-01
56       3.04664493e-09    2.00000000e+00    1.28034770e+00    4.59005669e-01
57       3.05114514e-09    2.00000000e+00    1.27854796e+00    4.59006015e-01
58       3.05564535e-09    2.00000000e+00    1.27674865e+00    4.59006793e-01
59       3.05969554e-09    2.00000000e+00    1.27512912e+00    4.59007340e-01
60       3.06374574e-09    2.00000000e+00    1.27351057e+00    4.59008862e-01
61       3.06739091e-09    2.00000000e+00    1.27205344e+00    4.59009806e-01
62       3.07103608e-09    2.00000000e+00    1.27059405e+00    4.59008486e-01
63       3.07468125e-09    2.00000000e+00    1.26913398e+00    4.59006477e-01
64       3.07832642e-09    2.00000000e+00    1.26767434e+00    4.59004910e-01
65       3.08197159e-09    2.00000000e+00    1.26621528e+00    4.59003922e-01
66       3.08561677e-09    2.00000000e+00    1.26475601e+00    4.59002714e-01
67       3.08889742e-09    2.00000000e+00    1.26344259e+00    4.59001563e-01
68       3.09180903e-09    2.00000000e+00    1.26227773e+00    4.59001337e-01
69       3.09472063e-09    2.00000000e+00    1.26111335e+00    4.59001608e-01
70       3.09763224e-09    2.00000000e+00    1.25994940e+00    4.59002299e-01
71       3.10054385e-09    2.00000000e+00    1.25878558e+00    4.59003123e-01
72       3.10345545e-09    2.00000000e+00    1.25762182e+00    4.59003996e-01
73       3.10636706e-09    2.00000000e+00    1.25645799e+00    4.59004815e-01
74       3.10927866e-09    2.00000000e+00    1.25529408e+00    4.59005550e-01
75       3.11219027e-09    2.00000000e+00    1.25413008e+00    4.59006191e-01
76       3.11510188e-09    2.00000000e+00    1.25296597e+00    4.59006725e-01
77       3.11801348e-09    2.00000000e+00    1.25180178e+00    4.59007177e-01
78       3.12092509e-09    2.00000000e+00    1.25063750e+00    4.59007533e-01
79       3.12383669e-09    2.00000000e+00    1.24947315e+00    4.59007827e-01
80       3.12674830e-09    2.00000000e+00    1.24830872e+00    4.59008045e-01
81       3.12965991e-09    2.00000000e+00    1.24714425e+00    4.59008216e-01
82       3.13257151e-09    2.00000000e+00    1.24597972e+00    4.59008330e-01
83       3.13548312e-09    2.00000000e+00    1.24481516e+00    4.59008410e-01
84       3.13839473e-09    2.00000000e+00    1.24365056e+00    4.59008446e-01
85       3.14130633e-09    2.00000000e+00    1.24248593e+00    4.59008458e-01
86       3.14421794e-09    2.00000000e+00    1.24132126e+00    4.59008439e-01
87       3.14683838e-09    2.00000000e+00    1.24027305e+00    4.59008407e-01
88       3.14945883e-09    2.00000000e+00    1.23922482e+00    4.59008356e-01
89       3.15207927e-09    2.00000000e+00    1.23817659e+00    4.59008296e-01
90       3.15469972e-09    2.00000000e+00    1.23712834e+00    4.59008225e-01
91       3.15732017e-09    2.00000000e+00    1.23608008e+00    4.59008147e-01
92       3.15994061e-09    2.00000000e+00    1.23503182e+00    4.59008062e-01
93       3.16256106e-09    2.00000000e+00    1.23398355e+00    4.59007974e-01
94       3.16518150e-09    2.00000000e+00    1.23293528e+00    4.59007884e-01
95       3.16780195e-09    2.00000000e+00    1.23188701e+00    4.59007794e-01
96       3.17042239e-09    2.00000000e+00    1.23083875e+00    4.59007704e-01
97       3.17304284e-09    2.00000000e+00    1.22979048e+00    4.59007616e-01
98       3.17566328e-09    2.00000000e+00    1.22874222e+00    4.59007532e-01
99       3.17828373e-09    2.00000000e+00    1.22769396e+00    4.59007451e-01
100      3.18090418e-09    2.00000000e+00    1.22664571e+00    4.59007376e-01
101      3.18352462e-09    2.00000000e+00    1.22559746e+00    4.59007307e-01
102      3.18614507e-09    2.00000000e+00    1.22454922e+00    4.59007245e-01
103      3.18876551e-09    2.00000000e+00    1.22350098e+00    4.59007189e-01
104      3.19138596e-09    2.00000000e+00    1.22245276e+00    4.59007141e-01
105      3.19400640e-09    2.00000000e+00    1.22140454e+00    4.59007100e-01
106      3.19662685e-09    2.00000000e+00    1.22035633e+00    4.59007066e-01
107      3.19924729e-09    2.00000000e+00    1.21930812e+00    4.59007040e-01
108      3.20186774e-09    2.00000000e+00    1.21825992e+00    4.59007020e-01
109      3.20448819e-09    2.00000000e+00    1.21721173e+00    4.59007006e-01
110      3.20710863e-09    2.00000000e+00    1.21616355e+00    4.59006997e-01
111      3.20972908e-09    2.00000000e+00    1.21511536e+00    4.59006992e-01
112      3.21234952e-09    2.00000000e+00    1.21406718e+00    4.59006990e-01
113      3.21496997e-09    2.00000000e+00    1.21301900e+00    4.59006989e-01
114      3.21759041e-09    2.00000000e+00    1.21197082e+00    4.59006986e-01
115      3.22021086e-09    2.00000000e+00    1.21092264e+00    4.59006980e-01
116      3.22283130e-09    2.00000000e+00    1.20987445e+00    4.59006968e-01
117      3.22545175e-09    2.00000000e+00    1.20882625e+00    4.59006945e-01
118      3.22807220e-09    2.00000000e+00    1.20777803e+00    4.59006910e-01
119      3.23043060e-09    2.00000000e+00    1.20683463e+00    4.59006863e-01
120      3.23278900e-09    2.00000000e+00    1.20589120e+00    4.59006800e-01
121      3.23514740e-09    2.00000000e+00    1.20494776e+00    4.59006716e-01
122      3.23986420e-09    2.00000000e+00    1.20306078e+00    4.59006465e-01
123      3.24458100e-09    2.00000000e+00    1.20117370e+00    4.59006097e-01
124      3.24929780e-09    2.00000000e+00    1.19928648e+00    4.59005602e-01
125      3.25401461e-09    2.00000000e+00    1.19739916e+00    4.59005002e-01
126      3.25825973e-09    2.00000000e+00    1.19570059e+00    4.59004483e-01
127      3.26168557e-09    2.00000000e+00    1.19433003e+00    4.59004258e-01
128      3.26511142e-09    2.00000000e+00    1.19295993e+00    4.59004494e-01
129      3.26853726e-09    2.00000000e+00    1.19159079e+00    4.59005700e-01
130      3.27196311e-09    2.00000000e+00    1.19022338e+00    4.59008621e-01
131      3.27538896e-09    2.00000000e+00    1.18885789e+00    4.59013468e-01
132      3.27881480e-09    2.00000000e+00    1.18749312e+00    4.59019042e-01
133      3.28224065e-09    2.00000000e+00    1.18612980e+00    4.59026058e-01
134      3.28566649e-09    2.00000000e+00    1.18476762e+00    4.59034214e-01
135      3.28871067e-09    2.00000000e+00    1.18355646e+00    4.59040725e-01
136      3.29175486e-09    2.00000000e+00    1.18234394e+00    4.59045887e-01
137      3.29479904e-09    2.00000000e+00    1.18112970e+00    4.59049318e-01
138      3.29784322e-09    2.00000000e+00    1.17991402e+00    4.59051307e-01
139      3.30088740e-09    2.00000000e+00    1.17869708e+00    4.59052041e-01
140      3.30393158e-09    2.00000000e+00    1.17747928e+00    4.59051909e-01
141      3.30697576e-09    2.00000000e+00    1.17626080e+00    4.59051104e-01
142      3.31001994e-09    2.00000000e+00    1.17504190e+00    4.59049875e-01
143      3.31306412e-09    2.00000000e+00    1.17382268e+00    4.59048332e-01
144      3.31580389e-09    2.00000000e+00    1.17272523e+00    4.59046782e-01
145      3.31854365e-09    2.00000000e+00    1.17162766e+00    4.59045125e-01
146      3.32128341e-09    2.00000000e+00    1.17053004e+00    4.59043407e-01
147      3.32402318e-09    2.00000000e+00    1.16943239e+00    4.59041656e-01
148      3.32676294e-09    2.00000000e+00    1.16833471e+00    4.59039889e-01
149      3.32950270e-09    2.00000000e+00    1.16723705e+00    4.59038128e-01
150      3.33224247e-09    2.00000000e+00    1.16613939e+00    4.59036374e-01
151      3.33498223e-09    2.00000000e+00    1.16504175e+00    4.59034644e-01
152      3.33772199e-09    2.00000000e+00    1.16394413e+00    4.59032931e-01
153      3.34046175e-09    2.00000000e+00    1.16284655e+00    4.59031249e-01
154      3.34292754e-09    2.00000000e+00    1.16185873e+00    4.59029750e-01
155      3.34539333e-09    2.00000000e+00    1.16087094e+00    4.59028275e-01
156      3.35032490e-09    2.00000000e+00    1.15889541e+00    4.59025370e-01
157      3.35525648e-09    2.00000000e+00    1.15691992e+00    4.59022514e-01
158      3.36018805e-09    2.00000000e+00    1.15494445e+00    4.59019666e-01
159      3.36511962e-09    2.00000000e+00    1.15296896e+00    4.59016812e-01
160      3.36932732e-09    2.00000000e+00    1.15128342e+00    4.59014342e-01
161      3.37276817e-09    2.00000000e+00    1.14990502e+00    4.59012294e-01
162      3.37620903e-09    2.00000000e+00    1.14852659e+00    4.59010207e-01
163      3.37964989e-09    2.00000000e+00    1.14714813e+00    4.59008083e-01
164      3.38309074e-09    2.00000000e+00    1.14576961e+00    4.59005912e-01
165      3.38653160e-09    2.00000000e+00    1.14439106e+00    4.59003698e-01
166      3.38997246e-09    2.00000000e+00    1.14301245e+00    4.59001435e-01
167      3.39341331e-09    2.00000000e+00    1.14163381e+00    4.58999132e-01
168      3.39685417e-09    2.00000000e+00    1.14025512e+00    4.58996789e-01
169      3.39975732e-09    2.00000000e+00    1.13909186e+00    4.58994790e-01
170      3.40266048e-09    2.00000000e+00    1.13792858e+00    4.58992772e-01
171      3.40556363e-09    2.00000000e+00    1.13676530e+00    4.58990748e-01
172      3.40846678e-09    2.00000000e+00    1.13560202e+00    4.58988729e-01
173      3.41136994e-09    2.00000000e+00    1.13443878e+00    4.58986750e-01
174      3.41427309e-09    2.00000000e+00    1.13327556e+00    4.58984799e-01
175      3.41717624e-09    2.00000000e+00    1.13211238e+00    4.58982881e-01
176      3.42007940e-09    2.00000000e+00    1.13094924e+00    4.58980998e-01
177      3.42298255e-09    2.00000000e+00    1.12978614e+00    4.58979155e-01
178      3.42588570e-09    2.00000000e+00    1.12862308e+00    4.58977357e-01
179      3.42878885e-09    2.00000000e+00    1.12746007e+00    4.58975608e-01
180      3.43169201e-09    2.00000000e+00    1.12629711e+00    4.58973913e-01
181      3.43459516e-09    2.00000000e+00    1.12513421e+00    4.58972273e-01
182      3.43749831e-09    2.00000000e+00    1.12397137e+00    4.58970691e-01
183      3.44040147e-09    2.00000000e+00    1.12280858e+00    4.58969168e-01
184      3.44330462e-09    2.00000000e+00    1.12164585e+00    4.58967703e-01
185      3.44620777e-09    2.00000000e+00    1.12048318e+00    4.58966293e-01
186      3.44911093e-09    2.00000000e+00    1.11932057e+00    4.58964939e-01
187      3.45201408e-09    2.00000000e+00    1.11815800e+00    4.58963635e-01
188      3.45462692e-09    2.00000000e+00    1.11711174e+00    4.58962503e-01
189      3.45723976e-09    2.00000000e+00    1.11606550e+00    4.58961406e-01
190      3.45985259e-09    2.00000000e+00    1.11501931e+00    4.58960343e-01
191      3.46246543e-09    2.00000000e+00    1.11397314e+00    4.58959310e-01
192      3.46507827e-09    2.00000000e+00    1.11292700e+00    4.58958303e-01
193      3.46769111e-09    2.00000000e+00    1.11188088e+00    4.58957320e-01
194      3.47030394e-09    2.00000000e+00    1.11083478e+00    4.58956358e-01
195      3.47291678e-09    2.00000000e+00    1.10978870e+00    4.58955413e-01
196      3.47552962e-09    2.00000000e+00    1.10874264e+00    4.58954484e-01
197      3.47814246e-09    2.00000000e+00    1.10769658e+00    4.58953568e-01
198      3.48075530e-09    2.00000000e+00    1.10665054e+00    4.58952662e-01
199      3.48336813e-09    2.00000000e+00    1.10560451e+00    4.58951765e-01
200      3.48598097e-09    2.00000000e+00    1.10455849e+00    4.58950874e-01
201      3.49120665e-09    2.00000000e+00    1.10246645e+00    4.58949111e-01
202      3.49643232e-09    2.00000000e+00    1.10037442e+00    4.58947353e-01
203      3.50165800e-09    2.00000000e+00    1.09828240e+00    4.58945596e-01
204      3.50636111e-09    2.00000000e+00    1.09639957e+00    4.58944010e-01
205      3.51106421e-09    2.00000000e+00    1.09451674e+00    4.58942421e-01
206      3.51485534e-09    2.00000000e+00    1.09299900e+00    4.58941134e-01
207      3.51864646e-09    2.00000000e+00    1.09148126e+00    4.58939843e-01
208      3.52243758e-09    2.00000000e+00    1.08996351e+00    4.58938547e-01
209      3.52622871e-09    2.00000000e+00    1.08844576e+00    4.58937246e-01
210      3.53001983e-09    2.00000000e+00    1.08692801e+00    4.58935940e-01
211      3.53381096e-09    2.00000000e+00    1.08541025e+00    4.58934629e-01
212      3.53760208e-09    2.00000000e+00    1.08389248e+00    4.58933311e-01
213      3.54082151e-09    2.00000000e+00    1.08260358e+00    4.58932184e-01
214      3.54404095e-09    2.00000000e+00    1.08131468e+00    4.58931056e-01
215      3.54726038e-09    2.00000000e+00    1.08002578e+00    4.58929931e-01
216      3.55047981e-09    2.00000000e+00    1.07873688e+00    4.58928807e-01
217      3.55369925e-09    2.00000000e+00    1.07744798e+00    4.58927678e-01
218      3.55691868e-09    2.00000000e+00    1.07615910e+00    4.58926570e-01
219      3.56013811e-09    2.00000000e+00    1.07487026e+00    4.58925510e-01
220      3.56335755e-09    2.00000000e+00    1.07358140e+00    4.58924420e-01
221      3.56625504e-09    2.00000000e+00    1.07242128e+00    4.58923295e-01
222      3.56915253e-09    2.00000000e+00    1.07126099e+00    4.58921997e-01
223      3.57205002e-09    2.00000000e+00    1.07010064e+00    4.58920644e-01
224      3.57494751e-09    2.00000000e+00    1.06894041e+00    4.58919411e-01
225      3.57784500e-09    2.00000000e+00    1.06778033e+00    4.58918326e-01
226      3.58074249e-09    2.00000000e+00    1.06662024e+00    4.58917232e-01
227      3.58363998e-09    2.00000000e+00    1.06546092e+00    4.58916910e-01
228      3.58653747e-09    2.00000000e+00    1.06430462e+00    4.58919610e-01
229      3.58943496e-09    2.00000000e+00    1.06315171e+00    4.58925697e-01
230      3.59233245e-09    2.00000000e+00    1.06199813e+00    4.58931111e-01
231      3.59494019e-09    2.00000000e+00    1.06095402e+00    4.58930099e-01
232      3.59754793e-09    2.00000000e+00    1.05990073e+00    4.58919906e-01
233      3.60015567e-09    2.00000000e+00    1.05883924e+00    4.58901507e-01
234      3.60276341e-09    2.00000000e+00    1.05777225e+00    4.58877617e-01
235      3.60537115e-09    2.00000000e+00    1.05670019e+00    4.58848649e-01
236      3.60797890e-09    2.00000000e+00    1.05561710e+00    4.58808655e-01
237      3.61058664e-09    2.00000000e+00    1.05454169e+00    4.58776346e-01
238      3.61319438e-09    2.00000000e+00    1.05357553e+00    4.58853280e-01
239      3.61580212e-09    2.00000000e+00    1.05284195e+00    4.59162793e-01
240      3.61840986e-09    2.00000000e+00    1.05238179e+00    4.59745736e-01
241      3.62101760e-09    2.00000000e+00    1.05209717e+00    4.60504215e-01
242      3.62362534e-09    2.00000000e+00    1.05175238e+00    4.61202512e-01
243      3.62623308e-09    2.00000000e+00    1.05108951e+00    4.61582740e-01
244      3.62884082e-09    2.00000000e+00    1.04988802e+00    4.61424351e-01
245      3.63144857e-09    2.00000000e+00    1.04790315e+00    4.60482576e-01
246      3.63405631e-09    2.00000000e+00    1.04470233e+00    4.58324849e-01
247      3.63666405e-09    2.00000000e+00    1.03952308e+00    4.54188703e-01
248      3.63927179e-09    2.00000000e+00    1.03459336e+00    4.50302073e-01
249      3.64187953e-09    2.00000000e+00    1.03662493e+00    4.53376743e-01
250      3.64448727e-09    2.00000000e+00    1.05399257e+00    4.71787478e-01
251      3.64709501e-09    2.00000000e+00    1.09300715e+00    5.11845154e-01
252      3.64944198e-09    2.00000000e+00    1.14818505e+00    5.67961839e-01
253      3.65178895e-09    2.00000000e+00    1.22016617e+00    6.40881749e-01
254      3.65413591e-09    2.00000000e+00    1.30540188e+00    7.27056245e-01
