Index       TIME              V(DD)             V(IN)            V(OUT)      
0        0.00000000e+00    2.00000000e+00    2.45811152e+00    4.58111520e-01
1        5.00000000e-13    2.00000000e+00    2.45811152e+00    4.58111521e-01
2        1.50000000e-12    2.00000000e+00    2.45811152e+00    4.58111522e-01
3        3.50000000e-12    2.00000000e+00    2.45811152e+00    4.58111524e-01
4        7.50000000e-12    2.00000000e+00    2.45811152e+00    4.58111525e-01
5        1.55000000e-11    2.00000000e+00    2.45811153e+00    4.58111526e-01
6        2.55000000e-11    2.00000000e+00    2.45811153e+00    4.58111526e-01
7        3.55000000e-11    2.00000000e+00    2.45811153e+00    4.58111526e-01
8        4.55000000e-11    2.00000000e+00    2.45811153e+00    4.58111526e-01
9        5.55000000e-11    2.00000000e+00    2.45811153e+00    4.58111526e-01
10       6.55000000e-11    2.00000000e+00    2.45811153e+00    4.58111526e-01
11       7.55000000e-11    2.00000000e+00    2.45811153e+00    4.58111526e-01
12       8.55000000e-11    2.00000000e+00    2.45811153e+00    4.58111526e-01
13       9.55000000e-11    2.00000000e+00    2.45811153e+00    4.58111526e-01
14       1.00000000e-10    2.00000000e+00    2.45811153e+00    4.58111526e-01
15       1.01000000e-10    2.00000000e+00    2.45775756e+00    4.58157558e-01
16       1.03000000e-10    2.00000000e+00    2.45706972e+00    4.58269720e-01
17       1.07000000e-10    2.00000000e+00    2.45567309e+00    4.58473089e-01
18       1.15000000e-10    2.00000000e+00    2.45268597e+00    4.58685971e-01
19       1.31000000e-10    2.00000000e+00    2.44634115e+00    4.58741148e-01
20       1.63000000e-10    2.00000000e+00    2.43351402e+00    4.58714017e-01
21       2.27000000e-10    2.00000000e+00    2.40789969e+00    4.58699689e-01
22       3.55000000e-10    2.00000000e+00    2.35670702e+00    4.58707016e-01
23       6.11000000e-10    2.00000000e+00    2.25446662e+00    4.58866617e-01
24       8.67000000e-10    2.00000000e+00    2.15241158e+00    4.59211577e-01
25       8.99000000e-10    2.00000000e+00    2.13960279e+00    4.59202789e-01
26       9.63000000e-10    2.00000000e+00    2.11403343e+00    4.59233427e-01
27       1.02700000e-09    2.00000000e+00    2.08846532e+00    4.59265318e-01
28       1.04300000e-09    2.00000000e+00    2.08206665e+00    4.59266647e-01
29       1.07500000e-09    2.00000000e+00    2.06918678e+00    4.59186783e-01
30       1.13900000e-09    2.00000000e+00    2.04296745e+00    4.58567452e-01
31       1.20300000e-09    2.00000000e+00    2.01775684e+00    4.58956844e-01
32       1.26700000e-09    2.00000000e+00    1.99193744e+00    4.58737440e-01
33       1.39500000e-09    2.00000000e+00    1.94083134e+00    4.58831342e-01
34       1.52300000e-09    2.00000000e+00    1.88956097e+00    4.58760971e-01
35       1.77900000e-09    2.00000000e+00    1.78718534e+00    4.58785341e-01
36       2.03500000e-09    2.00000000e+00    1.68488454e+00    4.58884544e-01
37       2.29100000e-09    2.00000000e+00    1.58255833e+00    4.58958332e-01
38       2.54700000e-09    2.00000000e+00    1.48024253e+00    4.59042530e-01
39       2.80300000e-09    2.00000000e+00    1.37772546e+00    4.58925461e-01
40       2.83043460e-09    2.00000000e+00    1.36683494e+00    4.59008783e-01
41       2.85786920e-09    2.00000000e+00    1.35587026e+00    4.59017935e-01
42       2.91273839e-09    2.00000000e+00    1.33389806e+00    4.58993421e-01
43       2.92231601e-09    2.00000000e+00    1.33007354e+00    4.58999943e-01
44       2.94147123e-09    2.00000000e+00    1.32241638e+00    4.59004871e-01
45       2.96062646e-09    2.00000000e+00    1.31475457e+00    4.59005156e-01
46       2.97978168e-09    2.00000000e+00    1.30709386e+00    4.59006531e-01
47       2.99893691e-09    2.00000000e+00    1.29943152e+00    4.59006279e-01
48       3.01514342e-09    2.00000000e+00    1.29294986e+00    4.59007233e-01
49       3.01739353e-09    2.00000000e+00    1.29205003e+00    4.59007440e-01
50       3.01964363e-09    2.00000000e+00    1.29115017e+00    4.59007626e-01
51       3.02414385e-09    2.00000000e+00    1.28935047e+00    4.59008006e-01
52       3.02864406e-09    2.00000000e+00    1.28755070e+00    4.59008326e-01
53       3.03314427e-09    2.00000000e+00    1.28575058e+00    4.59008294e-01
54       3.03764449e-09    2.00000000e+00    1.28394985e+00    4.59007640e-01
55       3.04214470e-09    2.00000000e+00    1.28214856e+00    4.59006442e-01
56       3.04664491e-09    2.00000000e+00    1.28034759e+00    4.59005557e-01
57       3.05114512e-09    2.00000000e+00    1.27854785e+00    4.59005904e-01
58       3.05564534e-09    2.00000000e+00    1.27674855e+00    4.59006682e-01
59       3.05969553e-09    2.00000000e+00    1.27512902e+00    4.59007228e-01
60       3.06374572e-09    2.00000000e+00    1.27351046e+00    4.59008751e-01
61       3.06739089e-09    2.00000000e+00    1.27205334e+00    4.59009694e-01
62       3.07103607e-09    2.00000000e+00    1.27059395e+00    4.59008375e-01
63       3.07468124e-09    2.00000000e+00    1.26913387e+00    4.59006365e-01
64       3.07832641e-09    2.00000000e+00    1.26767423e+00    4.59004798e-01
65       3.08197158e-09    2.00000000e+00    1.26621518e+00    4.59003810e-01
66       3.08561676e-09    2.00000000e+00    1.26475590e+00    4.59002602e-01
67       3.08889741e-09    2.00000000e+00    1.26344249e+00    4.59001451e-01
68       3.09180855e-09    2.00000000e+00    1.26227781e+00    4.59001226e-01
69       3.09471968e-09    2.00000000e+00    1.26111362e+00    4.59001496e-01
70       3.09763082e-09    2.00000000e+00    1.25994986e+00    4.59002187e-01
71       3.10054195e-09    2.00000000e+00    1.25878623e+00    4.59003011e-01
72       3.10345309e-09    2.00000000e+00    1.25762265e+00    4.59003884e-01
73       3.10636423e-09    2.00000000e+00    1.25645901e+00    4.59004703e-01
74       3.10927536e-09    2.00000000e+00    1.25529529e+00    4.59005437e-01
75       3.11218650e-09    2.00000000e+00    1.25413148e+00    4.59006079e-01
76       3.11509763e-09    2.00000000e+00    1.25296756e+00    4.59006612e-01
77       3.11800877e-09    2.00000000e+00    1.25180356e+00    4.59007064e-01
78       3.12091991e-09    2.00000000e+00    1.25063946e+00    4.59007421e-01
79       3.12383104e-09    2.00000000e+00    1.24947530e+00    4.59007715e-01
80       3.12674218e-09    2.00000000e+00    1.24831106e+00    4.59007933e-01
81       3.12965332e-09    2.00000000e+00    1.24714678e+00    4.59008104e-01
82       3.13256445e-09    2.00000000e+00    1.24598244e+00    4.59008218e-01
83       3.13547559e-09    2.00000000e+00    1.24481806e+00    4.59008298e-01
84       3.13838672e-09    2.00000000e+00    1.24365365e+00    4.59008334e-01
85       3.14129786e-09    2.00000000e+00    1.24248920e+00    4.59008346e-01
86       3.14420900e-09    2.00000000e+00    1.24132473e+00    4.59008327e-01
87       3.14682902e-09    2.00000000e+00    1.24027669e+00    4.59008295e-01
88       3.14944904e-09    2.00000000e+00    1.23922863e+00    4.59008245e-01
89       3.15206906e-09    2.00000000e+00    1.23818056e+00    4.59008185e-01
90       3.15468909e-09    2.00000000e+00    1.23713248e+00    4.59008114e-01
91       3.15730911e-09    2.00000000e+00    1.23608439e+00    4.59008036e-01
92       3.15992913e-09    2.00000000e+00    1.23503630e+00    4.59007951e-01
93       3.16254915e-09    2.00000000e+00    1.23398820e+00    4.59007863e-01
94       3.16516918e-09    2.00000000e+00    1.23294010e+00    4.59007773e-01
95       3.16778920e-09    2.00000000e+00    1.23189200e+00    4.59007682e-01
96       3.17040922e-09    2.00000000e+00    1.23084390e+00    4.59007593e-01
97       3.17302924e-09    2.00000000e+00    1.22979581e+00    4.59007505e-01
98       3.17564926e-09    2.00000000e+00    1.22874771e+00    4.59007420e-01
99       3.17826929e-09    2.00000000e+00    1.22769963e+00    4.59007340e-01
100      3.18088931e-09    2.00000000e+00    1.22665154e+00    4.59007265e-01
101      3.18350933e-09    2.00000000e+00    1.22560346e+00    4.59007196e-01
102      3.18612935e-09    2.00000000e+00    1.22455539e+00    4.59007134e-01
103      3.18874938e-09    2.00000000e+00    1.22350733e+00    4.59007078e-01
104      3.19136940e-09    2.00000000e+00    1.22245927e+00    4.59007030e-01
105      3.19398942e-09    2.00000000e+00    1.22141122e+00    4.59006988e-01
106      3.19660944e-09    2.00000000e+00    1.22036318e+00    4.59006955e-01
107      3.19922947e-09    2.00000000e+00    1.21931514e+00    4.59006928e-01
108      3.20184949e-09    2.00000000e+00    1.21826711e+00    4.59006908e-01
109      3.20446951e-09    2.00000000e+00    1.21721909e+00    4.59006894e-01
110      3.20708953e-09    2.00000000e+00    1.21617107e+00    4.59006886e-01
111      3.20970956e-09    2.00000000e+00    1.21512306e+00    4.59006881e-01
112      3.21232958e-09    2.00000000e+00    1.21407505e+00    4.59006879e-01
113      3.21494960e-09    2.00000000e+00    1.21302704e+00    4.59006877e-01
114      3.21756962e-09    2.00000000e+00    1.21197903e+00    4.59006875e-01
115      3.22018965e-09    2.00000000e+00    1.21093101e+00    4.59006868e-01
116      3.22280967e-09    2.00000000e+00    1.20988299e+00    4.59006856e-01
117      3.22542969e-09    2.00000000e+00    1.20883496e+00    4.59006834e-01
118      3.22804971e-09    2.00000000e+00    1.20778691e+00    4.59006799e-01
119      3.23040773e-09    2.00000000e+00    1.20684366e+00    4.59006752e-01
120      3.23276575e-09    2.00000000e+00    1.20590039e+00    4.59006689e-01
121      3.23512377e-09    2.00000000e+00    1.20495710e+00    4.59006606e-01
122      3.23983981e-09    2.00000000e+00    1.20307043e+00    4.59006355e-01
123      3.24455586e-09    2.00000000e+00    1.20118365e+00    4.59005988e-01
124      3.24927190e-09    2.00000000e+00    1.19929674e+00    4.59005494e-01
125      3.25398794e-09    2.00000000e+00    1.19740972e+00    4.59004894e-01
126      3.25823237e-09    2.00000000e+00    1.19571143e+00    4.59004374e-01
127      3.26165495e-09    2.00000000e+00    1.19434217e+00    4.59004147e-01
128      3.26507754e-09    2.00000000e+00    1.19297336e+00    4.59004377e-01
129      3.26850012e-09    2.00000000e+00    1.19160552e+00    4.59005568e-01
130      3.27192270e-09    2.00000000e+00    1.19023938e+00    4.59008462e-01
131      3.27534528e-09    2.00000000e+00    1.18887518e+00    4.59013292e-01
132      3.27876787e-09    2.00000000e+00    1.18751170e+00    4.59018845e-01
133      3.28219045e-09    2.00000000e+00    1.18614965e+00    4.59025832e-01
134      3.28561303e-09    2.00000000e+00    1.18478877e+00    4.59033979e-01
135      3.28863776e-09    2.00000000e+00    1.18358537e+00    4.59040471e-01
136      3.29166249e-09    2.00000000e+00    1.18238065e+00    4.59045644e-01
137      3.29468722e-09    2.00000000e+00    1.18117422e+00    4.59049106e-01
138      3.29771196e-09    2.00000000e+00    1.17996635e+00    4.59051137e-01
139      3.30073669e-09    2.00000000e+00    1.17875724e+00    4.59051914e-01
140      3.30376142e-09    2.00000000e+00    1.17754726e+00    4.59051823e-01
141      3.30678615e-09    2.00000000e+00    1.17633660e+00    4.59051055e-01
142      3.30981088e-09    2.00000000e+00    1.17512551e+00    4.59049858e-01
143      3.31283561e-09    2.00000000e+00    1.17391410e+00    4.59048343e-01
144      3.31555787e-09    2.00000000e+00    1.17282367e+00    4.59046814e-01
145      3.31828013e-09    2.00000000e+00    1.17173312e+00    4.59045175e-01
146      3.32100239e-09    2.00000000e+00    1.17064252e+00    4.59043473e-01
147      3.32372465e-09    2.00000000e+00    1.16955188e+00    4.59041736e-01
148      3.32644690e-09    2.00000000e+00    1.16846122e+00    4.59039981e-01
149      3.32916916e-09    2.00000000e+00    1.16737057e+00    4.59038231e-01
150      3.33189142e-09    2.00000000e+00    1.16627992e+00    4.59036485e-01
151      3.33461368e-09    2.00000000e+00    1.16518929e+00    4.59034764e-01
152      3.33733594e-09    2.00000000e+00    1.16409868e+00    4.59033059e-01
153      3.34005819e-09    2.00000000e+00    1.16300811e+00    4.59031384e-01
154      3.34250823e-09    2.00000000e+00    1.16202660e+00    4.59029891e-01
155      3.34495826e-09    2.00000000e+00    1.16104512e+00    4.59028422e-01
156      3.34740829e-09    2.00000000e+00    1.16006365e+00    4.59026965e-01
157      3.34985832e-09    2.00000000e+00    1.15908220e+00    4.59025528e-01
158      3.35230836e-09    2.00000000e+00    1.15810076e+00    4.59024098e-01
159      3.35720842e-09    2.00000000e+00    1.15613790e+00    4.59021272e-01
160      3.36210849e-09    2.00000000e+00    1.15417505e+00    4.59018446e-01
161      3.36651855e-09    2.00000000e+00    1.15240847e+00    4.59015884e-01
162      3.37092860e-09    2.00000000e+00    1.15064184e+00    4.59013283e-01
163      3.37456509e-09    2.00000000e+00    1.14918506e+00    4.59011101e-01
164      3.37820158e-09    2.00000000e+00    1.14772824e+00    4.59008873e-01
165      3.38183807e-09    2.00000000e+00    1.14627137e+00    4.59006599e-01
166      3.38547455e-09    2.00000000e+00    1.14481445e+00    4.59004273e-01
167      3.38911104e-09    2.00000000e+00    1.14335748e+00    4.59001897e-01
168      3.39274753e-09    2.00000000e+00    1.14190046e+00    4.58999470e-01
169      3.39602037e-09    2.00000000e+00    1.14058910e+00    4.58997250e-01
170      3.39895065e-09    2.00000000e+00    1.13941497e+00    4.58995235e-01
171      3.40188093e-09    2.00000000e+00    1.13824083e+00    4.58993204e-01
172      3.40481122e-09    2.00000000e+00    1.13706667e+00    4.58991161e-01
173      3.40774150e-09    2.00000000e+00    1.13589252e+00    4.58989119e-01
174      3.41067178e-09    2.00000000e+00    1.13471840e+00    4.58987112e-01
175      3.41360206e-09    2.00000000e+00    1.13354431e+00    4.58985137e-01
176      3.41653235e-09    2.00000000e+00    1.13237025e+00    4.58983192e-01
177      3.41946263e-09    2.00000000e+00    1.13119623e+00    4.58981284e-01
178      3.42239291e-09    2.00000000e+00    1.13002225e+00    4.58979414e-01
179      3.42532319e-09    2.00000000e+00    1.12884831e+00    4.58977590e-01
180      3.42825348e-09    2.00000000e+00    1.12767442e+00    4.58975815e-01
181      3.43118376e-09    2.00000000e+00    1.12650059e+00    4.58974094e-01
182      3.43411404e-09    2.00000000e+00    1.12532681e+00    4.58972429e-01
183      3.43704432e-09    2.00000000e+00    1.12415309e+00    4.58970823e-01
184      3.43997461e-09    2.00000000e+00    1.12297943e+00    4.58969276e-01
185      3.44290489e-09    2.00000000e+00    1.12180583e+00    4.58967789e-01
186      3.44583517e-09    2.00000000e+00    1.12063229e+00    4.58966359e-01
187      3.44876546e-09    2.00000000e+00    1.11945880e+00    4.58964986e-01
188      3.45169574e-09    2.00000000e+00    1.11828537e+00    4.58963664e-01
189      3.45433059e-09    2.00000000e+00    1.11723028e+00    4.58962518e-01
190      3.45696545e-09    2.00000000e+00    1.11617523e+00    4.58961408e-01
191      3.45960030e-09    2.00000000e+00    1.11512021e+00    4.58960333e-01
192      3.46223515e-09    2.00000000e+00    1.11406523e+00    4.58959288e-01
193      3.46487001e-09    2.00000000e+00    1.11301027e+00    4.58958271e-01
194      3.46750486e-09    2.00000000e+00    1.11195533e+00    4.58957278e-01
195      3.47013971e-09    2.00000000e+00    1.11090042e+00    4.58956306e-01
196      3.47277457e-09    2.00000000e+00    1.10984553e+00    4.58955353e-01
197      3.47540942e-09    2.00000000e+00    1.10879065e+00    4.58954415e-01
198      3.47804427e-09    2.00000000e+00    1.10773578e+00    4.58953490e-01
199      3.48067913e-09    2.00000000e+00    1.10668093e+00    4.58952577e-01
200      3.48331398e-09    2.00000000e+00    1.10562608e+00    4.58951671e-01
201      3.48594883e-09    2.00000000e+00    1.10457124e+00    4.58950773e-01
202      3.48858369e-09    2.00000000e+00    1.10351640e+00    4.58949880e-01
203      3.49121854e-09    2.00000000e+00    1.10246157e+00    4.58948990e-01
204      3.49385340e-09    2.00000000e+00    1.10140675e+00    4.58948103e-01
205      3.49648825e-09    2.00000000e+00    1.10035192e+00    4.58947218e-01
206      3.49912310e-09    2.00000000e+00    1.09929709e+00    4.58946332e-01
207      3.50175796e-09    2.00000000e+00    1.09824226e+00    4.58945447e-01
208      3.50439281e-09    2.00000000e+00    1.09718744e+00    4.58944560e-01
209      3.50702766e-09    2.00000000e+00    1.09613261e+00    4.58943672e-01
210      3.50939903e-09    2.00000000e+00    1.09518326e+00    4.58942872e-01
211      3.51177040e-09    2.00000000e+00    1.09423391e+00    4.58942069e-01
212      3.51414177e-09    2.00000000e+00    1.09328456e+00    4.58941265e-01
213      3.51888450e-09    2.00000000e+00    1.09138585e+00    4.58939654e-01
214      3.52362724e-09    2.00000000e+00    1.08948714e+00    4.58938032e-01
215      3.52836998e-09    2.00000000e+00    1.08758841e+00    4.58936401e-01
216      3.53311271e-09    2.00000000e+00    1.08568968e+00    4.58934763e-01
217      3.53730804e-09    2.00000000e+00    1.08401009e+00    4.58933304e-01
218      3.54070199e-09    2.00000000e+00    1.08265132e+00    4.58932116e-01
219      3.54409594e-09    2.00000000e+00    1.08129255e+00    4.58930926e-01
220      3.54748988e-09    2.00000000e+00    1.07993379e+00    4.58929739e-01
221      3.55088383e-09    2.00000000e+00    1.07857502e+00    4.58928554e-01
222      3.55427778e-09    2.00000000e+00    1.07721625e+00    4.58927365e-01
223      3.55767173e-09    2.00000000e+00    1.07585752e+00    4.58926208e-01
224      3.56106567e-09    2.00000000e+00    1.07449882e+00    4.58925094e-01
225      3.56445962e-09    2.00000000e+00    1.07314005e+00    4.58923899e-01
226      3.56735046e-09    2.00000000e+00    1.07198252e+00    4.58922708e-01
227      3.57024129e-09    2.00000000e+00    1.07082485e+00    4.58921369e-01
228      3.57313212e-09    2.00000000e+00    1.06966720e+00    4.58920047e-01
229      3.57602296e-09    2.00000000e+00    1.06850970e+00    4.58918882e-01
230      3.57891379e-09    2.00000000e+00    1.06735230e+00    4.58917814e-01
231      3.58180463e-09    2.00000000e+00    1.06619496e+00    4.58916809e-01
232      3.58469546e-09    2.00000000e+00    1.06503923e+00    4.58917416e-01
233      3.58758629e-09    2.00000000e+00    1.06388715e+00    4.58921666e-01
234      3.59047713e-09    2.00000000e+00    1.06273729e+00    4.58928145e-01
235      3.59336796e-09    2.00000000e+00    1.06158441e+00    4.58931593e-01
236      3.59625880e-09    2.00000000e+00    1.06042230e+00    4.58925823e-01
237      3.59914963e-09    2.00000000e+00    1.05924911e+00    4.58908961e-01
238      3.60204046e-09    2.00000000e+00    1.05806782e+00    4.58884003e-01
239      3.60493130e-09    2.00000000e+00    1.05688061e+00    4.58853131e-01
240      3.60782213e-09    2.00000000e+00    1.05568148e+00    4.58810329e-01
241      3.61071297e-09    2.00000000e+00    1.05449254e+00    4.58777725e-01
242      3.61360380e-09    2.00000000e+00    1.05344923e+00    4.58890751e-01
243      3.61649463e-09    2.00000000e+00    1.05270666e+00    4.59304513e-01
244      3.61938547e-09    2.00000000e+00    1.05227619e+00    4.60030379e-01
245      3.62198674e-09    2.00000000e+00    1.05200398e+00    4.60798677e-01
246      3.62458802e-09    2.00000000e+00    1.05156337e+00    4.61398573e-01
247      3.62718929e-09    2.00000000e+00    1.05071748e+00    4.61593197e-01
248      3.62979056e-09    2.00000000e+00    1.04924627e+00    4.61162498e-01
249      3.63239184e-09    2.00000000e+00    1.04686536e+00    4.59822091e-01
250      3.63499311e-09    2.00000000e+00    1.04297402e+00    4.56971262e-01
251      3.63759438e-09    2.00000000e+00    1.03731187e+00    4.52349624e-01
252      3.64019566e-09    2.00000000e+00    1.03412929e+00    4.50207557e-01
253      3.64279693e-09    2.00000000e+00    1.04102207e+00    4.58140841e-01
254      3.64539820e-09    2.00000000e+00    1.06602955e+00    4.84188829e-01
