Index       TIME              V(N1)           V(N1,N2)          V(N1,N3)      I(YMEMRISTOR!MR1)     I(RPTG2)      N(YMEMRISTOR!MR1_X)       V(N4)      
0        0.00000000e+00    0.00000000e+00    0.00000000e+00    0.00000000e+00    0.00000000e+00    0.00000000e+00    0.00000000e+00    1.10000000e-01
1        0.00000000e+00    9.54112622e-02    9.54112622e-02    9.11499856e-02    0.00000000e+00    8.52255316e-05    0.00000000e+00    1.10000000e-01
2        1.00000000e-10    9.54112622e-02    9.11499856e-02    9.11499856e-02    8.52255316e-05    8.52255316e-05    1.10000000e-01    1.10000000e-01
3        1.03125000e-10    9.54112622e-02    9.11499856e-02    9.11499856e-02    8.52255316e-05    8.52255316e-05    1.10000000e-01    1.10000000e-01
4        1.06250000e-10    9.54112622e-02    9.11499856e-02    9.11499856e-02    8.52255316e-05    8.52255316e-05    1.10000000e-01    1.10000000e-01
5        1.08750269e-10    9.54112622e-02    9.11499856e-02    9.11499856e-02    8.52255316e-05    8.52255316e-05    1.10000000e-01    1.10000000e-01
6        1.13750808e-10    9.54112622e-02    9.11499856e-02    9.11499856e-02    8.52255316e-05    8.52255316e-05    1.10000000e-01    1.10000000e-01
7        1.23751885e-10    9.54112622e-02    9.11499856e-02    9.11499856e-02    8.52255316e-05    8.52255316e-05    1.10000000e-01    1.10000000e-01
8        1.43754039e-10    9.54112622e-02    9.11499856e-02    9.11499856e-02    8.52255316e-05    8.52255316e-05    1.10000000e-01    1.10000000e-01
9        1.83758348e-10    9.54112622e-02    9.11499856e-02    9.11499856e-02    8.52255316e-05    8.52255316e-05    1.10000000e-01    1.10000000e-01
10       2.63766965e-10    9.54112622e-02    9.11499856e-02    9.11499856e-02    8.52255316e-05    8.52255316e-05    1.10000000e-01    1.10000000e-01
11       4.23784200e-10    9.54112622e-02    9.11499856e-02    9.11499856e-02    8.52255316e-05    8.52255316e-05    1.10000000e-01    1.10000000e-01
12       7.43818669e-10    9.54112622e-02    9.11499856e-02    9.11499856e-02    8.52255316e-05    8.52255316e-05    1.10000000e-01    1.10000000e-01
13       1.38388761e-09    9.54112622e-02    9.11499856e-02    9.11499856e-02    8.52255316e-05    8.52255316e-05    1.10000000e-01    1.10000000e-01
14       2.66402548e-09    9.54112622e-02    9.11499856e-02    9.11499856e-02    8.52255316e-05    8.52255316e-05    1.10000000e-01    1.10000000e-01
15       5.22430124e-09    9.54112622e-02    9.11499856e-02    9.11499856e-02    8.52255316e-05    8.52255316e-05    1.10000000e-01    1.10000000e-01
16       1.03448527e-08    9.54112622e-02    9.11499856e-02    9.11499856e-02    8.52255316e-05    8.52255316e-05    1.10000000e-01    1.10000000e-01
17       2.05859558e-08    9.54112622e-02    9.11499856e-02    9.11499856e-02    8.52255316e-05    8.52255316e-05    1.10000000e-01    1.10000000e-01
18       4.10681618e-08    9.54112622e-02    9.11499856e-02    9.11499856e-02    8.52255316e-05    8.52255316e-05    1.10000000e-01    1.10000000e-01
19       8.20325738e-08    9.54112622e-02    9.11499856e-02    9.11499856e-02    8.52255316e-05    8.52255316e-05    1.10000000e-01    1.10000000e-01
20       1.63961398e-07    9.54112622e-02    9.11499856e-02    9.11499856e-02    8.52255316e-05    8.52255316e-05    1.10000000e-01    1.10000000e-01
21       3.27819046e-07    9.54112622e-02    9.11499856e-02    9.11499856e-02    8.52255316e-05    8.52255316e-05    1.10000000e-01    1.10000000e-01
22       6.55534343e-07    9.54112622e-02    9.11499856e-02    9.11499856e-02    8.52255316e-05    8.52255316e-05    1.10000000e-01    1.10000000e-01
23       1.31096494e-06    9.54112622e-02    9.11499856e-02    9.11499856e-02    8.52255316e-05    8.52255316e-05    1.10000000e-01    1.10000000e-01
24       2.62182612e-06    9.54112622e-02    9.11499856e-02    9.11499856e-02    8.52255316e-05    8.52255316e-05    1.10000000e-01    1.10000000e-01
25       5.24354849e-06    9.54112622e-02    9.11499856e-02    9.11499856e-02    8.52255316e-05    8.52255316e-05    1.10000000e-01    1.10000000e-01
26       1.04869932e-05    9.54112622e-02    9.11499856e-02    9.11499856e-02    8.52255316e-05    8.52255316e-05    1.10000000e-01    1.10000000e-01
27       2.09738827e-05    9.54112622e-02    9.11499856e-02    9.11499856e-02    8.52255316e-05    8.52255316e-05    1.10000000e-01    1.10000000e-01
28       4.19476617e-05    9.54112622e-02    9.11499856e-02    9.11499856e-02    8.52255316e-05    8.52255316e-05    1.10000000e-01    1.10000000e-01
29       8.00000000e-05    9.54112622e-02    9.11499856e-02    9.11499856e-02    8.52255316e-05    8.52255316e-05    1.10000000e-01    1.10000000e-01
30       8.41947558e-05    9.54112622e-02    9.11499856e-02    9.11499856e-02    8.52255316e-05    8.52255316e-05    1.10000000e-01    1.10000000e-01
31       9.25842674e-05    9.54112622e-02    9.11499856e-02    9.11499856e-02    8.52255316e-05    8.52255316e-05    1.10000000e-01    1.10000000e-01
32       1.09363291e-04    9.54112622e-02    9.11499856e-02    9.11499856e-02    8.52255316e-05    8.52255316e-05    1.10000000e-01    1.10000000e-01
33       1.42921337e-04    9.54112622e-02    9.11499856e-02    9.11499856e-02    8.52255316e-05    8.52255316e-05    1.10000000e-01    1.10000000e-01
34       1.60000000e-04    9.54112622e-02    9.11499856e-02    9.11499856e-02    8.52255316e-05    8.52255316e-05    1.10000000e-01    1.10000000e-01
35       1.60000006e-04    9.59856673e-02    9.16987363e-02    9.16987363e-02    8.57386189e-05    8.57386189e-05    1.10000000e-01    1.10000000e-01
36       1.60000019e-04    9.71344775e-02    9.27962378e-02    9.27962378e-02    8.67647936e-05    8.67647936e-05    1.10000000e-01    1.10000000e-01
37       1.60000044e-04    9.94320978e-02    9.49912406e-02    9.49912406e-02    8.88171439e-05    8.88171439e-05    1.10000000e-01    1.10000000e-01
38       1.60000094e-04    1.04027338e-01    9.93812461e-02    9.93812461e-02    9.29218475e-05    9.29218475e-05    1.10000000e-01    1.10000000e-01
39       1.60000194e-04    1.13217820e-01    1.08161256e-01    1.08161256e-01    1.01131268e-04    1.01131268e-04    1.10000000e-01    1.10000000e-01
40       1.60000394e-04    1.31598782e-01    1.25721274e-01    1.25721274e-01    1.17550165e-04    1.17550165e-04    1.10000000e-01    1.10000000e-01
41       1.60000794e-04    1.68360708e-01    1.60841296e-01    1.60841296e-01    1.50388234e-04    1.50388234e-04    1.10000001e-01    1.10000001e-01
42       1.60001000e-04    1.87316075e-01    1.78950049e-01    1.78950048e-01    1.67320545e-04    1.67320543e-04    1.10000010e-01    1.10000010e-01
43       1.60001080e-04    1.87316075e-01    1.78950049e-01    1.78950048e-01    1.67320555e-04    1.67320554e-04    1.10000018e-01    1.10000018e-01
44       1.60001240e-04    1.87316075e-01    1.78950047e-01    1.78950047e-01    1.67320575e-04    1.67320575e-04    1.10000032e-01    1.10000032e-01
45       1.60001560e-04    1.87316075e-01    1.78950045e-01    1.78950045e-01    1.67320617e-04    1.67320617e-04    1.10000061e-01    1.10000061e-01
46       1.60002200e-04    1.87316075e-01    1.78950040e-01    1.78950040e-01    1.67320700e-04    1.67320700e-04    1.10000118e-01    1.10000118e-01
47       1.60003480e-04    1.87316075e-01    1.78950032e-01    1.78950032e-01    1.67320867e-04    1.67320867e-04    1.10000233e-01    1.10000233e-01
48       1.60006040e-04    1.87316075e-01    1.78950015e-01    1.78950015e-01    1.67321201e-04    1.67321201e-04    1.10000463e-01    1.10000463e-01
49       1.60011160e-04    1.87316075e-01    1.78949982e-01    1.78949982e-01    1.67321869e-04    1.67321869e-04    1.10000923e-01    1.10000923e-01
50       1.60021400e-04    1.87316075e-01    1.78949915e-01    1.78949915e-01    1.67323206e-04    1.67323206e-04    1.10001842e-01    1.10001842e-01
51       1.60041880e-04    1.87316075e-01    1.78949781e-01    1.78949781e-01    1.67325878e-04    1.67325878e-04    1.10003681e-01    1.10003681e-01
52       1.60082840e-04    1.87316075e-01    1.78949514e-01    1.78949514e-01    1.67331223e-04    1.67331223e-04    1.10007360e-01    1.10007360e-01
53       1.60164760e-04    1.87316075e-01    1.78948980e-01    1.78948980e-01    1.67341912e-04    1.67341912e-04    1.10014716e-01    1.10014716e-01
54       1.60328600e-04    1.87316075e-01    1.78947911e-01    1.78947911e-01    1.67363290e-04    1.67363290e-04    1.10029427e-01    1.10029427e-01
55       1.60656280e-04    1.87316075e-01    1.78945773e-01    1.78945773e-01    1.67406042e-04    1.67406042e-04    1.10058848e-01    1.10058848e-01
56       1.61311640e-04    1.87316075e-01    1.78941498e-01    1.78941499e-01    1.67491527e-04    1.67491527e-04    1.10117680e-01    1.10117680e-01
57       1.62622360e-04    1.87316075e-01    1.78932952e-01    1.78932954e-01    1.67662425e-04    1.67662428e-04    1.10235303e-01    1.10235303e-01
58       1.65243800e-04    1.87316075e-01    1.78915869e-01    1.78915878e-01    1.68003937e-04    1.68003946e-04    1.10470388e-01    1.10470388e-01
59       1.70486680e-04    1.87316075e-01    1.78881745e-01    1.78881783e-01    1.68685819e-04    1.68685855e-04    1.10939916e-01    1.10939917e-01
60       1.80972440e-04    1.87316075e-01    1.78813668e-01    1.78813816e-01    1.70045031e-04    1.70045179e-04    1.11876410e-01    1.11876415e-01
61       2.01943960e-04    1.87316075e-01    1.78678191e-01    1.78678776e-01    1.72745352e-04    1.72745982e-04    1.13739187e-01    1.13739229e-01
62       2.40000000e-04    1.87316075e-01    1.78434779e-01    1.78436724e-01    1.77584670e-04    1.77587020e-04    1.17085005e-01    1.17085278e-01
63       2.40000025e-04    1.89441595e-01    1.80461505e-01    1.80461485e-01    1.79601799e-04    1.79602197e-04    1.17085008e-01    1.17085280e-01
64       2.40000044e-04    1.91066835e-01    1.82009702e-01    1.82009681e-01    1.81142666e-04    1.81143067e-04    1.17085010e-01    1.17085282e-01
65       2.40000082e-04    1.94317315e-01    1.85106095e-01    1.85106074e-01    1.84224402e-04    1.84224810e-04    1.17085014e-01    1.17085286e-01
66       2.40000159e-04    2.00818274e-01    1.91298880e-01    1.91298859e-01    1.90387892e-04    1.90388314e-04    1.17085024e-01    1.17085297e-01
67       2.40000312e-04    2.13820194e-01    2.03684447e-01    2.03684425e-01    2.02714939e-04    2.02715387e-04    1.17085052e-01    1.17085324e-01
68       2.40000618e-04    2.39824033e-01    2.28455569e-01    2.28455542e-01    2.27369328e-04    2.27369830e-04    1.17085135e-01    1.17085407e-01
69       2.40001000e-04    2.72336855e-01    2.59427082e-01    2.59427049e-01    2.58195554e-04    2.58196121e-04    1.17085292e-01    1.17085564e-01
70       2.40001061e-04    2.72336855e-01    2.59427081e-01    2.59427046e-01    2.58195619e-04    2.58196185e-04    1.17085322e-01    1.17085594e-01
71       2.40001184e-04    2.72336855e-01    2.59427069e-01    2.59427040e-01    2.58195739e-04    2.58196311e-04    1.17085382e-01    1.17085654e-01
72       2.40001428e-04    2.72336855e-01    2.59427056e-01    2.59427027e-01    2.58195991e-04    2.58196563e-04    1.17085502e-01    1.17085774e-01
73       2.40001918e-04    2.72336855e-01    2.59427031e-01    2.59427002e-01    2.58196495e-04    2.58197067e-04    1.17085742e-01    1.17086015e-01
74       2.40002896e-04    2.72336855e-01    2.59426980e-01    2.59426952e-01    2.58197504e-04    2.58198076e-04    1.17086223e-01    1.17086495e-01
75       2.40004854e-04    2.72336855e-01    2.59426879e-01    2.59426851e-01    2.58199522e-04    2.58200094e-04    1.17087183e-01    1.17087455e-01
76       2.40008769e-04    2.72336855e-01    2.59426678e-01    2.59426649e-01    2.58203557e-04    2.58204129e-04    1.17089104e-01    1.17089376e-01
77       2.40016598e-04    2.72336855e-01    2.59426274e-01    2.59426245e-01    2.58211628e-04    2.58212200e-04    1.17092946e-01    1.17093219e-01
78       2.40032258e-04    2.72336855e-01    2.59425467e-01    2.59425438e-01    2.58227770e-04    2.58228342e-04    1.17100630e-01    1.17100903e-01
79       2.40063577e-04    2.72336855e-01    2.59423853e-01    2.59423824e-01    2.58260052e-04    2.58260625e-04    1.17115999e-01    1.17116271e-01
80       2.40126216e-04    2.72336855e-01    2.59420625e-01    2.59420596e-01    2.58324615e-04    2.58325187e-04    1.17146734e-01    1.17147006e-01
81       2.40251493e-04    2.72336855e-01    2.59414169e-01    2.59414140e-01    2.58453728e-04    2.58454300e-04    1.17208202e-01    1.17208474e-01
82       2.40502048e-04    2.72336855e-01    2.59401259e-01    2.59401231e-01    2.58711908e-04    2.58712480e-04    1.17331125e-01    1.17331398e-01
83       2.41003157e-04    2.72336855e-01    2.59375447e-01    2.59375423e-01    2.59228083e-04    2.59228659e-04    1.17576922e-01    1.17577194e-01
84       2.42005375e-04    2.72336855e-01    2.59323853e-01    2.59323841e-01    2.60259697e-04    2.60260286e-04    1.18068314e-01    1.18068586e-01
85       2.44009812e-04    2.72336855e-01    2.59220786e-01    2.59220824e-01    2.62319985e-04    2.62320624e-04    1.19050294e-01    1.19050566e-01
86       2.48018685e-04    2.72336855e-01    2.59015132e-01    2.59015371e-01    2.66428830e-04    2.66429682e-04    1.21011046e-01    1.21011321e-01
87       2.56036431e-04    2.72336855e-01    2.58605743e-01    2.58606772e-01    2.74599905e-04    2.74601660e-04    1.24919774e-01    1.24920075e-01
88       2.72071924e-04    2.72336855e-01    2.57794568e-01    2.57798670e-01    2.90757944e-04    2.90763700e-04    1.32686542e-01    1.32687056e-01
89       3.04142909e-04    2.72336855e-01    2.56202091e-01    2.56217829e-01    3.22356000e-04    3.22380520e-04    1.48020643e-01    1.48022802e-01
90       3.20000000e-04    2.72336855e-01    2.55454759e-01    2.55453137e-01    3.37670578e-04    3.37674373e-04    1.55506479e-01    1.55509217e-01
91       3.20000031e-04    2.74661469e-01    2.57633906e-01    2.57633625e-01    3.40551255e-04    3.40556879e-04    1.55506494e-01    1.55509232e-01
92       3.20000056e-04    2.76542625e-01    2.59398433e-01    2.59398150e-01    3.42883838e-04    3.42889501e-04    1.55506507e-01    1.55509244e-01
93       3.20000106e-04    2.80304937e-01    2.62927486e-01    2.62927200e-01    3.47549014e-04    3.47554753e-04    1.55506532e-01    1.55509270e-01
94       3.20000207e-04    2.87829562e-01    2.69985592e-01    2.69985297e-01    3.56879406e-04    3.56885299e-04    1.55506585e-01    1.55509322e-01
95       3.20000407e-04    3.02878811e-01    2.84101794e-01    2.84101483e-01    3.75540359e-04    3.75546560e-04    1.55506702e-01    1.55509439e-01
96       3.20000808e-04    3.32977310e-01    3.12334165e-01    3.12333820e-01    4.12862998e-04    4.12869809e-04    1.55506981e-01    1.55509719e-01
97       3.20001000e-04    3.47349013e-01    3.25814787e-01    3.25814432e-01    4.30684507e-04    4.30691620e-04    1.55507136e-01    1.55509874e-01
98       3.20001080e-04    3.47349013e-01    3.25814796e-01    3.25814423e-01    4.30684707e-04    4.30691796e-04    1.55507204e-01    1.55509942e-01
99       3.20001241e-04    3.47349013e-01    3.25814761e-01    3.25814406e-01    4.30685037e-04    4.30692149e-04    1.55507340e-01    1.55510078e-01
100      3.20001562e-04    3.47349013e-01    3.25814726e-01    3.25814370e-01    4.30685743e-04    4.30692855e-04    1.55507612e-01    1.55510349e-01
101      3.20002204e-04    3.47349013e-01    3.25814655e-01    3.25814300e-01    4.30687155e-04    4.30694267e-04    1.55508155e-01    1.55510893e-01
102      3.20003488e-04    3.47349013e-01    3.25814514e-01    3.25814158e-01    4.30689979e-04    4.30697091e-04    1.55509242e-01    1.55511980e-01
103      3.20006056e-04    3.47349013e-01    3.25814232e-01    3.25813876e-01    4.30695627e-04    4.30702739e-04    1.55511416e-01    1.55514154e-01
104      3.20011192e-04    3.47349013e-01    3.25813667e-01    3.25813311e-01    4.30706922e-04    4.30714034e-04    1.55515764e-01    1.55518502e-01
105      3.20021464e-04    3.47349013e-01    3.25812537e-01    3.25812182e-01    4.30729513e-04    4.30736625e-04    1.55524460e-01    1.55527198e-01
106      3.20042008e-04    3.47349013e-01    3.25810278e-01    3.25809923e-01    4.30774693e-04    4.30781805e-04    1.55541852e-01    1.55544590e-01
107      3.20083095e-04    3.47349013e-01    3.25805760e-01    3.25805405e-01    4.30865050e-04    4.30872162e-04    1.55576635e-01    1.55579373e-01
108      3.20165271e-04    3.47349013e-01    3.25796725e-01    3.25796370e-01    4.31045748e-04    4.31052859e-04    1.55646198e-01    1.55648936e-01
109      3.20329622e-04    3.47349013e-01    3.25778658e-01    3.25778303e-01    4.31407081e-04    4.31414192e-04    1.55785312e-01    1.55788049e-01
110      3.20658325e-04    3.47349013e-01    3.25742533e-01    3.25742183e-01    4.32129496e-04    4.32136608e-04    1.56063490e-01    1.56066227e-01
111      3.21315730e-04    3.47349013e-01    3.25670325e-01    3.25669990e-01    4.33573323e-04    4.33580450e-04    1.56619649e-01    1.56622385e-01
112      3.22630540e-04    3.47349013e-01    3.25526077e-01    3.25525804e-01    4.36456973e-04    4.36464170e-04    1.57731179e-01    1.57733912e-01
113      3.25260161e-04    3.47349013e-01    3.25238251e-01    3.25238222e-01    4.42208305e-04    4.42215816e-04    1.59951093e-01    1.59953824e-01
114      3.30519403e-04    3.47349013e-01    3.24665262e-01    3.24666194e-01    4.53647515e-04    4.53656389e-04    1.64378386e-01    1.64381131e-01
115      3.41037885e-04    3.47349013e-01    3.23529842e-01    3.23534501e-01    4.76275377e-04    4.76290233e-04    1.73183263e-01    1.73186170e-01
116      3.62074851e-04    3.47349013e-01    3.21300447e-01    3.21319194e-01    5.20554341e-04    5.20596384e-04    1.90597472e-01    1.90601738e-01
117      4.00000000e-04    3.47349013e-01    3.17420715e-01    3.17479205e-01    5.97252658e-04    5.97396155e-04    2.21353130e-01    2.21365450e-01
118      4.00000038e-04    3.49736307e-01    3.19662726e-01    3.19661196e-01    6.01471625e-04    6.01502222e-04    2.21353161e-01    2.21365481e-01
119      4.00000070e-04    3.51722806e-01    3.21478390e-01    3.21476852e-01    6.04888311e-04    6.04919082e-04    2.21353187e-01    2.21365508e-01
120      4.00000134e-04    3.55695803e-01    3.25109718e-01    3.25108162e-01    6.11721701e-04    6.11752820e-04    2.21353241e-01    2.21365561e-01
121      4.00000262e-04    3.63641797e-01    3.32372370e-01    3.32370779e-01    6.25388557e-04    6.25420370e-04    2.21353351e-01    2.21365671e-01
122      4.00000517e-04    3.79533786e-01    3.46897659e-01    3.46895997e-01    6.52722575e-04    6.52755777e-04    2.21353587e-01    2.21365907e-01
123      4.00001000e-04    4.09595784e-01    3.74374291e-01    3.74372492e-01    7.04430022e-04    7.04465843e-04    2.21354091e-01    2.21366411e-01
124      4.00001051e-04    4.09595784e-01    3.74374292e-01    3.74372484e-01    7.04430206e-04    7.04466010e-04    2.21354148e-01    2.21366468e-01
125      4.00001153e-04    4.09595784e-01    3.74374259e-01    3.74372467e-01    7.04430508e-04    7.04466343e-04    2.21354262e-01    2.21366583e-01
126      4.00001357e-04    4.09595784e-01    3.74374225e-01    3.74372434e-01    7.04431175e-04    7.04467010e-04    2.21354492e-01    2.21366812e-01
127      4.00001766e-04    4.09595784e-01    3.74374159e-01    3.74372367e-01    7.04432509e-04    7.04468343e-04    2.21354950e-01    2.21367270e-01
128      4.00002583e-04    4.09595784e-01    3.74374025e-01    3.74372234e-01    7.04435175e-04    7.04471010e-04    2.21355867e-01    2.21368187e-01
129      4.00004217e-04    4.09595784e-01    3.74373759e-01    3.74371967e-01    7.04440509e-04    7.04476344e-04    2.21357701e-01    2.21370021e-01
130      4.00007485e-04    4.09595784e-01    3.74373225e-01    3.74371434e-01    7.04451177e-04    7.04487011e-04    2.21361368e-01    2.21373688e-01
131      4.00014021e-04    4.09595784e-01    3.74372159e-01    3.74370367e-01    7.04472512e-04    7.04508346e-04    2.21368703e-01    2.21381023e-01
