Title: RAW File Output test for B, E and F Sources.
Date: Sat Apr 30 01:44:43 2016
Plotname: Transient Analysis
Flags: real
No. Variables: 22
No. Points: 21                
Variables:
	0	time	time
	1	V(1)	voltage
	2	V(10)	voltage
	3	V(11)	voltage
	4	V(12)	voltage
	5	V(13)	voltage
	6	V(14)	voltage
	7	V(15)	voltage
	8	V(2)	voltage
	9	V(3)	voltage
	10	V(4)	voltage
	11	V(5)	voltage
	12	V(6)	voltage
	13	V(7)	voltage
	14	V(8)	voltage
	15	V(9)	voltage
	16	B1#branch	current
	17	ELIN#branch	current
	18	EPOLY#branch	current
	19	ETABLE#branch	current
	20	EVALUE#branch	current
	21	V15#branch	current
Values:
0	0.00000000e+00
	0.00000000e+00
	9.09090909e-02
	0.00000000e+00
	0.00000000e+00
	0.00000000e+00
	0.00000000e+00
	1.00000000e+00
	0.00000000e+00
	0.00000000e+00
	0.00000000e+00
	0.00000000e+00
	0.00000000e+00
	0.00000000e+00
	0.00000000e+00
	1.00000000e+00
	0.00000000e+00
	0.00000000e+00
	0.00000000e+00
	-9.09090909e-04
	0.00000000e+00
	-1.00000000e+00

1	5.00000000e-02
	6.17905589e-01
	1.47091541e-01
	6.17905589e-01
	5.61732353e-02
	6.17905589e-01
	5.61732353e-02
	1.00000000e+00
	5.61732353e-02
	6.17905589e-01
	5.61732353e-02
	3.37039412e-01
	3.06399466e-02
	3.92835524e+00
	3.57123203e-01
	1.61800695e+00
	-5.61732353e-04
	-5.61732353e-04
	-3.06399466e-04
	-1.47091541e-03
	-3.57123203e-03
	-1.00000000e+00

2	1.00000000e-01
	1.17489861e+00
	1.81853178e-01
	1.17489861e+00
	1.06808965e-01
	1.17489861e+00
	1.06808965e-01
	1.00000000e+00
	1.06808965e-01
	1.17489861e+00
	1.06808965e-01
	6.40853789e-01
	5.82594354e-02
	5.41811345e+00
	4.92555768e-01
	2.00038495e+00
	-1.06808965e-03
	-1.06808965e-03
	-5.82594354e-04
	-1.81853178e-03
	-4.92555768e-03
	-1.00000000e+00

3	1.50000000e-01
	1.61771905e+00
	1.81923995e-01
	1.61771905e+00
	1.47065368e-01
	1.61771905e+00
	1.47065368e-01
	1.00000000e+00
	1.47065368e-01
	1.61771905e+00
	1.47065368e-01
	8.82392207e-01
	8.02174733e-02
	6.35933545e+00
	5.78121405e-01
	2.00116394e+00
	-1.47065368e-03
	-1.47065368e-03
	-8.02174733e-04
	-1.81923995e-03
	-5.78121405e-03
	-1.00000000e+00

4	2.00000000e-01
	1.90093111e+00
	1.81810471e-01
	1.90093111e+00
	1.72811919e-01
	1.90093111e+00
	1.72811919e-01
	1.00000000e+00
	1.72811919e-01
	1.90093111e+00
	1.72811919e-01
	1.03687151e+00
	9.42610467e-02
	6.89359801e+00
	6.26690728e-01
	1.99991518e+00
	-1.72811919e-03
	-1.72811919e-03
	-9.42610467e-04
	-1.81810471e-03
	-6.26690728e-03
	-1.00000000e+00

5	2.50000000e-01
	1.99988634e+00
	1.81696946e-01
	1.99988634e+00
	1.81807849e-01
	1.99988634e+00
	1.81807849e-01
	1.00000000e+00
	1.81807849e-01
	1.99988634e+00
	1.81807849e-01
	1.09084710e+00
	9.91679178e-02
	7.07086509e+00
	6.42805917e-01
	1.99866641e+00
	-1.81807849e-03
	-1.81807849e-03
	-9.91679178e-04
	-1.81696946e-03
	-6.42805917e-03
	-1.00000000e+00

6	3.00000000e-01
	1.90095569e+00
	1.81798608e-01
	1.90095569e+00
	1.72814153e-01
	1.90095569e+00
	1.72814153e-01
	1.00000000e+00
	1.72814153e-01
	1.90095569e+00
	1.72814153e-01
	1.03688492e+00
	9.42622654e-02
	6.89364231e+00
	6.26694756e-01
	1.99978469e+00
	-1.72814153e-03
	-1.72814153e-03
	-9.42622654e-04
	-1.81798608e-03
	-6.26694756e-03
	-1.00000000e+00

7	3.50000000e-01
	1.61756975e+00
	1.81912133e-01
	1.61756975e+00
	1.47051795e-01
	1.61756975e+00
	1.47051795e-01
	1.00000000e+00
	1.47051795e-01
	1.61756975e+00
	1.47051795e-01
	8.82310770e-01
	8.02100700e-02
	6.35897007e+00
	5.78088188e-01
	2.00103346e+00
	-1.47051795e-03
	-1.47051795e-03
	-8.02100700e-04
	-1.81912133e-03
	-5.78088188e-03
	-1.00000000e+00

8	4.00000000e-01
	1.17494419e+00
	1.81865040e-01
	1.17494419e+00
	1.06813108e-01
	1.17494419e+00
	1.06813108e-01
	1.00000000e+00
	1.06813108e-01
	1.17494419e+00
	1.06813108e-01
	6.40878648e-01
	5.82616953e-02
	5.41830442e+00
	4.92573129e-01
	2.00051544e+00
	-1.06813108e-03
	-1.06813108e-03
	-5.82616953e-04
	-1.81865040e-03
	-4.92573129e-03
	-1.00000000e+00

9	4.50000000e-01
	6.18031961e-01
	1.46967053e-01
	6.18031961e-01
	5.61847237e-02
	6.18031961e-01
	5.61847237e-02
	1.00000000e+00
	5.61847237e-02
	6.18031961e-01
	5.61847237e-02
	3.37108342e-01
	3.06462129e-02
	3.93072295e+00
	3.57338450e-01
	1.61663759e+00
	-5.61847237e-04
	-5.61847237e-04
	-3.06462129e-04
	-1.46967053e-03
	-3.57338450e-03
	-1.00000000e+00

10	5.00000000e-01
	7.07297922e-16
	9.09094250e-02
	7.07297922e-16
	6.42997533e-17
	7.07297922e-16
	6.42997533e-17
	1.00000000e+00
	6.42997533e-17
	7.07297922e-16
	6.42997533e-17
	3.85798944e-16
	3.50726697e-17
	1.32357132e-02
	1.20324666e-03
	1.00000367e+00
	-6.42997269e-19
	-6.42997269e-19
	-3.50726234e-19
	-9.09094250e-04
	-1.20324666e-05
	-1.00000000e+00

11	5.50000000e-01
	-6.17843279e-01
	9.09090909e-02
	-6.17843279e-01
	-5.61675708e-02
	-6.17843279e-01
	-5.61675708e-02
	1.00000000e+00
	-5.61675708e-02
	-6.17843279e-01
	-5.61675708e-02
	-3.37005425e-01
	-3.06368568e-02
	3.92811570e+00
	3.57101427e-01
	1.00000000e+00
	5.61675708e-04
	5.61675708e-04
	3.06368568e-04
	-9.09090909e-04
	-3.57101427e-03
	-1.00000000e+00

12	6.00000000e-01
	-1.17456603e+00
	9.09090909e-02
	-1.17456603e+00
	-1.06778730e-01
	-1.17456603e+00
	-1.06778730e-01
	1.00000000e+00
	-1.06778730e-01
	-1.17456603e+00
	-1.06778730e-01
	-6.40672383e-01
	-5.82429439e-02
	5.41764414e+00
	4.92513103e-01
	1.00000000e+00
	1.06778730e-03
	1.06778730e-03
	5.82429439e-04
	-9.09090909e-04
	-4.92513103e-03
	-1.00000000e+00

13	6.50000000e-01
	-1.61717509e+00
	9.09090909e-02
	-1.61717509e+00
	-1.47015917e-01
	-1.61717509e+00
	-1.47015917e-01
	1.00000000e+00
	-1.47015917e-01
	-1.61717509e+00
	-1.47015917e-01
	-8.82095504e-01
	-8.01905003e-02
	6.36168665e+00
	5.78335150e-01
	1.00000000e+00
	1.47015917e-03
	1.47015917e-03
	8.01905003e-04
	-9.09090909e-04
	-5.78335150e-03
	-1.00000000e+00

14	7.00000000e-01
	-1.90178822e+00
	9.09090909e-02
	-1.90178822e+00
	-1.72889838e-01
	-1.90178822e+00
	-1.72889838e-01
	1.00000000e+00
	-1.72889838e-01
	-1.90178822e+00
	-1.72889838e-01
	-1.03733903e+00
	-9.43035482e-02
	6.90044856e+00
	6.27313506e-01
	1.00000000e+00
	1.72889838e-03
	1.72889838e-03
	9.43035482e-04
	-9.09090909e-04
	-6.27313506e-03
	-1.00000000e+00

15	7.50000000e-01
	-1.99856889e+00
	9.09090909e-02
	-1.99856889e+00
	-1.81688081e-01
	-1.99856889e+00
	-1.81688081e-01
	1.00000000e+00
	-1.81688081e-01
	-1.99856889e+00
	-1.81688081e-01
	-1.09012849e+00
	-9.91025896e-02
	7.07099900e+00
	6.42818091e-01
	1.00000000e+00
	1.81688081e-03
	1.81688081e-03
	9.91025896e-04
	-9.09090909e-04
	-6.42818091e-03
	-1.00000000e+00

16	8.00000000e-01
	-1.90046142e+00
	9.09090909e-02
	-1.90046142e+00
	-1.72769220e-01
	-1.90046142e+00
	-1.72769220e-01
	1.00000000e+00
	-1.72769220e-01
	-1.90046142e+00
	-1.72769220e-01
	-1.03661532e+00
	-9.42377565e-02
	6.89240344e+00
	6.26582131e-01
	1.00000000e+00
	1.72769220e-03
	1.72769220e-03
	9.42377565e-04
	-9.09090909e-04
	-6.26582131e-03
	-1.00000000e+00

17	8.50000000e-01
	-1.61702316e+00
	9.09090909e-02
	-1.61702316e+00
	-1.47002105e-01
	-1.61702316e+00
	-1.47002105e-01
	1.00000000e+00
	-1.47002105e-01
	-1.61702316e+00
	-1.47002105e-01
	-8.82012630e-01
	-8.01829664e-02
	6.35448274e+00
	5.77680249e-01
	1.00000000e+00
	1.47002105e-03
	1.47002105e-03
	8.01829664e-04
	-9.09090909e-04
	-5.77680249e-03
	-1.00000000e+00

18	9.00000000e-01
	-1.17556599e+00
	9.09090909e-02
	-1.17556599e+00
	-1.06869636e-01
	-1.17556599e+00
	-1.06869636e-01
	1.00000000e+00
	-1.06869636e-01
	-1.17556599e+00
	-1.06869636e-01
	-6.41217813e-01
	-5.82925285e-02
	5.41534875e+00
	4.92304432e-01
	1.00000000e+00
	1.06869636e-03
	1.06869636e-03
	5.82925285e-04
	-9.09090909e-04
	-4.92304432e-03
	-1.00000000e+00

19	9.50000000e-01
	-6.17916918e-01
	9.09090909e-02
	-6.17916918e-01
	-5.61742653e-02
	-6.17916918e-01
	-5.61742653e-02
	1.00000000e+00
	-5.61742653e-02
	-6.17916918e-01
	-5.61742653e-02
	-3.37045592e-01
	-3.06405083e-02
	3.92984923e+00
	3.57259021e-01
	1.00000000e+00
	5.61742653e-04
	5.61742653e-04
	3.06405083e-04
	-9.09090909e-04
	-3.57259021e-03
	-1.00000000e+00

20	1.00000000e+00
	0.00000000e+00
	9.09090909e-02
	0.00000000e+00
	0.00000000e+00
	0.00000000e+00
	0.00000000e+00
	1.00000000e+00
	0.00000000e+00
	0.00000000e+00
	0.00000000e+00
	0.00000000e+00
	3.00792950e-22
	0.00000000e+00
	2.06795153e-25
	1.00000000e+00
	0.00000000e+00
	0.00000000e+00
	3.00792950e-25
	-9.09090909e-04
	0.00000000e+00
	-1.00000000e+00

