Title: RAW File Output test for the NSOI MOSFET.
Date: Sat Apr 30 03:30:20 2016
Plotname: Transient Analysis
Flags: real
No. Variables: 10
No. Points: 16                
Variables:
	0	time	time
	1	V(1)	voltage
	2	IN	voltage
	3	MN1#gate	voltage
	4	NB	voltage
	5	ND	voltage
	6	NE	voltage
	7	NG	voltage
	8	NS	voltage
	9	VIN#branch	current
Values:
0	0.00000000e+00
	0.00000000e+00
	8.99401381e-19
	4.81786988e-18
	-7.94094793e-27
	-2.10523612e-19
	-4.61857161e-62
	2.00933537e-18
	-8.99401381e-24
	8.99401381e-24

1	2.00000000e-07
	0.00000000e+00
	8.63778341e-20
	8.63441158e-20
	-4.98767227e-17
	8.63910669e-20
	-2.48355559e-25
	8.63682832e-20
	-5.82774525e-24
	8.63778341e-25

2	4.00000000e-07
	0.00000000e+00
	6.36318688e-19
	6.36359279e-19
	-6.85493006e-17
	6.36316531e-19
	1.17214218e-26
	6.36330185e-19
	-4.58520304e-24
	6.36318688e-24

3	6.00000000e-07
	0.00000000e+00
	5.14069975e-19
	5.14085919e-19
	-5.86017709e-17
	5.14070032e-19
	1.93779507e-26
	5.14074491e-19
	4.96753048e-26
	5.14069975e-24

4	8.00000000e-07
	0.00000000e+00
	4.55069684e-19
	4.55085083e-19
	-4.01164209e-17
	4.55069670e-19
	1.01687508e-25
	4.55074046e-19
	4.58975122e-26
	4.55069684e-24

5	1.00000000e-06
	0.00000000e+00
	4.28536359e-19
	4.28548369e-19
	-1.40227232e-17
	4.28537192e-19
	6.05400076e-26
	4.28539761e-19
	-9.78460745e-26
	4.28536359e-24

6	1.20000000e-06
	0.00000000e+00
	6.52277264e-19
	6.52282481e-19
	-4.87801768e-17
	6.52283751e-19
	-1.46385114e-25
	6.52278742e-19
	-3.27692747e-24
	6.52277264e-24

7	1.40000000e-06
	0.00000000e+00
	7.01566135e-19
	7.01566503e-19
	-6.37450433e-17
	7.01572839e-19
	-9.25551357e-26
	7.01566239e-19
	-1.99759442e-24
	7.01566135e-24

8	1.60000000e-06
	4.00000000e+00
	9.41758294e-01
	9.41758276e-01
	5.79644106e-01
	9.41727876e-01
	-1.19518137e-10
	9.41758289e-01
	3.04170526e-05
	-3.05824171e-05

9	1.80000000e-06
	4.00000000e+00
	9.60674200e-01
	9.60674188e-01
	5.34829379e-01
	9.60643871e-01
	-1.37627853e-10
	9.60674197e-01
	3.03279402e-05
	-3.03932580e-05

10	2.00000000e-06
	4.00000000e+00
	9.76171441e-01
	9.76171428e-01
	4.90237295e-01
	9.76141305e-01
	-1.22407732e-10
	9.76171438e-01
	3.01353774e-05
	-3.02382856e-05

11	2.20000000e-06
	4.00000000e+00
	9.96207781e-01
	9.96207768e-01
	4.50873593e-01
	9.96177847e-01
	-1.14057539e-10
	9.96207777e-01
	2.99334974e-05
	-3.00379222e-05

12	2.40000000e-06
	4.00000000e+00
	1.01493222e+00
	1.01493221e+00
	4.14461371e-01
	1.01490247e+00
	-1.07530990e-10
	1.01493222e+00
	2.97512774e-05
	-2.98506778e-05

13	2.60000000e-06
	4.00000000e+00
	1.03262154e+00
	1.03262153e+00
	3.79724137e-01
	1.03259196e+00
	-1.01027168e-10
	1.03262154e+00
	2.95816301e-05
	-2.96737846e-05

14	2.80000000e-06
	4.00000000e+00
	1.04830682e+00
	1.04830681e+00
	3.47564552e-01
	1.04827739e+00
	-9.54495856e-11
	1.04830682e+00
	2.94325491e-05
	-2.95169318e-05

15	3.00000000e-06
	4.00000000e+00
	1.06332043e+00
	1.06332042e+00
	3.16106783e-01
	1.06329114e+00
	-9.04040350e-11
	1.06332043e+00
	2.92904299e-05
	-2.93667957e-05

