Title: RAW File Output test for B, G and H Sources.
Date: Sun Aug 09 10:36:20 2020
Plotname: Transient Analysis
Flags: real
No. Variables: 20
No. Points: 21                
Variables:
	0	time	time
	1	V(1)	voltage
	2	V(10)	voltage
	3	V(11)	voltage
	4	V(12)	voltage
	5	V(13)	voltage
	6	V(14)	voltage
	7	V(15)	voltage
	8	V(2)	voltage
	9	V(3)	voltage
	10	V(4)	voltage
	11	V(5)	voltage
	12	V(6)	voltage
	13	V(7)	voltage
	14	V(8)	voltage
	15	V(9)	voltage
	16	B1#branch	current
	17	HLIN#branch	current
	18	HPOLY#branch	current
	19	V15#branch	current
Values:
0	0.00000000e+00
	0.00000000e+00
	-1.00000000e+02
	0.00000000e+00
	0.00000000e+00
	0.00000000e+00
	0.00000000e+00
	1.00000000e+00
	0.00000000e+00
	0.00000000e+00
	0.00000000e+00
	0.00000000e+00
	0.00000000e+00
	0.00000000e+00
	0.00000000e+00
	-1.10000000e+03
	0.00000000e+00
	0.00000000e+00
	0.00000000e+00
	-1.00000000e+00

1	5.00000000e-02
	6.17732734e-01
	-1.61773275e+02
	-5.61575213e-04
	-5.10522921e-05
	-1.12315043e-03
	-1.02104584e-04
	1.00000000e+00
	5.61575213e-02
	-6.79506008e+02
	-6.17732734e+01
	4.07703605e+05
	3.70639641e+04
	-4.31852304e+03
	-3.92593004e+02
	-1.77950603e+03
	-5.61575213e-04
	5.10522921e-07
	1.02104584e-06
	-1.00000000e+00

2	1.00000000e-01
	1.17513585e+00
	-2.00000002e+02
	-1.06830532e-03
	-9.71186654e-05
	-2.13661064e-03
	-1.94237331e-04
	1.00000000e+00
	1.06830532e-01
	-1.29264944e+03
	-1.17513585e+02
	7.75589662e+05
	7.05081511e+04
	-5.96102307e+03
	-5.41911188e+02
	-2.20000002e+03
	-1.06830532e-03
	9.71186654e-07
	1.94237331e-06
	-1.00000000e+00

3	1.50000000e-01
	1.61666296e+00
	-2.00000001e+02
	-1.46969360e-03
	-1.33608509e-04
	-2.93938719e-03
	-2.67217018e-04
	1.00000000e+00
	1.46969360e-01
	-1.77832925e+03
	-1.61666296e+02
	1.06699755e+06
	9.69997774e+04
	-6.99233277e+03
	-6.35666615e+02
	-2.20000001e+03
	-1.46969360e-03
	1.33608509e-06
	2.67217018e-06
	-1.00000000e+00

4	2.00000000e-01
	1.90061660e+00
	-1.99999999e+02
	-1.72783327e-03
	-1.57075752e-04
	-3.45566654e-03
	-3.14151504e-04
	1.00000000e+00
	1.72783327e-01
	-2.09067826e+03
	-1.90061660e+02
	1.25440695e+06
	1.14036996e+05
	-7.58231406e+03
	-6.89301278e+02
	-2.19999999e+03
	-1.72783327e-03
	1.57075752e-06
	3.14151504e-06
	-1.00000000e+00

5	2.50000000e-01
	1.99963803e+00
	-1.99999997e+02
	-1.81785275e-03
	-1.65259341e-04
	-3.63570550e-03
	-3.30518682e-04
	1.00000000e+00
	1.81785275e-01
	-2.19960183e+03
	-1.99963803e+02
	1.31976110e+06
	1.19978282e+05
	-7.77747019e+03
	-7.07042745e+02
	-2.19999997e+03
	-1.81785275e-03
	1.65259341e-06
	3.30518682e-06
	-1.00000000e+00

6	3.00000000e-01
	1.90094341e+00
	-1.99999998e+02
	-1.72813037e-03
	-1.57102761e-04
	-3.45626075e-03
	-3.14205523e-04
	1.00000000e+00
	1.72813037e-01
	-2.09103775e+03
	-1.90094341e+02
	1.25462265e+06
	1.14056605e+05
	-7.58300410e+03
	-6.89364009e+02
	-2.19999998e+03
	-1.72813037e-03
	1.57102761e-06
	3.14205523e-06
	-1.00000000e+00

7	3.50000000e-01
	1.61659566e+00
	-2.00000000e+02
	-1.46963242e-03
	-1.33602947e-04
	-2.93926484e-03
	-2.67205895e-04
	1.00000000e+00
	1.46963242e-01
	-1.77825523e+03
	-1.61659566e+02
	1.06695314e+06
	9.69957398e+04
	-6.99217737e+03
	-6.35652488e+02
	-2.20000000e+03
	-1.46963242e-03
	1.33602947e-06
	2.67205895e-06
	-1.00000000e+00

8	4.00000000e-01
	1.17484656e+00
	-2.00000002e+02
	-1.06804233e-03
	-9.70947571e-05
	-2.13608466e-03
	-1.94189514e-04
	1.00000000e+00
	1.06804233e-01
	-1.29233122e+03
	-1.17484656e+02
	7.75398730e+05
	7.04907936e+04
	-5.95956991e+03
	-5.41779083e+02
	-2.20000002e+03
	-1.06804233e-03
	9.70947571e-07
	1.94189514e-06
	-1.00000000e+00

9	4.50000000e-01
	6.17932119e-01
	-1.61793214e+02
	-5.61756472e-04
	-5.10687701e-05
	-1.12351294e-03
	-1.02137540e-04
	1.00000000e+00
	5.61756472e-02
	-6.79725331e+02
	-6.17932119e+01
	4.07835198e+05
	3.70759271e+04
	-4.32210631e+03
	-3.92918755e+02
	-1.77972536e+03
	-5.61756472e-04
	5.10687701e-07
	1.02137540e-06
	-1.00000000e+00

10	5.00000000e-01
	-1.56740367e-05
	-1.03666448e+02
	1.42491243e-08
	1.29537493e-09
	2.84982485e-08
	2.59074986e-09
	1.00000000e+00
	-1.42491243e-06
	1.72414403e-02
	1.56740367e-03
	-1.03448642e+01
	-9.40442201e-01
	-5.95492304e+02
	-5.41356640e+01
	-1.14033092e+03
	1.42491243e-08
	-1.29537493e-11
	-2.59074986e-11
	-1.00000000e+00

11	5.50000000e-01
	-6.17669442e-01
	-1.00000000e+02
	5.61517675e-04
	5.10470613e-05
	1.12303535e-03
	1.02094123e-04
	1.00000000e+00
	-5.61517675e-02
	6.79436386e+02
	6.17669442e+01
	-4.07661832e+05
	-3.70601665e+04
	0.00000000e+00
	0.00000000e+00
	-1.10000000e+03
	5.61517675e-04
	-5.10470613e-07
	-1.02094123e-06
	-1.00000000e+00

12	6.00000000e-01
	-1.17518120e+00
	-1.00000000e+02
	1.06834654e-03
	9.71224131e-05
	2.13669309e-03
	1.94244826e-04
	1.00000000e+00
	-1.06834654e-01
	1.29269932e+03
	1.17518120e+02
	-7.75619591e+05
	-7.05108719e+04
	0.00000000e+00
	0.00000000e+00
	-1.10000000e+03
	1.06834654e-03
	-9.71224131e-07
	-1.94244826e-06
	-1.00000000e+00

13	6.50000000e-01
	-1.61788634e+00
	-1.00000000e+02
	1.47080576e-03
	1.33709615e-04
	2.94161152e-03
	2.67419229e-04
	1.00000000e+00
	-1.47080576e-01
	1.77967497e+03
	1.61788634e+02
	-1.06780498e+06
	-9.70731803e+04
	0.00000000e+00
	0.00000000e+00
	-1.10000000e+03
	1.47080576e-03
	-1.33709615e-06
	-2.67419229e-06
	-1.00000000e+00

14	7.00000000e-01
	-1.90123117e+00
	-1.00000000e+02
	1.72839197e-03
	1.57126543e-04
	3.45678394e-03
	3.14253086e-04
	1.00000000e+00
	-1.72839197e-01
	2.09135428e+03
	1.90123117e+02
	-1.25481257e+06
	-1.14073870e+05
	0.00000000e+00
	0.00000000e+00
	-1.10000000e+03
	1.72839197e-03
	-1.57126543e-06
	-3.14253086e-06
	-1.00000000e+00

15	7.50000000e-01
	-1.99866891e+00
	-1.00000000e+02
	1.81697173e-03
	1.65179249e-04
	3.63394347e-03
	3.30358497e-04
	1.00000000e+00
	-1.81697173e-01
	2.19853580e+03
	1.99866891e+02
	-1.31912148e+06
	-1.19920134e+05
	0.00000000e+00
	0.00000000e+00
	-1.10000000e+03
	1.81697173e-03
	-1.65179249e-06
	-3.30358497e-06
	-1.00000000e+00

16	8.00000000e-01
	-1.90077658e+00
	-1.00000000e+02
	1.72797871e-03
	1.57088974e-04
	3.45595742e-03
	3.14177947e-04
	1.00000000e+00
	-1.72797871e-01
	2.09085424e+03
	1.90077658e+02
	-1.25451254e+06
	-1.14046595e+05
	0.00000000e+00
	0.00000000e+00
	-1.10000000e+03
	1.72797871e-03
	-1.57088974e-06
	-3.14177947e-06
	-1.00000000e+00

17	8.50000000e-01
	-1.61710280e+00
	-1.00000000e+02
	1.47009345e-03
	1.33644859e-04
	2.94018690e-03
	2.67289718e-04
	1.00000000e+00
	-1.47009345e-01
	1.77881308e+03
	1.61710280e+02
	-1.06728785e+06
	-9.70261677e+04
	0.00000000e+00
	0.00000000e+00
	-1.10000000e+03
	1.47009345e-03
	-1.33644859e-06
	-2.67289718e-06
	-1.00000000e+00

18	9.00000000e-01
	-1.17524185e+00
	-1.00000000e+02
	1.06840168e-03
	9.71274254e-05
	2.13680336e-03
	1.94254851e-04
	1.00000000e+00
	-1.06840168e-01
	1.29276603e+03
	1.17524185e+02
	-7.75659619e+05
	-7.05145109e+04
	0.00000000e+00
	0.00000000e+00
	-1.10000000e+03
	1.06840168e-03
	-9.71274254e-07
	-1.94254851e-06
	-1.00000000e+00

19	9.50000000e-01
	-6.17935674e-01
	-1.00000000e+02
	5.61759704e-04
	5.10690640e-05
	1.12351941e-03
	1.02138128e-04
	1.00000000e+00
	-5.61759704e-02
	6.79729242e+02
	6.17935674e+01
	-4.07837545e+05
	-3.70761405e+04
	0.00000000e+00
	0.00000000e+00
	-1.10000000e+03
	5.61759704e-04
	-5.10690640e-07
	-1.02138128e-06
	-1.00000000e+00

20	1.00000000e+00
	0.00000000e+00
	-1.00000000e+02
	3.44973419e-20
	3.20122452e-20
	6.89946837e-20
	6.40244904e-20
	1.00000000e+00
	3.44973419e-17
	5.74540415e-13
	1.30451205e-13
	1.09634524e-10
	7.38298311e-12
	0.00000000e+00
	0.00000000e+00
	-1.10000000e+03
	3.44973419e-20
	1.03394022e-22
	2.06788043e-22
	-1.00000000e+00

