Title: RAW File Output test for Thermal Resistor, Inductor and Capacitor
Date: Wed Aug 12 02:30:12 2020
Plotname: Transient Analysis
Flags: real
No. Variables: 13
No. Points: 21                
Variables:
	0	time	time
	1	V(1)	voltage
	2	V(2)	voltage
	3	V(3)	voltage
	4	V(4)	voltage
	5	V(5)	voltage
	6	V(6)	voltage
	7	V(7)	voltage
	8	C2#branch	current
	9	L1#branch	current
	10	L2#branch	current
	11	V1#branch	current
	12	V2#branch	current
Values:
0	0.00000000e+00
	0.00000000e+00
	0.00000000e+00
	0.00000000e+00
	0.00000000e+00
	0.00000000e+00
	0.00000000e+00
	0.00000000e+00
	0.00000000e+00
	0.00000000e+00
	0.00000000e+00
	0.00000000e+00
	0.00000000e+00

1	5.00000000e-03
	6.17996049e-01
	6.17880024e-01
	1.43920223e-04
	6.17996049e-01
	6.17398524e-01
	-1.90237824e-06
	-1.05124218e-04
	0.00000000e+00
	1.16025457e-04
	1.19505030e-04
	-1.16025457e-04
	-1.19505030e-04

2	1.00000000e-02
	1.17534122e+00
	1.17524143e+00
	1.51545989e-04
	1.17534122e+00
	1.17483286e+00
	-4.07202220e-06
	-1.99931419e-04
	0.00000000e+00
	9.97880349e-05
	1.01672345e-04
	-9.97880349e-05
	-1.01672345e-04

3	1.50000000e-02
	1.61771744e+00
	1.61763952e+00
	-1.16835374e-04
	1.61771744e+00
	1.61734790e+00
	-6.75638456e-06
	-2.75181825e-04
	0.00000000e+00
	7.79142824e-05
	7.39066751e-05
	-7.79142824e-05
	-7.39066751e-05

4	2.00000000e-02
	1.90182572e+00
	1.90178214e+00
	3.88492948e-04
	1.90182572e+00
	1.90163132e+00
	-6.23974498e-06
	-3.23510066e-04
	0.00000000e+00
	4.35841491e-05
	3.88806075e-05
	-4.35841491e-05
	-3.88806075e-05

5	2.50000000e-02
	1.99987634e+00
	1.99989708e+00
	1.87016602e-04
	1.99987634e+00
	1.99987644e+00
	-7.38652734e-06
	-3.40188967e-04
	0.00000000e+00
	-2.07452139e-05
	-2.09439444e-08
	2.07452139e-05
	2.09439444e-08

6	3.00000000e-02
	1.90199749e+00
	1.90204104e+00
	-6.55798794e-04
	1.90199749e+00
	1.90219152e+00
	-9.19220163e-06
	-3.23539287e-04
	0.00000000e+00
	-4.35555044e-05
	-3.88054988e-05
	4.35555044e-05
	3.88054988e-05

7	3.50000000e-02
	1.61779020e+00
	1.61785163e+00
	-6.79907115e-05
	1.61779020e+00
	1.61815921e+00
	-6.51818681e-06
	-2.75194206e-04
	0.00000000e+00
	-6.14248023e-05
	-7.38014017e-05
	6.14248023e-05
	7.38014017e-05

8	4.00000000e-02
	1.17534048e+00
	1.17544307e+00
	1.41969383e-04
	1.17534048e+00
	1.17584867e+00
	-4.34115625e-06
	-1.99931295e-04
	0.00000000e+00
	-1.02594868e-04
	-1.01637873e-04
	1.02594868e-04
	1.01637873e-04

9	4.50000000e-02
	6.17913723e-01
	6.18030369e-01
	-1.10293747e-04
	6.17913723e-01
	6.18511163e-01
	-2.65212241e-06
	-1.05110216e-04
	0.00000000e+00
	-1.16645326e-04
	-1.19487909e-04
	1.16645326e-04
	1.19487909e-04

10	5.00000000e-02
	-1.73076137e-12
	1.27490606e-04
	-1.48664316e-04
	-1.73076137e-12
	6.28342265e-04
	-2.54737292e-08
	2.94411169e-16
	0.00000000e+00
	-1.27490607e-04
	-1.25668453e-04
	1.27490607e-04
	1.25668453e-04

11	5.50000000e-02
	-6.17955053e-01
	-6.17835130e-01
	4.25013053e-05
	-6.17955053e-01
	-6.17357439e-01
	2.35077701e-06
	1.05117246e-04
	0.00000000e+00
	-1.19922871e-04
	-1.19522844e-04
	1.19922871e-04
	1.19522844e-04

12	6.00000000e-02
	-1.17489462e+00
	-1.17479342e+00
	-1.15253429e-06
	-1.17489462e+00
	-1.17438625e+00
	4.70345829e-06
	1.99855453e-04
	0.00000000e+00
	-1.01202391e-04
	-1.01673576e-04
	1.01202391e-04
	1.01673576e-04

13	6.50000000e-02
	-1.61784988e+00
	-1.61777328e+00
	-5.12883584e-05
	-1.61784988e+00
	-1.61748043e+00
	6.91524536e-06
	2.75204359e-04
	0.00000000e+00
	-7.65928095e-05
	-7.38902082e-05
	7.65928095e-05
	7.38902082e-05

14	7.00000000e-02
	-1.90112373e+00
	-1.90108519e+00
	4.32425388e-05
	-1.90112373e+00
	-1.90092939e+00
	7.18260204e-06
	3.23390659e-04
	0.00000000e+00
	-3.85386578e-05
	-3.88667879e-05
	3.85386578e-05
	3.88667879e-05

15	7.50000000e-02
	-1.99908690e+00
	-1.99908685e+00
	6.08349820e-05
	-1.99908690e+00
	-1.99908670e+00
	7.41529627e-06
	3.40054686e-04
	0.00000000e+00
	-4.43607811e-08
	-3.94762743e-08
	4.43607811e-08
	3.94762743e-08

16	8.00000000e-02
	-1.90163657e+00
	-1.90167712e+00
	-5.90678390e-05
	-1.90163657e+00
	-1.90183050e+00
	8.11796513e-06
	3.23477898e-04
	0.00000000e+00
	4.05445441e-05
	3.87853818e-05
	-4.05445441e-05
	-3.87853818e-05

17	8.50000000e-02
	-1.61709545e+00
	-1.61716931e+00
	-7.82848061e-07
	-1.61709545e+00
	-1.61746453e+00
	6.45268336e-06
	2.75076030e-04
	0.00000000e+00
	7.38570214e-05
	7.38170559e-05
	-7.38570214e-05
	-7.38170559e-05

18	9.00000000e-02
	-1.17534005e+00
	-1.17543892e+00
	-5.95021001e-06
	-1.17534005e+00
	-1.17584846e+00
	4.69603518e-06
	1.99931226e-04
	0.00000000e+00
	9.88684892e-05
	1.01682926e-04
	-9.88684892e-05
	-1.01682926e-04

19	9.50000000e-02
	-6.17726739e-01
	-6.17847222e-01
	3.48491197e-05
	-6.17726739e-01
	-6.18324152e-01
	2.20105567e-06
	1.05078411e-04
	0.00000000e+00
	1.20483302e-04
	1.19482596e-04
	-1.20483302e-04
	-1.19482596e-04

20	1.00000000e-01
	-4.89859482e-16
	-1.25603364e-04
	-1.08820252e-04
	-4.89859482e-16
	-6.28151652e-04
	3.28487781e-07
	2.66716117e-20
	0.00000000e+00
	1.25603364e-04
	1.25630330e-04
	-1.25603364e-04
	-1.25630330e-04

