Title: RAW File Output test for the N-Channel MESFET.
Date: Sat Apr 30 02:55:13 2016
Plotname: Transient Analysis
Flags: real
No. Variables: 9
No. Points: 21                
Variables:
	0	time	time
	1	V(2)	voltage
	2	V(3)	voltage
	3	V(4)	voltage
	4	VDS#branch	current
	5	VGS#branch	current
	6	VSS#branch	current
	7	Z1#drainprime	voltage
	8	Z1#sourceprime	voltage
Values:
0	0.00000000e+00
	2.00000000e+00
	-1.00000000e+00
	0.00000000e+00
	-1.65576580e-04
	4.02800001e-12
	1.65576576e-04
	1.99455963e+00
	5.44037320e-03

1	5.00000000e-07
	2.00000000e+00
	1.00000000e+00
	0.00000000e+00
	5.94069685e-02
	-1.19521039e-01
	6.01140703e-02
	3.95194325e+00
	1.97517659e+00

2	1.00000000e-06
	2.00000000e+00
	1.00000000e+00
	0.00000000e+00
	5.81392182e-02
	-1.17350469e-01
	5.92112511e-02
	3.91028860e+00
	1.94551253e+00

3	1.50000000e-06
	2.00000000e+00
	-1.00000000e+00
	0.00000000e+00
	-2.68344333e-03
	4.31758017e-03
	-1.63413684e-03
	1.91182972e+00
	-5.36930676e-02

4	2.00000000e-06
	2.00000000e+00
	-1.00000000e+00
	0.00000000e+00
	-2.63150227e-03
	4.23758268e-03
	-1.60608041e-03
	1.91353635e+00
	-5.27712135e-02

5	2.50000000e-06
	2.00000000e+00
	1.00000000e+00
	0.00000000e+00
	5.70046271e-02
	-1.15387874e-01
	5.83832465e-02
	3.87300918e+00
	1.91830667e+00

6	3.00000000e-06
	2.00000000e+00
	1.00000000e+00
	0.00000000e+00
	5.57983587e-02
	-1.13318516e-01
	5.75201569e-02
	3.83337464e+00
	1.88994801e+00

7	3.50000000e-06
	2.00000000e+00
	-1.00000000e+00
	0.00000000e+00
	-4.97716202e-03
	8.27660664e-03
	-3.29944461e-03
	1.83646468e+00
	-1.08410323e-01

8	4.00000000e-06
	2.00000000e+00
	-1.00000000e+00
	0.00000000e+00
	-4.87906091e-03
	8.12510245e-03
	-3.24604154e-03
	1.83968800e+00
	-1.06655651e-01

9	4.50000000e-06
	2.00000000e+00
	1.00000000e+00
	0.00000000e+00
	5.48140411e-02
	-1.11594708e-01
	5.67806666e-02
	3.80103278e+00
	1.86565048e+00

10	5.00000000e-06
	2.00000000e+00
	1.00000000e+00
	0.00000000e+00
	5.36629009e-02
	-1.09616856e-01
	5.59539552e-02
	3.76320960e+00
	1.83848710e+00

11	5.50000000e-06
	2.00000000e+00
	-1.00000000e+00
	0.00000000e+00
	-7.07061999e-03
	1.19129513e-02
	-4.84233133e-03
	1.76767963e+00
	-1.59105172e-01

12	6.00000000e-06
	2.00000000e+00
	-1.00000000e+00
	0.00000000e+00
	-6.93136025e-03
	1.16973568e-02
	-4.76599659e-03
	1.77225531e+00
	-1.56597031e-01

13	6.50000000e-06
	2.00000000e+00
	1.00000000e+00
	0.00000000e+00
	5.28129422e-02
	-1.08107926e-01
	5.52949833e-02
	3.73528239e+00
	1.81683517e+00

14	7.00000000e-06
	2.00000000e+00
	1.00000000e+00
	0.00000000e+00
	5.17113776e-02
	-1.06213008e-01
	5.45016308e-02
	3.69908812e+00
	1.79076787e+00

15	7.50000000e-06
	2.00000000e+00
	-1.00000000e+00
	0.00000000e+00
	-8.98456861e-03
	1.52580982e-02
	-6.27352961e-03
	1.70479275e+00
	-2.06130259e-01

16	8.00000000e-06
	2.00000000e+00
	-1.00000000e+00
	0.00000000e+00
	-8.80857047e-03
	1.49850180e-02
	-6.17644755e-03
	1.71057554e+00
	-2.02940420e-01

17	8.50000000e-06
	2.00000000e+00
	1.00000000e+00
	0.00000000e+00
	5.09818721e-02
	-1.04897872e-01
	5.39159999e-02
	3.67511865e+00
	1.77152571e+00

18	9.00000000e-06
	2.00000000e+00
	1.00000000e+00
	0.00000000e+00
	4.99250100e-02
	-1.03078294e-01
	5.31532838e-02
	3.64039319e+00
	1.74646504e+00

19	9.50000000e-06
	2.00000000e+00
	-1.00000000e+00
	0.00000000e+00
	-1.07373965e-02
	1.83401732e-02
	-7.60277668e-03
	1.64719983e+00
	-2.49805519e-01

20	1.00000000e-05
	2.00000000e+00
	-1.00000000e+00
	0.00000000e+00
	-1.05282139e-02
	1.80149848e-02
	-7.48677095e-03
	1.65407297e+00
	-2.45993903e-01

