Title: RAW File Output test for the BJT.
Date: Fri Apr 29 02:38:26 2016
Plotname: Transient Analysis
Flags: real
No. Variables: 8
No. Points: 21                
Variables:
	0	time	time
	1	V(1)	voltage
	2	V(2)	voltage
	3	V(3)	voltage
	4	Q1#baseprime	voltage
	5	VIB#branch	current
	6	VIC#branch	current
	7	VIE#branch	current
Values:
0	0.00000000e+00
	0.00000000e+00
	0.00000000e+00
	-5.00000000e+00
	-4.31484753e+00
	9.58855006e-03
	-1.33339329e-02
	3.74538283e-03

1	1.00000000e-06
	0.00000000e+00
	-1.00000000e+00
	-5.00000000e+00
	-4.31578539e+00
	7.36841198e-03
	-1.15009181e-02
	4.13250607e-03

2	2.00000000e-06
	0.00000000e+00
	0.00000000e+00
	-5.00000000e+00
	-4.31564455e+00
	9.59032121e-03
	-1.31927133e-02
	3.60239209e-03

3	3.00000000e-06
	0.00000000e+00
	0.00000000e+00
	-5.00000000e+00
	-4.31553086e+00
	9.59006858e-03
	-1.32126615e-02
	3.62259296e-03

4	4.00000000e-06
	0.00000000e+00
	0.00000000e+00
	-5.00000000e+00
	-4.31543061e+00
	9.58984579e-03
	-1.32302880e-02
	3.64044224e-03

5	5.00000000e-06
	0.00000000e+00
	0.00000000e+00
	-5.00000000e+00
	-4.31535503e+00
	9.58967785e-03
	-1.32436326e-02
	3.65395478e-03

6	6.00000000e-06
	0.00000000e+00
	0.00000000e+00
	-5.00000000e+00
	-4.31528040e+00
	9.58951199e-03
	-1.32568141e-02
	3.66730215e-03

7	7.00000000e-06
	0.00000000e+00
	0.00000000e+00
	-5.00000000e+00
	-4.31522421e+00
	9.58938713e-03
	-1.32667777e-02
	3.67739062e-03

8	8.00000000e-06
	0.00000000e+00
	0.00000000e+00
	-5.00000000e+00
	-4.31516871e+00
	9.58926381e-03
	-1.32766188e-02
	3.68735495e-03

9	9.00000000e-06
	0.00000000e+00
	0.00000000e+00
	-5.00000000e+00
	-4.31512697e+00
	9.58917105e-03
	-1.32840411e-02
	3.69487008e-03

10	1.00000000e-05
	0.00000000e+00
	0.00000000e+00
	-5.00000000e+00
	-4.31508543e+00
	9.58907873e-03
	-1.32914294e-02
	3.70235065e-03

11	1.10000000e-05
	0.00000000e+00
	0.00000000e+00
	-5.00000000e+00
	-4.31504976e+00
	9.58899947e-03
	-1.32977824e-02
	3.70878294e-03

12	1.20000000e-05
	0.00000000e+00
	0.00000000e+00
	-5.00000000e+00
	-4.31501838e+00
	9.58892974e-03
	-1.33033789e-02
	3.71444917e-03

13	1.30000000e-05
	0.00000000e+00
	0.00000000e+00
	-5.00000000e+00
	-4.31499615e+00
	9.58888032e-03
	-1.33073476e-02
	3.71846731e-03

14	1.40000000e-05
	0.00000000e+00
	0.00000000e+00
	-5.00000000e+00
	-4.31497418e+00
	9.58883152e-03
	-1.33112671e-02
	3.72243558e-03

15	1.50000000e-05
	0.00000000e+00
	0.00000000e+00
	-5.00000000e+00
	-4.31495769e+00
	9.58879487e-03
	-1.33142148e-02
	3.72541989e-03

16	1.60000000e-05
	0.00000000e+00
	0.00000000e+00
	-5.00000000e+00
	-4.31494140e+00
	9.58875868e-03
	-1.33171257e-02
	3.72836705e-03

17	1.70000000e-05
	0.00000000e+00
	0.00000000e+00
	-5.00000000e+00
	-4.31492918e+00
	9.58873150e-03
	-1.33193128e-02
	3.73058126e-03

18	1.80000000e-05
	0.00000000e+00
	0.00000000e+00
	-5.00000000e+00
	-4.31491701e+00
	9.58870446e-03
	-1.33214896e-02
	3.73278517e-03

19	1.90000000e-05
	0.00000000e+00
	0.00000000e+00
	-5.00000000e+00
	-4.31490656e+00
	9.58868125e-03
	-1.33233580e-02
	3.73467674e-03

20	2.00000000e-05
	0.00000000e+00
	0.00000000e+00
	-5.00000000e+00
	-4.31489728e+00
	9.58866062e-03
	-1.33250202e-02
	3.73635955e-03

