Title: RAW File Output test for B, G and H Sources.
Date: Sat Apr 30 01:55:13 2016
Plotname: Transient Analysis
Flags: real
No. Variables: 20
No. Points: 21                
Variables:
	0	time	time
	1	V(1)	voltage
	2	V(10)	voltage
	3	V(11)	voltage
	4	V(12)	voltage
	5	V(13)	voltage
	6	V(14)	voltage
	7	V(15)	voltage
	8	V(2)	voltage
	9	V(3)	voltage
	10	V(4)	voltage
	11	V(5)	voltage
	12	V(6)	voltage
	13	V(7)	voltage
	14	V(8)	voltage
	15	V(9)	voltage
	16	B1#branch	current
	17	HLIN#branch	current
	18	HPOLY#branch	current
	19	V15#branch	current
Values:
0	0.00000000e+00
	0.00000000e+00
	-1.00000000e+02
	0.00000000e+00
	0.00000000e+00
	0.00000000e+00
	0.00000000e+00
	1.00000000e+00
	0.00000000e+00
	0.00000000e+00
	0.00000000e+00
	0.00000000e+00
	0.00000000e+00
	0.00000000e+00
	0.00000000e+00
	-1.10000000e+03
	0.00000000e+00
	0.00000000e+00
	0.00000000e+00
	-1.00000000e+00

1	5.00000000e-02
	6.17732734e-01
	-1.61773275e+02
	-5.61575213e-04
	-5.10522921e-05
	-1.12315043e-03
	-1.02104584e-04
	1.00000000e+00
	5.61575213e-02
	-6.79506008e+02
	-6.17732734e+01
	4.07703605e+05
	3.70639641e+04
	-4.31852304e+03
	-3.92593004e+02
	-1.77950603e+03
	-5.61575213e-04
	5.10522921e-07
	1.02104584e-06
	-1.00000000e+00

2	1.00000000e-01
	1.17513585e+00
	-2.00000002e+02
	-1.06830532e-03
	-9.71186654e-05
	-2.13661064e-03
	-1.94237331e-04
	1.00000000e+00
	1.06830532e-01
	-1.29264944e+03
	-1.17513585e+02
	7.75589662e+05
	7.05081511e+04
	-5.96102307e+03
	-5.41911188e+02
	-2.20000002e+03
	-1.06830532e-03
	9.71186654e-07
	1.94237331e-06
	-1.00000000e+00

3	1.50000000e-01
	1.61666296e+00
	-2.00000001e+02
	-1.46969360e-03
	-1.33608509e-04
	-2.93938719e-03
	-2.67217018e-04
	1.00000000e+00
	1.46969360e-01
	-1.77832925e+03
	-1.61666296e+02
	1.06699755e+06
	9.69997774e+04
	-6.99233277e+03
	-6.35666615e+02
	-2.20000001e+03
	-1.46969360e-03
	1.33608509e-06
	2.67217018e-06
	-1.00000000e+00

4	2.00000000e-01
	1.90061660e+00
	-1.99999999e+02
	-1.72783327e-03
	-1.57075752e-04
	-3.45566654e-03
	-3.14151504e-04
	1.00000000e+00
	1.72783327e-01
	-2.09067826e+03
	-1.90061660e+02
	1.25440695e+06
	1.14036996e+05
	-7.58231406e+03
	-6.89301278e+02
	-2.19999999e+03
	-1.72783327e-03
	1.57075752e-06
	3.14151504e-06
	-1.00000000e+00

5	2.50000000e-01
	1.99963803e+00
	-1.99999997e+02
	-1.81785275e-03
	-1.65259341e-04
	-3.63570550e-03
	-3.30518682e-04
	1.00000000e+00
	1.81785275e-01
	-2.19960183e+03
	-1.99963803e+02
	1.31976110e+06
	1.19978282e+05
	-7.77747019e+03
	-7.07042745e+02
	-2.19999997e+03
	-1.81785275e-03
	1.65259341e-06
	3.30518682e-06
	-1.00000000e+00

6	3.00000000e-01
	1.90094341e+00
	-1.99999998e+02
	-1.72813037e-03
	-1.57102761e-04
	-3.45626075e-03
	-3.14205523e-04
	1.00000000e+00
	1.72813037e-01
	-2.09103775e+03
	-1.90094341e+02
	1.25462265e+06
	1.14056605e+05
	-7.58300410e+03
	-6.89364009e+02
	-2.19999998e+03
	-1.72813037e-03
	1.57102761e-06
	3.14205523e-06
	-1.00000000e+00

7	3.50000000e-01
	1.61659566e+00
	-2.00000000e+02
	-1.46963242e-03
	-1.33602947e-04
	-2.93926484e-03
	-2.67205895e-04
	1.00000000e+00
	1.46963242e-01
	-1.77825523e+03
	-1.61659566e+02
	1.06695314e+06
	9.69957398e+04
	-6.99217737e+03
	-6.35652488e+02
	-2.20000000e+03
	-1.46963242e-03
	1.33602947e-06
	2.67205895e-06
	-1.00000000e+00

8	4.00000000e-01
	1.17484656e+00
	-2.00000002e+02
	-1.06804233e-03
	-9.70947571e-05
	-2.13608466e-03
	-1.94189514e-04
	1.00000000e+00
	1.06804233e-01
	-1.29233122e+03
	-1.17484656e+02
	7.75398730e+05
	7.04907936e+04
	-5.95956991e+03
	-5.41779083e+02
	-2.20000002e+03
	-1.06804233e-03
	9.70947571e-07
	1.94189514e-06
	-1.00000000e+00

9	4.50000000e-01
	6.17932119e-01
	-1.61793214e+02
	-5.61756472e-04
	-5.10687701e-05
	-1.12351294e-03
	-1.02137540e-04
	1.00000000e+00
	5.61756472e-02
	-6.79725331e+02
	-6.17932119e+01
	4.07835198e+05
	3.70759271e+04
	-4.32210631e+03
	-3.92918755e+02
	-1.77972536e+03
	-5.61756472e-04
	5.10687701e-07
	1.02137540e-06
	-1.00000000e+00

10	5.00000000e-01
	-1.56740367e-05
	-1.03666448e+02
	1.42491243e-08
	1.29537493e-09
	2.84982485e-08
	2.59074986e-09
	1.00000000e+00
	-1.42491243e-06
	1.72414403e-02
	1.56740367e-03
	-1.03448642e+01
	-9.40442201e-01
	-1.46429111e+03
	-1.33117374e+02
	-1.14033092e+03
	1.42491243e-08
	-1.29537493e-11
	-2.59074986e-11
	-1.00000000e+00

11	5.50000000e-01
	-6.17670486e-01
	-1.00000000e+02
	5.61518624e-04
	5.10471476e-05
	1.12303725e-03
	1.02094295e-04
	1.00000000e+00
	-5.61518624e-02
	6.79437535e+02
	6.17670486e+01
	-4.07662521e+05
	-3.70602292e+04
	-4.31144896e+03
	-3.91949905e+02
	-1.10000000e+03
	5.61518624e-04
	-5.10471476e-07
	-1.02094295e-06
	-1.00000000e+00

12	6.00000000e-01
	-1.17486315e+00
	-1.00000000e+02
	1.06805741e-03
	9.70961278e-05
	2.13611481e-03
	1.94192256e-04
	1.00000000e+00
	-1.06805741e-01
	1.29234946e+03
	1.17486315e+02
	-7.75409677e+05
	-7.04917888e+04
	-5.95417905e+03
	-5.41289005e+02
	-1.10000000e+03
	1.06805741e-03
	-9.70961278e-07
	-1.94192256e-06
	-1.00000000e+00

13	6.50000000e-01
	-1.61655110e+00
	-1.00000000e+02
	1.46959191e-03
	1.33599264e-04
	2.93918381e-03
	2.67198528e-04
	1.00000000e+00
	-1.46959191e-01
	1.77820621e+03
	1.61655110e+02
	-1.06692372e+06
	-9.69930658e+04
	-6.99375684e+03
	-6.35796076e+02
	-1.10000000e+03
	1.46959191e-03
	-1.33599264e-06
	-2.67198528e-06
	-1.00000000e+00

14	7.00000000e-01
	-1.90194051e+00
	-1.00000000e+02
	1.72903683e-03
	1.57185166e-04
	3.45807366e-03
	3.14370333e-04
	1.00000000e+00
	-1.72903683e-01
	2.09213456e+03
	1.90194051e+02
	-1.25528074e+06
	-1.14116431e+05
	-7.59389346e+03
	-6.90353951e+02
	-1.10000000e+03
	1.72903683e-03
	-1.57185166e-06
	-3.14370333e-06
	-1.00000000e+00

15	7.50000000e-01
	-1.99825878e+00
	-1.00000000e+02
	1.81659889e-03
	1.65145354e-04
	3.63319779e-03
	3.30290708e-04
	1.00000000e+00
	-1.81659889e-01
	2.19808466e+03
	1.99825878e+02
	-1.31885080e+06
	-1.19895527e+05
	-7.77736871e+03
	-7.07033519e+02
	-1.10000000e+03
	1.81659889e-03
	-1.65145354e-06
	-3.30290708e-06
	-1.00000000e+00

16	8.00000000e-01
	-1.90075775e+00
	-1.00000000e+02
	1.72796159e-03
	1.57087417e-04
	3.45592317e-03
	3.14174834e-04
	1.00000000e+00
	-1.72796159e-01
	2.09083352e+03
	1.90075775e+02
	-1.25450011e+06
	-1.14045465e+05
	-7.57802210e+03
	-6.88911100e+02
	-1.10000000e+03
	1.72796159e-03
	-1.57087417e-06
	-3.14174834e-06
	-1.00000000e+00

17	8.50000000e-01
	-1.61732865e+00
	-1.00000000e+02
	1.47029877e-03
	1.33663525e-04
	2.94059754e-03
	2.67327049e-04
	1.00000000e+00
	-1.47029877e-01
	1.77906151e+03
	1.61732865e+02
	-1.06743691e+06
	-9.70397189e+04
	-6.98739053e+03
	-6.35217321e+02
	-1.10000000e+03
	1.47029877e-03
	-1.33663525e-06
	-2.67327049e-06
	-1.00000000e+00

18	9.00000000e-01
	-1.17446337e+00
	-1.00000000e+02
	1.06769397e-03
	9.70630882e-05
	2.13538794e-03
	1.94126176e-04
	1.00000000e+00
	-1.06769397e-01
	1.29190970e+03
	1.17446337e+02
	-7.75145823e+05
	-7.04678021e+04
	-5.95811196e+03
	-5.41646542e+02
	-1.10000000e+03
	1.06769397e-03
	-9.70630882e-07
	-1.94126176e-06
	-1.00000000e+00

19	9.50000000e-01
	-6.17840779e-01
	-1.00000000e+02
	5.61673435e-04
	5.10612214e-05
	1.12334687e-03
	1.02122443e-04
	1.00000000e+00
	-5.61673435e-02
	6.79624857e+02
	6.17840779e+01
	-4.07774914e+05
	-3.70704467e+04
	-4.32660884e+03
	-3.93328077e+02
	-1.10000000e+03
	5.61673435e-04
	-5.10612214e-07
	-1.02122443e-06
	-1.00000000e+00

20	1.00000000e+00
	0.00000000e+00
	-1.00000000e+02
	-7.88510671e-20
	-4.56697764e-20
	-1.57702134e-19
	-9.13395529e-20
	1.00000000e+00
	-7.88510671e-17
	-3.10862447e-13
	2.22044605e-14
	2.88080670e-10
	-2.67785794e-11
	-9.26197304e+00
	-8.41997549e-01
	-1.10000000e+03
	-7.88510671e-20
	2.44939527e-22
	4.89879055e-22
	-1.00000000e+00

