Title: RAW File Output test for the Mutual Inductors.
Date: Mon Aug 16 02:07:11 2021
Plotname: Transient Analysis
Flags: real
No. Variables: 24
No. Points: 26                
Variables:
	0	time	time
	1	V(1)	voltage
	2	V(2)	voltage
	3	V(3)	voltage
	4	L1#branch	current
	5	L2#branch	current
	6	L:XBR2:PRIMARY#branch	current
	7	L:XBR2:SECONDARY#branch	current
	8	NODE13	voltage
	9	NODE14	voltage
	10	NODE2	voltage
	11	VPRIMARY#branch	current
	12	VS#branch	current
	13	XBR2:NODE3	voltage
	14	XBR2:NODE4	voltage
	15	XBR2:NODE5	voltage
	16	XBR2:YMIN!KTRANS_m	current
	17	XBR2:YMIN!KTRANS_r	current
	18	Y:XBR2:MIN!KTRANS_LPRIMARY#branch	current
	19	Y:XBR2:MIN!KTRANS_LSECONDARY#branch	current
	20	Y:XBR2:MIN!KTRANS_m	current
	21	Y:XBR2:MIN!KTRANS_r	current
	22	YMIL!K1_L1#branch	current
	23	YMIL!K1_L2#branch	current
Values:
0	0.00000000e+00
	0.00000000e+00
	0.00000000e+00
	0.00000000e+00
	0.00000000e+00
	0.00000000e+00
	0.00000000e+00
	0.00000000e+00
	5.43481410e-19
	-5.43481410e-19
	0.00000000e+00
	0.00000000e+00
	0.00000000e+00
	0.00000000e+00
	0.00000000e+00
	0.00000000e+00
	0.00000000e+00
	0.00000000e+00
	0.00000000e+00
	0.00000000e+00
	0.00000000e+00
	0.00000000e+00
	0.00000000e+00
	0.00000000e+00

1	1.00000000e-03
	6.24284445e+01
	5.94988831e-02
	4.46260732e-02
	6.23689456e-02
	-4.46260732e-05
	4.39446685e-03
	-2.94579793e-09
	3.07995628e-01
	2.59784793e+00
	-4.23056636e+01
	-4.39446685e-03
	-6.23689456e-02
	2.90584356e+00
	-9.44642074e-22
	2.90584356e+00
	6.05414125e-02
	3.52543794e-03
	4.39446685e-03
	-2.94579793e-09
	6.05414125e-02
	3.52543794e-03
	6.23689456e-02
	-4.46260732e-05

2	2.00000000e-03
	1.16082151e+02
	4.66481265e-02
	3.49919336e-02
	1.16035503e-01
	-3.49919336e-05
	1.37840852e-02
	-1.77616451e-09
	2.95139568e-01
	5.10811167e+00
	-7.86649813e+01
	-1.37840852e-02
	-1.16035503e-01
	5.40325124e+00
	1.51638765e-23
	5.40325124e+00
	2.29530969e-01
	5.97919878e-03
	1.37840852e-02
	-1.77616451e-09
	2.29530969e-01
	5.97919878e-03
	1.16035503e-01
	-3.49919336e-05

3	3.00000000e-03
	1.53437545e+02
	2.72608691e-02
	2.04535236e-02
	1.53410284e-01
	-2.04535236e-05
	3.10647441e-02
	-9.28960623e-10
	2.79215531e-01
	6.86280932e+00
	-1.03979479e+02
	-3.10647441e-02
	-1.53410284e-01
	7.14202485e+00
	-4.03447069e-22
	7.14202485e+00
	4.84603398e-01
	1.24445579e-02
	3.10647441e-02
	-9.28960623e-10
	4.84603398e-01
	1.24445579e-02
	1.53410284e-01
	-2.04535236e-05

4	4.00000000e-03
	1.69348354e+02
	3.86978493e-03
	2.91531807e-03
	1.69344484e-01
	-2.91531807e-06
	8.74851446e-02
	-1.71990505e-10
	2.48095336e-01
	7.63452656e+00
	-1.14761701e+02
	-8.74851446e-02
	-1.69344484e-01
	7.88262189e+00
	1.08182991e-20
	7.88262189e+00
	7.88468400e-01
	6.72657283e-02
	8.74851446e-02
	-1.71990505e-10
	7.88468400e-01
	6.72657283e-02
	1.69344484e-01
	-2.91531807e-06

5	5.00000000e-03
	1.61394285e+02
	-1.97310523e-02
	-1.47911598e-02
	1.61414016e-01
	1.47911598e-05
	2.34546707e+00
	4.68836851e-10
	1.32202662e-01
	7.38018287e+00
	-1.09371495e+02
	-2.34546707e+00
	-1.61414016e-01
	7.51238553e+00
	5.75309531e-23
	7.51238553e+00
	9.91436227e-01
	2.82796536e+00
	2.34546707e+00
	4.68836851e-10
	9.91436227e-01
	2.82796536e+00
	1.61414016e-01
	1.47911598e-05

6	6.00000000e-03
	1.30732778e+02
	-4.07077618e-02
	-3.05344593e-02
	1.30773486e-01
	3.05344593e-05
	7.83844118e+00
	9.81914770e-10
	-2.44838078e-01
	6.33002898e+00
	-8.85932204e+01
	-7.83844118e+00
	-1.30773486e-01
	6.08519090e+00
	2.43235109e-20
	6.08519090e+00
	9.97584331e-01
	2.44220778e+00
	7.83844118e+00
	9.81914770e-10
	9.97584331e-01
	2.44220778e+00
	1.30773486e-01
	3.05344593e-05

7	7.00000000e-03
	8.17450813e+01
	-5.61172789e-02
	-4.20723818e-02
	8.18011985e-02
	4.20723818e-05
	1.19016176e+01
	1.36423259e-09
	-9.93667947e-01
	4.79863890e+00
	-5.53959007e+01
	-1.19016176e+01
	-8.18011985e-02
	3.80497096e+00
	-2.50391361e-20
	3.80497096e+00
	9.99015786e-01
	1.53078608e+00
	1.19016176e+01
	1.36423259e-09
	9.99015786e-01
	1.53078608e+00
	8.18011985e-02
	4.20723818e-05

8	8.00000000e-03
	2.12605776e+01
	-6.34405569e-02
	-4.75894472e-02
	2.13240182e-02
	4.75894472e-05
	1.38692336e+01
	1.54466341e-09
	-2.16538629e+00
	3.15499789e+00
	-1.44075806e+01
	-1.38692336e+01
	-2.13240182e-02
	9.89611596e-01
	2.10321323e-20
	9.89611596e-01
	1.00010265e+00
	3.98617243e-01
	1.38692336e+01
	1.54466341e-09
	1.00010265e+00
	3.98617243e-01
	2.13240182e-02
	4.75894472e-05

9	9.00000000e-03
	-4.22009891e+01
	-6.19819366e-02
	-4.64873775e-02
	-4.21390072e-02
	4.64873775e-05
	1.35244464e+01
	1.51527492e-09
	-3.68611300e+00
	1.72179251e+00
	2.85981953e+01
	-1.35244464e+01
	4.21390072e-02
	-1.96432049e+00
	-8.43459325e-18
	-1.96432049e+00
	9.98492150e-01
	-7.79167959e-01
	1.35244464e+01
	1.51527492e-09
	9.98492150e-01
	-7.79167959e-01
	-4.21390072e-02
	4.64873775e-05

10	1.00000000e-02
	-9.97470460e+01
	-5.18424241e-02
	-3.88811118e-02
	-9.96952036e-02
	3.88811118e-05
	1.08301495e+01
	1.27282325e-09
	-5.32453279e+00
	6.81628201e-01
	6.75952286e+01
	-1.08301495e+01
	9.96952036e-02
	-4.64290459e+00
	-5.45649285e-23
	-4.64290459e+00
	9.98095925e-01
	-1.85404113e+00
	1.08301495e+01
	1.27282325e-09
	9.98095925e-01
	-1.85404113e+00
	-9.96952036e-02
	3.88811118e-05

11	1.10000000e-02
	-1.43282345e+02
	-3.43188913e-02
	-2.57470231e-02
	-1.43248027e-01
	2.57470231e-05
	6.21819541e+00
	8.47745178e-10
	-6.72737624e+00
	5.80433080e-02
	9.70976413e+01
	-6.21819541e+00
	1.43248027e-01
	-6.66933294e+00
	-1.27550802e-17
	-6.66933294e+00
	9.96737015e-01
	-2.64944804e+00
	6.21819541e+00
	8.47745178e-10
	9.96737015e-01
	-2.64944804e+00
	-1.43248027e-01
	2.57470231e-05

12	1.20000000e-02
	-1.66694036e+02
	-1.20251887e-02
	-9.02610795e-03
	-1.66682011e-01
	9.02610795e-06
	7.51890202e-01
	3.24463595e-10
	-7.54319826e+00
	-2.15873687e-01
	1.12962959e+02
	-7.51890202e-01
	1.66682011e-01
	-7.75907195e+00
	6.73827833e-20
	-7.75907195e+00
	9.74195532e-01
	-1.87042100e+00
	7.51890202e-01
	3.24463595e-10
	9.74195532e-01
	-1.87042100e+00
	-1.66682011e-01
	9.02610795e-06

13	1.30000000e-02
	-1.66608956e+02
	1.20795238e-02
	9.04292120e-03
	-1.66621035e-01
	-9.04292120e-06
	3.71222643e-02
	-2.77446760e-10
	-7.57112669e+00
	-1.83985034e-01
	1.12905303e+02
	-3.71222643e-02
	1.66621035e-01
	-7.75511172e+00
	-8.73419638e-21
	-7.75511172e+00
	6.94194280e-01
	-3.23883535e-02
	3.71222643e-02
	-2.77446760e-10
	6.94194280e-01
	-3.23883535e-02
	-1.66621035e-01
	-9.04292120e-06

14	1.40000000e-02
	-1.43189359e+02
	3.41731200e-02
	2.56312351e-02
	-1.43223532e-01
	-2.56312351e-05
	5.89077267e-03
	-8.20941229e-10
	-6.75505330e+00
	9.00485716e-02
	9.70346277e+01
	-5.89077267e-03
	1.43223532e-01
	-6.66500473e+00
	8.28761854e-21
	-6.66500473e+00
	4.02536771e-01
	-6.91542574e-03
	5.89077267e-03
	-8.20941229e-10
	4.02536771e-01
	-6.91542574e-03
	-1.43223532e-01
	-2.56312351e-05

15	1.50000000e-02
	-9.96747246e+01
	5.17481966e-02
	3.88019713e-02
	-9.97264728e-02
	-3.88019713e-05
	-2.88691367e-03
	-1.25386942e-09
	-5.34685430e+00
	7.07316042e-01
	6.75462188e+01
	2.88691367e-03
	9.97264728e-02
	-4.63953826e+00
	-7.20402497e-21
	-4.63953826e+00
	1.72981165e-01
	-2.91675455e-03
	-2.88691367e-03
	-1.25386942e-09
	1.72981165e-01
	-2.91675455e-03
	-9.97264728e-02
	-3.88019713e-05

16	1.60000000e-02
	-4.21716534e+01
	6.19501245e-02
	4.64595843e-02
	-4.22336035e-02
	-4.64595843e-05
	-7.20369354e-03
	-1.50639641e-09
	-3.70174752e+00
	1.73879252e+00
	2.85783155e+01
	7.20369354e-03
	4.22336035e-02
	-1.96295500e+00
	2.83153703e-22
	-1.96295500e+00
	3.87884625e-02
	-1.29743338e-03
	-7.20369354e-03
	-1.50639641e-09
	3.87884625e-02
	-1.29743338e-03
	-4.22336035e-02
	-4.64595843e-05

17	1.70000000e-02
	2.12566270e+01
	6.34429833e-02
	4.75880044e-02
	2.11931841e-02
	-4.75880044e-05
	-6.74663155e-03
	-1.54682619e-09
	-2.17100161e+00
	3.16042932e+00
	-1.44049034e+01
	6.74663155e-03
	-2.11931841e-02
	9.89427709e-01
	7.65207241e-21
	9.89427709e-01
	1.88251181e-02
	3.44879328e-03
	-6.74663155e-03
	-1.54682619e-09
	1.88251181e-02
	3.44879328e-03
	2.11931841e-02
	-4.75880044e-05

18	1.80000000e-02
	8.17447731e+01
	5.59986178e-02
	4.20354627e-02
	8.16887745e-02
	-4.20354627e-05
	4.57155516e-03
	-1.36639588e-09
	-9.88593116e-01
	4.79354973e+00
	-5.53956919e+01
	-4.57155516e-03
	-8.16887745e-02
	3.80495661e+00
	5.94334155e-20
	3.80495661e+00
	1.15645831e-01
	6.12521086e-03
	4.57155516e-03
	-1.36639588e-09
	1.15645831e-01
	6.12521086e-03
	8.16887745e-02
	-4.20354627e-05

19	1.90000000e-02
	1.30680136e+02
	4.08067118e-02
	3.06093025e-02
	1.30639329e-01
	-3.06093025e-05
	1.77840101e-02
	-1.00438724e-09
	-2.31604528e-01
	6.31434507e+00
	-8.85575462e+01
	-1.77840101e-02
	-1.30639329e-01
	6.08274055e+00
	-3.47374096e-21
	6.08274055e+00
	3.16974880e-01
	7.92868409e-03
	1.77840101e-02
	-1.00438724e-09
	3.16974880e-01
	7.92868409e-03
	1.30639329e-01
	-3.06093025e-05

20	2.00000000e-02
	1.61394002e+02
	1.98926296e-02
	1.48873549e-02
	1.61374110e-01
	-1.48873549e-05
	4.19549967e-02
	-5.03608247e-10
	1.54173933e-01
	7.35819844e+00
	-1.09371304e+02
	-4.19549967e-02
	-1.61374110e-01
	7.51237238e+00
	-5.26155933e-20
	7.51237238e+00
	5.93002335e-01
	1.90052776e-02
	4.19549967e-02
	-5.03608247e-10
	5.93002335e-01
	1.90052776e-02
	1.61374110e-01
	-1.48873549e-05

21	2.10000000e-02
	1.69364809e+02
	-3.96495516e-03
	-2.97376207e-03
	1.69368774e-01
	2.97376207e-06
	1.92094247e-01
	6.41299481e-11
	2.16765514e-01
	7.66662230e+00
	-1.14772852e+02
	-1.92094247e-01
	-1.69368774e-01
	7.88338781e+00
	1.45553873e-23
	7.88338781e+00
	9.00073633e-01
	2.87742139e-01
	1.92094247e-01
	6.41299481e-11
	9.00073633e-01
	2.87742139e-01
	1.69368774e-01
	2.97376207e-06

22	2.20000000e-02
	1.53548872e+02
	-2.72036103e-02
	-2.03975890e-02
	1.53576076e-01
	2.03975890e-05
	4.47293638e+00
	6.51032787e-10
	3.49692385e-02
	7.11223754e+00
	-1.04054922e+02
	-4.47293638e+00
	-1.53576076e-01
	7.14720678e+00
	-6.82748855e-23
	7.14720678e+00
	9.95526312e-01
	2.83085733e+00
	4.47293638e+00
	6.51032787e-10
	9.95526312e-01
	2.83085733e+00
	1.53576076e-01
	2.03975890e-05

23	2.30000000e-02
	1.16101607e+02
	-4.65938439e-02
	-3.49414502e-02
	1.16148201e-01
	3.49414502e-05
	9.60029190e+00
	1.12605579e-09
	-4.58886400e-01
	5.86304327e+00
	-7.86781661e+01
	-9.60029190e+00
	-1.16148201e-01
	5.40415687e+00
	-2.34132998e-21
	5.40415687e+00
	9.98211107e-01
	2.17242398e+00
	9.60029190e+00
	1.12605579e-09
	9.98211107e-01
	2.17242398e+00
	1.16148201e-01
	3.49414502e-05

24	2.40000000e-02
	6.24641143e+01
	-5.94476047e-02
	-4.45943214e-02
	6.25235619e-02
	4.45943214e-05
	1.30238046e+01
	1.44195299e-09
	-1.34708760e+00
	4.25459148e+00
	-4.23298358e+01
	-1.30238046e+01
	-6.25235619e-02
	2.90750388e+00
	1.74366506e-20
	2.90750388e+00
	9.99448562e-01
	1.17086650e+00
	1.30238046e+01
	1.44195299e-09
	9.99448562e-01
	1.17086650e+00
	6.25235619e-02
	4.45943214e-05

25	2.50000000e-02
	6.23467685e-14
	-6.39287526e-02
	-4.79605741e-02
	6.39287526e-05
	4.79605741e-05
	1.42214593e+01
	1.55546083e-09
	-2.65096271e+00
	2.65096271e+00
	-4.22503146e-14
	-1.42214593e+01
	-6.39287526e-05
	9.27021287e-16
	1.20493576e-20
	1.55546826e-10
	1.00049781e+00
	6.84013563e-04
	1.42214593e+01
	1.55546083e-09
	1.00049781e+00
	6.84013563e-04
	6.39287526e-05
	4.79605741e-05

