Title: RAW File Output test for the N-Type JFET.
Date: Fri Apr 29 02:55:35 2016
Plotname: Transient Analysis
Flags: real
No. Variables: 12
No. Points: 21                
Variables:
	0	time	time
	1	V(1)	voltage
	2	1A	voltage
	3	V(2)	voltage
	4	2A	voltage
	5	V(3)	voltage
	6	JTEST#sourceprime	voltage
	7	VDS#branch	current
	8	VGS#branch	current
	9	VIDMON#branch	current
	10	VIGMON#branch	current
	11	VISMON#branch	current
Values:
0	0.00000000e+00
	5.00000000e+00
	5.00000000e+00
	0.00000000e+00
	0.00000000e+00
	0.00000000e+00
	3.88523730e-02
	-3.71793295e-04
	2.52624158e-10
	3.71793295e-04
	-2.52624158e-10
	-3.71793043e-04

1	5.00000000e-07
	5.00000000e+00
	5.00000000e+00
	1.00000000e+00
	1.00000000e+00
	0.00000000e+00
	1.03396398e+00
	-3.68581976e-04
	-9.52581014e-03
	3.68581976e-04
	9.52581014e-03
	-9.89439212e-03

2	1.00000000e-06
	5.00000000e+00
	5.00000000e+00
	1.00000000e+00
	1.00000000e+00
	0.00000000e+00
	1.02910258e+00
	-3.69710014e-04
	-9.47816159e-03
	3.69710014e-04
	9.47816159e-03
	-9.84787160e-03

3	1.50000000e-06
	5.00000000e+00
	5.00000000e+00
	0.00000000e+00
	0.00000000e+00
	0.00000000e+00
	2.91272788e-02
	-3.74073475e-04
	9.53435347e-05
	3.74073475e-04
	-9.53435347e-05
	-2.78729940e-04

4	2.00000000e-06
	5.00000000e+00
	5.00000000e+00
	0.00000000e+00
	0.00000000e+00
	0.00000000e+00
	2.91758441e-02
	-3.74062062e-04
	9.48673814e-05
	3.74062062e-04
	-9.48673814e-05
	-2.79194680e-04

5	2.50000000e-06
	5.00000000e+00
	5.00000000e+00
	1.00000000e+00
	1.00000000e+00
	0.00000000e+00
	1.02437000e+00
	-3.70810743e-04
	-9.43177294e-03
	3.70810743e-04
	9.43177294e-03
	-9.80258369e-03

6	3.00000000e-06
	5.00000000e+00
	5.00000000e+00
	1.00000000e+00
	1.00000000e+00
	0.00000000e+00
	1.01959034e+00
	-3.71924882e-04
	-9.38492046e-03
	3.71924882e-04
	9.38492046e-03
	-9.75684535e-03

7	3.50000000e-06
	5.00000000e+00
	5.00000000e+00
	0.00000000e+00
	0.00000000e+00
	0.00000000e+00
	1.96620428e-02
	-3.76302900e-04
	1.88149381e-04
	3.76302900e-04
	-1.88149381e-04
	-1.88153519e-04

8	4.00000000e-06
	5.00000000e+00
	5.00000000e+00
	0.00000000e+00
	0.00000000e+00
	0.00000000e+00
	1.97572146e-02
	-3.76280433e-04
	1.87216179e-04
	3.76280433e-04
	-1.87216179e-04
	-1.89064255e-04

9	4.50000000e-06
	5.00000000e+00
	5.00000000e+00
	1.00000000e+00
	1.00000000e+00
	0.00000000e+00
	1.01503130e+00
	-3.72990032e-04
	-9.34022812e-03
	3.72990032e-04
	9.34022812e-03
	-9.71321815e-03

10	5.00000000e-06
	5.00000000e+00
	5.00000000e+00
	1.00000000e+00
	1.00000000e+00
	0.00000000e+00
	1.01033079e+00
	-3.74090605e-04
	-9.29414664e-03
	3.74090605e-04
	9.29414664e-03
	-9.66823724e-03

11	5.50000000e-06
	5.00000000e+00
	5.00000000e+00
	0.00000000e+00
	0.00000000e+00
	0.00000000e+00
	1.04476166e-02
	-3.78482958e-04
	2.78505765e-04
	3.78482958e-04
	-2.78505765e-04
	-9.99771924e-05

12	6.00000000e-06
	5.00000000e+00
	5.00000000e+00
	0.00000000e+00
	0.00000000e+00
	0.00000000e+00
	1.05875266e-02
	-3.78449784e-04
	2.77133740e-04
	3.78449784e-04
	-2.77133740e-04
	-1.01316044e-04

13	6.50000000e-06
	5.00000000e+00
	5.00000000e+00
	1.00000000e+00
	1.00000000e+00
	0.00000000e+00
	1.00593903e+00
	-3.75121192e-04
	-9.25108961e-03
	3.75121192e-04
	9.25108961e-03
	-9.62621081e-03

14	7.00000000e-06
	5.00000000e+00
	5.00000000e+00
	1.00000000e+00
	1.00000000e+00
	0.00000000e+00
	1.00131520e+00
	-3.76208524e-04
	-9.20575509e-03
	3.76208524e-04
	9.20575509e-03
	-9.58196362e-03

15	7.50000000e-06
	5.00000000e+00
	5.00000000e+00
	0.00000000e+00
	0.00000000e+00
	0.00000000e+00
	1.47534208e-03
	-3.80614991e-04
	3.66496885e-04
	3.80614991e-04
	-3.66496885e-04
	-1.41181060e-05

16	8.00000000e-06
	5.00000000e+00
	5.00000000e+00
	0.00000000e+00
	0.00000000e+00
	0.00000000e+00
	1.65820758e-03
	-3.80571446e-04
	3.64703431e-04
	3.80571446e-04
	-3.64703431e-04
	-1.58680151e-05

17	8.50000000e-06
	5.00000000e+00
	5.00000000e+00
	1.00000000e+00
	1.00000000e+00
	0.00000000e+00
	9.97084723e-01
	-3.77205530e-04
	-9.16427508e-03
	3.77205530e-04
	9.16427508e-03
	-9.54148061e-03

18	9.00000000e-06
	5.00000000e+00
	5.00000000e+00
	1.00000000e+00
	1.00000000e+00
	0.00000000e+00
	9.92535186e-01
	-3.78279936e-04
	-9.11966443e-03
	3.78279936e-04
	9.11966443e-03
	-9.49794436e-03

19	9.50000000e-06
	5.00000000e+00
	5.00000000e+00
	0.00000000e+00
	0.00000000e+00
	0.00000000e+00
	-7.26306876e-03
	-3.82700302e-04
	4.52203352e-04
	3.82700302e-04
	-4.52203352e-04
	6.95030503e-05

20	1.00000000e-05
	5.00000000e+00
	5.00000000e+00
	0.00000000e+00
	0.00000000e+00
	0.00000000e+00
	-7.03894912e-03
	-3.82646709e-04
	4.50005074e-04
	3.82646709e-04
	-4.50005074e-04
	6.73583648e-05

