Title: RAW File Output test for B, E and F Sources.
Date: Sun Aug 09 10:36:20 2020
Plotname: Transient Analysis
Flags: real
No. Variables: 22
No. Points: 21                
Variables:
	0	time	time
	1	V(1)	voltage
	2	V(10)	voltage
	3	V(11)	voltage
	4	V(12)	voltage
	5	V(13)	voltage
	6	V(14)	voltage
	7	V(15)	voltage
	8	V(2)	voltage
	9	V(3)	voltage
	10	V(4)	voltage
	11	V(5)	voltage
	12	V(6)	voltage
	13	V(7)	voltage
	14	V(8)	voltage
	15	V(9)	voltage
	16	B1#branch	current
	17	ELIN#branch	current
	18	EPOLY#branch	current
	19	ETABLE#branch	current
	20	EVALUE#branch	current
	21	V15#branch	current
Values:
0	0.00000000e+00
	0.00000000e+00
	9.09090909e-02
	0.00000000e+00
	0.00000000e+00
	0.00000000e+00
	0.00000000e+00
	1.00000000e+00
	0.00000000e+00
	0.00000000e+00
	0.00000000e+00
	0.00000000e+00
	0.00000000e+00
	0.00000000e+00
	0.00000000e+00
	1.00000000e+00
	0.00000000e+00
	0.00000000e+00
	0.00000000e+00
	-9.09090909e-04
	0.00000000e+00
	-1.00000000e+00

1	5.00000000e-02
	6.17905589e-01
	1.47091541e-01
	6.17905589e-01
	5.61732353e-02
	6.17905589e-01
	5.61732353e-02
	1.00000000e+00
	5.61732353e-02
	6.17905589e-01
	5.61732353e-02
	3.37039412e-01
	3.06399466e-02
	3.92835524e+00
	3.57123203e-01
	1.61800695e+00
	-5.61732353e-04
	-5.61732353e-04
	-3.06399466e-04
	-1.47091541e-03
	-3.57123203e-03
	-1.00000000e+00

2	1.00000000e-01
	1.17489861e+00
	1.81853178e-01
	1.17489861e+00
	1.06808965e-01
	1.17489861e+00
	1.06808965e-01
	1.00000000e+00
	1.06808965e-01
	1.17489861e+00
	1.06808965e-01
	6.40853789e-01
	5.82594354e-02
	5.41811345e+00
	4.92555768e-01
	2.00038495e+00
	-1.06808965e-03
	-1.06808965e-03
	-5.82594354e-04
	-1.81853178e-03
	-4.92555768e-03
	-1.00000000e+00

3	1.50000000e-01
	1.61771905e+00
	1.81923995e-01
	1.61771905e+00
	1.47065368e-01
	1.61771905e+00
	1.47065368e-01
	1.00000000e+00
	1.47065368e-01
	1.61771905e+00
	1.47065368e-01
	8.82392207e-01
	8.02174733e-02
	6.35933545e+00
	5.78121405e-01
	2.00116394e+00
	-1.47065368e-03
	-1.47065368e-03
	-8.02174733e-04
	-1.81923995e-03
	-5.78121405e-03
	-1.00000000e+00

4	2.00000000e-01
	1.90093111e+00
	1.81810471e-01
	1.90093111e+00
	1.72811919e-01
	1.90093111e+00
	1.72811919e-01
	1.00000000e+00
	1.72811919e-01
	1.90093111e+00
	1.72811919e-01
	1.03687151e+00
	9.42610467e-02
	6.89359801e+00
	6.26690728e-01
	1.99991518e+00
	-1.72811919e-03
	-1.72811919e-03
	-9.42610467e-04
	-1.81810471e-03
	-6.26690728e-03
	-1.00000000e+00

5	2.50000000e-01
	1.99988634e+00
	1.81696946e-01
	1.99988634e+00
	1.81807849e-01
	1.99988634e+00
	1.81807849e-01
	1.00000000e+00
	1.81807849e-01
	1.99988634e+00
	1.81807849e-01
	1.09084710e+00
	9.91679178e-02
	7.07086509e+00
	6.42805917e-01
	1.99866641e+00
	-1.81807849e-03
	-1.81807849e-03
	-9.91679178e-04
	-1.81696946e-03
	-6.42805917e-03
	-1.00000000e+00

6	3.00000000e-01
	1.90095569e+00
	1.81798608e-01
	1.90095569e+00
	1.72814153e-01
	1.90095569e+00
	1.72814153e-01
	1.00000000e+00
	1.72814153e-01
	1.90095569e+00
	1.72814153e-01
	1.03688492e+00
	9.42622654e-02
	6.89364231e+00
	6.26694756e-01
	1.99978469e+00
	-1.72814153e-03
	-1.72814153e-03
	-9.42622654e-04
	-1.81798608e-03
	-6.26694756e-03
	-1.00000000e+00

7	3.50000000e-01
	1.61756975e+00
	1.81912133e-01
	1.61756975e+00
	1.47051795e-01
	1.61756975e+00
	1.47051795e-01
	1.00000000e+00
	1.47051795e-01
	1.61756975e+00
	1.47051795e-01
	8.82310770e-01
	8.02100700e-02
	6.35897007e+00
	5.78088188e-01
	2.00103346e+00
	-1.47051795e-03
	-1.47051795e-03
	-8.02100700e-04
	-1.81912133e-03
	-5.78088188e-03
	-1.00000000e+00

8	4.00000000e-01
	1.17494419e+00
	1.81865040e-01
	1.17494419e+00
	1.06813108e-01
	1.17494419e+00
	1.06813108e-01
	1.00000000e+00
	1.06813108e-01
	1.17494419e+00
	1.06813108e-01
	6.40878648e-01
	5.82616953e-02
	5.41830442e+00
	4.92573129e-01
	2.00051544e+00
	-1.06813108e-03
	-1.06813108e-03
	-5.82616953e-04
	-1.81865040e-03
	-4.92573129e-03
	-1.00000000e+00

9	4.50000000e-01
	6.18031961e-01
	1.46967053e-01
	6.18031961e-01
	5.61847237e-02
	6.18031961e-01
	5.61847237e-02
	1.00000000e+00
	5.61847237e-02
	6.18031961e-01
	5.61847237e-02
	3.37108342e-01
	3.06462129e-02
	3.93072295e+00
	3.57338450e-01
	1.61663759e+00
	-5.61847237e-04
	-5.61847237e-04
	-3.06462129e-04
	-1.46967053e-03
	-3.57338450e-03
	-1.00000000e+00

10	5.00000000e-01
	2.27661314e-14
	9.09112280e-02
	2.27661314e-14
	2.06964708e-15
	2.27661314e-14
	2.06964708e-15
	1.00000000e+00
	2.06964708e-15
	2.27661314e-14
	2.06964708e-15
	1.24178825e-14
	1.12889925e-15
	2.22780175e-02
	2.02527431e-03
	1.00002351e+00
	-2.06964824e-17
	-2.06964824e-17
	-1.12889904e-17
	-9.09112280e-04
	-2.02527431e-05
	-1.00000000e+00

11	5.50000000e-01
	-6.16784908e-01
	9.09090909e-02
	-6.16784908e-01
	-5.60713552e-02
	-6.16784908e-01
	-5.60713552e-02
	1.00000000e+00
	-5.60713552e-02
	-6.16784908e-01
	-5.60713552e-02
	-3.36428131e-01
	-3.05843756e-02
	0.00000000e+00
	0.00000000e+00
	1.00000000e+00
	5.60713552e-04
	5.60713552e-04
	3.05843756e-04
	-9.09090909e-04
	0.00000000e+00
	-1.00000000e+00

12	6.00000000e-01
	-1.17446050e+00
	9.09090909e-02
	-1.17446050e+00
	-1.06769136e-01
	-1.17446050e+00
	-1.06769136e-01
	1.00000000e+00
	-1.06769136e-01
	-1.17446050e+00
	-1.06769136e-01
	-6.40614816e-01
	-5.82377106e-02
	0.00000000e+00
	0.00000000e+00
	1.00000000e+00
	1.06769136e-03
	1.06769136e-03
	5.82377106e-04
	-9.09090909e-04
	0.00000000e+00
	-1.00000000e+00

13	6.50000000e-01
	-1.61736634e+00
	9.09090909e-02
	-1.61736634e+00
	-1.47033303e-01
	-1.61736634e+00
	-1.47033303e-01
	1.00000000e+00
	-1.47033303e-01
	-1.61736634e+00
	-1.47033303e-01
	-8.82199821e-01
	-8.01999837e-02
	0.00000000e+00
	0.00000000e+00
	1.00000000e+00
	1.47033303e-03
	1.47033303e-03
	8.01999837e-04
	-9.09090909e-04
	0.00000000e+00
	-1.00000000e+00

14	7.00000000e-01
	-1.90181341e+00
	9.09090909e-02
	-1.90181341e+00
	-1.72892128e-01
	-1.90181341e+00
	-1.72892128e-01
	1.00000000e+00
	-1.72892128e-01
	-1.90181341e+00
	-1.72892128e-01
	-1.03735277e+00
	-9.43047973e-02
	0.00000000e+00
	0.00000000e+00
	1.00000000e+00
	1.72892128e-03
	1.72892128e-03
	9.43047973e-04
	-9.09090909e-04
	0.00000000e+00
	-1.00000000e+00

15	7.50000000e-01
	-1.99867273e+00
	9.09090909e-02
	-1.99867273e+00
	-1.81697521e-01
	-1.99867273e+00
	-1.81697521e-01
	1.00000000e+00
	-1.81697521e-01
	-1.99867273e+00
	-1.81697521e-01
	-1.09018513e+00
	-9.91077388e-02
	0.00000000e+00
	0.00000000e+00
	1.00000000e+00
	1.81697521e-03
	1.81697521e-03
	9.91077388e-04
	-9.09090909e-04
	0.00000000e+00
	-1.00000000e+00

16	8.00000000e-01
	-1.90018770e+00
	9.09090909e-02
	-1.90018770e+00
	-1.72744337e-01
	-1.90018770e+00
	-1.72744337e-01
	1.00000000e+00
	-1.72744337e-01
	-1.90018770e+00
	-1.72744337e-01
	-1.03646602e+00
	-9.42241836e-02
	0.00000000e+00
	0.00000000e+00
	1.00000000e+00
	1.72744337e-03
	1.72744337e-03
	9.42241836e-04
	-9.09090909e-04
	0.00000000e+00
	-1.00000000e+00

17	8.50000000e-01
	-1.61607552e+00
	9.09090909e-02
	-1.61607552e+00
	-1.46915957e-01
	-1.61607552e+00
	-1.46915957e-01
	1.00000000e+00
	-1.46915957e-01
	-1.61607552e+00
	-1.46915957e-01
	-8.81495740e-01
	-8.01359764e-02
	0.00000000e+00
	0.00000000e+00
	1.00000000e+00
	1.46915957e-03
	1.46915957e-03
	8.01359764e-04
	-9.09090909e-04
	0.00000000e+00
	-1.00000000e+00

18	9.00000000e-01
	-1.17408483e+00
	9.09090909e-02
	-1.17408483e+00
	-1.06734985e-01
	-1.17408483e+00
	-1.06734985e-01
	1.00000000e+00
	-1.06734985e-01
	-1.17408483e+00
	-1.06734985e-01
	-6.40409910e-01
	-5.82190827e-02
	0.00000000e+00
	0.00000000e+00
	1.00000000e+00
	1.06734985e-03
	1.06734985e-03
	5.82190827e-04
	-9.09090909e-04
	0.00000000e+00
	-1.00000000e+00

19	9.50000000e-01
	-6.17300779e-01
	9.09090909e-02
	-6.17300779e-01
	-5.61182526e-02
	-6.17300779e-01
	-5.61182526e-02
	1.00000000e+00
	-5.61182526e-02
	-6.17300779e-01
	-5.61182526e-02
	-3.36709516e-01
	-3.06099560e-02
	0.00000000e+00
	0.00000000e+00
	1.00000000e+00
	5.61182526e-04
	5.61182526e-04
	3.06099560e-04
	-9.09090909e-04
	0.00000000e+00
	-1.00000000e+00

20	1.00000000e+00
	0.00000000e+00
	9.09090909e-02
	-2.87384859e-34
	-1.97127668e-17
	-2.87384859e-34
	-1.97127668e-17
	1.00000000e+00
	-1.97127668e-17
	0.00000000e+00
	-1.97127668e-17
	-9.85638339e-18
	-2.67690412e-17
	0.00000000e+00
	0.00000000e+00
	1.00000000e+00
	1.97127668e-19
	1.97127668e-19
	-2.33753092e-19
	-9.09090909e-04
	0.00000000e+00
	-1.00000000e+00

