Title: RAW File Output test for Lumped Line
Date: Fri Apr 29 09:30:30 2016
Plotname: Transient Analysis
Flags: real
No. Variables: 13
No. Points: 21                
Variables:
	0	time	time
	1	V(1)	voltage
	2	1B	voltage
	3	DUT	voltage
	4	L:X_TL:X1:1#branch	current
	5	L:X_TL:X2:1#branch	current
	6	L:X_TL:X3:1#branch	current
	7	VSIGGEN#branch	current
	8	X#TL:3	voltage
	9	X#TL:4	voltage
	10	X#TL:X1:3	voltage
	11	X#TL:X2:3	voltage
	12	X#TL:X3:3	voltage
Values:
0	0.00000000e+00
	0.00000000e+00
	0.00000000e+00
	0.00000000e+00
	0.00000000e+00
	0.00000000e+00
	0.00000000e+00
	0.00000000e+00
	0.00000000e+00
	0.00000000e+00
	0.00000000e+00
	0.00000000e+00
	0.00000000e+00

1	5.00000000e-08
	1.00000000e+00
	1.00000000e+00
	0.00000000e+00
	0.00000000e+00
	0.00000000e+00
	0.00000000e+00
	0.00000000e+00
	0.00000000e+00
	0.00000000e+00
	0.00000000e+00
	0.00000000e+00
	0.00000000e+00

2	1.00000000e-07
	1.00000000e+00
	1.00000000e+00
	0.00000000e+00
	0.00000000e+00
	0.00000000e+00
	0.00000000e+00
	0.00000000e+00
	0.00000000e+00
	0.00000000e+00
	0.00000000e+00
	0.00000000e+00
	0.00000000e+00

3	1.50000000e-07
	1.00000000e+00
	1.00000000e+00
	0.00000000e+00
	0.00000000e+00
	0.00000000e+00
	0.00000000e+00
	0.00000000e+00
	0.00000000e+00
	0.00000000e+00
	0.00000000e+00
	0.00000000e+00
	0.00000000e+00

4	2.00000000e-07
	1.00000000e+00
	1.00000000e+00
	0.00000000e+00
	0.00000000e+00
	0.00000000e+00
	0.00000000e+00
	0.00000000e+00
	0.00000000e+00
	0.00000000e+00
	0.00000000e+00
	0.00000000e+00
	0.00000000e+00

5	2.50000000e-07
	1.00000000e+00
	1.00000000e+00
	0.00000000e+00
	0.00000000e+00
	0.00000000e+00
	0.00000000e+00
	0.00000000e+00
	0.00000000e+00
	0.00000000e+00
	0.00000000e+00
	0.00000000e+00
	0.00000000e+00

6	3.00000000e-07
	1.00000000e+00
	1.00000000e+00
	0.00000000e+00
	0.00000000e+00
	0.00000000e+00
	0.00000000e+00
	0.00000000e+00
	0.00000000e+00
	0.00000000e+00
	0.00000000e+00
	0.00000000e+00
	0.00000000e+00

7	3.50000000e-07
	1.00000000e+00
	1.00000000e+00
	0.00000000e+00
	0.00000000e+00
	0.00000000e+00
	0.00000000e+00
	0.00000000e+00
	0.00000000e+00
	0.00000000e+00
	0.00000000e+00
	0.00000000e+00
	0.00000000e+00

8	4.00000000e-07
	1.00000000e+00
	1.00000000e+00
	0.00000000e+00
	0.00000000e+00
	0.00000000e+00
	0.00000000e+00
	0.00000000e+00
	0.00000000e+00
	0.00000000e+00
	0.00000000e+00
	0.00000000e+00
	0.00000000e+00

9	4.50000000e-07
	1.00000000e+00
	1.00000000e+00
	0.00000000e+00
	0.00000000e+00
	0.00000000e+00
	0.00000000e+00
	0.00000000e+00
	0.00000000e+00
	0.00000000e+00
	0.00000000e+00
	0.00000000e+00
	0.00000000e+00

10	5.00000000e-07
	9.54791801e-15
	9.54791801e-15
	0.00000000e+00
	0.00000000e+00
	0.00000000e+00
	0.00000000e+00
	0.00000000e+00
	0.00000000e+00
	0.00000000e+00
	0.00000000e+00
	0.00000000e+00
	0.00000000e+00

11	5.50000000e-07
	0.00000000e+00
	0.00000000e+00
	0.00000000e+00
	0.00000000e+00
	0.00000000e+00
	0.00000000e+00
	0.00000000e+00
	0.00000000e+00
	0.00000000e+00
	0.00000000e+00
	0.00000000e+00
	0.00000000e+00

12	6.00000000e-07
	0.00000000e+00
	0.00000000e+00
	0.00000000e+00
	0.00000000e+00
	0.00000000e+00
	0.00000000e+00
	0.00000000e+00
	0.00000000e+00
	0.00000000e+00
	0.00000000e+00
	0.00000000e+00
	0.00000000e+00

13	6.50000000e-07
	0.00000000e+00
	0.00000000e+00
	0.00000000e+00
	0.00000000e+00
	0.00000000e+00
	0.00000000e+00
	0.00000000e+00
	0.00000000e+00
	0.00000000e+00
	0.00000000e+00
	0.00000000e+00
	0.00000000e+00

14	7.00000000e-07
	0.00000000e+00
	0.00000000e+00
	0.00000000e+00
	0.00000000e+00
	0.00000000e+00
	0.00000000e+00
	0.00000000e+00
	0.00000000e+00
	0.00000000e+00
	0.00000000e+00
	0.00000000e+00
	0.00000000e+00

15	7.50000000e-07
	0.00000000e+00
	0.00000000e+00
	0.00000000e+00
	0.00000000e+00
	0.00000000e+00
	0.00000000e+00
	0.00000000e+00
	0.00000000e+00
	0.00000000e+00
	0.00000000e+00
	0.00000000e+00
	0.00000000e+00

16	8.00000000e-07
	0.00000000e+00
	0.00000000e+00
	0.00000000e+00
	0.00000000e+00
	0.00000000e+00
	0.00000000e+00
	0.00000000e+00
	0.00000000e+00
	0.00000000e+00
	0.00000000e+00
	0.00000000e+00
	0.00000000e+00

17	8.50000000e-07
	0.00000000e+00
	0.00000000e+00
	0.00000000e+00
	0.00000000e+00
	0.00000000e+00
	0.00000000e+00
	0.00000000e+00
	0.00000000e+00
	0.00000000e+00
	0.00000000e+00
	0.00000000e+00
	0.00000000e+00

18	9.00000000e-07
	0.00000000e+00
	0.00000000e+00
	0.00000000e+00
	0.00000000e+00
	0.00000000e+00
	0.00000000e+00
	0.00000000e+00
	0.00000000e+00
	0.00000000e+00
	0.00000000e+00
	0.00000000e+00
	0.00000000e+00

19	9.50000000e-07
	0.00000000e+00
	0.00000000e+00
	0.00000000e+00
	0.00000000e+00
	0.00000000e+00
	0.00000000e+00
	0.00000000e+00
	0.00000000e+00
	0.00000000e+00
	0.00000000e+00
	0.00000000e+00
	0.00000000e+00

20	1.00000000e-06
	0.00000000e+00
	0.00000000e+00
	0.00000000e+00
	0.00000000e+00
	0.00000000e+00
	0.00000000e+00
	0.00000000e+00
	0.00000000e+00
	0.00000000e+00
	0.00000000e+00
	0.00000000e+00
	0.00000000e+00

