Title: RAW File Output test for B, E and H Sources.
Date: Sun Aug 09 10:36:20 2020
Plotname: Transient Analysis
Flags: real
No. Variables: 24
No. Points: 21                
Variables:
	0	time	time
	1	V(1)	voltage
	2	V(10)	voltage
	3	V(11)	voltage
	4	V(12)	voltage
	5	V(13)	voltage
	6	V(14)	voltage
	7	V(15)	voltage
	8	V(16)	voltage
	9	V(2)	voltage
	10	V(3)	voltage
	11	V(4)	voltage
	12	V(5)	voltage
	13	V(6)	voltage
	14	V(7)	voltage
	15	V(8)	voltage
	16	V(9)	voltage
	17	B1#branch	current
	18	ELIN#branch	current
	19	EPOLY#branch	current
	20	ETABLE#branch	current
	21	EVALUE#branch	current
	22	HLIN#branch	current
	23	HPOLY#branch	current
Values:
0	0.00000000e+00
	0.00000000e+00
	9.09090909e-02
	0.00000000e+00
	0.00000000e+00
	0.00000000e+00
	0.00000000e+00
	0.00000000e+00
	0.00000000e+00
	0.00000000e+00
	0.00000000e+00
	0.00000000e+00
	0.00000000e+00
	0.00000000e+00
	0.00000000e+00
	0.00000000e+00
	1.00000000e+00
	0.00000000e+00
	0.00000000e+00
	0.00000000e+00
	-9.09090909e-04
	0.00000000e+00
	0.00000000e+00
	0.00000000e+00

1	5.00000000e-02
	6.17551959e-01
	1.47050178e-01
	-6.79307155e+02
	-6.17551959e+01
	-5.61410872e-01
	-5.10373520e-02
	-5.61410872e-01
	-5.10373520e-02
	5.61410872e-02
	6.17551959e-01
	5.61410872e-02
	3.36846523e-01
	3.06224112e-02
	3.92132804e+00
	3.56484367e-01
	1.61755196e+00
	-5.61410872e-04
	-5.61410872e-04
	-3.06224112e-04
	-1.47050178e-03
	-3.56484367e-03
	5.10373520e-04
	5.10373520e-04

2	1.00000000e-01
	1.17457495e+00
	1.81818182e-01
	-1.29203245e+03
	-1.17457495e+02
	-1.06779541e+00
	-9.70723101e-02
	-1.06779541e+00
	-9.70723101e-02
	1.06779541e-01
	1.17457495e+00
	1.06779541e-01
	6.40677246e-01
	5.82433860e-02
	5.41679175e+00
	4.92435614e-01
	2.00000000e+00
	-1.06779541e-03
	-1.06779541e-03
	-5.82433860e-04
	-1.81818182e-03
	-4.92435614e-03
	9.70723101e-04
	9.70723101e-04

3	1.50000000e-01
	1.61747498e+00
	1.81818182e-01
	-1.77922247e+03
	-1.61747498e+02
	-1.47043180e+00
	-1.33675618e-01
	-1.47043180e+00
	-1.33675618e-01
	1.47043180e-01
	1.61747498e+00
	1.47043180e-01
	8.82259077e-01
	8.02053707e-02
	6.35874550e+00
	5.78067772e-01
	2.00000000e+00
	-1.47043180e-03
	-1.47043180e-03
	-8.02053707e-04
	-1.81818182e-03
	-5.78067772e-03
	1.33675618e-03
	1.33675618e-03

4	2.00000000e-01
	1.90117564e+00
	1.81818182e-01
	-2.09129320e+03
	-1.90117564e+02
	-1.72834149e+00
	-1.57121953e-01
	-1.72834149e+00
	-1.57121953e-01
	1.72834149e-01
	1.90117564e+00
	1.72834149e-01
	1.03700489e+00
	9.42731721e-02
	6.89404876e+00
	6.26731705e-01
	2.00000000e+00
	-1.72834149e-03
	-1.72834149e-03
	-9.42731721e-04
	-1.81818182e-03
	-6.26731705e-03
	1.57121953e-03
	1.57121953e-03

5	2.50000000e-01
	1.99824602e+00
	1.81818182e-01
	-2.19807062e+03
	-1.99824602e+02
	-1.81658729e+00
	-1.65144299e-01
	-1.81658729e+00
	-1.65144299e-01
	1.81658729e-01
	1.99824602e+00
	1.81658729e-01
	1.08995237e+00
	9.90865795e-02
	7.06796647e+00
	6.42542406e-01
	2.00000000e+00
	-1.81658729e-03
	-1.81658729e-03
	-9.90865795e-04
	-1.81818182e-03
	-6.42542406e-03
	1.65144299e-03
	1.65144299e-03

6	3.00000000e-01
	1.90074631e+00
	1.81818182e-01
	-2.09082094e+03
	-1.90074631e+02
	-1.72795119e+00
	-1.57086472e-01
	-1.72795119e+00
	-1.57086472e-01
	1.72795119e-01
	1.90074631e+00
	1.72795119e-01
	1.03677071e+00
	9.42518831e-02
	6.89323032e+00
	6.26657302e-01
	2.00000000e+00
	-1.72795119e-03
	-1.72795119e-03
	-9.42518831e-04
	-1.81818182e-03
	-6.26657302e-03
	1.57086472e-03
	1.57086472e-03

7	3.50000000e-01
	1.61798757e+00
	1.81818181e-01
	-1.77978633e+03
	-1.61798757e+02
	-1.47089779e+00
	-1.33717981e-01
	-1.47089779e+00
	-1.33717981e-01
	1.47089779e-01
	1.61798757e+00
	1.47089779e-01
	8.82538676e-01
	8.02307887e-02
	6.35997870e+00
	5.78179882e-01
	2.00000000e+00
	-1.47089779e-03
	-1.47089779e-03
	-8.02307887e-04
	-1.81818181e-03
	-5.78179882e-03
	1.33717981e-03
	1.33717981e-03

8	4.00000000e-01
	1.17473899e+00
	1.81818182e-01
	-1.29221289e+03
	-1.17473899e+02
	-1.06794454e+00
	-9.70858671e-02
	-1.06794454e+00
	-9.70858671e-02
	1.06794454e-01
	1.17473899e+00
	1.06794454e-01
	6.40766723e-01
	5.82515202e-02
	5.41757451e+00
	4.92506773e-01
	2.00000000e+00
	-1.06794454e-03
	-1.06794454e-03
	-5.82515202e-04
	-1.81818182e-03
	-4.92506773e-03
	9.70858671e-04
	9.70858671e-04

9	4.50000000e-01
	6.17492250e-01
	1.47044750e-01
	-6.79241476e+02
	-6.17492250e+01
	-5.61356591e-01
	-5.10324174e-02
	-5.61356591e-01
	-5.10324174e-02
	5.61356591e-02
	6.17492250e-01
	5.61356591e-02
	3.36813955e-01
	3.06194504e-02
	3.92065706e+00
	3.56423369e-01
	1.61749225e+00
	-5.61356591e-04
	-5.61356591e-04
	-3.06194504e-04
	-1.47044750e-03
	-3.56423369e-03
	5.10324174e-04
	5.10324174e-04

10	5.00000000e-01
	1.89690355e-05
	9.32128747e-02
	-2.08659390e-02
	-1.89690355e-03
	-1.72445777e-05
	-1.56768888e-06
	-1.72445777e-05
	-1.56768888e-06
	1.72445777e-06
	1.89690355e-05
	1.72445777e-06
	1.03467466e-05
	9.40613328e-07
	7.18933120e-01
	6.53575564e-02
	1.02534162e+00
	-1.72445777e-08
	-1.72445777e-08
	-9.40613328e-09
	-9.32128747e-04
	-6.53575564e-04
	1.56768888e-08
	1.56768888e-08

11	5.50000000e-01
	-6.17697314e-01
	9.09090908e-02
	6.79467046e+02
	6.17697314e+01
	5.61543013e-01
	5.10493648e-02
	5.61543013e-01
	5.10493648e-02
	-5.61543013e-02
	-6.17697314e-01
	-5.61543013e-02
	-3.36925808e-01
	-3.06296189e-02
	-1.90512472e-06
	-1.73193156e-07
	9.99999999e-01
	5.61543013e-04
	5.61543013e-04
	3.06296189e-04
	-9.09090908e-04
	1.73193156e-09
	-5.10493648e-04
	-5.10493648e-04

12	6.00000000e-01
	-1.17509176e+00
	9.09090907e-02
	1.29260094e+03
	1.17509176e+02
	1.06826524e+00
	9.71150219e-02
	1.06826524e+00
	9.71150219e-02
	-1.06826524e-01
	-1.17509176e+00
	-1.06826524e-01
	-6.40959144e-01
	-5.82690131e-02
	-5.00521635e-06
	-4.55019668e-07
	9.99999998e-01
	1.06826524e-03
	1.06826524e-03
	5.82690131e-04
	-9.09090907e-04
	4.55019668e-09
	-9.71150219e-04
	-9.71150219e-04

13	6.50000000e-01
	-1.61753395e+00
	9.09090911e-02
	1.77928734e+03
	1.61753395e+02
	1.47048541e+00
	1.33680492e-01
	1.47048541e+00
	1.33680492e-01
	-1.47048541e-01
	-1.61753395e+00
	-1.47048541e-01
	-8.82291245e-01
	-8.02082950e-02
	6.11344015e-06
	5.55767286e-07
	1.00000000e+00
	1.47048541e-03
	1.47048541e-03
	8.02082950e-04
	-9.09090911e-04
	-5.55767287e-09
	-1.33680492e-03
	-1.33680492e-03

14	7.00000000e-01
	-1.90102005e+00
	9.09090909e-02
	2.09112205e+03
	1.90102005e+02
	1.72820004e+00
	1.57109095e-01
	1.72820004e+00
	1.57109095e-01
	-1.72820004e-01
	-1.90102005e+00
	-1.72820004e-01
	-1.03692003e+00
	-9.42654570e-02
	7.96900918e-07
	7.24455381e-08
	1.00000000e+00
	1.72820004e-03
	1.72820004e-03
	9.42654570e-04
	-9.09090909e-04
	-7.24455381e-10
	-1.57109095e-03
	-1.57109095e-03

15	7.50000000e-01
	-1.99968868e+00
	9.09090906e-02
	2.19965755e+03
	1.99968868e+02
	1.81789880e+00
	1.65263528e-01
	1.81789880e+00
	1.65263528e-01
	-1.81789880e-01
	-1.99968868e+00
	-1.81789880e-01
	-1.09073928e+00
	-9.91581166e-02
	-7.70724198e-06
	-7.00658363e-07
	9.99999997e-01
	1.81789880e-03
	1.81789880e-03
	9.91581166e-04
	-9.09090906e-04
	7.00658363e-09
	-1.65263528e-03
	-1.65263528e-03

16	8.00000000e-01
	-1.90116722e+00
	9.09090910e-02
	2.09128395e+03
	1.90116722e+02
	1.72833384e+00
	1.57121258e-01
	1.72833384e+00
	1.57121258e-01
	-1.72833384e-01
	-1.90116722e+00
	-1.72833384e-01
	-1.03700030e+00
	-9.42727549e-02
	3.41141451e-06
	3.10128592e-07
	1.00000000e+00
	1.72833384e-03
	1.72833384e-03
	9.42727549e-04
	-9.09090910e-04
	-3.10128592e-09
	-1.57121258e-03
	-1.57121258e-03

17	8.50000000e-01
	-1.61724373e+00
	9.09090910e-02
	1.77896811e+03
	1.61724373e+02
	1.47022157e+00
	1.33656507e-01
	1.47022157e+00
	1.33656507e-01
	-1.47022157e-01
	-1.61724373e+00
	-1.47022157e-01
	-8.82132945e-01
	-8.01939041e-02
	3.49892655e-06
	3.18084232e-07
	1.00000000e+00
	1.47022157e-03
	1.47022157e-03
	8.01939041e-04
	-9.09090910e-04
	-3.18084232e-09
	-1.33656507e-03
	-1.33656507e-03

18	9.00000000e-01
	-1.17537116e+00
	9.09090906e-02
	1.29290828e+03
	1.17537116e+02
	1.06851924e+00
	9.71381127e-02
	1.06851924e+00
	9.71381127e-02
	-1.06851924e-01
	-1.17537116e+00
	-1.06851924e-01
	-6.41111544e-01
	-5.82828676e-02
	-7.61972994e-06
	-6.92702722e-07
	9.99999997e-01
	1.06851924e-03
	1.06851924e-03
	5.82828676e-04
	-9.09090906e-04
	6.92702723e-09
	-9.71381127e-04
	-9.71381127e-04

19	9.50000000e-01
	-6.17676555e-01
	9.09090909e-02
	6.79444210e+02
	6.17676555e+01
	5.61524141e-01
	5.10476492e-02
	5.61524141e-01
	5.10476492e-02
	-5.61524141e-02
	-6.17676555e-01
	-5.61524141e-02
	-3.36914484e-01
	-3.06285895e-02
	7.09388877e-07
	6.44898979e-08
	1.00000000e+00
	5.61524141e-04
	5.61524141e-04
	3.06285895e-04
	-9.09090909e-04
	-6.44898980e-10
	-5.10476492e-04
	-5.10476492e-04

20	1.00000000e+00
	0.00000000e+00
	9.09090906e-02
	7.77156117e-14
	7.77156117e-14
	4.68178211e-16
	4.25616555e-17
	4.68178211e-16
	4.25616555e-17
	3.44973419e-17
	0.00000000e+00
	3.44973419e-17
	4.61337881e-16
	8.13653409e-17
	-9.01449878e-06
	-8.19499890e-07
	9.99999996e-01
	4.68178211e-19
	4.68178211e-19
	5.37083291e-20
	-9.09090906e-04
	8.19499890e-09
	-4.25616555e-19
	-4.25616555e-19

