Title: RAW File Output test for B, E and F Sources.
Date: Wed Aug 12 02:30:10 2020
Plotname: Transient Analysis
Flags: real
No. Variables: 22
No. Points: 21                
Variables:
	0	time	time
	1	V(1)	voltage
	2	V(10)	voltage
	3	V(11)	voltage
	4	V(12)	voltage
	5	V(13)	voltage
	6	V(14)	voltage
	7	V(15)	voltage
	8	V(2)	voltage
	9	V(3)	voltage
	10	V(4)	voltage
	11	V(5)	voltage
	12	V(6)	voltage
	13	V(7)	voltage
	14	V(8)	voltage
	15	V(9)	voltage
	16	B1#branch	current
	17	ELIN#branch	current
	18	EPOLY#branch	current
	19	ETABLE#branch	current
	20	EVALUE#branch	current
	21	V15#branch	current
Values:
0	0.00000000e+00
	0.00000000e+00
	9.09090909e-02
	0.00000000e+00
	0.00000000e+00
	0.00000000e+00
	0.00000000e+00
	1.00000000e+00
	0.00000000e+00
	0.00000000e+00
	0.00000000e+00
	0.00000000e+00
	0.00000000e+00
	0.00000000e+00
	0.00000000e+00
	1.00000000e+00
	0.00000000e+00
	0.00000000e+00
	0.00000000e+00
	-9.09090909e-04
	0.00000000e+00
	-1.00000000e+00

1	5.00000000e-02
	6.17905589e-01
	1.47117705e-01
	6.17905589e-01
	5.61732353e-02
	6.17905589e-01
	5.61732353e-02
	1.00000000e+00
	5.61732353e-02
	6.17905589e-01
	5.61732353e-02
	3.37039412e-01
	3.06399466e-02
	3.92835524e+00
	3.57123203e-01
	1.61829475e+00
	-5.61732353e-04
	-5.61732353e-04
	-3.06399466e-04
	-1.47117705e-03
	-3.57123203e-03
	-1.00000000e+00

2	1.00000000e-01
	1.17484772e+00
	1.81591466e-01
	1.17484772e+00
	1.06804339e-01
	1.17484772e+00
	1.06804339e-01
	1.00000000e+00
	1.06804339e-01
	1.17484772e+00
	1.06804339e-01
	6.40826032e-01
	5.82569120e-02
	5.41788976e+00
	4.92535433e-01
	1.99750612e+00
	-1.06804339e-03
	-1.06804339e-03
	-5.82569120e-04
	-1.81591466e-03
	-4.92535433e-03
	-1.00000000e+00

3	1.50000000e-01
	1.61783414e+00
	1.81450443e-01
	1.61783414e+00
	1.47075831e-01
	1.61783414e+00
	1.47075831e-01
	1.00000000e+00
	1.47075831e-01
	1.61783414e+00
	1.47075831e-01
	8.82454987e-01
	8.02231806e-02
	6.35959290e+00
	5.78144809e-01
	1.99595487e+00
	-1.47075831e-03
	-1.47075831e-03
	-8.02231806e-04
	-1.81450443e-03
	-5.78144809e-03
	-1.00000000e+00

4	2.00000000e-01
	1.90110253e+00
	1.81637367e-01
	1.90110253e+00
	1.72827503e-01
	1.90110253e+00
	1.72827503e-01
	1.00000000e+00
	1.72827503e-01
	1.90110253e+00
	1.72827503e-01
	1.03696502e+00
	9.42695469e-02
	6.89393967e+00
	6.26721788e-01
	1.99801103e+00
	-1.72827503e-03
	-1.72827503e-03
	-9.42695469e-04
	-1.81637367e-03
	-6.26721788e-03
	-1.00000000e+00

5	2.50000000e-01
	1.99874482e+00
	1.81906366e-01
	1.99874482e+00
	1.81704074e-01
	1.99874482e+00
	1.81704074e-01
	1.00000000e+00
	1.81704074e-01
	1.99874482e+00
	1.81704074e-01
	1.09022445e+00
	9.91113132e-02
	7.06884726e+00
	6.42622478e-01
	2.00097003e+00
	-1.81704074e-03
	-1.81704074e-03
	-9.91113132e-04
	-1.81906366e-03
	-6.42622478e-03
	-1.00000000e+00

6	3.00000000e-01
	1.90181497e+00
	1.82175366e-01
	1.90181497e+00
	1.72892270e-01
	1.90181497e+00
	1.72892270e-01
	1.00000000e+00
	1.72892270e-01
	1.90181497e+00
	1.72892270e-01
	1.03735362e+00
	9.43048747e-02
	6.89528742e+00
	6.26844311e-01
	2.00392903e+00
	-1.72892270e-03
	-1.72892270e-03
	-9.43048747e-04
	-1.82175366e-03
	-6.26844311e-03
	-1.00000000e+00

7	3.50000000e-01
	1.61720927e+00
	1.82009552e-01
	1.61720927e+00
	1.47019024e-01
	1.61720927e+00
	1.47019024e-01
	1.00000000e+00
	1.47019024e-01
	1.61720927e+00
	1.47019024e-01
	8.82114146e-01
	8.01921951e-02
	6.35801666e+00
	5.78001514e-01
	2.00210507e+00
	-1.47019024e-03
	-1.47019024e-03
	-8.01921951e-04
	-1.82009552e-03
	-5.78001514e-03
	-1.00000000e+00

8	4.00000000e-01
	1.17481990e+00
	1.81740552e-01
	1.17481990e+00
	1.06801809e-01
	1.17481990e+00
	1.06801809e-01
	1.00000000e+00
	1.06801809e-01
	1.17481990e+00
	1.06801809e-01
	6.40810856e-01
	5.82555324e-02
	5.41785673e+00
	4.92532430e-01
	1.99914607e+00
	-1.06801809e-03
	-1.06801809e-03
	-5.82555324e-04
	-1.81740552e-03
	-4.92532430e-03
	-1.00000000e+00

9	4.50000000e-01
	6.17974070e-01
	1.47110233e-01
	6.17974070e-01
	5.61794609e-02
	6.17974070e-01
	5.61794609e-02
	1.00000000e+00
	5.61794609e-02
	6.17974070e-01
	5.61794609e-02
	3.37076765e-01
	3.06433423e-02
	3.92954930e+00
	3.57231755e-01
	1.61821256e+00
	-5.61794609e-04
	-5.61794609e-04
	-3.06433423e-04
	-1.47110233e-03
	-3.57231755e-03
	-1.00000000e+00

10	5.00000000e-01
	2.83963391e-14
	9.09119944e-02
	2.83963391e-14
	2.58149045e-15
	2.83963391e-14
	2.58149045e-15
	1.00000000e+00
	2.58149045e-15
	2.83963391e-14
	2.58149045e-15
	1.54889122e-14
	1.40808131e-15
	2.50649165e-02
	2.27862877e-03
	1.00003194e+00
	-2.58148643e-17
	-2.58148643e-17
	-1.40808375e-17
	-9.09119944e-04
	-2.27862877e-05
	-1.00000000e+00

11	5.50000000e-01
	-6.16727091e-01
	9.09090909e-02
	-6.16727091e-01
	-5.60660992e-02
	-6.16727091e-01
	-5.60660992e-02
	1.00000000e+00
	-5.60660992e-02
	-6.16727091e-01
	-5.60660992e-02
	-3.36396595e-01
	-3.05815086e-02
	2.40517735e-16
	2.18608374e-17
	1.00000000e+00
	5.60660992e-04
	5.60660992e-04
	3.05815086e-04
	-9.09090909e-04
	-2.18739790e-19
	-1.00000000e+00

12	6.00000000e-01
	-1.17550907e+00
	9.09090909e-02
	-1.17550907e+00
	-1.06864461e-01
	-1.17550907e+00
	-1.06864461e-01
	1.00000000e+00
	-1.06864461e-01
	-1.17550907e+00
	-1.06864461e-01
	-6.41186766e-01
	-5.82897060e-02
	3.33166429e-16
	3.03023614e-17
	1.00000000e+00
	1.06864461e-03
	1.06864461e-03
	5.82897060e-04
	-9.09090909e-04
	-3.02591509e-19
	-1.00000000e+00

13	6.50000000e-01
	-1.61672138e+00
	9.09090909e-02
	-1.61672138e+00
	-1.46974671e-01
	-1.61672138e+00
	-1.46974671e-01
	1.00000000e+00
	-1.46974671e-01
	-1.61672138e+00
	-1.46974671e-01
	-8.81848028e-01
	-8.01680026e-02
	3.90059371e-16
	3.54515191e-17
	1.00000000e+00
	1.46974671e-03
	1.46974671e-03
	8.01680026e-04
	-9.09090909e-04
	-3.54766147e-19
	-1.00000000e+00

14	7.00000000e-01
	-1.89988703e+00
	9.09090909e-02
	-1.89988703e+00
	-1.72717002e-01
	-1.89988703e+00
	-1.72717002e-01
	1.00000000e+00
	-1.72717002e-01
	-1.89988703e+00
	-1.72717002e-01
	-1.03630201e+00
	-9.42092740e-02
	4.23032849e-16
	3.84592830e-17
	1.00000000e+00
	1.72717002e-03
	1.72717002e-03
	9.42092740e-04
	-9.09090909e-04
	-3.84540656e-19
	-1.00000000e+00

15	7.50000000e-01
	-1.99789189e+00
	9.09090909e-02
	-1.99789189e+00
	-1.81626535e-01
	-1.99789189e+00
	-1.81626535e-01
	1.00000000e+00
	-1.81626535e-01
	-1.99789189e+00
	-1.81626535e-01
	-1.08975921e+00
	-9.90690193e-02
	4.33861446e-16
	3.94468708e-17
	1.00000000e+00
	1.81626535e-03
	1.81626535e-03
	9.90690193e-04
	-9.09090909e-04
	-3.94322100e-19
	-1.00000000e+00

16	8.00000000e-01
	-1.90123783e+00
	9.09090909e-02
	-1.90123783e+00
	-1.72839803e-01
	-1.90123783e+00
	-1.72839803e-01
	1.00000000e+00
	-1.72839803e-01
	-1.90123783e+00
	-1.72839803e-01
	-1.03703882e+00
	-9.42762561e-02
	4.22963855e-16
	3.84396660e-17
	1.00000000e+00
	1.72839803e-03
	1.72839803e-03
	9.42762561e-04
	-9.09090909e-04
	-3.84742050e-19
	-1.00000000e+00

17	8.50000000e-01
	-1.61725167e+00
	9.09090909e-02
	-1.61725167e+00
	-1.47022879e-01
	-1.61725167e+00
	-1.47022879e-01
	1.00000000e+00
	-1.47022879e-01
	-1.61725167e+00
	-1.47022879e-01
	-8.82137274e-01
	-8.01942976e-02
	3.90414658e-16
	3.55035449e-17
	1.00000000e+00
	1.47022879e-03
	1.47022879e-03
	8.01942976e-04
	-9.09090909e-04
	-3.54698706e-19
	-1.00000000e+00

18	9.00000000e-01
	-1.17433130e+00
	9.09090909e-02
	-1.17433130e+00
	-1.06757390e-01
	-1.17433130e+00
	-1.06757390e-01
	1.00000000e+00
	-1.06757390e-01
	-1.17433130e+00
	-1.06757390e-01
	-6.40544343e-01
	-5.82313039e-02
	3.32293392e-16
	3.02038593e-17
	1.00000000e+00
	1.06757390e-03
	1.06757390e-03
	5.82313039e-04
	-9.09090909e-04
	-3.02176555e-19
	-1.00000000e+00

19	9.50000000e-01
	-6.17305394e-01
	9.09090909e-02
	-6.17305394e-01
	-5.61186722e-02
	-6.17305394e-01
	-5.61186722e-02
	1.00000000e+00
	-5.61186722e-02
	-6.17305394e-01
	-5.61186722e-02
	-3.36712033e-01
	-3.06101848e-02
	2.40394705e-16
	2.18520226e-17
	1.00000000e+00
	5.61186722e-04
	5.61186722e-04
	3.06101848e-04
	-9.09090909e-04
	-2.18581046e-19
	-1.00000000e+00

20	1.00000000e+00
	-4.89856094e-16
	9.09090909e-02
	-4.89869647e-16
	-1.18457558e-16
	-4.89869647e-16
	-1.18457558e-16
	1.00000000e+00
	-1.18455864e-16
	-4.89856094e-16
	-1.18455864e-16
	-3.31914943e-16
	-4.37263818e-17
	4.48729995e-18
	4.22720934e-19
	1.00000000e+00
	-3.87530808e-19
	-3.87530808e-19
	7.13492909e-20
	-9.09090909e-04
	-3.78675221e-21
	-1.00000000e+00

