Title: RAW File Output test for B, G and H Sources.
Date: Wed Aug 12 02:30:10 2020
Plotname: Transient Analysis
Flags: real
No. Variables: 20
No. Points: 21                
Variables:
	0	time	time
	1	V(1)	voltage
	2	V(10)	voltage
	3	V(11)	voltage
	4	V(12)	voltage
	5	V(13)	voltage
	6	V(14)	voltage
	7	V(15)	voltage
	8	V(2)	voltage
	9	V(3)	voltage
	10	V(4)	voltage
	11	V(5)	voltage
	12	V(6)	voltage
	13	V(7)	voltage
	14	V(8)	voltage
	15	V(9)	voltage
	16	B1#branch	current
	17	HLIN#branch	current
	18	HPOLY#branch	current
	19	V15#branch	current
Values:
0	0.00000000e+00
	0.00000000e+00
	-1.00000000e+02
	0.00000000e+00
	0.00000000e+00
	0.00000000e+00
	0.00000000e+00
	1.00000000e+00
	0.00000000e+00
	0.00000000e+00
	0.00000000e+00
	0.00000000e+00
	0.00000000e+00
	0.00000000e+00
	0.00000000e+00
	-1.10000000e+03
	0.00000000e+00
	0.00000000e+00
	0.00000000e+00
	-1.00000000e+00

1	5.00000000e-02
	6.17732734e-01
	-1.61773275e+02
	-5.61575213e-04
	-5.10522921e-05
	-1.12315043e-03
	-1.02104584e-04
	1.00000000e+00
	5.61575213e-02
	-6.79506008e+02
	-6.17732734e+01
	4.07703605e+05
	3.70639641e+04
	-4.31852304e+03
	-3.92593004e+02
	-1.77950603e+03
	-5.61575213e-04
	5.10522921e-07
	1.02104584e-06
	-1.00000000e+00

2	1.00000000e-01
	1.17513585e+00
	-2.00000002e+02
	-1.06830532e-03
	-9.71186654e-05
	-2.13661064e-03
	-1.94237331e-04
	1.00000000e+00
	1.06830532e-01
	-1.29264944e+03
	-1.17513585e+02
	7.75589662e+05
	7.05081511e+04
	-5.96102307e+03
	-5.41911188e+02
	-2.20000002e+03
	-1.06830532e-03
	9.71186654e-07
	1.94237331e-06
	-1.00000000e+00

3	1.50000000e-01
	1.61666296e+00
	-2.00000001e+02
	-1.46969360e-03
	-1.33608509e-04
	-2.93938719e-03
	-2.67217018e-04
	1.00000000e+00
	1.46969360e-01
	-1.77832925e+03
	-1.61666296e+02
	1.06699755e+06
	9.69997774e+04
	-6.99233277e+03
	-6.35666615e+02
	-2.20000001e+03
	-1.46969360e-03
	1.33608509e-06
	2.67217018e-06
	-1.00000000e+00

4	2.00000000e-01
	1.90061660e+00
	-1.99999999e+02
	-1.72783327e-03
	-1.57075752e-04
	-3.45566654e-03
	-3.14151504e-04
	1.00000000e+00
	1.72783327e-01
	-2.09067826e+03
	-1.90061660e+02
	1.25440695e+06
	1.14036996e+05
	-7.58231406e+03
	-6.89301278e+02
	-2.19999999e+03
	-1.72783327e-03
	1.57075752e-06
	3.14151504e-06
	-1.00000000e+00

5	2.50000000e-01
	1.99963803e+00
	-1.99999997e+02
	-1.81785275e-03
	-1.65259341e-04
	-3.63570550e-03
	-3.30518682e-04
	1.00000000e+00
	1.81785275e-01
	-2.19960183e+03
	-1.99963803e+02
	1.31976110e+06
	1.19978282e+05
	-7.77747019e+03
	-7.07042745e+02
	-2.19999997e+03
	-1.81785275e-03
	1.65259341e-06
	3.30518682e-06
	-1.00000000e+00

6	3.00000000e-01
	1.90094341e+00
	-1.99999998e+02
	-1.72813037e-03
	-1.57102761e-04
	-3.45626075e-03
	-3.14205523e-04
	1.00000000e+00
	1.72813037e-01
	-2.09103775e+03
	-1.90094341e+02
	1.25462265e+06
	1.14056605e+05
	-7.58300410e+03
	-6.89364009e+02
	-2.19999998e+03
	-1.72813037e-03
	1.57102761e-06
	3.14205523e-06
	-1.00000000e+00

7	3.50000000e-01
	1.61659566e+00
	-2.00000000e+02
	-1.46963242e-03
	-1.33602947e-04
	-2.93926484e-03
	-2.67205895e-04
	1.00000000e+00
	1.46963242e-01
	-1.77825523e+03
	-1.61659566e+02
	1.06695314e+06
	9.69957398e+04
	-6.99217737e+03
	-6.35652488e+02
	-2.20000000e+03
	-1.46963242e-03
	1.33602947e-06
	2.67205895e-06
	-1.00000000e+00

8	4.00000000e-01
	1.17484656e+00
	-2.00258814e+02
	-1.06804233e-03
	-9.70947571e-05
	-2.13608466e-03
	-1.94189514e-04
	1.00000000e+00
	1.06804233e-01
	-1.29233122e+03
	-1.17484656e+02
	7.75398730e+05
	7.04907936e+04
	-5.95956469e+03
	-5.41778608e+02
	-2.20284695e+03
	-1.06804233e-03
	9.70947571e-07
	1.94189514e-06
	-1.00000000e+00

9	4.50000000e-01
	6.17932119e-01
	-1.62228843e+02
	-5.61756472e-04
	-5.10687701e-05
	-1.12351294e-03
	-1.02137540e-04
	1.00000000e+00
	5.61756472e-02
	-6.79725331e+02
	-6.17932119e+01
	4.07835198e+05
	3.70759271e+04
	-4.32209752e+03
	-3.92917957e+02
	-1.78451728e+03
	-5.61756472e-04
	5.10687701e-07
	1.02137540e-06
	-1.00000000e+00

10	5.00000000e-01
	-1.56740367e-05
	-1.03839051e+02
	1.42491243e-08
	1.29537493e-09
	2.84982485e-08
	2.59074986e-09
	1.00000000e+00
	-1.42491243e-06
	1.72414403e-02
	1.56740367e-03
	-1.03448642e+01
	-9.40442201e-01
	-5.95488824e+02
	-5.41353476e+01
	-1.14222956e+03
	1.42491243e-08
	-1.29537493e-11
	-2.59074986e-11
	-1.00000000e+00

11	5.50000000e-01
	-6.17668680e-01
	-1.00000000e+02
	5.61516982e-04
	5.10469983e-05
	1.12303396e-03
	1.02093997e-04
	1.00000000e+00
	-5.61516982e-02
	6.79435548e+02
	6.17668680e+01
	-4.07661329e+05
	-3.70601208e+04
	-2.64657792e-13
	-2.40597992e-14
	-1.10000000e+03
	5.61516982e-04
	-5.10469983e-07
	-1.02093997e-06
	-1.00000000e+00

12	6.00000000e-01
	-1.17517677e+00
	-1.00000000e+02
	1.06834252e-03
	9.71220471e-05
	2.13668504e-03
	1.94244094e-04
	1.00000000e+00
	-1.06834252e-01
	1.29269445e+03
	1.17517677e+02
	-7.75616668e+05
	-7.05106062e+04
	-3.65525537e-13
	-3.32295943e-14
	-1.10000000e+03
	1.06834252e-03
	-9.71220471e-07
	-1.94244094e-06
	-1.00000000e+00

13	6.50000000e-01
	-1.61789823e+00
	-1.00000000e+02
	1.47081657e-03
	1.33710597e-04
	2.94163314e-03
	2.67421194e-04
	1.00000000e+00
	-1.47081657e-01
	1.77968805e+03
	1.61789823e+02
	-1.06781283e+06
	-9.70738935e+04
	-4.28945914e-13
	-3.89950831e-14
	-1.10000000e+03
	1.47081657e-03
	-1.33710597e-06
	-2.67421194e-06
	-1.00000000e+00

14	7.00000000e-01
	-1.90124256e+00
	-1.00000000e+02
	1.72840233e-03
	1.57127484e-04
	3.45680466e-03
	3.14254969e-04
	1.00000000e+00
	-1.72840233e-01
	2.09136682e+03
	1.90124256e+02
	-1.25482009e+06
	-1.14074554e+05
	-4.65004143e-13
	-4.22731039e-14
	-1.10000000e+03
	1.72840233e-03
	-1.57127484e-06
	-3.14254969e-06
	-1.00000000e+00

15	7.50000000e-01
	-1.99867489e+00
	-1.00000000e+02
	1.81697717e-03
	1.65179743e-04
	3.63395435e-03
	3.30359486e-04
	1.00000000e+00
	-1.81697717e-01
	2.19854238e+03
	1.99867489e+02
	-1.31912543e+06
	-1.19920493e+05
	-4.76785645e-13
	-4.33441495e-14
	-1.10000000e+03
	1.81697717e-03
	-1.65179743e-06
	-3.30359486e-06
	-1.00000000e+00

16	8.00000000e-01
	-1.90077336e+00
	-1.00000000e+02
	1.72797578e-03
	1.57088707e-04
	3.45595156e-03
	3.14177414e-04
	1.00000000e+00
	-1.72797578e-01
	2.09085069e+03
	1.90077336e+02
	-1.25451042e+06
	-1.14046401e+05
	-4.64963035e-13
	-4.22693668e-14
	-1.10000000e+03
	1.72797578e-03
	-1.57088707e-06
	-3.14177414e-06
	-1.00000000e+00

17	8.50000000e-01
	-1.61708955e+00
	-1.00000000e+02
	1.47008141e-03
	1.33643764e-04
	2.94016281e-03
	2.67287528e-04
	1.00000000e+00
	-1.47008141e-01
	1.77879850e+03
	1.61708955e+02
	-1.06727910e+06
	-9.70253728e+04
	-4.28851178e-13
	-3.89864707e-14
	-1.10000000e+03
	1.47008141e-03
	-1.33643764e-06
	-2.67287528e-06
	-1.00000000e+00

18	9.00000000e-01
	-1.17522209e+00
	-1.00000000e+02
	1.06838372e-03
	9.71257926e-05
	2.13676744e-03
	1.94251585e-04
	1.00000000e+00
	-1.06838372e-01
	1.29274430e+03
	1.17522209e+02
	-7.75646579e+05
	-7.05133254e+04
	-3.65585015e-13
	-3.32350014e-14
	-1.10000000e+03
	1.06838372e-03
	-9.71257926e-07
	-1.94251585e-06
	-1.00000000e+00

19	9.50000000e-01
	-6.17947788e-01
	-1.00000000e+02
	5.61770717e-04
	5.10700651e-05
	1.12354143e-03
	1.02140130e-04
	1.00000000e+00
	-5.61770717e-02
	6.79742567e+02
	6.17947788e+01
	-4.07845540e+05
	-3.70768673e+04
	-2.65024211e-13
	-2.40931101e-14
	-1.10000000e+03
	5.61770717e-04
	-5.10700651e-07
	-1.02140130e-06
	-1.00000000e+00

20	1.00000000e+00
	-4.89858720e-16
	-1.00000000e+02
	5.63602709e-19
	1.52303041e-19
	1.12720542e-18
	3.04606082e-19
	1.00000000e+00
	-3.46762275e-17
	5.52722379e-13
	-2.04030671e-14
	-6.22467451e-10
	-5.78798460e-11
	3.55271368e-15
	0.00000000e+00
	-1.10000000e+03
	5.63602709e-19
	-1.41715129e-21
	-2.83430259e-21
	-1.00000000e+00

