Title: RAW File Output test for B, E and H Sources.  
Date: Wed Apr 27 07:55:56 2016
Plotname: Transient Analysis
Flags: real
No. Variables: 24
No. Points: 21                
Variables:
	0	time	time
	1	V(1)	voltage
	2	V(10)	voltage
	3	V(11)	voltage
	4	V(12)	voltage
	5	V(13)	voltage
	6	V(14)	voltage
	7	V(15)	voltage
	8	V(16)	voltage
	9	V(2)	voltage
	10	V(3)	voltage
	11	V(4)	voltage
	12	V(5)	voltage
	13	V(6)	voltage
	14	V(7)	voltage
	15	V(8)	voltage
	16	V(9)	voltage
	17	B1#branch	current
	18	ELIN#branch	current
	19	EPOLY#branch	current
	20	ETABLE#branch	current
	21	EVALUE#branch	current
	22	HLIN#branch	current
	23	HPOLY#branch	current
Values:
0	0.00000000e+00
	0.00000000e+00
	9.09090909e-02
	0.00000000e+00
	0.00000000e+00
	0.00000000e+00
	0.00000000e+00
	0.00000000e+00
	0.00000000e+00
	0.00000000e+00
	0.00000000e+00
	0.00000000e+00
	0.00000000e+00
	0.00000000e+00
	0.00000000e+00
	0.00000000e+00
	1.00000000e+00
	0.00000000e+00
	0.00000000e+00
	0.00000000e+00
	-9.09090909e-04
	0.00000000e+00
	0.00000000e+00
	0.00000000e+00

1	5.00000000e-02
	6.17551959e-01
	1.47050178e-01
	-6.79307155e+02
	-6.17551959e+01
	-5.61410872e-01
	-5.10373520e-02
	-5.61410872e-01
	-5.10373520e-02
	5.61410872e-02
	6.17551959e-01
	5.61410872e-02
	3.36846523e-01
	3.06224112e-02
	3.92132804e+00
	3.56484367e-01
	1.61755196e+00
	-5.61410872e-04
	-5.61410872e-04
	-3.06224112e-04
	-1.47050178e-03
	-3.56484367e-03
	5.10373520e-04
	5.10373520e-04

2	1.00000000e-01
	1.17457495e+00
	1.81818182e-01
	-1.29203245e+03
	-1.17457495e+02
	-1.06779541e+00
	-9.70723101e-02
	-1.06779541e+00
	-9.70723101e-02
	1.06779541e-01
	1.17457495e+00
	1.06779541e-01
	6.40677246e-01
	5.82433860e-02
	5.41679175e+00
	4.92435614e-01
	2.00000000e+00
	-1.06779541e-03
	-1.06779541e-03
	-5.82433860e-04
	-1.81818182e-03
	-4.92435614e-03
	9.70723101e-04
	9.70723101e-04

3	1.50000000e-01
	1.61747498e+00
	1.81818182e-01
	-1.77922247e+03
	-1.61747498e+02
	-1.47043180e+00
	-1.33675618e-01
	-1.47043180e+00
	-1.33675618e-01
	1.47043180e-01
	1.61747498e+00
	1.47043180e-01
	8.82259077e-01
	8.02053707e-02
	6.35874550e+00
	5.78067772e-01
	2.00000000e+00
	-1.47043180e-03
	-1.47043180e-03
	-8.02053707e-04
	-1.81818182e-03
	-5.78067772e-03
	1.33675618e-03
	1.33675618e-03

4	2.00000000e-01
	1.90117564e+00
	1.81818182e-01
	-2.09129320e+03
	-1.90117564e+02
	-1.72834149e+00
	-1.57121953e-01
	-1.72834149e+00
	-1.57121953e-01
	1.72834149e-01
	1.90117564e+00
	1.72834149e-01
	1.03700489e+00
	9.42731721e-02
	6.89404876e+00
	6.26731705e-01
	2.00000000e+00
	-1.72834149e-03
	-1.72834149e-03
	-9.42731721e-04
	-1.81818182e-03
	-6.26731705e-03
	1.57121953e-03
	1.57121953e-03

5	2.50000000e-01
	1.99824602e+00
	1.81818182e-01
	-2.19807062e+03
	-1.99824602e+02
	-1.81658729e+00
	-1.65144299e-01
	-1.81658729e+00
	-1.65144299e-01
	1.81658729e-01
	1.99824602e+00
	1.81658729e-01
	1.08995237e+00
	9.90865795e-02
	7.06796647e+00
	6.42542406e-01
	2.00000000e+00
	-1.81658729e-03
	-1.81658729e-03
	-9.90865795e-04
	-1.81818182e-03
	-6.42542406e-03
	1.65144299e-03
	1.65144299e-03

6	3.00000000e-01
	1.90074631e+00
	1.81818182e-01
	-2.09082094e+03
	-1.90074631e+02
	-1.72795119e+00
	-1.57086472e-01
	-1.72795119e+00
	-1.57086472e-01
	1.72795119e-01
	1.90074631e+00
	1.72795119e-01
	1.03677071e+00
	9.42518831e-02
	6.89323032e+00
	6.26657302e-01
	2.00000000e+00
	-1.72795119e-03
	-1.72795119e-03
	-9.42518831e-04
	-1.81818182e-03
	-6.26657302e-03
	1.57086472e-03
	1.57086472e-03

7	3.50000000e-01
	1.61798757e+00
	1.81818181e-01
	-1.77978633e+03
	-1.61798757e+02
	-1.47089779e+00
	-1.33717981e-01
	-1.47089779e+00
	-1.33717981e-01
	1.47089779e-01
	1.61798757e+00
	1.47089779e-01
	8.82538676e-01
	8.02307887e-02
	6.35997870e+00
	5.78179882e-01
	2.00000000e+00
	-1.47089779e-03
	-1.47089779e-03
	-8.02307887e-04
	-1.81818181e-03
	-5.78179882e-03
	1.33717981e-03
	1.33717981e-03

8	4.00000000e-01
	1.17473899e+00
	1.81818182e-01
	-1.29221289e+03
	-1.17473899e+02
	-1.06794454e+00
	-9.70858671e-02
	-1.06794454e+00
	-9.70858671e-02
	1.06794454e-01
	1.17473899e+00
	1.06794454e-01
	6.40766723e-01
	5.82515202e-02
	5.41757451e+00
	4.92506773e-01
	2.00000000e+00
	-1.06794454e-03
	-1.06794454e-03
	-5.82515202e-04
	-1.81818182e-03
	-4.92506773e-03
	9.70858671e-04
	9.70858671e-04

9	4.50000000e-01
	6.17492250e-01
	1.47044750e-01
	-6.79241476e+02
	-6.17492250e+01
	-5.61356591e-01
	-5.10324174e-02
	-5.61356591e-01
	-5.10324174e-02
	5.61356591e-02
	6.17492250e-01
	5.61356591e-02
	3.36813955e-01
	3.06194504e-02
	3.92065706e+00
	3.56423369e-01
	1.61749225e+00
	-5.61356591e-04
	-5.61356591e-04
	-3.06194504e-04
	-1.47044750e-03
	-3.56423369e-03
	5.10324174e-04
	5.10324174e-04

10	5.00000000e-01
	-2.17395392e-08
	9.12422028e-02
	2.39134931e-05
	2.17395392e-06
	1.97632174e-08
	1.79665613e-09
	1.97632174e-08
	1.79665613e-09
	-1.97632174e-09
	-2.17395392e-08
	-1.97632174e-09
	-1.18579305e-08
	-1.07799368e-09
	4.17223033e-01
	3.79293666e-02
	1.00366423e+00
	1.97632174e-11
	1.97632174e-11
	1.07799368e-11
	-9.12422028e-04
	-3.79293666e-04
	-1.79665613e-11
	-1.79665613e-11

11	5.50000000e-01
	-6.17845815e-01
	9.09090909e-02
	6.79630396e+02
	6.17845815e+01
	5.61678014e-01
	5.10616376e-02
	5.61678014e-01
	5.10616376e-02
	-5.61678014e-02
	-6.17845815e-01
	-5.61678014e-02
	-3.37006808e-01
	-3.06369826e-02
	3.92910926e+00
	3.57191751e-01
	1.00000000e+00
	5.61678014e-04
	5.61678014e-04
	3.06369826e-04
	-9.09090909e-04
	-3.57191751e-03
	-5.10616376e-04
	-5.10616376e-04

12	6.00000000e-01
	-1.17423256e+00
	9.09090909e-02
	1.29165582e+03
	1.17423256e+02
	1.06748415e+00
	9.70440135e-02
	1.06748415e+00
	9.70440135e-02
	-1.06748415e-01
	-1.17423256e+00
	-1.06748415e-01
	-6.40490489e-01
	-5.82264081e-02
	5.41258801e+00
	4.92053456e-01
	1.00000000e+00
	1.06748415e-03
	1.06748415e-03
	5.82264081e-04
	-9.09090909e-04
	-4.92053456e-03
	-9.70440135e-04
	-9.70440135e-04

13	6.50000000e-01
	-1.61576876e+00
	9.09090909e-02
	1.77734564e+03
	1.61576876e+02
	1.46888069e+00
	1.33534608e-01
	1.46888069e+00
	1.33534608e-01
	-1.46888069e-01
	-1.61576876e+00
	-1.46888069e-01
	-8.81328415e-01
	-8.01207650e-02
	6.35552962e+00
	5.77775420e-01
	1.00000000e+00
	1.46888069e-03
	1.46888069e-03
	8.01207650e-04
	-9.09090909e-04
	-5.77775420e-03
	-1.33534608e-03
	-1.33534608e-03

14	7.00000000e-01
	-1.89928772e+00
	9.09090909e-02
	2.08921649e+03
	1.89928772e+02
	1.72662520e+00
	1.56965927e-01
	1.72662520e+00
	1.56965927e-01
	-1.72662520e-01
	-1.89928772e+00
	-1.72662520e-01
	-1.03597512e+00
	-9.41795562e-02
	6.89050830e+00
	6.26409845e-01
	1.00000000e+00
	1.72662520e-03
	1.72662520e-03
	9.41795562e-04
	-9.09090909e-04
	-6.26409845e-03
	-1.56965927e-03
	-1.56965927e-03

15	7.50000000e-01
	-1.99720923e+00
	9.09090909e-02
	2.19693016e+03
	1.99720923e+02
	1.81564476e+00
	1.65058614e-01
	1.81564476e+00
	1.65058614e-01
	-1.81564476e-01
	-1.99720923e+00
	-1.81564476e-01
	-1.08938686e+00
	-9.90351687e-02
	7.06491944e+00
	6.42265404e-01
	1.00000000e+00
	1.81564476e-03
	1.81564476e-03
	9.90351687e-04
	-9.09090909e-04
	-6.42265404e-03
	-1.65058614e-03
	-1.65058614e-03

16	8.00000000e-01
	-1.89995877e+00
	9.09090909e-02
	2.08995465e+03
	1.89995877e+02
	1.72723525e+00
	1.57021386e-01
	1.72723525e+00
	1.57021386e-01
	-1.72723525e-01
	-1.89995877e+00
	-1.72723525e-01
	-1.03634115e+00
	-9.42128316e-02
	6.89408475e+00
	6.26734977e-01
	1.00000000e+00
	1.72723525e-03
	1.72723525e-03
	9.42128316e-04
	-9.09090909e-04
	-6.26734977e-03
	-1.57021386e-03
	-1.57021386e-03

17	8.50000000e-01
	-1.61689695e+00
	9.09090909e-02
	1.77858664e+03
	1.61689695e+02
	1.46990632e+00
	1.33627847e-01
	1.46990632e+00
	1.33627847e-01
	-1.46990632e-01
	-1.61689695e+00
	-1.46990632e-01
	-8.81943790e-01
	-8.01767081e-02
	6.35362795e+00
	5.77602541e-01
	1.00000000e+00
	1.46990632e-03
	1.46990632e-03
	8.01767081e-04
	-9.09090909e-04
	-5.77602541e-03
	-1.33627847e-03
	-1.33627847e-03

18	9.00000000e-01
	-1.17542785e+00
	9.09090909e-02
	1.29297064e+03
	1.17542785e+02
	1.06857077e+00
	9.71427976e-02
	1.06857077e+00
	9.71427976e-02
	-1.06857077e-01
	-1.17542785e+00
	-1.06857077e-01
	-6.41142464e-01
	-5.82856786e-02
	5.42519087e+00
	4.93199170e-01
	1.00000000e+00
	1.06857077e-03
	1.06857077e-03
	5.82856786e-04
	-9.09090909e-04
	-4.93199170e-03
	-9.71427976e-04
	-9.71427976e-04

19	9.50000000e-01
	-6.17685405e-01
	9.09090909e-02
	6.79453946e+02
	6.17685405e+01
	5.61532187e-01
	5.10483806e-02
	5.61532187e-01
	5.10483806e-02
	-5.61532187e-02
	-6.17685405e-01
	-5.61532187e-02
	-3.36919312e-01
	-3.06290284e-02
	3.92152194e+00
	3.56501994e-01
	1.00000000e+00
	5.61532187e-04
	5.61532187e-04
	3.06290284e-04
	-9.09090909e-04
	-3.56501994e-03
	-5.10483806e-04
	-5.10483806e-04

20	1.00000000e+00
	0.00000000e+00
	9.09090909e-02
	-8.88178420e-14
	2.22044605e-14
	-1.97127668e-17
	-2.88971240e-17
	-1.97127668e-17
	-2.88971240e-17
	-1.97127668e-17
	0.00000000e+00
	-1.97127668e-17
	-9.85638339e-18
	-1.07524182e-17
	4.93024835e-03
	4.48204396e-04
	1.00000000e+00
	-1.97127668e-20
	-1.97127668e-20
	2.15944400e-19
	-9.09090909e-04
	-4.48204396e-06
	1.79206971e-20
	1.79206971e-20

