Title: RAW File Output test for B, E and H Sources.
Date: Wed Aug 12 02:30:09 2020
Plotname: Transient Analysis
Flags: real
No. Variables: 24
No. Points: 21                
Variables:
	0	time	time
	1	V(1)	voltage
	2	V(10)	voltage
	3	V(11)	voltage
	4	V(12)	voltage
	5	V(13)	voltage
	6	V(14)	voltage
	7	V(15)	voltage
	8	V(16)	voltage
	9	V(2)	voltage
	10	V(3)	voltage
	11	V(4)	voltage
	12	V(5)	voltage
	13	V(6)	voltage
	14	V(7)	voltage
	15	V(8)	voltage
	16	V(9)	voltage
	17	B1#branch	current
	18	ELIN#branch	current
	19	EPOLY#branch	current
	20	ETABLE#branch	current
	21	EVALUE#branch	current
	22	HLIN#branch	current
	23	HPOLY#branch	current
Values:
0	0.00000000e+00
	0.00000000e+00
	9.09090909e-02
	0.00000000e+00
	0.00000000e+00
	0.00000000e+00
	0.00000000e+00
	0.00000000e+00
	0.00000000e+00
	0.00000000e+00
	0.00000000e+00
	0.00000000e+00
	0.00000000e+00
	0.00000000e+00
	0.00000000e+00
	0.00000000e+00
	1.00000000e+00
	0.00000000e+00
	0.00000000e+00
	0.00000000e+00
	-9.09090909e-04
	0.00000000e+00
	0.00000000e+00
	0.00000000e+00

1	5.00000000e-02
	6.17551959e-01
	1.47050178e-01
	-6.79307155e+02
	-6.17551959e+01
	-5.61410872e-01
	-5.10373520e-02
	-5.61410872e-01
	-5.10373520e-02
	5.61410872e-02
	6.17551959e-01
	5.61410872e-02
	3.36846523e-01
	3.06224112e-02
	3.92132804e+00
	3.56484367e-01
	1.61755196e+00
	-5.61410872e-04
	-5.61410872e-04
	-3.06224112e-04
	-1.47050178e-03
	-3.56484367e-03
	5.10373520e-04
	5.10373520e-04

2	1.00000000e-01
	1.17457495e+00
	1.81818182e-01
	-1.29203245e+03
	-1.17457495e+02
	-1.06779541e+00
	-9.70723101e-02
	-1.06779541e+00
	-9.70723101e-02
	1.06779541e-01
	1.17457495e+00
	1.06779541e-01
	6.40677246e-01
	5.82433860e-02
	5.41679175e+00
	4.92435614e-01
	2.00000000e+00
	-1.06779541e-03
	-1.06779541e-03
	-5.82433860e-04
	-1.81818182e-03
	-4.92435614e-03
	9.70723101e-04
	9.70723101e-04

3	1.50000000e-01
	1.61747498e+00
	1.81818182e-01
	-1.77922247e+03
	-1.61747498e+02
	-1.47043180e+00
	-1.33675618e-01
	-1.47043180e+00
	-1.33675618e-01
	1.47043180e-01
	1.61747498e+00
	1.47043180e-01
	8.82259077e-01
	8.02053707e-02
	6.35874550e+00
	5.78067772e-01
	2.00000000e+00
	-1.47043180e-03
	-1.47043180e-03
	-8.02053707e-04
	-1.81818182e-03
	-5.78067772e-03
	1.33675618e-03
	1.33675618e-03

4	2.00000000e-01
	1.90117564e+00
	1.81818182e-01
	-2.09129320e+03
	-1.90117564e+02
	-1.72834149e+00
	-1.57121953e-01
	-1.72834149e+00
	-1.57121953e-01
	1.72834149e-01
	1.90117564e+00
	1.72834149e-01
	1.03700489e+00
	9.42731721e-02
	6.89404876e+00
	6.26731705e-01
	2.00000000e+00
	-1.72834149e-03
	-1.72834149e-03
	-9.42731721e-04
	-1.81818182e-03
	-6.26731705e-03
	1.57121953e-03
	1.57121953e-03

5	2.50000000e-01
	1.99824602e+00
	1.81818182e-01
	-2.19807062e+03
	-1.99824602e+02
	-1.81658729e+00
	-1.65144299e-01
	-1.81658729e+00
	-1.65144299e-01
	1.81658729e-01
	1.99824602e+00
	1.81658729e-01
	1.08995237e+00
	9.90865795e-02
	7.06796647e+00
	6.42542406e-01
	2.00000000e+00
	-1.81658729e-03
	-1.81658729e-03
	-9.90865795e-04
	-1.81818182e-03
	-6.42542406e-03
	1.65144299e-03
	1.65144299e-03

6	3.00000000e-01
	1.90074631e+00
	1.81818182e-01
	-2.09082094e+03
	-1.90074631e+02
	-1.72795119e+00
	-1.57086472e-01
	-1.72795119e+00
	-1.57086472e-01
	1.72795119e-01
	1.90074631e+00
	1.72795119e-01
	1.03677071e+00
	9.42518831e-02
	6.89323032e+00
	6.26657302e-01
	2.00000000e+00
	-1.72795119e-03
	-1.72795119e-03
	-9.42518831e-04
	-1.81818182e-03
	-6.26657302e-03
	1.57086472e-03
	1.57086472e-03

7	3.50000000e-01
	1.61798757e+00
	1.81818181e-01
	-1.77978633e+03
	-1.61798757e+02
	-1.47089779e+00
	-1.33717981e-01
	-1.47089779e+00
	-1.33717981e-01
	1.47089779e-01
	1.61798757e+00
	1.47089779e-01
	8.82538676e-01
	8.02307887e-02
	6.35997870e+00
	5.78179882e-01
	2.00000000e+00
	-1.47089779e-03
	-1.47089779e-03
	-8.02307887e-04
	-1.81818181e-03
	-5.78179882e-03
	1.33717981e-03
	1.33717981e-03

8	4.00000000e-01
	1.17473899e+00
	1.82011879e-01
	-1.29221289e+03
	-1.17473899e+02
	-1.06794454e+00
	-9.70858671e-02
	-1.06794454e+00
	-9.70858671e-02
	1.06794454e-01
	1.17473899e+00
	1.06794454e-01
	6.40766723e-01
	5.82515202e-02
	5.41757451e+00
	4.92506773e-01
	2.00213067e+00
	-1.06794454e-03
	-1.06794454e-03
	-5.82515202e-04
	-1.82011879e-03
	-4.92506773e-03
	9.70858671e-04
	9.70858671e-04

9	4.50000000e-01
	6.17492250e-01
	1.47010659e-01
	-6.79241476e+02
	-6.17492250e+01
	-5.61356591e-01
	-5.10324174e-02
	-5.61356591e-01
	-5.10324174e-02
	5.61356591e-02
	6.17492250e-01
	5.61356591e-02
	3.36813955e-01
	3.06194504e-02
	3.92065706e+00
	3.56423369e-01
	1.61711725e+00
	-5.61356591e-04
	-5.61356591e-04
	-3.06194504e-04
	-1.47010659e-03
	-3.56423369e-03
	5.10324174e-04
	5.10324174e-04

10	5.00000000e-01
	1.89690355e-05
	9.29509957e-02
	-2.08659390e-02
	-1.89690355e-03
	-1.72445777e-05
	-1.56768888e-06
	-1.72445777e-05
	-1.56768888e-06
	1.72445777e-06
	1.89690355e-05
	1.72445777e-06
	1.03467466e-05
	9.40613328e-07
	7.18933120e-01
	6.53575564e-02
	1.02246095e+00
	-1.72445777e-08
	-1.72445777e-08
	-9.40613328e-09
	-9.29509957e-04
	-6.53575564e-04
	1.56768888e-08
	1.56768888e-08

11	5.50000000e-01
	-6.17700388e-01
	9.10014563e-02
	6.79470427e+02
	6.17700388e+01
	5.61545807e-01
	5.10496188e-02
	5.61545807e-01
	5.10496188e-02
	-5.61545807e-02
	-6.17700388e-01
	-5.61545807e-02
	-3.36927484e-01
	-3.06297713e-02
	-2.00827804e-06
	-1.82570731e-07
	1.00101602e+00
	5.61545807e-04
	5.61545807e-04
	3.06297713e-04
	-9.10014563e-04
	1.82570731e-09
	-5.10496188e-04
	-5.10496188e-04

12	6.00000000e-01
	-1.17507416e+00
	9.11284737e-02
	1.29258158e+03
	1.17507416e+02
	1.06824924e+00
	9.71135673e-02
	1.06824924e+00
	9.71135673e-02
	-1.06824924e-01
	-1.17507416e+00
	-1.06824924e-01
	-6.40949544e-01
	-5.82681404e-02
	-4.76998524e-06
	-4.33635022e-07
	1.00241321e+00
	1.06824924e-03
	1.06824924e-03
	5.82681404e-04
	-9.11284737e-04
	4.33635022e-09
	-9.71135673e-04
	-9.71135673e-04

13	6.50000000e-01
	-1.61758837e+00
	9.06110261e-02
	1.77934721e+03
	1.61758837e+02
	1.47053489e+00
	1.33684990e-01
	1.47053489e+00
	1.33684990e-01
	-1.47053489e-01
	-1.61758837e+00
	-1.47053489e-01
	-8.82320931e-01
	-8.02109938e-02
	6.48074905e-06
	5.89159005e-07
	9.96721287e-01
	1.47053489e-03
	1.47053489e-03
	8.02109938e-04
	-9.06110261e-04
	-5.89159005e-09
	-1.33684990e-03
	-1.33684990e-03

14	7.00000000e-01
	-1.90101657e+00
	9.08954075e-02
	2.09111823e+03
	1.90101657e+02
	1.72819688e+00
	1.57108807e-01
	1.72819688e+00
	1.57108807e-01
	-1.72819688e-01
	-1.90101657e+00
	-1.72819688e-01
	-1.03691813e+00
	-9.42652844e-02
	2.97514222e-07
	2.70467475e-08
	9.99849483e-01
	1.72819688e-03
	1.72819688e-03
	9.42652844e-04
	-9.08954075e-04
	-2.70467475e-10
	-1.57108807e-03
	-1.57108807e-03

15	7.50000000e-01
	-1.99955713e+00
	9.12345225e-02
	2.19951285e+03
	1.99955713e+02
	1.81777921e+00
	1.65252656e-01
	1.81777921e+00
	1.65252656e-01
	-1.81777921e-01
	-1.99955713e+00
	-1.81777921e-01
	-1.09066753e+00
	-9.91515933e-02
	-7.07577750e-06
	-6.43252500e-07
	1.00357975e+00
	1.81777921e-03
	1.81777921e-03
	9.91515933e-04
	-9.12345225e-04
	6.43252500e-09
	-1.65252656e-03
	-1.65252656e-03

16	8.00000000e-01
	-1.90124814e+00
	9.07170749e-02
	2.09137296e+03
	1.90124814e+02
	1.72840740e+00
	1.57127946e-01
	1.72840740e+00
	1.57127946e-01
	-1.72840740e-01
	-1.90124814e+00
	-1.72840740e-01
	-1.03704444e+00
	-9.42767674e-02
	4.17495679e-06
	3.79541527e-07
	9.97887823e-01
	1.72840740e-03
	1.72840740e-03
	9.42767674e-04
	-9.07170749e-04
	-3.79541527e-09
	-1.57127946e-03
	-1.57127946e-03

17	8.50000000e-01
	-1.61718243e+00
	9.07893587e-02
	1.77890067e+03
	1.61718243e+02
	1.47016585e+00
	1.33651441e-01
	1.47016585e+00
	1.33651441e-01
	-1.47016585e-01
	-1.61718243e+00
	-1.47016585e-01
	-8.82099508e-01
	-8.01908644e-02
	2.60330648e-06
	2.36664226e-07
	9.98682946e-01
	1.47016585e-03
	1.47016585e-03
	8.01908644e-04
	-9.07893587e-04
	-2.36664226e-09
	-1.33651441e-03
	-1.33651441e-03

18	9.00000000e-01
	-1.17551479e+00
	9.13068064e-02
	1.29306627e+03
	1.17551479e+02
	1.06864981e+00
	9.71499827e-02
	1.06864981e+00
	9.71499827e-02
	-1.06864981e-01
	-1.17551479e+00
	-1.06864981e-01
	-6.41189886e-01
	-5.82899896e-02
	-8.64742781e-06
	-7.86129801e-07
	1.00437487e+00
	1.06864981e-03
	1.06864981e-03
	5.82899896e-04
	-9.13068064e-04
	7.86129801e-09
	-9.71499827e-04
	-9.71499827e-04

19	9.50000000e-01
	-6.17687827e-01
	9.08231237e-02
	6.79456610e+02
	6.17687827e+01
	5.61534388e-01
	5.10485808e-02
	5.61534388e-01
	5.10485808e-02
	-5.61534388e-02
	-6.17687827e-01
	-5.61534388e-02
	-3.36920633e-01
	-3.06291485e-02
	1.86916453e-06
	1.69924048e-07
	9.99054360e-01
	5.61534388e-04
	5.61534388e-04
	3.06291485e-04
	-9.08231237e-04
	-1.69924048e-09
	-5.10485808e-04
	-5.10485808e-04

20	1.00000000e+00
	-4.89842542e-16
	9.13236888e-02
	1.23823174e-12
	1.93303706e-13
	1.15033851e-15
	8.97990449e-17
	1.15033851e-15
	8.97990449e-17
	8.60585474e-17
	-4.89842542e-16
	8.60585474e-17
	-3.12900747e-16
	-8.72782749e-18
	-9.01449878e-06
	-8.19499890e-07
	1.00456058e+00
	9.28242231e-19
	9.28242231e-19
	7.92081685e-19
	-9.13236888e-04
	8.19499890e-09
	-1.27743156e-18
	-1.27743156e-18

