Title: RAW File Output test for Diode Level 1.
Date: Thu Apr 28 12:06:22 2016
Plotname: Transient Analysis
Flags: real
No. Variables: 9
No. Points: 21                
Variables:
	0	time	time
	1	V(1)	voltage
	2	V(2)	voltage
	3	V(3)	voltage
	4	V(4)	voltage
	5	D1#internal	voltage
	6	D2#internal	voltage
	7	VCC#branch	current
	8	VIN#branch	current
Values:
0	0.00000000e+00
	5.00000000e+00
	9.43396228e-01
	0.00000000e+00
	4.15261012e-34
	9.43396228e-01
	4.20952850e-11
	-1.22927427e-03
	9.43396228e-04

1	1.00000000e-04
	5.00000000e+00
	4.24049499e+00
	5.87324934e+00
	3.23297293e+00
	4.24049495e+00
	2.30927292e-08
	-2.29780652e-04
	-1.63275436e-03

2	2.00000000e-04
	5.00000000e+00
	5.57315048e+00
	9.50811224e+00
	4.40873843e+00
	5.57301553e+00
	-1.32657124e-09
	1.45886620e-03
	-3.93496177e-03

3	3.00000000e-04
	5.00000000e+00
	5.57453373e+00
	9.50233503e+00
	4.24544228e+00
	5.57439656e+00
	1.88477511e-10
	1.48043217e-03
	-3.92780130e-03

4	4.00000000e-04
	5.00000000e+00
	4.28965459e+00
	5.87580554e+00
	2.81497585e+00
	4.28965469e+00
	-2.08010013e-08
	-2.16220535e-04
	-1.58615095e-03

5	5.00000000e-04
	5.00000000e+00
	1.00079768e+00
	-6.89592299e-04
	-5.18651264e-01
	1.00079766e+00
	-4.65336402e-08
	-1.21169982e-03
	1.00148727e-03

6	6.00000000e-04
	5.00000000e+00
	-6.05941759e-01
	-5.87595721e+00
	-2.06095650e+00
	-6.05941758e-01
	-3.17057518e-04
	-1.69877338e-03
	5.27001545e-03

7	7.00000000e-04
	5.00000000e+00
	-6.36811249e-01
	-9.50749341e+00
	-2.01426179e+00
	-6.36811249e-01
	-6.94039007e-04
	-1.70812414e-03
	8.87068216e-03

8	8.00000000e-04
	5.00000000e+00
	-6.37065723e-01
	-9.50748317e+00
	-1.93934890e+00
	-6.37065723e-01
	-6.95399791e-04
	-1.70819977e-03
	8.87041744e-03

9	9.00000000e-04
	5.00000000e+00
	-6.07426109e-01
	-5.87594444e+00
	-1.83781995e+00
	-6.07426109e-01
	-3.20990571e-04
	-1.69921462e-03
	5.26851833e-03

10	1.00000000e-03
	5.00000000e+00
	9.66330014e-01
	-6.89728706e-08
	-2.09721098e-01
	9.66329985e-01
	3.50870574e-08
	-1.22204133e-03
	9.66330083e-04

11	1.10000000e-03
	5.00000000e+00
	4.26532205e+00
	5.87681308e+00
	3.03310883e+00
	4.26532198e+00
	-7.24212248e-08
	-2.21967647e-04
	-1.61149104e-03

12	1.20000000e-03
	5.00000000e+00
	5.57432469e+00
	9.50953384e+00
	4.19297615e+00
	5.57418575e+00
	-1.43346090e-09
	1.49728775e-03
	-3.93520914e-03

13	1.30000000e-03
	5.00000000e+00
	5.57564818e+00
	9.50417499e+00
	4.03767100e+00
	5.57550711e+00
	-7.80891874e-10
	1.51793122e-03
	-3.92852682e-03

14	1.40000000e-03
	5.00000000e+00
	4.30914984e+00
	5.87461973e+00
	2.63304727e+00
	4.30914995e+00
	-1.98086098e-08
	-2.10331454e-04
	-1.56546989e-03

15	1.50000000e-03
	5.00000000e+00
	1.02152544e+00
	5.03941571e-05
	-6.93263263e-01
	1.02152558e+00
	-3.83690879e-08
	-1.20686578e-03
	1.02147505e-03

16	1.60000000e-03
	5.00000000e+00
	-6.05397603e-01
	-5.87443751e+00
	-2.24828149e+00
	-6.05397601e-01
	-3.13475899e-04
	-1.69862250e-03
	5.26903991e-03

17	1.70000000e-03
	5.00000000e+00
	-6.36598849e-01
	-9.50423693e+00
	-2.19492789e+00
	-6.36598848e-01
	-6.90344236e-04
	-1.70807091e-03
	8.86763808e-03

18	1.80000000e-03
	5.00000000e+00
	-6.36859551e-01
	-9.50366073e+00
	-2.11328624e+00
	-6.36859550e-01
	-6.91771007e-04
	-1.70814559e-03
	8.86680118e-03

19	1.90000000e-03
	5.00000000e+00
	-6.06923784e-01
	-5.87334916e+00
	-2.00498149e+00
	-6.06923784e-01
	-3.17667929e-04
	-1.69906783e-03
	5.26642538e-03

20	2.00000000e-03
	5.00000000e+00
	9.82930943e-01
	-4.89858720e-15
	-3.54773518e-01
	9.82930909e-01
	-4.93307390e-08
	-1.21696657e-03
	9.82930943e-04

