Index        TIME            I(VMON)           V(3)
0       0.00000000e+00   0.00000000e+00   0.00000000e+00   
1       5.00000000e-10   0.00000000e+00   0.00000000e+00   
2       1.50000000e-09   0.00000000e+00   0.00000000e+00   
3       3.50000000e-09   0.00000000e+00   0.00000000e+00   
4       7.50000000e-09   0.00000000e+00   0.00000000e+00   
5       1.55000000e-08   0.00000000e+00   0.00000000e+00   
6       2.55000000e-08   0.00000000e+00   0.00000000e+00   
7       3.55000000e-08   0.00000000e+00   0.00000000e+00   
8       4.55000000e-08   0.00000000e+00   0.00000000e+00   
9       5.55000000e-08   0.00000000e+00   0.00000000e+00   
10      6.55000000e-08   0.00000000e+00   0.00000000e+00   
11      7.55000000e-08   0.00000000e+00   0.00000000e+00   
12      8.55000000e-08   0.00000000e+00   0.00000000e+00   
13      9.55000000e-08   0.00000000e+00   0.00000000e+00   
14      1.00000000e-07   0.00000000e+00   0.00000000e+00   
15      1.05000000e-07   9.98589308e-03   1.41069247e-05   
16      1.07500000e-07   1.49753154e-02   2.46846288e-05   
17      1.09440431e-07   1.88458453e-02   3.50167446e-05   
18      1.11168425e-07   2.22909511e-02   4.58996874e-05   
19      1.12896420e-07   2.57349359e-02   5.79035840e-05   
20      1.14624414e-07   2.91774265e-02   7.14015994e-05   
21      1.16352408e-07   3.26182992e-02   8.65175952e-05   
22      1.19808397e-07   3.94950288e-02   1.21765412e-04   
23      1.23264386e-07   4.63650749e-02   1.63696645e-04   
24      1.30176363e-07   6.00850770e-02   2.67649351e-04   
25      1.44000318e-07   8.74449200e-02   5.55715884e-04   
26      1.57824273e-07   1.14698150e-01   9.50395193e-04   
27      1.71648227e-07   1.41845156e-01   1.45129891e-03   
28      1.85472182e-07   1.68886342e-01   2.05802204e-03   
29      1.99296137e-07   1.95822119e-01   2.77015511e-03   
30      2.13120092e-07   2.22652895e-01   3.58728822e-03   
31      2.26944046e-07   2.49379081e-01   4.50901242e-03   
32      2.40768001e-07   2.76001082e-01   5.53492008e-03   
33      2.68415911e-07   3.28934696e-01   7.89712594e-03   
34      2.96063820e-07   3.81456599e-01   1.06710418e-02   
35      3.23711730e-07   4.33569875e-01   1.38535849e-02   
36      3.51359639e-07   4.85277662e-01   1.74416161e-02   
37      3.79007549e-07   5.36583104e-01   2.14319936e-02   
38      4.06655458e-07   5.87489325e-01   2.58215912e-02   
39      4.34303368e-07   6.37999432e-01   3.06073040e-02   
40      4.61951277e-07   6.88116505e-01   3.57860502e-02   
41      4.89599187e-07   7.37843602e-01   4.13547715e-02   
42      5.17247096e-07   7.87183759e-01   4.73104337e-02   
43      5.44895006e-07   8.36139986e-01   5.36500258e-02   
44      5.72542915e-07   8.84715270e-01   6.03705603e-02   
45      6.00190825e-07   9.32912577e-01   6.74690731e-02   
46      6.27838734e-07   9.80734846e-01   7.49426229e-02   
47      6.55486644e-07   1.02818500e+00   8.27882915e-02   
48      6.83134553e-07   1.07526592e+00   9.10031833e-02   
49      7.10782463e-07   1.12198050e+00   9.95844254e-02   
50      7.66078282e-07   1.21432572e+00   1.17830840e-01   
51      8.21374101e-07   1.30524061e+00   1.37507597e-01   
52      8.76669920e-07   1.39474646e+00   1.58593376e-01   
53      9.31965739e-07   1.48286486e+00   1.81066617e-01   
54      9.87261558e-07   1.56961721e+00   2.04905908e-01   
55      1.04255738e-06   1.65502465e+00   2.30090103e-01   
56      1.09785320e-06   1.73910803e+00   2.56598362e-01   
57      1.10000000e-06   1.74234580e+00   2.57654197e-01   
58      1.15529582e-06   1.71554366e+00   2.84456339e-01   
59      1.18294373e-06   1.70224646e+00   2.97753538e-01   
60      1.20545029e-06   1.69149038e+00   3.08509620e-01   
61      1.22532843e-06   1.68204350e+00   3.17956499e-01   
62      1.24520656e-06   1.67263186e+00   3.27368138e-01   
63      1.26508470e-06   1.66326703e+00   3.36732967e-01   
64      1.28496284e-06   1.65395268e+00   3.46047318e-01   
65      1.32471911e-06   1.63547914e+00   3.64520855e-01   
66      1.40423165e-06   1.59914438e+00   4.00855618e-01   
67      1.48374420e-06   1.56361480e+00   4.36385195e-01   
68      1.56325675e-06   1.52887393e+00   4.71126069e-01   
69      1.64276929e-06   1.49490471e+00   5.05095290e-01   
70      1.72228184e-06   1.46169015e+00   5.38309845e-01   
71      1.80179438e-06   1.42921355e+00   5.70786449e-01   
72      1.88130693e-06   1.39745852e+00   6.02541478e-01   
73      1.96081947e-06   1.36640904e+00   6.33590961e-01   
74      2.11984456e-06   1.30634441e+00   6.93655588e-01   
75      2.27886965e-06   1.24891335e+00   7.51086650e-01   
76      2.43789475e-06   1.19400485e+00   8.05995147e-01   
77      2.59691984e-06   1.14150963e+00   8.58490366e-01   
78      2.75594493e-06   1.09132214e+00   9.08677859e-01   
79      2.91497002e-06   1.04334110e+00   9.56658902e-01   
80      3.07399511e-06   9.97469557e-01   1.00253044e+00   
81      3.23302020e-06   9.53614795e-01   1.04638520e+00   
82      3.39204529e-06   9.11688149e-01   1.08831185e+00   
83      3.55107038e-06   8.71604849e-01   1.12839515e+00   
84      3.71009547e-06   8.33283852e-01   1.16671615e+00   
85      3.86912057e-06   7.96647676e-01   1.20335232e+00   
86      4.02814566e-06   7.61622248e-01   1.23837775e+00   
87      4.18717075e-06   7.28136748e-01   1.27186325e+00   
88      4.34619584e-06   6.96123472e-01   1.30387653e+00   
89      4.50522093e-06   6.65517693e-01   1.33448231e+00   
90      4.66424602e-06   6.36257528e-01   1.36374247e+00   
91      4.82327111e-06   6.08283816e-01   1.39171618e+00   
92      4.98229620e-06   5.81539997e-01   1.41846000e+00   
93      5.14132129e-06   5.55971997e-01   1.44402800e+00   
94      5.30034638e-06   5.31528120e-01   1.46847188e+00   
95      5.45937148e-06   5.08158944e-01   1.49184106e+00   
96      5.61839657e-06   4.85817217e-01   1.51418278e+00   
97      5.77742166e-06   4.64457767e-01   1.53554223e+00   
98      5.93644675e-06   4.44037407e-01   1.55596259e+00   
99      6.09547184e-06   4.24514849e-01   1.57548515e+00   
100     6.25449693e-06   4.05850620e-01   1.59414938e+00   
101     6.41352202e-06   3.88006983e-01   1.61199302e+00   
102     6.57254711e-06   3.70947860e-01   1.62905214e+00   
103     6.73157220e-06   3.54638758e-01   1.64536124e+00   
104     6.89059729e-06   3.39046703e-01   1.66095330e+00   
105     7.04962239e-06   3.24140168e-01   1.67585983e+00   
106     7.20864748e-06   3.09889015e-01   1.69011099e+00   
107     7.36767257e-06   2.96264428e-01   1.70373557e+00   
108     7.52669766e-06   2.83238860e-01   1.71676114e+00   
109     7.68572275e-06   2.70785974e-01   1.72921403e+00   
110     7.84474784e-06   2.58880592e-01   1.74111941e+00   
111     8.00377293e-06   2.47498643e-01   1.75250136e+00   
112     8.16279802e-06   2.36617112e-01   1.76338289e+00   
113     8.32182311e-06   2.26213999e-01   1.77378600e+00   
114     8.48084821e-06   2.16268270e-01   1.78373173e+00   
115     8.63987330e-06   2.06759814e-01   1.79324019e+00   
116     8.79889839e-06   1.97669408e-01   1.80233059e+00   
117     8.95792348e-06   1.88978670e-01   1.81102133e+00   
118     9.11694857e-06   1.80670030e-01   1.81932997e+00   
119     9.27597366e-06   1.72726688e-01   1.82727331e+00   
120     9.43499875e-06   1.65132583e-01   1.83486742e+00   
121     9.59402384e-06   1.57872360e-01   1.84212764e+00   
122     9.75304893e-06   1.50931340e-01   1.84906866e+00   
123     9.91207402e-06   1.44295490e-01   1.85570451e+00   
124     1.00710991e-05   1.37951391e-01   1.86204861e+00   
125     1.02301242e-05   1.31886218e-01   1.86811378e+00   
126     1.03891493e-05   1.26087705e-01   1.87391229e+00   
127     1.05481744e-05   1.20544131e-01   1.87945587e+00   
128     1.07071995e-05   1.15244285e-01   1.88475572e+00   
129     1.08662246e-05   1.10177452e-01   1.88982255e+00   
130     1.10252497e-05   1.05333388e-01   1.89466661e+00   
131     1.11842748e-05   1.00702298e-01   1.89929770e+00   
132     1.13432998e-05   9.62748186e-02   1.90372518e+00   
133     1.15023249e-05   9.20419979e-02   1.90795800e+00   
134     1.16613500e-05   8.79952774e-02   1.91200472e+00   
135     1.18203751e-05   8.41264752e-02   1.91587352e+00   
136     1.19794002e-05   8.04277688e-02   1.91957223e+00   
137     1.21384253e-05   7.68916798e-02   1.92310832e+00   
138     1.22974504e-05   7.35110586e-02   1.92648894e+00   
139     1.24564755e-05   7.02790698e-02   1.92972093e+00   
140     1.26155006e-05   6.71891788e-02   1.93281082e+00   
141     1.27745257e-05   6.42351379e-02   1.93576486e+00   
142     1.29335508e-05   6.14109745e-02   1.93858903e+00   
143     1.30925758e-05   5.87109783e-02   1.94128902e+00   
144     1.32516009e-05   5.61296901e-02   1.94387031e+00   
145     1.34106260e-05   5.36618910e-02   1.94633811e+00   
146     1.35696511e-05   5.13025912e-02   1.94869741e+00   
147     1.37286762e-05   4.90470203e-02   1.95095298e+00   
148     1.38877013e-05   4.68906180e-02   1.95310938e+00   
149     1.40467264e-05   4.48290241e-02   1.95517098e+00   
150     1.42057515e-05   4.28580703e-02   1.95714193e+00   
151     1.43647766e-05   4.09737715e-02   1.95902623e+00   
152     1.45238017e-05   3.91723177e-02   1.96082768e+00   
153     1.46828268e-05   3.74500668e-02   1.96254993e+00   
154     1.48418518e-05   3.58035364e-02   1.96419646e+00   
155     1.50008769e-05   3.42293973e-02   1.96577060e+00   
156     1.51599020e-05   3.27244669e-02   1.96727553e+00   
157     1.53189271e-05   3.12857023e-02   1.96871430e+00   
158     1.54779522e-05   2.99101945e-02   1.97008981e+00   
159     1.56369773e-05   2.85951622e-02   1.97140484e+00   
160     1.57960024e-05   2.73379467e-02   1.97266205e+00   
161     1.59550275e-05   2.61360060e-02   1.97386399e+00   
162     1.61000000e-05   2.50864753e-02   1.97491352e+00   
163     1.61050000e-05   1.50651929e-02   1.97493481e+00   
164     1.61075000e-05   1.00580885e-02   1.97494191e+00   
165     1.61100000e-05   5.05451826e-03   1.97494548e+00   
166     1.61125000e-05   5.44797742e-05   1.97494552e+00   
167     1.61146918e-05   -4.32726224e-03  1.97494368e+00   
168     1.61168836e-05   -8.70663570e-03  1.97493947e+00   
169     1.61190754e-05   -1.30834127e-02  1.97493267e+00   
170     1.61234590e-05   -2.18288803e-02  1.97491098e+00   
171     1.61322261e-05   -3.92874570e-02  1.97483523e+00   
172     1.61497604e-05   -7.40753367e-02  1.97455446e+00   
173     1.61848291e-05   -1.43137419e-01  1.97347925e+00   
174     1.62198977e-05   -2.11519127e-01  1.97172366e+00   
175     1.62549664e-05   -2.79226804e-01  1.96929405e+00   
176     1.63251037e-05   -4.12654773e-01  1.96244743e+00   
177     1.63952410e-05   -5.43467448e-01  1.95298552e+00   
178     1.64653783e-05   -6.71714101e-01  1.94095758e+00   
179     1.65355156e-05   -7.97444400e-01  1.92641329e+00   
180     1.66056528e-05   -9.20707495e-01  1.90940180e+00   
181     1.66757901e-05   -1.04155173e+00  1.88997144e+00   
182     1.67459274e-05   -1.16002453e+00  1.86816966e+00   
183     1.68160647e-05   -1.27617244e+00  1.84404299e+00   
184     1.68862020e-05   -1.39004108e+00  1.81763703e+00   
185     1.69563393e-05   -1.50167517e+00  1.78899653e+00   
186     1.70264766e-05   -1.61111856e+00  1.75816534e+00   
187     1.70966139e-05   -1.71841424e+00  1.72518643e+00   
188     1.71000000e-05   -1.72353999e+00  1.72353999e+00   
189     1.71701373e-05   -1.69004933e+00  1.69004933e+00   
190     1.72052059e-05   -1.67346828e+00  1.67346828e+00   
191     1.72402746e-05   -1.65704991e+00  1.65704991e+00   
192     1.72753432e-05   -1.64079262e+00  1.64079262e+00   
193     1.73104119e-05   -1.62464201e+00  1.62464201e+00   
194     1.73454805e-05   -1.60863272e+00  1.60863272e+00   
195     1.73805492e-05   -1.59277527e+00  1.59277527e+00   
196     1.74506865e-05   -1.56152385e+00  1.56152385e+00   
197     1.75909611e-05   -1.50082890e+00  1.50082890e+00   
198     1.77312356e-05   -1.44248416e+00  1.44248416e+00   
199     1.78715102e-05   -1.38640455e+00  1.38640455e+00   
200     1.80117848e-05   -1.33250412e+00  1.33250412e+00   
201     1.81520594e-05   -1.28069888e+00  1.28069888e+00   
202     1.82923340e-05   -1.23090762e+00  1.23090762e+00   
203     1.84326086e-05   -1.18305211e+00  1.18305211e+00   
204     1.85728832e-05   -1.13705712e+00  1.13705712e+00   
205     1.87131578e-05   -1.09285033e+00  1.09285033e+00   
206     1.88534323e-05   -1.05036223e+00  1.05036223e+00   
207     1.89937069e-05   -1.00952599e+00  1.00952599e+00   
208     1.91339815e-05   -9.70277384e-01  9.70277384e-01   
209     1.92742561e-05   -9.32554699e-01  9.32554699e-01   
210     1.94145307e-05   -8.96298606e-01  8.96298606e-01   
211     1.95548053e-05   -8.61452087e-01  8.61452087e-01   
212     1.96950799e-05   -8.27960339e-01  8.27960339e-01   
213     1.98353545e-05   -7.95770691e-01  7.95770691e-01   
214     1.99756290e-05   -7.64832521e-01  7.64832521e-01   
215     2.01159036e-05   -7.35097173e-01  7.35097173e-01   
216     2.02561782e-05   -7.06517882e-01  7.06517882e-01   
217     2.03964528e-05   -6.79049705e-01  6.79049705e-01   
218     2.05367274e-05   -6.52649442e-01  6.52649442e-01   
219     2.06770020e-05   -6.27275575e-01  6.27275575e-01   
220     2.08172766e-05   -6.02888200e-01  6.02888200e-01   
221     2.09575512e-05   -5.79448963e-01  5.79448963e-01   
222     2.10978257e-05   -5.56921002e-01  5.56921002e-01   
223     2.12381003e-05   -5.35268890e-01  5.35268890e-01   
224     2.13783749e-05   -5.14458573e-01  5.14458573e-01   
225     2.15186495e-05   -4.94457325e-01  4.94457325e-01   
226     2.16589241e-05   -4.75233690e-01  4.75233690e-01   
227     2.17991987e-05   -4.56757437e-01  4.56757437e-01   
228     2.19394733e-05   -4.38999508e-01  4.38999508e-01   
229     2.20797479e-05   -4.21931977e-01  4.21931977e-01   
230     2.22200224e-05   -4.05528000e-01  4.05528000e-01   
231     2.23602970e-05   -3.89761782e-01  3.89761782e-01   
232     2.25005716e-05   -3.74608527e-01  3.74608527e-01   
233     2.26408462e-05   -3.60044404e-01  3.60044404e-01   
234     2.27811208e-05   -3.46046508e-01  3.46046508e-01   
235     2.29213954e-05   -3.32592826e-01  3.32592826e-01   
236     2.30616700e-05   -3.19662200e-01  3.19662200e-01   
237     2.32019446e-05   -3.07234294e-01  3.07234294e-01   
238     2.33422192e-05   -2.95289563e-01  2.95289563e-01   
239     2.34824937e-05   -2.83809222e-01  2.83809222e-01   
240     2.36227683e-05   -2.72775216e-01  2.72775216e-01   
241     2.37630429e-05   -2.62170194e-01  2.62170194e-01   
242     2.39033175e-05   -2.51977476e-01  2.51977476e-01   
243     2.40435921e-05   -2.42181033e-01  2.42181033e-01   
244     2.41838667e-05   -2.32765459e-01  2.32765459e-01   
245     2.43241413e-05   -2.23715946e-01  2.23715946e-01   
246     2.44644159e-05   -2.15018262e-01  2.15018262e-01   
247     2.46046904e-05   -2.06658728e-01  2.06658728e-01   
248     2.47449650e-05   -1.98624199e-01  1.98624199e-01   
249     2.48852396e-05   -1.90902038e-01  1.90902038e-01   
250     2.50255142e-05   -1.83480101e-01  1.83480101e-01   
251     2.51657888e-05   -1.76346717e-01  1.76346717e-01   
252     2.53060634e-05   -1.69490665e-01  1.69490665e-01   
253     2.54463380e-05   -1.62901165e-01  1.62901165e-01   
254     2.55866126e-05   -1.56567853e-01  1.56567853e-01   
255     2.57268871e-05   -1.50480769e-01  1.50480769e-01   
256     2.58671617e-05   -1.44630341e-01  1.44630341e-01   
257     2.60074363e-05   -1.39007366e-01  1.39007366e-01   
258     2.61477109e-05   -1.33603004e-01  1.33603004e-01   
259     2.62879855e-05   -1.28408753e-01  1.28408753e-01   
260     2.64282601e-05   -1.23416446e-01  1.23416446e-01   
261     2.65685347e-05   -1.18618230e-01  1.18618230e-01   
262     2.67088093e-05   -1.14006561e-01  1.14006561e-01   
263     2.68490838e-05   -1.09574186e-01  1.09574186e-01   
264     2.69893584e-05   -1.05314134e-01  1.05314134e-01   
265     2.71296330e-05   -1.01219705e-01  1.01219705e-01   
266     2.72699076e-05   -9.72844598e-02  9.72844598e-02   
267     2.74101822e-05   -9.35022105e-02  9.35022105e-02   
268     2.75504568e-05   -8.98670084e-02  8.98670084e-02   
269     2.76907314e-05   -8.63731365e-02  8.63731365e-02   
270     2.78310060e-05   -8.30151003e-02  8.30151003e-02   
271     2.79712805e-05   -7.97876186e-02  7.97876186e-02   
272     2.81115551e-05   -7.66856158e-02  7.66856158e-02   
273     2.82518297e-05   -7.37042134e-02  7.37042134e-02   
274     2.83921043e-05   -7.08387227e-02  7.08387227e-02   
275     2.85323789e-05   -6.80846373e-02  6.80846373e-02   
276     2.86726535e-05   -6.54376259e-02  6.54376259e-02   
277     2.88129281e-05   -6.28935256e-02  6.28935256e-02   
278     2.89532027e-05   -6.04483355e-02  6.04483355e-02   
279     2.90934772e-05   -5.80982102e-02  5.80982102e-02   
280     2.92337518e-05   -5.58394535e-02  5.58394535e-02   
281     2.93740264e-05   -5.36685134e-02  5.36685134e-02   
282     2.95143010e-05   -5.15819756e-02  5.15819756e-02   
283     2.96545756e-05   -4.95765588e-02  4.95765588e-02   
284     2.97948502e-05   -4.76491091e-02  4.76491091e-02   
285     2.99351248e-05   -4.57965952e-02  4.57965952e-02   
286     3.00753994e-05   -4.40161038e-02  4.40161038e-02   
287     3.02156739e-05   -4.23048348e-02  4.23048348e-02   
288     3.03559485e-05   -4.06600969e-02  4.06600969e-02   
289     3.04962231e-05   -3.90793036e-02  3.90793036e-02   
290     3.06364977e-05   -3.75599687e-02  3.75599687e-02   
291     3.07767723e-05   -3.60997030e-02  3.60997030e-02   
292     3.09170469e-05   -3.46962098e-02  3.46962098e-02   
293     3.10573215e-05   -3.33472819e-02  3.33472819e-02   
294     3.11975961e-05   -3.20507980e-02  3.20507980e-02   
295     3.13378706e-05   -3.08047191e-02  3.08047191e-02   
296     3.14781452e-05   -2.96070856e-02  2.96070856e-02   
297     3.16184198e-05   -2.84560140e-02  2.84560140e-02   
298     3.17586944e-05   -2.73496940e-02  2.73496940e-02   
299     3.18989690e-05   -2.62863859e-02  2.62863859e-02   
300     3.20392436e-05   -2.52644172e-02  2.52644172e-02   
301     3.21795182e-05   -2.42821809e-02  2.42821809e-02   
302     3.23197928e-05   -2.33381323e-02  2.33381323e-02   
303     3.24600673e-05   -2.24307866e-02  2.24307866e-02   
304     3.26003419e-05   -2.15587169e-02  2.15587169e-02   
305     3.27406165e-05   -2.07205518e-02  2.07205518e-02   
306     3.28808911e-05   -1.99149730e-02  1.99149730e-02   
307     3.30211657e-05   -1.91407138e-02  1.91407138e-02   
308     3.31614403e-05   -1.83965563e-02  1.83965563e-02   
309     3.33017149e-05   -1.76813305e-02  1.76813305e-02   
310     3.34419895e-05   -1.69939113e-02  1.69939113e-02   
311     3.35822640e-05   -1.63332178e-02  1.63332178e-02   
312     3.37225386e-05   -1.56982109e-02  1.56982109e-02   
313     3.38628132e-05   -1.50878920e-02  1.50878920e-02   
314     3.40030878e-05   -1.45013012e-02  1.45013012e-02   
315     3.41433624e-05   -1.39375160e-02  1.39375160e-02   
316     3.42836370e-05   -1.33956498e-02  1.33956498e-02   
317     3.44239116e-05   -1.28748504e-02  1.28748504e-02   
318     3.45641862e-05   -1.23742988e-02  1.23742988e-02   
319     3.47044607e-05   -1.18932077e-02  1.18932077e-02   
320     3.48447353e-05   -1.14308206e-02  1.14308206e-02   
321     3.49850099e-05   -1.09864104e-02  1.09864104e-02   
322     3.51252845e-05   -1.05592780e-02  1.05592780e-02   
323     3.52655591e-05   -1.01487517e-02  1.01487517e-02   
324     3.54058337e-05   -9.75418605e-03  9.75418605e-03   
325     3.55461083e-05   -9.37496039e-03  9.37496039e-03   
326     3.56863829e-05   -9.01047835e-03  9.01047835e-03   
327     3.58266575e-05   -8.66016674e-03  8.66016674e-03   
328     3.59669320e-05   -8.32347463e-03  8.32347463e-03   
329     3.61072066e-05   -7.99987252e-03  7.99987252e-03   
330     3.62474812e-05   -7.68885149e-03  7.68885149e-03   
331     3.63877558e-05   -7.38992242e-03  7.38992242e-03   
