Index   TIME           V(1)           V(2)           V(3)           V(4)           
0       0.00000000e+00   1.00000000e+02   1.00000000e+00   2.00000000e+00   -1.38974390e-16  
1       5.00000000e-03   1.04500000e+02   1.00500000e+00   2.01911629e+00   2.16606176e-03   
2       6.17043054e-03   1.05553387e+02   1.00617043e+00   2.02347218e+00   2.67155008e-03   
3       7.34086108e-03   1.06606775e+02   1.00734086e+00   2.02778481e+00   3.17645073e-03   
4       9.68172217e-03   1.08713550e+02   1.00968172e+00   2.03628368e+00   4.18449449e-03   
5       1.43634443e-02   1.12927100e+02   1.01436344e+00   2.05279818e+00   6.19358970e-03   
6       2.17504673e-02   1.19575421e+02   1.02175047e+00   2.07764192e+00   9.34484500e-03   
7       3.65245132e-02   1.32872062e+02   1.03652451e+00   2.12343367e+00   1.55795773e-02   
8       6.60726049e-02   1.59465344e+02   1.06607260e+00   2.20266632e+00   2.77867833e-02   
9       1.16410584e-01   2.04769526e+02   1.11641058e+00   2.31126532e+00   4.78239452e-02   
10      1.44725698e-01   2.30253128e+02   1.14472570e+00   2.36220554e+00   5.87014323e-02   
11      1.73040811e-01   2.55736730e+02   1.17304081e+00   2.40779311e+00   6.93131218e-02   
12      2.01355924e-01   2.81220332e+02   1.20135592e+00   2.44904672e+00   7.96716944e-02   
13      2.44491011e-01   3.20041910e+02   1.24449101e+00   2.50520685e+00   9.49917640e-02   
14      3.14048343e-01   3.82643509e+02   1.31404834e+00   2.58279435e+00   1.18611343e-01   
15      3.82920598e-01   4.44628538e+02   1.38292060e+00   2.64799733e+00   1.40797245e-01   
16      4.51792853e-01   5.06613567e+02   1.45179285e+00   2.70467682e+00   1.61904654e-01   
17      5.20665107e-01   5.68598597e+02   1.52066511e+00   2.75480578e+00   1.82033581e-01   
18      6.10929904e-01   6.49836914e+02   1.61092990e+00   2.81280438e+00   2.07076644e-01   
19      7.31723295e-01   7.58550965e+02   1.73172329e+00   2.87998477e+00   2.38478499e-01   
20      8.52516685e-01   8.67265017e+02   1.85251669e+00   2.93815183e+00   2.67762128e-01   
21      9.73310076e-01   9.75979068e+02   1.97331008e+00   2.98944050e+00   2.95195333e-01   
22      1.00000000e+00   1.00000000e+03   2.00000000e+00   3.00000000e+00   3.01029996e-01   
23      1.00500000e+00   1.49500000e+03   2.00885000e+00   3.17464119e+00   3.02947509e-01   
24      1.00558813e+00   1.55322507e+03   2.00989099e+00   3.19123439e+00   3.03172504e-01   
25      1.00596289e+00   1.59032621e+03   2.01055432e+00   3.20148622e+00   3.03315810e-01   
26      1.00633765e+00   1.62742734e+03   2.01121764e+00   3.21150161e+00   3.03459070e-01   
27      1.00708717e+00   1.70162960e+03   2.01254429e+00   3.23086503e+00   3.03745446e-01   
28      1.00858620e+00   1.85003413e+03   2.01519758e+00   3.26717974e+00   3.04317633e-01   
29      1.01158427e+00   2.14684318e+03   2.02050417e+00   3.33180032e+00   3.05459750e-01   
30      1.01758042e+00   2.74046128e+03   2.03111734e+00   3.43782367e+00   3.07735013e-01   
31      1.02191601e+00   3.16968548e+03   2.03879135e+00   3.50101617e+00   3.09372782e-01   
32      1.02625161e+00   3.59890967e+03   2.04646535e+00   3.55617095e+00   3.11004397e-01   
33      1.03124631e+00   4.09338495e+03   2.05530597e+00   3.61208259e+00   3.12876484e-01   
34      1.03903841e+00   4.86480224e+03   2.06909798e+00   3.68706519e+00   3.15781057e-01   
35      1.04683050e+00   5.63621953e+03   2.08288999e+00   3.75098790e+00   3.18666332e-01   
36      1.05731892e+00   6.67457300e+03   2.10145449e+00   3.82442349e+00   3.22519989e-01   
37      1.07062080e+00   7.99145944e+03   2.12499882e+00   3.90262610e+00   3.27358693e-01   
38      1.08392269e+00   9.30834588e+03   2.14854315e+00   3.96887251e+00   3.32144081e-01   
39      1.10146790e+00   1.10453216e+04   2.17959817e+00   4.04317837e+00   3.38376436e-01   
40      1.11901310e+00   1.27822974e+04   2.21065320e+00   4.10660892e+00   3.44520616e-01   
41      1.14371152e+00   1.52274402e+04   2.25436938e+00   4.18262690e+00   3.53025078e-01   
42      1.16840993e+00   1.76725829e+04   2.29808557e+00   4.24730003e+00   3.61366196e-01   
43      1.20052195e+00   2.08516728e+04   2.35492385e+00   4.31914090e+00   3.71976868e-01   
44      1.24237514e+00   2.49951392e+04   2.42900400e+00   4.39785556e+00   3.85428231e-01   
45      1.28422834e+00   2.91386057e+04   2.50308416e+00   4.46446877e+00   3.98475452e-01   
46      1.34161211e+00   3.48195991e+04   2.60465344e+00   4.54182377e+00   4.15749947e-01   
47      1.39899589e+00   4.05005926e+04   2.70622272e+00   4.60746138e+00   4.32363535e-01   
48      1.47328137e+00   4.78548555e+04   2.83770802e+00   4.67992601e+00   4.52967708e-01   
49      1.56731786e+00   5.71644678e+04   3.00415261e+00   4.75712616e+00   4.77721990e-01   
50      1.68961137e+00   6.92715258e+04   3.22061213e+00   4.84055475e+00   5.07938424e-01   
51      1.81190489e+00   8.13785838e+04   3.43707165e+00   4.91051013e+00   5.36188586e-01   
52      1.93419840e+00   9.34856419e+04   3.65353117e+00   4.97074491e+00   5.62712817e-01   
53      2.00000000e+00   1.00000000e+05   3.77000000e+00   5.00000000e+00   5.76341350e-01   
54      2.00500000e+00   9.95000050e+04   3.78360000e+00   4.99782310e+00   5.77905217e-01   
55      2.00971097e+00   9.90289128e+04   3.79641384e+00   4.99576201e+00   5.79373548e-01   
56      2.01913291e+00   9.80867283e+04   3.82204151e+00   4.99161025e+00   5.82295400e-01   
57      2.03797679e+00   9.62023594e+04   3.87329686e+00   4.98318572e+00   5.88080784e-01   
58      2.07566454e+00   9.24336215e+04   3.97580755e+00   4.96582997e+00   5.99425354e-01   
59      2.15104005e+00   8.48961459e+04   4.18082894e+00   4.92888797e+00   6.21262399e-01   
60      2.30179107e+00   6.98211945e+04   4.59087172e+00   4.84398727e+00   6.61895158e-01   
61      2.60329312e+00   3.96712917e+04   5.41095727e+00   4.59847634e+00   7.33274105e-01   
62      2.72807732e+00   2.71929961e+04   5.75037031e+00   4.43445706e+00   7.59695813e-01   
63      2.79826843e+00   2.01739549e+04   5.94129014e+00   4.30479105e+00   7.73880761e-01   
64      2.85091177e+00   1.49096739e+04   6.08448001e+00   4.17346815e+00   7.84223469e-01   
65      2.88052365e+00   1.19485159e+04   6.16502432e+00   4.07731397e+00   7.89934794e-01   
66      2.91013552e+00   8.98735784e+03   6.24556862e+00   3.95363203e+00   7.95571984e-01   
67      2.93234443e+00   6.76648932e+03   6.30597685e+00   3.83036340e+00   7.99752372e-01   
68      2.95455334e+00   4.54562079e+03   6.36638508e+00   3.65759320e+00   8.03892904e-01   
69      2.96523334e+00   3.47763099e+03   6.39543469e+00   3.54128350e+00   8.05870068e-01   
70      2.97324335e+00   2.67663863e+03   6.41722190e+00   3.42758974e+00   8.07347057e-01   
71      2.97925085e+00   2.07589437e+03   6.43356231e+00   3.31720525e+00   8.08451511e-01   
72      2.98525835e+00   1.47515011e+03   6.44990272e+00   3.16883622e+00   8.09553164e-01   
73      2.98853954e+00   1.14703499e+03   6.45882754e+00   3.05957667e+00   8.10153688e-01   
74      2.99100042e+00   9.00948651e+02   6.46552115e+00   2.95470004e+00   8.10603537e-01   
75      2.99284609e+00   7.16383897e+02   6.47054136e+00   2.85514581e+00   8.10940618e-01   
76      2.99423034e+00   5.77960331e+02   6.47430652e+00   2.76189803e+00   8.11193257e-01   
77      2.99561459e+00   4.39536766e+02   6.47807168e+00   2.64299521e+00   8.11445749e-01   
78      2.99663659e+00   3.37337416e+02   6.48085153e+00   2.52806451e+00   8.11632072e-01   
79      2.99740309e+00   2.60687904e+02   6.48293642e+00   2.41612088e+00   8.11771762e-01   
80      2.99797797e+00   2.03200770e+02   6.48450008e+00   2.30792535e+00   8.11876500e-01   
81      2.99840913e+00   1.60085419e+02   6.48567283e+00   2.20435178e+00   8.11955037e-01   
82      2.99865166e+00   1.35833034e+02   6.48633250e+00   2.13300540e+00   8.11999208e-01   
83      2.99889418e+00   1.11580650e+02   6.48699218e+00   2.04758889e+00   8.12043374e-01   
84      2.99907608e+00   9.33913612e+01   6.48748693e+00   1.97030671e+00   8.12076496e-01   
85      2.99925797e+00   7.52020726e+01   6.48798168e+00   1.87622981e+00   8.12109615e-01   
86      2.99939439e+00   6.15601062e+01   6.48835275e+00   1.78929936e+00   8.12134453e-01   
87      2.99949123e+00   5.18764842e+01   6.48861615e+00   1.71497054e+00   8.12152083e-01   
88      2.99958807e+00   4.21928621e+01   6.48887954e+00   1.62523899e+00   8.12169712e-01   
89      2.99965841e+00   3.51585230e+01   6.48907088e+00   1.54603062e+00   8.12182518e-01   
90      2.99972876e+00   2.81241838e+01   6.48926221e+00   1.44907993e+00   8.12195323e-01   
91      2.99976832e+00   2.41673680e+01   6.48936984e+00   1.38322936e+00   8.12202526e-01   
92      2.99980789e+00   2.02105522e+01   6.48947747e+00   1.30557818e+00   8.12209729e-01   
93      2.99984746e+00   1.62537365e+01   6.48958509e+00   1.21095321e+00   8.12216931e-01   
94      2.99986972e+00   1.40280276e+01   6.48964563e+00   1.14699661e+00   8.12220983e-01   
95      2.99989198e+00   1.18023187e+01   6.48970617e+00   1.07196734e+00   8.12225034e-01   
96      2.99990867e+00   1.01330371e+01   6.48975158e+00   1.00573963e+00   8.12228073e-01   
97      2.99992536e+00   8.46375540e+00   6.48979698e+00   9.27563104e-01   8.12231111e-01   
98      2.99993475e+00   7.52478446e+00   6.48982252e+00   8.76494065e-01   8.12232820e-01   
99      2.99994414e+00   6.58581353e+00   6.48984806e+00   8.18609430e-01   8.12234530e-01   
100     2.99995353e+00   5.64684260e+00   6.48987360e+00   7.51805682e-01   8.12236239e-01   
101     2.99996292e+00   4.70787167e+00   6.48989914e+00   6.72824616e-01   8.12237948e-01   
102     2.99996820e+00   4.17970052e+00   6.48991351e+00   6.21145165e-01   8.12238909e-01   
103     2.99997348e+00   3.65152937e+00   6.48992788e+00   5.62474798e-01   8.12239871e-01   
104     2.99997745e+00   3.25540100e+00   6.48993865e+00   5.12604493e-01   8.12240592e-01   
105     2.99998141e+00   2.85927264e+00   6.48994943e+00   4.56255569e-01   8.12241313e-01   
106     2.99998438e+00   2.56217637e+00   6.48995751e+00   4.08609022e-01   8.12241853e-01   
107     2.99998735e+00   2.26508010e+00   6.48996559e+00   3.55083564e-01   8.12242394e-01   
108     2.99998958e+00   2.04225790e+00   6.48997165e+00   3.10110584e-01   8.12242800e-01   
109     2.99999181e+00   1.81943569e+00   6.48997771e+00   2.59936710e-01   8.12243205e-01   
110     2.99999306e+00   1.69409820e+00   6.48998112e+00   2.28938581e-01   8.12243433e-01   
111     2.99999431e+00   1.56876071e+00   6.48998453e+00   1.95556704e-01   8.12243662e-01   
112     2.99999557e+00   1.44342322e+00   6.48998794e+00   1.59393688e-01   8.12243890e-01   
113     2.99999682e+00   1.31808573e+00   6.48999135e+00   1.19943659e-01   8.12244118e-01   
114     2.99999752e+00   1.24758340e+00   6.48999327e+00   9.60695858e-02   8.12244246e-01   
115     2.99999823e+00   1.17708106e+00   6.48999518e+00   7.08063707e-02   8.12244374e-01   
116     2.99999893e+00   1.10657872e+00   6.48999710e+00   4.39823140e-02   8.12244503e-01   
117     2.99999946e+00   1.05370197e+00   6.48999854e+00   2.27177903e-02   8.12244599e-01   
118     2.99999986e+00   1.01404440e+00   6.48999962e+00   6.05697140e-03   8.12244671e-01   
119     2.99999996e+00   1.00351110e+00   6.48999990e+00   1.52218075e-03   8.12244690e-01   
120     3.00000000e+00   1.00000000e+00   6.49000000e+00   2.54109884e-21   8.12244697e-01   
121     3.00000011e+00   9.99999905e-01   6.49000070e+00   -4.11714028e-08  8.12244743e-01   
122     3.00000025e+00   9.99999772e-01   6.49000167e+00   -9.89442160e-08  8.12244809e-01   
123     3.00000055e+00   9.99999506e-01   6.49000363e+00   -2.14489866e-07  8.12244940e-01   
124     3.00000114e+00   9.99998974e-01   6.49000754e+00   -4.45581257e-07  8.12245201e-01   
125     3.00000232e+00   9.99997910e-01   6.49001535e+00   -9.07764409e-07  8.12245724e-01   
126     3.00000469e+00   9.99995781e-01   6.49003098e+00   -1.83213219e-06  8.12246770e-01   
127     3.00000942e+00   9.99991525e-01   6.49006225e+00   -3.68087365e-06  8.12248862e-01   
128     3.00001888e+00   9.99983011e-01   6.49012478e+00   -7.37838018e-06  8.12253046e-01   
129     3.00003780e+00   9.99965983e-01   6.49024983e+00   -1.47734877e-05  8.12261415e-01   
130     3.00007563e+00   9.99931929e-01   6.49049995e+00   -2.95640805e-05  8.12278151e-01   
131     3.00015131e+00   9.99863819e-01   6.49100018e+00   -5.91467773e-05  8.12311621e-01   
132     3.00030267e+00   9.99727599e-01   6.49200063e+00   -1.18318217e-04  8.12378553e-01   
133     3.00060538e+00   9.99455160e-01   6.49400154e+00   -2.36685287e-04  8.12512388e-01   
134     3.00121080e+00   9.98910283e-01   6.49800337e+00   -4.73516255e-04  8.12779932e-01   
135     3.00242164e+00   9.97820527e-01   6.50600702e+00   -9.47565991e-04  8.13314527e-01   
136     3.00484332e+00   9.95641016e-01   6.52201431e+00   -1.89722063e-03  8.14381748e-01   
137     3.00968667e+00   9.91281994e-01   6.55402891e+00   -3.80278241e-03  8.16508353e-01   
138     3.01937339e+00   9.82563950e-01   6.61805810e+00   -7.63917411e-03  8.20730576e-01   
139     3.03874682e+00   9.65127862e-01   6.74611648e+00   -1.54151469e-02  8.29053836e-01   
140     3.07749368e+00   9.30255685e-01   7.00223325e+00   -3.13976673e-02  8.45236573e-01   
141     3.15498741e+00   8.60511331e-01   7.51446678e+00   -6.52434064e-02  8.75898169e-01   
142     3.19196963e+00   8.27227335e-01   7.75891924e+00   -8.23751232e-02  8.89801232e-01   
143     3.22895185e+00   7.93943338e-01   8.00337170e+00   -1.00210491e-01  9.03272988e-01   
144     3.26593406e+00   7.60659342e-01   8.24782417e+00   -1.18809797e-01  9.16339394e-01   
145     3.32597805e+00   7.06619759e-01   8.64471488e+00   -1.50814223e-01  9.36750674e-01   
146     3.41712155e+00   6.24590608e-01   9.24717342e+00   -2.04404551e-01  9.66009003e-01   
147     3.46838977e+00   5.78449211e-01   9.58605635e+00   -2.37734767e-01  9.81639978e-01   
148     3.51965798e+00   5.32307814e-01   9.92493928e+00   -2.73837159e-01  9.96727858e-01   
149     3.57092620e+00   4.86166416e-01   1.02638222e+01   -3.13215045e-01  1.01130912e+00   
150     3.62219442e+00   4.40025019e-01   1.06027051e+01   -3.56522630e-01  1.02541668e+00   
151     3.67346264e+00   3.93883622e-01   1.09415881e+01   -4.04632077e-01  1.03908036e+00   
152     3.72473086e+00   3.47742225e-01   1.12804710e+01   -4.58742572e-01  1.05232723e+00   
153     3.76318203e+00   3.13136177e-01   1.15346332e+01   -5.04266755e-01  1.06200379e+00   
154     3.81375828e+00   2.67617544e-01   1.18689423e+01   -5.72485419e-01  1.07441202e+00   
155     3.84220743e+00   2.42013314e-01   1.20569911e+01   -6.16160742e-01  1.08123894e+00   
156     3.87065657e+00   2.16409083e-01   1.22450400e+01   -6.64724515e-01  1.08796021e+00   
157     3.90677762e+00   1.83900146e-01   1.24838000e+01   -7.35417925e-01  1.09634680e+00   
158     3.94289866e+00   1.51391210e-01   1.27225601e+01   -8.19899341e-01  1.10457451e+00   
159     3.96875437e+00   1.28121065e-01   1.28934664e+01   -8.92379460e-01  1.11036969e+00   
160     3.98814616e+00   1.10668456e-01   1.30216461e+01   -9.55976148e-01  1.11466589e+00   
161     4.00000000e+00   1.00000000e-01   1.31000000e+01   -1.00000000e+00  1.11727130e+00   
162     4.00500000e+00   1.00000000e-01   1.31000000e+01   -1.00000000e+00  1.11727130e+00   
163     4.01500000e+00   1.00000000e-01   1.31000000e+01   -1.00000000e+00  1.11727130e+00   
164     4.03500000e+00   1.00000000e-01   1.31000000e+01   -1.00000000e+00  1.11727130e+00   
165     4.07500000e+00   1.00000000e-01   1.31000000e+01   -1.00000000e+00  1.11727130e+00   
166     4.15500000e+00   1.00000000e-01   1.31000000e+01   -1.00000000e+00  1.11727130e+00   
167     4.31500000e+00   1.00000000e-01   1.31000000e+01   -1.00000000e+00  1.11727130e+00   
168     4.63500000e+00   1.00000000e-01   1.31000000e+01   -1.00000000e+00  1.11727130e+00   
169     5.00000000e+00   1.00000000e-01   1.31000000e+01   -1.00000000e+00  1.11727130e+00   
End of Xyce(TM) Simulation
