Index       FREQ              VR(B)             VI(B)             VP(B)             VM(B)             R1:R              R2:R              C1:C              VR(B)             VI(B)             VM(B)             VP(B)       d_VR(B)/d_C1:C_dir d_VI(B)/d_C1:C_dir d_VM(B)/d_C1:C_dir d_VP(B)/d_C1:C_dir d_VR(B)/d_C1:C_adj d_VI(B)/d_C1:C_adj d_VM(B)/d_C1:C_adj d_VP(B)/d_C1:C_adj       VR(C)             VI(C)             VM(C)             VP(C)       d_VR(C)/d_C1:C_dir d_VI(C)/d_C1:C_dir d_VM(C)/d_C1:C_dir d_VP(C)/d_C1:C_dir d_VR(C)/d_C1:C_adj d_VI(C)/d_C1:C_adj d_VM(C)/d_C1:C_adj d_VP(C)/d_C1:C_adj
0        1.00000000e+02    1.57913421e-06    1.25663508e-03    8.99280000e+01    1.25663607e-03    1.00000000e+00    1.00000000e+00    1.00000000e-06    1.57913421e-06    1.25663508e-03    1.25663607e-03    8.99280000e+01    3.15826343e+00    1.25663111e+03    1.25663408e+03   -7.19998863e+04    3.15826343e+00    1.25663111e+03    1.25663408e+03   -7.19998863e+04    7.89567105e-07    6.28317539e-04    6.28318035e-04    8.99280000e+01    1.57913172e+00    6.28315554e+02    6.28317042e+02   -7.19998863e+04    1.57913172e+00    6.28315554e+02    6.28317042e+02   -7.19998863e+04
1        1.58489319e+02    3.96659633e-06    1.99162762e-03    8.98858878e+01    1.99163157e-03    1.00000000e+00    1.00000000e+00    1.00000000e-06    3.96659633e-06    1.99162762e-03    1.99163157e-03    8.98858878e+01    7.93316119e+00    1.99161182e+03    1.99162367e+03   -1.14111857e+05    7.93316119e+00    1.99161182e+03    1.99162367e+03   -1.14111857e+05    1.98329816e-06    9.95813812e-04    9.95815787e-04    8.98858878e+01    3.96658059e+00    9.95805912e+02    9.95811837e+02   -1.14111857e+05    3.96658059e+00    9.95805912e+02    9.95811837e+02   -1.14111857e+05
2        2.51188643e+02    9.96357974e-06    3.15649813e-03    8.98191448e+01    3.15651386e-03    1.00000000e+00    1.00000000e+00    1.00000000e-06    9.96357974e-06    3.15649813e-03    3.15651386e-03    8.98191448e+01    1.99269609e+01    3.15643523e+03    3.15648241e+03   -1.80854021e+05    1.99269609e+01    3.15643523e+03    3.15648241e+03   -1.80854021e+05    4.98178987e-06    1.57824907e-03    1.57825693e-03    8.98191448e+01    9.96348047e+00    1.57821762e+03    1.57824120e+03   -1.80854021e+05    9.96348047e+00    1.57821762e+03    1.57824120e+03   -1.80854021e+05
3        3.98107171e+02    2.50270038e-05    5.00263705e-03    8.97133652e+01    5.00269965e-03    1.00000000e+00    1.00000000e+00    1.00000000e-06    2.50270038e-05    5.00263705e-03    5.00269965e-03    8.97133652e+01    5.00527548e+01    5.00238664e+03    5.00257444e+03   -2.86629989e+05    5.00527548e+01    5.00238664e+03    5.00257444e+03   -2.86629989e+05    1.25135019e-05    2.50131852e-03    2.50134982e-03    8.97133652e+01    2.50263774e+01    2.50119332e+03    2.50128722e+03   -2.86629989e+05    2.50263774e+01    2.50119332e+03    2.50128722e+03   -2.86629989e+05
4        6.30957344e+02    6.28626126e-05    7.92834540e-03    8.95457202e+01    7.92859461e-03    1.00000000e+00    1.00000000e+00    1.00000000e-06    6.28626126e-05    7.92834540e-03    7.92859461e-03    8.95457202e+01    1.25717322e+02    7.92734861e+03    7.92809620e+03   -4.54260730e+05    1.25717322e+02    7.92734861e+03    7.92809620e+03   -4.54260730e+05    3.14313063e-05    3.96417270e-03    3.96429731e-03    8.95457202e+01    6.28586609e+01    3.96367431e+03    3.96404810e+03   -4.54260730e+05    6.28586609e+01    3.96367431e+03    3.96404810e+03   -4.54260730e+05
5        1.00000000e+03    1.57888738e-04    1.25643865e-02    8.92800379e+01    1.25653785e-02    1.00000000e+00    1.00000000e+00    1.00000000e-06    1.57888738e-04    1.25643865e-02    1.25653785e-02    8.92800379e+01    3.15727618e+02    1.25604190e+04    1.25633946e+04   -7.19886320e+05    3.15727618e+02    1.25604190e+04    1.25633946e+04   -7.19886320e+05    7.89443688e-05    6.28219326e-03    6.28268927e-03    8.92800379e+01    1.57863809e+02    6.28020949e+03    6.28169730e+03   -7.19886320e+05    1.57863809e+02    6.28020949e+03    6.28169730e+03   -7.19886320e+05
6        1.58489319e+03    3.96503928e-04    1.99084583e-02    8.88590277e+01    1.99124064e-02    1.00000000e+00    1.00000000e+00    1.00000000e-06    3.96503928e-04    1.99084583e-02    1.99124064e-02    8.88590277e+01    7.92693426e+02    1.98926708e+04    1.99045110e+04   -1.14067064e+06    7.92693426e+02    1.98926708e+04    1.99045110e+04   -1.14067064e+06    1.98251964e-04    9.95422916e-03    9.95620320e-03    8.88590277e+01    3.96346713e+02    9.94633538e+03    9.95225552e+03   -1.14067064e+06    3.96346713e+02    9.94633538e+03    9.95225552e+03   -1.14067064e+06
7        2.51188643e+03    9.95376141e-04    3.15338765e-02    8.81920421e+01    3.15495823e-02    1.00000000e+00    1.00000000e+00    1.00000000e-06    9.95376141e-04    3.15338765e-02    3.15495823e-02    8.81920421e+01    1.98877073e+03    3.14711004e+04    3.15181786e+04   -1.80675803e+06    1.98877073e+03    3.14711004e+04    3.15181786e+04   -1.80675803e+06    4.97688070e-04    1.57669382e-02    1.57747911e-02    8.81920421e+01    9.94385367e+02    1.57355502e+04    1.57590893e+04   -1.80675803e+06    9.94385367e+02    1.57355502e+04    1.57590893e+04   -1.80675803e+06
8        3.98107171e+03    2.49651483e-03    4.99027278e-02    8.71360161e+01    4.99651361e-02    1.00000000e+00    1.00000000e+00    1.00000000e-06    2.49651483e-03    4.99027278e-02    4.99651361e-02    8.71360161e+01    4.98056448e+03    4.96535620e+04    4.98403974e+04   -2.85921569e+06    4.98056448e+03    4.96535620e+04    4.98403974e+04   -2.85921569e+06    1.24825741e-03    2.49513639e-02    2.49825681e-02    8.71360161e+01    2.49028224e+03    2.48267810e+04    2.49201987e+04   -2.85921569e+06    2.49028224e+03    2.48267810e+04    2.49201987e+04   -2.85921569e+06
9        6.30957344e+03    6.24738131e-03    7.87930932e-02    8.54665912e+01    7.90403777e-02    1.00000000e+00    1.00000000e+00    1.00000000e-06    6.24738131e-03    7.87930932e-02    7.90403777e-02    8.54665912e+01    1.24167031e+04    7.78085922e+04    7.85465824e+04   -4.51451170e+06    1.24167031e+04    7.78085922e+04    7.85465824e+04   -4.51451170e+06    3.12369066e-03    3.93965466e-02    3.95201889e-02    8.54665912e+01    6.20835154e+03    3.89042961e+04    3.92732912e+04   -4.51451170e+06    6.20835154e+03    3.89042961e+04    3.92732912e+04   -4.51451170e+06
10       1.00000000e+04    1.55458764e-02    1.23710154e-01    8.28375442e+01    1.24683104e-01    1.00000000e+00    1.00000000e+00    1.00000000e-06    1.55458764e-02    1.23710154e-01    1.24683104e-01    8.28375442e+01    3.06084043e+04    1.19863788e+05    1.22744796e+05   -7.08806969e+06    3.06084043e+04    1.19863788e+05    1.22744796e+05   -7.08806969e+06    7.77293820e-03    6.18550768e-02    6.23415520e-02    8.28375442e+01    1.53042021e+04    5.99318941e+04    6.13723979e+04   -7.08806969e+06    1.53042021e+04    5.99318941e+04    6.13723979e+04   -7.08806969e+06
11       1.58489319e+04    3.81527491e-02    1.91564915e-01    7.87361566e+01    1.95327287e-01    1.00000000e+00    1.00000000e+00    1.00000000e-06    3.81527491e-02    1.91564915e-01    1.95327287e-01    7.87361566e+01    7.33942336e+04    1.76947459e+05    1.87875014e+05   -1.09758612e+07    7.33942336e+04    1.76947459e+05    1.87875014e+05   -1.09758612e+07    1.90763745e-02    9.57824577e-02    9.76636435e-02    7.87361566e+01    3.66971168e+04    8.84737295e+04    9.39375070e+04   -1.09758612e+07    3.66971168e+04    8.84737295e+04    9.39375070e+04   -1.09758612e+07
12       2.51188643e+04    9.06088183e-02    2.87052017e-01    7.24815444e+01    3.01012987e-01    1.00000000e+00    1.00000000e+00    1.00000000e-06    9.06088183e-02    2.87052017e-01    3.01012987e-01    7.24815444e+01    1.64797721e+05    2.35033129e+05    2.73738556e+05   -1.64468691e+07    1.64797721e+05    2.35033129e+05    2.73738556e+05   -1.64468691e+07    4.53044092e-02    1.43526008e-01    1.50506493e-01    7.24815444e+01    8.23988604e+04    1.17516564e+05    1.36869278e+05   -1.64468691e+07    8.23988604e+04    1.17516564e+05    1.36869278e+05   -1.64468691e+07
13       3.98107171e+04    2.00176794e-01    4.00132534e-01    6.34222890e+01    4.47411213e-01    1.00000000e+00    1.00000000e+00    1.00000000e-06    2.00176794e-01    4.00132534e-01    4.47411213e-01    6.34222890e+01    3.20212090e+05    2.39938039e+05    3.57849871e+05   -2.29259055e+07    3.20212090e+05    2.39938039e+05    3.57849871e+05   -2.29259055e+07    1.00088397e-01    2.00066267e-01    2.23705607e-01    6.34222890e+01    1.60106045e+05    1.19969019e+05    1.78924936e+05   -2.29259055e+07    1.60106045e+05    1.19969019e+05    1.78924936e+05   -2.29259055e+07
14       6.30957344e+04    3.86000434e-01    4.86830668e-01    5.15896504e+01    6.21289332e-01    1.00000000e+00    1.00000000e+00    1.00000000e-06    3.86000434e-01    4.86830668e-01    6.21289332e-01    5.15896504e+01    4.74008198e+05    1.10996970e+05    3.81471380e+05   -2.78933426e+07    4.74008198e+05    1.10996970e+05    3.81471380e+05   -2.78933426e+07    1.93000217e-01    2.43415334e-01    3.10644666e-01    5.15896504e+01    2.37004099e+05    5.54984850e+04    1.90735690e+05   -2.78933426e+07    2.37004099e+05    5.54984850e+04    1.90735690e+05   -2.78933426e+07
15       1.00000000e+05    6.12273363e-01    4.87231661e-01    3.85118873e+01    7.82478986e-01    1.00000000e+00    1.00000000e+00    1.00000000e-06    6.12273363e-01    4.87231661e-01    7.82478986e-01    3.85118873e+01    4.74789384e+05   -1.09406275e+05    3.03387945e+05   -2.79163178e+07    4.74789384e+05   -1.09406275e+05    3.03387945e+05   -2.79163178e+07    3.06136682e-01    2.43615831e-01    3.91239493e-01    3.85118873e+01    2.37394692e+05   -5.47031373e+04    1.51693973e+05   -2.79163178e+07    2.37394692e+05   -5.47031373e+04    1.51693973e+05   -2.79163178e+07
16       1.58489319e+05    7.98655504e-01    4.01004850e-01    2.66612227e+01    8.93675279e-01    1.00000000e+00    1.00000000e+00    1.00000000e-06    7.98655504e-01    4.01004850e-01    8.93675279e-01    2.66612227e+01    3.21609779e+05   -2.39524611e+05    1.79936598e+05   -2.29758855e+07    3.21609779e+05   -2.39524611e+05    1.79936598e+05   -2.29758855e+07    3.99327752e-01    2.00502425e-01    4.46837640e-01    2.66612227e+01    1.60804890e+05   -1.19762306e+05    8.99682991e+04   -2.29758855e+07    1.60804890e+05   -1.19762306e+05    8.99682991e+04   -2.29758855e+07
17       2.51188643e+05    9.08789741e-01    2.87907880e-01    1.75783902e+01    9.53304642e-01    1.00000000e+00    1.00000000e+00    1.00000000e-06    9.08789741e-01    2.87907880e-01    9.53304642e-01    1.75783902e+01    1.65781895e+05   -2.35387576e+05    8.69511631e+04   -1.64959064e+07    1.65781895e+05   -2.35387576e+05    8.69511631e+04   -1.64959064e+07    4.54394871e-01    1.43953940e-01    4.76652321e-01    1.75783902e+01    8.28909475e+04   -1.17693788e+05    4.34755816e+04   -1.64959064e+07    8.28909475e+04   -1.17693788e+05    4.34755816e+04   -1.64959064e+07
18       3.98107171e+05    9.61579291e-01    1.92209672e-01    1.13038486e+01    9.80601495e-01    1.00000000e+00    1.00000000e+00    1.00000000e-06    9.61579291e-01    1.92209672e-01    9.80601495e-01    1.13038486e+01    7.38891160e+04   -1.77440008e+05    3.76754046e+04   -1.10128030e+07    7.38891160e+04   -1.77440008e+05    3.76754046e+04   -1.10128030e+07    4.80789646e-01    9.61048360e-02    4.90300747e-01    1.13038486e+01    3.69445580e+04   -8.87200042e+04    1.88377023e+04   -1.10128030e+07    3.69445580e+04   -8.87200042e+04    1.88377023e+04   -1.10128030e+07
19       6.30957344e+05    9.84342355e-01    1.24147023e-01    7.18829276e+00    9.92140290e-01    1.00000000e+00    1.00000000e+00    1.00000000e-06    9.84342355e-01    1.24147023e-01    9.92140290e-01    7.18829276e+00    3.08249665e+04   -1.20259323e+05    1.55345805e+04   -7.11310044e+06    3.08249665e+04   -1.20259323e+05    1.55345805e+04   -7.11310044e+06    4.92171177e-01    6.20735113e-02    4.96070145e-01    7.18829276e+00    1.54124832e+04   -6.01296613e+04    7.76729027e+03   -7.11310044e+06    1.54124832e+04   -6.01296613e+04    7.76729027e+03   -7.11310044e+06
20       1.00000000e+06    9.93707275e-01    7.90767124e-02    4.54986531e+00    9.96848672e-01    1.00000000e+00    1.00000000e+00    1.00000000e-06    9.93707275e-01    7.90767124e-02    9.96848672e-01    4.54986531e+00    1.25062529e+04   -7.80814964e+04    6.27289439e+03   -4.53076188e+06    1.25062529e+04   -7.80814964e+04    6.27289439e+03   -4.53076188e+06    4.96853638e-01    3.95383562e-02    4.98424336e-01    4.54986531e+00    6.25312645e+03   -3.90407482e+04    3.13644720e+03   -4.53076188e+06    6.25312645e+03   -3.90407482e+04    3.13644720e+03   -4.53076188e+06


0        1.00000000e+02    3.94768591e-05    6.28293727e-03    8.96400047e+01    6.28306129e-03    1.00000000e+00    1.00000000e+00    5.00000000e-06    3.94768591e-05    6.28293727e-03    6.28306129e-03    8.96400047e+01    1.57901203e+01    1.25648824e+03    1.25656265e+03   -7.19971577e+04    1.57901203e+01    1.25648824e+03    1.25656265e+03   -7.19971577e+04    1.97384296e-05    3.14146863e-03    3.14153064e-03    8.96400047e+01    7.89506014e+00    6.28244121e+02    6.28281325e+02   -7.19971577e+04    7.89506014e+00    6.28244121e+02    6.28281325e+02   -7.19971577e+04
1        1.58489319e+02    9.91554687e-05    9.95719021e-03    8.94294573e+01    9.95768390e-03    1.00000000e+00    1.00000000e+00    5.00000000e-06    9.91554687e-05    9.95719021e-03    9.95768390e-03    8.94294573e+01    3.96582548e+01    1.99104312e+03    1.99133931e+03   -1.14100995e+05    3.96582548e+01    1.99104312e+03    1.99133931e+03   -1.14100995e+05    4.95777344e-05    4.97859511e-03    4.97884195e-03    8.94294573e+01    1.98291274e+01    9.95521559e+02    9.95669655e+02   -1.14100995e+05    1.98291274e+01    9.95521559e+02    9.95669655e+02   -1.14100995e+05
2        2.51188643e+02    2.49029944e-04    1.57787176e-02    8.90957960e+01    1.57806826e-02    1.00000000e+00    1.00000000e+00    5.00000000e-06    2.49029944e-04    1.57787176e-02    1.57806826e-02    8.90957960e+01    9.95871712e+01    3.15417176e+03    3.15535055e+03   -1.80810785e+05    9.95871712e+01    3.15417176e+03    3.15535055e+03   -1.80810785e+05    1.24514972e-04    7.88935878e-03    7.89034131e-03    8.90957960e+01    4.97935856e+01    1.57708588e+03    1.57767528e+03   -1.80810785e+05    4.97935856e+01    1.57708588e+03    1.57767528e+03   -1.80810785e+05
3        3.98107171e+02    6.25299509e-04    2.49981701e-02    8.85671130e+01    2.50059895e-02    1.00000000e+00    1.00000000e+00    5.00000000e-06    6.25299509e-04    2.49981701e-02    2.50059895e-02    8.85671130e+01    2.49963404e+02    4.99338149e+03    4.99807065e+03   -2.86457929e+05    2.49963404e+02    4.99338149e+03    4.99807065e+03   -2.86457929e+05    3.12649754e-04    1.24990851e-02    1.25029947e-02    8.85671130e+01    1.24981702e+02    2.49669074e+03    2.49903532e+03   -2.86457929e+05    1.24981702e+02    2.49669074e+03    2.49903532e+03   -2.86457929e+05
4        6.30957344e+02    1.56919786e-03    3.95820095e-02    8.77297424e+01    3.96131021e-02    1.00000000e+00    1.00000000e+00    5.00000000e-06    1.56919786e-03    3.95820095e-02    3.96131021e-02    8.77297424e+01    6.26694192e+02    7.89155711e+03    7.91018827e+03   -4.53576418e+05    6.26694192e+02    7.89155711e+03    7.91018827e+03   -4.53576418e+05    7.84598931e-04    1.97910048e-02    1.98065511e-02    8.77297424e+01    3.13347096e+02    3.94577855e+03    3.95509413e+03   -4.53576418e+05    3.13347096e+02    3.94577855e+03    3.95509413e+03   -4.53576418e+05
5        1.00000000e+03    3.93231759e-03    6.25847783e-02    8.64047262e+01    6.27081940e-02    1.00000000e+00    1.00000000e+00    5.00000000e-06    3.93231759e-03    6.25847783e-02    6.27081940e-02    8.64047262e+01    1.56674179e+03    1.24185144e+04    1.24923211e+04   -7.17168731e+05    1.56674179e+03    1.24185144e+04    1.24923211e+04   -7.17168731e+05    1.96615880e-03    3.12923891e-02    3.13540970e-02    8.64047262e+01    7.83370894e+02    6.20925718e+03    6.24616055e+03   -7.17168731e+05    7.83370894e+02    6.20925718e+03    6.24616055e+03   -7.17168731e+05
6        1.58489319e+03    9.81915817e-03    9.86039670e-02    8.43131330e+01    9.90916655e-02    1.00000000e+00    1.00000000e+00    5.00000000e-06    9.81915817e-03    9.86039670e-02    9.90916655e-02    8.43131330e+01    3.88909692e+03    1.93335102e+04    1.96237338e+04   -1.12991823e+06    3.88909692e+03    1.93335102e+04    1.96237338e+04   -1.12991823e+06    4.90957909e-03    4.93019835e-02    4.95458328e-02    8.43131330e+01    1.94454846e+03    9.66675511e+03    9.81186688e+03   -1.12991823e+06    1.94454846e+03    9.66675511e+03    9.81186688e+03   -1.12991823e+06
7        2.51188643e+03    2.43038092e-02    1.53990695e-01    8.10311892e+01    1.55896790e-01    1.00000000e+00    1.00000000e+00    5.00000000e-06    2.43038092e-02    1.53990695e-01    1.55896790e-01    8.10311892e+01    9.48525361e+03    2.93011147e+04    3.04215808e+04   -1.76460338e+06    9.48525361e+03    2.93011147e+04    3.04215808e+04   -1.76460338e+06    1.21519046e-02    7.69953473e-02    7.79483950e-02    8.10311892e+01    4.74262680e+03    1.46505574e+04    1.52107904e+04   -1.76460338e+06    4.74262680e+03    1.46505574e+04    1.52107904e+04   -1.76460338e+06
8        3.98107171e+03    5.88847133e-02    2.35408801e-01    7.59563090e+01    2.42661726e-01    1.00000000e+00    1.00000000e+00    5.00000000e-06    5.88847133e-02    2.35408801e-01    2.42661726e-01    7.59563090e+01    2.21669215e+04    4.15369684e+04    4.56745320e+04   -2.69758616e+06    2.21669215e+04    4.15369684e+04    4.56745320e+04   -2.69758616e+06    2.94423566e-02    1.17704401e-01    1.21330863e-01    7.59563090e+01    1.10834608e+04    2.07684842e+04    2.28372660e+04   -2.69758616e+06    1.10834608e+04    2.07684842e+04    2.28372660e+04   -2.69758616e+06
9        6.30957344e+03    1.35820060e-01    3.42597389e-01    6.83745363e+01    3.68537732e-01    1.00000000e+00    1.00000000e+00    5.00000000e-06    1.35820060e-01    3.42597389e-01    3.68537732e-01    6.83745363e+01    4.69491885e+04    4.99068387e+04    6.36965830e+04   -3.92587690e+06    4.69491885e+04    4.99068387e+04    6.36965830e+04   -3.92587690e+06    6.79100300e-02    1.71298695e-01    1.84268866e-01    6.83745363e+01    2.34745942e+04    2.49534194e+04    3.18482915e+04   -3.92587690e+06    2.34745942e+04    2.49534194e+04    3.18482915e+04   -3.92587690e+06
10       1.00000000e+04    2.83043200e-01    4.50477243e-01    5.78580924e+01    5.32018045e-01    1.00000000e+00    1.00000000e+00    5.00000000e-06    2.83043200e-01    4.50477243e-01    5.32018045e-01    5.78580924e+01    8.11718987e+04    3.90936405e+04    7.62867910e+04   -5.16208896e+06    8.11718987e+04    3.90936405e+04    7.62867910e+04   -5.16208896e+06    1.41521600e-01    2.25238622e-01    2.66009022e-01    5.78580924e+01    4.05859494e+04    1.95468203e+04    3.81433955e+04   -5.16208896e+06    4.05859494e+04    1.95468203e+04    3.81433955e+04   -5.16208896e+06
11       1.58489319e+04    4.97904508e-01    4.99995609e-01    4.51200632e+01    7.05623489e-01    1.00000000e+00    1.00000000e+00    5.00000000e-06    4.97904508e-01    4.99995609e-01    7.05623489e-01    4.51200632e+01    9.99982436e+04    4.19094664e+02    7.08580745e+04   -5.72952763e+06    9.99982436e+04    4.19094664e+02    7.08580745e+04   -5.72952763e+06    2.48952254e-01    2.49997804e-01    3.52811745e-01    4.51200632e+01    4.99991218e+04    2.09547332e+02    3.54290373e+04   -5.72952763e+06    4.99991218e+04    2.09547332e+02    3.54290373e+04   -5.72952763e+06
