Index       FREQ              R1:R              R2:R              C1:C              VR(B)             VI(B)             VM(B)             VP(B)       d_VR(B)/d_R1:R_dir d_VI(B)/d_R1:R_dir d_VM(B)/d_R1:R_dir d_VP(B)/d_R1:R_dir d_VR(B)/d_C1:C_dir d_VI(B)/d_C1:C_dir d_VM(B)/d_C1:C_dir d_VP(B)/d_C1:C_dir d_VR(B)/d_R1:R_adj d_VI(B)/d_R1:R_adj d_VM(B)/d_R1:R_adj d_VP(B)/d_R1:R_adj d_VR(B)/d_C1:C_adj d_VI(B)/d_C1:C_adj d_VM(B)/d_C1:C_adj d_VP(B)/d_C1:C_adj       VR(C)             VI(C)             VM(C)             VP(C)       d_VR(C)/d_R1:R_dir d_VI(C)/d_R1:R_dir d_VM(C)/d_R1:R_dir d_VP(C)/d_R1:R_dir d_VR(C)/d_C1:C_dir d_VI(C)/d_C1:C_dir d_VM(C)/d_C1:C_dir d_VP(C)/d_C1:C_dir d_VR(C)/d_R1:R_adj d_VI(C)/d_R1:R_adj d_VM(C)/d_R1:R_adj d_VP(C)/d_R1:R_adj d_VR(C)/d_C1:C_adj d_VI(C)/d_C1:C_adj d_VM(C)/d_C1:C_adj d_VP(C)/d_C1:C_adj
0        1.00000000e+02    1.00000000e+00    1.00000000e+00    1.00000000e-06    1.57913421e-06    1.25663508e-03    1.25663607e-03    1.56953969e+00    1.57913172e-06    6.28315554e-04    6.28317042e-04   -6.28317539e-04    3.15826343e+00    1.25663111e+03    1.25663408e+03   -1.25663508e+03    1.57913172e-06    6.28315554e-04    6.28317042e-04   -6.28317539e-04    3.15826343e+00    1.25663111e+03    1.25663408e+03   -1.25663508e+03    7.89567105e-07    6.28317539e-04    6.28318035e-04    1.56953969e+00    3.94782306e-07   -9.92197720e-10   -4.96099252e-10   -6.28317539e-04    1.57913172e+00    6.28315554e+02    6.28317042e+02   -1.25663508e+03    3.94782306e-07   -9.92197720e-10   -4.96099252e-10   -6.28317539e-04    1.57913172e+00    6.28315554e+02    6.28317042e+02   -1.25663508e+03
1        1.58489319e+02    1.00000000e+00    1.00000000e+00    1.00000000e-06    3.96659633e-06    1.99162762e-03    1.99163157e-03    1.56880469e+00    3.96658059e-06    9.95805912e-04    9.95811837e-04   -9.95813812e-04    7.93316119e+00    1.99161182e+03    1.99162367e+03   -1.99162762e+03    3.96658059e-06    9.95805912e-04    9.95811837e-04   -9.95813812e-04    7.93316119e+00    1.99161182e+03    1.99162367e+03   -1.99162762e+03    1.98329816e-06    9.95813812e-04    9.95815787e-04    1.56880469e+00    9.91641215e-07   -3.94999141e-09   -1.97499962e-09   -9.95813812e-04    3.96658059e+00    9.95805912e+02    9.95811837e+02   -1.99162762e+03    9.91641215e-07   -3.94999141e-09   -1.97499962e-09   -9.95813812e-04    3.96658059e+00    9.95805912e+02    9.95811837e+02   -1.99162762e+03
2        2.51188643e+02    1.00000000e+00    1.00000000e+00    1.00000000e-06    9.96357974e-06    3.15649813e-03    3.15651386e-03    1.56763981e+00    9.96348047e-06    1.57821762e-03    1.57824120e-03   -1.57824907e-03    1.99269609e+01    3.15643523e+03    3.15648241e+03   -3.15649813e+03    9.96348047e-06    1.57821762e-03    1.57824120e-03   -1.57824907e-03    1.99269609e+01    3.15643523e+03    3.15648241e+03   -3.15649813e+03    4.98178987e-06    1.57824907e-03    1.57825693e-03    1.56763981e+00    2.49084530e-06   -1.57250104e-08   -7.86254438e-09   -1.57824907e-03    9.96348047e+00    1.57821762e+03    1.57824120e+03   -3.15649813e+03    2.49084530e-06   -1.57250104e-08   -7.86254438e-09   -1.57824907e-03    9.96348047e+00    1.57821762e+03    1.57824120e+03   -3.15649813e+03
3        3.98107171e+02    1.00000000e+00    1.00000000e+00    1.00000000e-06    2.50270038e-05    5.00263705e-03    5.00269965e-03    1.56579361e+00    2.50263774e-05    2.50119332e-03    2.50128722e-03   -2.50131852e-03    5.00527548e+01    5.00238664e+03    5.00257444e+03   -5.00263705e+03    2.50263774e-05    2.50119332e-03    2.50128722e-03   -2.50131852e-03    5.00527548e+01    5.00238664e+03    5.00257444e+03   -5.00263705e+03    1.25135019e-05    2.50131852e-03    2.50134982e-03    1.56579361e+00    6.25643776e-06   -6.26005081e-08   -3.13006457e-08   -2.50131852e-03    2.50263774e+01    2.50119332e+03    2.50128722e+03   -5.00263705e+03    6.25643776e-06   -6.26005081e-08   -3.13006457e-08   -2.50131852e-03    2.50263774e+01    2.50119332e+03    2.50128722e+03   -5.00263705e+03
4        6.30957344e+02    1.00000000e+00    1.00000000e+00    1.00000000e-06    6.28626126e-05    7.92834540e-03    7.92859461e-03    1.56286765e+00    6.28586609e-05    3.96367431e-03    3.96404810e-03   -3.96417270e-03    1.25717322e+02    7.92734861e+03    7.92809620e+03   -7.92834540e+03    6.28586609e-05    3.96367431e-03    3.96404810e-03   -3.96417270e-03    1.25717322e+02    7.92734861e+03    7.92809620e+03   -7.92834540e+03    3.14313063e-05    3.96417270e-03    3.96429731e-03    1.56286765e+00    1.57136773e-05   -2.49198253e-07   -1.24603043e-07   -3.96417270e-03    6.28586609e+01    3.96367431e+03    3.96404810e+03   -7.92834540e+03    1.57136773e-05   -2.49198253e-07   -1.24603043e-07   -3.96417270e-03    6.28586609e+01    3.96367431e+03    3.96404810e+03   -7.92834540e+03
5        1.00000000e+03    1.00000000e+00    1.00000000e+00    1.00000000e-06    1.57888738e-04    1.25643865e-02    1.25653785e-02    1.55823062e+00    1.57863809e-04    6.28020949e-03    6.28169730e-03   -6.28219326e-03    3.15727618e+02    1.25604190e+04    1.25633946e+04   -1.25643865e+04    1.57863809e-04    6.28020949e-03    6.28169730e-03   -6.28219326e-03    3.15727618e+02    1.25604190e+04    1.25633946e+04   -1.25643865e+04    7.89443688e-05    6.28219326e-03    6.28268927e-03    1.55823062e+00    3.94597200e-05   -9.91887564e-07   -4.95982939e-07   -6.28219326e-03    1.57863809e+02    6.28020949e+03    6.28169730e+03   -1.25643865e+04    3.94597200e-05   -9.91887564e-07   -4.95982939e-07   -6.28219326e-03    1.57863809e+02    6.28020949e+03    6.28169730e+03   -1.25643865e+04
6        1.58489319e+03    1.00000000e+00    1.00000000e+00    1.00000000e-06    3.96503928e-04    1.99084583e-02    1.99124064e-02    1.55088260e+00    3.96346713e-04    9.94633538e-03    9.95225552e-03   -9.95422916e-03    7.92693426e+02    1.98926708e+04    1.99045110e+04   -1.99084583e+04    3.96346713e-04    9.94633538e-03    9.95225552e-03   -9.95422916e-03    7.92693426e+02    1.98926708e+04    1.99045110e+04   -1.99084583e+04    1.98251964e-04    9.95422916e-03    9.95620320e-03    1.55088260e+00    9.90473744e-05   -3.94689097e-06   -1.97383684e-06   -9.95422916e-03    3.96346713e+02    9.94633538e+03    9.95225552e+03   -1.99084583e+04    9.90473744e-05   -3.94689097e-06   -1.97383684e-06   -9.95422916e-03    3.96346713e+02    9.94633538e+03    9.95225552e+03   -1.99084583e+04
7        2.51188643e+03    1.00000000e+00    1.00000000e+00    1.00000000e-06    9.95376141e-04    3.15338765e-02    3.15495823e-02    1.53924151e+00    9.94385367e-04    1.57355502e-02    1.57590893e-02   -1.57669382e-02    1.98877073e+03    3.14711004e+04    3.15181786e+04   -3.15338765e+04    9.94385367e-04    1.57355502e-02    1.57590893e-02   -1.57669382e-02    1.98877073e+03    3.14711004e+04    3.15181786e+04   -3.15338765e+04    4.97688070e-04    1.57669382e-02    1.57747911e-02    1.53924151e+00    2.48348648e-04   -1.56940341e-05   -7.85092536e-06   -1.57669382e-02    9.94385367e+02    1.57355502e+04    1.57590893e+04   -3.15338765e+04    2.48348648e-04   -1.56940341e-05   -7.85092536e-06   -1.57669382e-02    9.94385367e+02    1.57355502e+04    1.57590893e+04   -3.15338765e+04
8        3.98107171e+03    1.00000000e+00    1.00000000e+00    1.00000000e-06    2.49651483e-03    4.99027278e-02    4.99651361e-02    1.52081038e+00    2.49028224e-03    2.48267810e-02    2.49201987e-02   -2.49513639e-02    4.98056448e+03    4.96535620e+04    4.98403974e+04   -4.99027278e+04    2.49028224e-03    2.48267810e-02    2.49201987e-02   -2.49513639e-02    4.98056448e+03    4.96535620e+04    4.98403974e+04   -4.99027278e+04    1.24825741e-03    2.49513639e-02    2.49825681e-02    1.52081038e+00    6.21012414e-04   -6.22914499e-05   -3.11846758e-05   -2.49513639e-02    2.49028224e+03    2.48267810e+04    2.49201987e+04   -4.99027278e+04    6.21012414e-04   -6.22914499e-05   -3.11846758e-05   -2.49513639e-02    2.49028224e+03    2.48267810e+04    2.49201987e+04   -4.99027278e+04
9        6.30957344e+03    1.00000000e+00    1.00000000e+00    1.00000000e-06    6.24738131e-03    7.87930932e-02    7.90403777e-02    1.49167342e+00    6.20835154e-03    3.89042961e-02    3.92732912e-02   -3.93965466e-02    1.24167031e+04    7.78085922e+04    7.85465824e+04   -7.87930932e+04    6.20835154e-03    3.89042961e-02    3.92732912e-02   -3.93965466e-02    1.24167031e+04    7.78085922e+04    7.85465824e+04   -7.87930932e+04    3.12369066e-03    3.93965466e-02    3.95201889e-02    1.49167342e+00    1.54233044e-03   -2.46125249e-04   -1.23448845e-04   -3.93965466e-02    6.20835154e+03    3.89042961e+04    3.92732912e+04   -7.87930932e+04    1.54233044e-03   -2.46125249e-04   -1.23448845e-04   -3.93965466e-02    6.20835154e+03    3.89042961e+04    3.92732912e+04   -7.87930932e+04
10       1.00000000e+04    1.00000000e+00    1.00000000e+00    1.00000000e-06    1.55458764e-02    1.23710154e-01    1.24683104e-01    1.44578789e+00    1.53042021e-02    5.99318941e-02    6.13723979e-02   -6.18550768e-02    3.06084043e+04    1.19863788e+05    1.22744796e+05   -1.23710154e+05    1.53042021e-02    5.99318941e-02    6.13723979e-02   -6.18550768e-02    3.06084043e+04    1.19863788e+05    1.22744796e+05   -1.23710154e+05    7.77293820e-03    6.18550768e-02    6.23415520e-02    1.44578789e+00    3.76563196e-03   -9.61591380e-04   -4.84577031e-04   -6.18550768e-02    1.53042021e+04    5.99318941e+04    6.13723979e+04   -1.23710154e+05    3.76563196e-03   -9.61591380e-04   -4.84577031e-04   -6.18550768e-02    1.53042021e+04    5.99318941e+04    6.13723979e+04   -1.23710154e+05
11       1.58489319e+04    1.00000000e+00    1.00000000e+00    1.00000000e-06    3.81527491e-02    1.91564915e-01    1.95327287e-01    1.37420517e+00    3.66971168e-02    8.84737295e-02    9.39375070e-02   -9.57824577e-02    7.33942336e+04    1.76947459e+05    1.87875014e+05   -1.91564915e+05    3.66971168e-02    8.84737295e-02    9.39375070e-02   -9.57824577e-02    7.33942336e+04    1.76947459e+05    1.87875014e+05   -1.91564915e+05    1.90763745e-02    9.57824577e-02    9.76636435e-02    1.37420517e+00    8.81037113e-03   -3.65436407e-03   -1.86306824e-03   -9.57824577e-02    3.66971168e+04    8.84737295e+04    9.39375070e+04   -1.91564915e+05    8.81037113e-03   -3.65436407e-03   -1.86306824e-03   -9.57824577e-02    3.66971168e+04    8.84737295e+04    9.39375070e+04   -1.91564915e+05
12       2.51188643e+04    1.00000000e+00    1.00000000e+00    1.00000000e-06    9.06088183e-02    2.87052017e-01    3.01012987e-01    1.26504160e+00    8.23988604e-02    1.17516564e-01    1.36869278e-01   -1.43526008e-01    1.64797721e+05    2.35033129e+05    2.73738556e+05   -2.87052017e+05    8.23988604e-02    1.17516564e-01    1.36869278e-01   -1.43526008e-01    1.64797721e+05    2.35033129e+05    2.73738556e+05   -2.87052017e+05    4.53044092e-02    1.43526008e-01    1.50506493e-01    1.26504160e+00    1.85472256e-02   -1.30047220e-02   -6.81860776e-03   -1.43526008e-01    8.23988604e+04    1.17516564e+05    1.36869278e+05   -2.87052017e+05    1.85472256e-02   -1.30047220e-02   -6.81860776e-03   -1.43526008e-01    8.23988604e+04    1.17516564e+05    1.36869278e+05   -2.87052017e+05
13       3.98107171e+04    1.00000000e+00    1.00000000e+00    1.00000000e-06    2.00176794e-01    4.00132534e-01    4.47411213e-01    1.10692776e+00    1.60106045e-01    1.19969019e-01    1.78924936e-01   -2.00066267e-01    3.20212090e+05    2.39938039e+05    3.57849871e+05   -4.00132534e+05    1.60106045e-01    1.19969019e-01    1.78924936e-01   -2.00066267e-01    3.20212090e+05    2.39938039e+05    3.57849871e+05   -4.00132534e+05    1.00088397e-01    2.00066267e-01    2.23705607e-01    1.10692776e+00    3.00088241e-02   -4.00486239e-02   -2.23903355e-02   -2.00066267e-01    1.60106045e+05    1.19969019e+05    1.78924936e+05   -4.00132534e+05    3.00088241e-02   -4.00486239e-02   -2.23903355e-02   -2.00066267e-01    1.60106045e+05    1.19969019e+05    1.78924936e+05   -4.00132534e+05
14       6.30957344e+04    1.00000000e+00    1.00000000e+00    1.00000000e-06    3.86000434e-01    4.86830668e-01    6.21289332e-01    9.00409260e-01    2.37004099e-01    5.54984850e-02    1.90735690e-01   -2.43415334e-01    4.74008198e+05    1.10996970e+05    3.81471380e+05   -4.86830668e+05    2.37004099e-01    5.54984850e-02    1.90735690e-01   -2.43415334e-01    4.74008198e+05    1.10996970e+05    3.81471380e+05   -4.86830668e+05    1.93000217e-01    2.43415334e-01    3.10644666e-01    9.00409260e-01    2.20019410e-02   -9.39584244e-02   -5.99544878e-02   -2.43415334e-01    2.37004099e+05    5.54984850e+04    1.90735690e+05   -4.86830668e+05    2.20019410e-02   -9.39584244e-02   -5.99544878e-02   -2.43415334e-01    2.37004099e+05    5.54984850e+04    1.90735690e+05   -4.86830668e+05
15       1.00000000e+05    1.00000000e+00    1.00000000e+00    1.00000000e-06    6.12273363e-01    4.87231661e-01    7.82478986e-01    6.72159234e-01    2.37394692e-01   -5.47031373e-02    1.51693973e-01   -2.43615831e-01    4.74789384e+05   -1.09406275e+05    3.03387945e+05   -4.87231661e+05    2.37394692e-01   -5.47031373e-02    1.51693973e-01   -2.43615831e-01    4.74789384e+05   -1.09406275e+05    3.03387945e+05   -4.87231661e+05    3.06136682e-01    2.43615831e-01    3.91239493e-01    6.72159234e-01   -3.43709949e-02   -1.49159484e-01   -1.19772760e-01   -2.43615831e-01    2.37394692e+05   -5.47031373e+04    1.51693973e+05   -4.87231661e+05   -3.43709949e-02   -1.49159484e-01   -1.19772760e-01   -2.43615831e-01    2.37394692e+05   -5.47031373e+04    1.51693973e+05   -4.87231661e+05
16       1.58489319e+05    1.00000000e+00    1.00000000e+00    1.00000000e-06    7.98655504e-01    4.01004850e-01    8.93675279e-01    4.65326119e-01    1.60804890e-01   -1.19762306e-01    8.99682991e-02   -2.00502425e-01    3.21609779e+05   -2.39524611e+05    1.79936598e+05   -4.01004850e+05    1.60804890e-01   -1.19762306e-01    8.99682991e-02   -2.00502425e-01    3.21609779e+05   -2.39524611e+05    1.79936598e+05   -4.01004850e+05    3.99327752e-01    2.00502425e-01    4.46837640e-01    4.65326119e-01   -1.19261431e-01   -1.60132365e-01   -1.78434670e-01   -2.00502425e-01    1.60804890e+05   -1.19762306e+05    8.99682991e+04   -4.01004850e+05   -1.19261431e-01   -1.60132365e-01   -1.78434670e-01   -2.00502425e-01    1.60804890e+05   -1.19762306e+05    8.99682991e+04   -4.01004850e+05
17       2.51188643e+05    1.00000000e+00    1.00000000e+00    1.00000000e-06    9.08789741e-01    2.87907880e-01    9.53304642e-01    3.06800786e-01    8.28909475e-02   -1.17693788e-01    4.34755816e-02   -1.43953940e-01    1.65781895e+05   -2.35387576e+05    8.69511631e+04   -2.87907880e+05    8.28909475e-02   -1.17693788e-01    4.34755816e-02   -1.43953940e-01    1.65781895e+05   -2.35387576e+05    8.69511631e+04   -2.87907880e+05    4.54394871e-01    1.43953940e-01    4.76652321e-01    3.06800786e-01   -1.85751962e-01   -1.30823864e-01   -2.16588370e-01   -1.43953940e-01    8.28909475e+04   -1.17693788e+05    4.34755816e+04   -2.87907880e+05   -1.85751962e-01   -1.30823864e-01   -2.16588370e-01   -1.43953940e-01    8.28909475e+04   -1.17693788e+05    4.34755816e+04   -2.87907880e+05
18       3.98107171e+05    1.00000000e+00    1.00000000e+00    1.00000000e-06    9.61579291e-01    1.92209672e-01    9.80601495e-01    1.97289376e-01    3.69445580e-02   -8.87200042e-02    1.88377023e-02   -9.61048360e-02    7.38891160e+04   -1.77440008e+05    3.76754046e+04   -1.92209672e+05    3.69445580e-02   -8.87200042e-02    1.88377023e-02   -9.61048360e-02    7.38891160e+04   -1.77440008e+05    3.76754046e+04   -1.92209672e+05    4.80789646e-01    9.61048360e-02    4.90300747e-01    1.97289376e-01   -2.21922544e-01   -9.24124201e-02   -2.35731522e-01   -9.61048360e-02    3.69445580e+04   -8.87200042e+04    1.88377023e+04   -1.92209672e+05   -2.21922544e-01   -9.24124201e-02   -2.35731522e-01   -9.61048360e-02    3.69445580e+04   -8.87200042e+04    1.88377023e+04   -1.92209672e+05
19       6.30957344e+05    1.00000000e+00    1.00000000e+00    1.00000000e-06    9.84342355e-01    1.24147023e-01    9.92140290e-01    1.25459376e-01    1.54124832e-02   -6.01296613e-02    7.76729027e-03   -6.20735113e-02    3.08249665e+04   -1.20259323e+05    1.55345805e+04   -1.24147023e+05    1.54124832e-02   -6.01296613e-02    7.76729027e-03   -6.20735113e-02    3.08249665e+04   -1.20259323e+05    1.55345805e+04   -1.24147023e+05    4.92171177e-01    6.20735113e-02    4.96070145e-01    1.25459376e-01   -2.38379347e-01   -6.11015863e-02   -2.44151427e-01   -6.20735113e-02    1.54124832e+04   -6.01296613e+04    7.76729027e+03   -1.24147023e+05   -2.38379347e-01   -6.11015863e-02   -2.44151427e-01   -6.20735113e-02    1.54124832e+04   -6.01296613e+04    7.76729027e+03   -1.24147023e+05
20       1.00000000e+06    1.00000000e+00    1.00000000e+00    1.00000000e-06    9.93707275e-01    7.90767124e-02    9.96848672e-01    7.94101302e-02    6.25312645e-03   -3.90407482e-02    3.13644720e-03   -3.95383562e-02    1.25062529e+04   -7.80814964e+04    6.27289439e+03   -7.90767124e+04    6.25312645e-03   -3.90407482e-02    3.13644720e-03   -3.95383562e-02    1.25062529e+04   -7.80814964e+04    6.27289439e+03   -7.90767124e+04    4.96853638e-01    3.95383562e-02    4.98424336e-01    7.94101302e-02   -2.45300256e-01   -3.92895522e-02   -2.47643944e-01   -3.95383562e-02    6.25312645e+03   -3.90407482e+04    3.13644720e+03   -7.90767124e+04   -2.45300256e-01   -3.92895522e-02   -2.47643944e-01   -3.95383562e-02    6.25312645e+03   -3.90407482e+04    3.13644720e+03   -7.90767124e+04
0        1.00000000e+02    1.00000000e+00    1.00000000e+00    5.00000000e-06    3.94768591e-05    6.28293727e-03    6.28306129e-03    1.56451322e+00    3.94753007e-05    3.14122060e-03    3.14140663e-03   -3.14146863e-03    1.57901203e+01    1.25648824e+03    1.25656265e+03   -1.25658745e+03    3.94753007e-05    3.14122060e-03    3.14140663e-03   -3.14146863e-03    1.57901203e+01    1.25648824e+03    1.25656265e+03   -1.25658745e+03    1.97384296e-05    3.14146863e-03    3.14153064e-03    1.56451322e+00    9.86843557e-06   -1.24015315e-07   -6.20088813e-08   -3.14146863e-03    7.89506014e+00    6.28244121e+02    6.28281325e+02   -1.25658745e+03    9.86843557e-06   -1.24015315e-07   -6.20088813e-08   -3.14146863e-03    7.89506014e+00    6.28244121e+02    6.28281325e+02   -1.25658745e+03
1        1.58489319e+02    1.00000000e+00    1.00000000e+00    5.00000000e-06    9.91554687e-05    9.95719021e-03    9.95768390e-03    1.56083848e+00    9.91456369e-05    4.97760780e-03    4.97834827e-03   -4.97859511e-03    3.96582548e+01    1.99104312e+03    1.99133931e+03   -1.99143804e+03    9.91456369e-05    4.97760780e-03    4.97834827e-03   -4.97859511e-03    3.96582548e+01    1.99104312e+03    1.99133931e+03   -1.99143804e+03    4.95777344e-05    4.97859511e-03    4.97884195e-03    1.56083848e+00    2.47839513e-05   -4.93654931e-07   -2.46839704e-07   -4.97859511e-03    1.98291274e+01    9.95521559e+02    9.95669655e+02   -1.99143804e+03    2.47839513e-05   -4.93654931e-07   -2.46839704e-07   -4.97859511e-03    1.98291274e+01    9.95521559e+02    9.95669655e+02   -1.99143804e+03
2        2.51188643e+02    1.00000000e+00    1.00000000e+00    5.00000000e-06    2.49029944e-04    1.57787176e-02    1.57806826e-02    1.55501499e+00    2.48967928e-04    7.88542941e-03    7.88837638e-03   -7.88935878e-03    9.95871712e+01    3.15417176e+03    3.15535055e+03   -3.15574351e+03    2.48967928e-04    7.88542941e-03    7.88837638e-03   -7.88935878e-03    9.95871712e+01    3.15417176e+03    3.15535055e+03   -3.15574351e+03    1.24514972e-04    7.88935878e-03    7.89034131e-03    1.55501499e+00    6.22264780e-05   -1.96468658e-06   -9.82465627e-07   -7.88935878e-03    4.97935856e+01    1.57708588e+03    1.57767528e+03   -3.15574351e+03    6.22264780e-05   -1.96468658e-06   -9.82465627e-07   -7.88935878e-03    4.97935856e+01    1.57708588e+03    1.57767528e+03   -3.15574351e+03
