Title: ***************************************************************
Date: Fri May 17 09:40:03 2019
Plotname: AC Analysis
Flags: complex
No. Variables: 5
No. Points: 21                
Variables:
	0	frequency	frequency
	1	A	voltage
	2	B	voltage
	3	C	voltage
	4	V1#branch	current
Values:
0	1.00000000e+02, 0.00000000e+00
	1.00000000e+00, 0.00000000e+00
	1.57913421e-06, 1.25663508e-03
	7.89567105e-07, 6.28317539e-04
	-7.89567105e-07, -6.28317539e-04

1	1.58489319e+02, 0.00000000e+00
	1.00000000e+00, 0.00000000e+00
	3.96659633e-06, 1.99162762e-03
	1.98329816e-06, 9.95813812e-04
	-1.98329816e-06, -9.95813812e-04

2	2.51188643e+02, 0.00000000e+00
	1.00000000e+00, 0.00000000e+00
	9.96357974e-06, 3.15649813e-03
	4.98178987e-06, 1.57824907e-03
	-4.98178987e-06, -1.57824907e-03

3	3.98107171e+02, 0.00000000e+00
	1.00000000e+00, 0.00000000e+00
	2.50270038e-05, 5.00263705e-03
	1.25135019e-05, 2.50131852e-03
	-1.25135019e-05, -2.50131852e-03

4	6.30957344e+02, 0.00000000e+00
	1.00000000e+00, 0.00000000e+00
	6.28626126e-05, 7.92834540e-03
	3.14313063e-05, 3.96417270e-03
	-3.14313063e-05, -3.96417270e-03

5	1.00000000e+03, 0.00000000e+00
	1.00000000e+00, 0.00000000e+00
	1.57888738e-04, 1.25643865e-02
	7.89443688e-05, 6.28219326e-03
	-7.89443688e-05, -6.28219326e-03

6	1.58489319e+03, 0.00000000e+00
	1.00000000e+00, 0.00000000e+00
	3.96503928e-04, 1.99084583e-02
	1.98251964e-04, 9.95422916e-03
	-1.98251964e-04, -9.95422916e-03

7	2.51188643e+03, 0.00000000e+00
	1.00000000e+00, 0.00000000e+00
	9.95376141e-04, 3.15338765e-02
	4.97688070e-04, 1.57669382e-02
	-4.97688070e-04, -1.57669382e-02

8	3.98107171e+03, 0.00000000e+00
	1.00000000e+00, 0.00000000e+00
	2.49651483e-03, 4.99027278e-02
	1.24825741e-03, 2.49513639e-02
	-1.24825741e-03, -2.49513639e-02

9	6.30957344e+03, 0.00000000e+00
	1.00000000e+00, 0.00000000e+00
	6.24738131e-03, 7.87930932e-02
	3.12369066e-03, 3.93965466e-02
	-3.12369066e-03, -3.93965466e-02

10	1.00000000e+04, 0.00000000e+00
	1.00000000e+00, 0.00000000e+00
	1.55458764e-02, 1.23710154e-01
	7.77293820e-03, 6.18550768e-02
	-7.77293820e-03, -6.18550768e-02

11	1.58489319e+04, 0.00000000e+00
	1.00000000e+00, 0.00000000e+00
	3.81527491e-02, 1.91564915e-01
	1.90763745e-02, 9.57824577e-02
	-1.90763745e-02, -9.57824577e-02

12	2.51188643e+04, 0.00000000e+00
	1.00000000e+00, 0.00000000e+00
	9.06088183e-02, 2.87052017e-01
	4.53044092e-02, 1.43526008e-01
	-4.53044092e-02, -1.43526008e-01

13	3.98107171e+04, 0.00000000e+00
	1.00000000e+00, 0.00000000e+00
	2.00176794e-01, 4.00132534e-01
	1.00088397e-01, 2.00066267e-01
	-1.00088397e-01, -2.00066267e-01

14	6.30957344e+04, 0.00000000e+00
	1.00000000e+00, 0.00000000e+00
	3.86000434e-01, 4.86830668e-01
	1.93000217e-01, 2.43415334e-01
	-1.93000217e-01, -2.43415334e-01

15	1.00000000e+05, 0.00000000e+00
	1.00000000e+00, 0.00000000e+00
	6.12273363e-01, 4.87231661e-01
	3.06136682e-01, 2.43615831e-01
	-3.06136682e-01, -2.43615831e-01

16	1.58489319e+05, 0.00000000e+00
	1.00000000e+00, 0.00000000e+00
	7.98655504e-01, 4.01004850e-01
	3.99327752e-01, 2.00502425e-01
	-3.99327752e-01, -2.00502425e-01

17	2.51188643e+05, 0.00000000e+00
	1.00000000e+00, 0.00000000e+00
	9.08789741e-01, 2.87907880e-01
	4.54394871e-01, 1.43953940e-01
	-4.54394871e-01, -1.43953940e-01

18	3.98107171e+05, 0.00000000e+00
	1.00000000e+00, 0.00000000e+00
	9.61579291e-01, 1.92209672e-01
	4.80789646e-01, 9.61048360e-02
	-4.80789646e-01, -9.61048360e-02

19	6.30957344e+05, 0.00000000e+00
	1.00000000e+00, 0.00000000e+00
	9.84342355e-01, 1.24147023e-01
	4.92171177e-01, 6.20735113e-02
	-4.92171177e-01, -6.20735113e-02

20	1.00000000e+06, 0.00000000e+00
	1.00000000e+00, 0.00000000e+00
	9.93707275e-01, 7.90767124e-02
	4.96853638e-01, 3.95383562e-02
	-4.96853638e-01, -3.95383562e-02

