#H
SOURCE='Xyce' VERSION='7.0'
TITLE='* ac-probe.cir'
SUBTITLE='Xyce data'
TIME='02:41:05 PM' DATE='Mar 20, 2019' TEMPERATURE='2.70000000e+01'
ANALYSIS='AC Sweep' SERIALNO='12345'
ALLVALUES='NO' COMPLEXVALUES='YES' NODES='12'
SWEEPVAR='FREQ' SWEEPMODE='VAR_STEP'
XBEGIN='1.00000000e+02' XEND='1.00000000e+06'
FORMAT='0 VOLTSorAMPS;EFLOAT : NODEorBRANCH;NODE  '  
DGTLDATA='NO'
#N
'V(B)' 'VR(B)' 'VI(B)' 'VM(B)' 'VP(B)' 'VDB(B)' 'V(A,B)' 'VR(A,B)' 'VI(A,B)' 'VM(A,B)' 'VP(A,B)' 'VDB(A,B)' 
#C 1.00000000e+02 12
1.57913421e-06/1.25663508e-03:1   1.57913421e-06/0.00000000e+00:2   1.25663508e-03/0.00000000e+00:3   1.25663607e-03/0.00000000e+00:4
1.56953969e+00/0.00000000e+00:5   -5.80158096e+01/0.00000000e+00:6   9.99998421e-01/-1.25663508e-03:7   9.99998421e-01/0.00000000e+00:8
-1.25663508e-03/0.00000000e+00:9   9.99999210e-01/0.00000000e+00:10   -1.25663640e-03/0.00000000e+00:11   -6.85809815e-06/0.00000000e+00:12
#C 1.58489319e+02 12
3.96659633e-06/1.99162762e-03:1   3.96659633e-06/0.00000000e+00:2   1.99162762e-03/0.00000000e+00:3   1.99163157e-03/0.00000000e+00:4
1.56880469e+00/0.00000000e+00:5   -5.40158199e+01/0.00000000e+00:6   9.99996033e-01/-1.99162762e-03:7   9.99996033e-01/0.00000000e+00:8
-1.99162762e-03/0.00000000e+00:9   9.99998017e-01/0.00000000e+00:10   -1.99163289e-03/0.00000000e+00:11   -1.72267431e-05/0.00000000e+00:12
#C 2.51188643e+02 12
9.96357974e-06/3.15649813e-03:1   9.96357974e-06/0.00000000e+00:2   3.15649813e-03/0.00000000e+00:3   3.15651386e-03/0.00000000e+00:4
1.56763981e+00/0.00000000e+00:5   -5.00158460e+01/0.00000000e+00:6   9.99990036e-01/-3.15649813e-03:7   9.99990036e-01/0.00000000e+00:8
-3.15649813e-03/0.00000000e+00:9   9.99995018e-01/0.00000000e+00:10   -3.15651910e-03/0.00000000e+00:11   -4.32714926e-05/0.00000000e+00:12
#C 3.98107171e+02 12
2.50270038e-05/5.00263705e-03:1   2.50270038e-05/0.00000000e+00:2   5.00263705e-03/0.00000000e+00:3   5.00269965e-03/0.00000000e+00:4
1.56579361e+00/0.00000000e+00:5   -4.60159114e+01/0.00000000e+00:6   9.99974973e-01/-5.00263705e-03:7   9.99974973e-01/0.00000000e+00:8
-5.00263705e-03/0.00000000e+00:9   9.99987486e-01/0.00000000e+00:10   -5.00272051e-03/0.00000000e+00:11   -1.08692256e-04/0.00000000e+00:12
#C 6.30957344e+02 12
6.28626126e-05/7.92834540e-03:1   6.28626126e-05/0.00000000e+00:2   7.92834540e-03/0.00000000e+00:3   7.92859461e-03/0.00000000e+00:4
1.56286765e+00/0.00000000e+00:5   -4.20160757e+01/0.00000000e+00:6   9.99937137e-01/-7.92834540e-03:7   9.99937137e-01/0.00000000e+00:8
-7.92834540e-03/0.00000000e+00:9   9.99968568e-01/0.00000000e+00:10   -7.92867769e-03/0.00000000e+00:11   -2.73017439e-04/0.00000000e+00:12
#C 1.00000000e+03 12
1.57888738e-04/1.25643865e-02:1   1.57888738e-04/0.00000000e+00:2   1.25643865e-02/0.00000000e+00:3   1.25653785e-02/0.00000000e+00:4
1.55823062e+00/0.00000000e+00:5   -3.80164885e+01/0.00000000e+00:6   9.99842111e-01/-1.25643865e-02:7   9.99842111e-01/0.00000000e+00:8
-1.25643865e-02/0.00000000e+00:9   9.99921053e-01/0.00000000e+00:10   -1.25657092e-02/0.00000000e+00:11   -6.85756213e-04/0.00000000e+00:12
#C 1.58489319e+03 12
3.96503928e-04/1.99084583e-02:1   3.96503928e-04/0.00000000e+00:2   1.99084583e-02/0.00000000e+00:3   1.99124064e-02/0.00000000e+00:4
1.55088260e+00/0.00000000e+00:5   -3.40175251e+01/0.00000000e+00:6   9.99603496e-01/-1.99084583e-02:7   9.99603496e-01/0.00000000e+00:8
-1.99084583e-02/0.00000000e+00:9   9.99801728e-01/0.00000000e+00:10   -1.99137225e-02/0.00000000e+00:11   -1.72233616e-03/0.00000000e+00:12
#C 2.51188643e+03 12
9.95376141e-04/3.15338765e-02:1   9.95376141e-04/0.00000000e+00:2   3.15338765e-02/0.00000000e+00:3   3.15495823e-02/0.00000000e+00:4
1.53924151e+00/0.00000000e+00:5   -3.00201277e+01/0.00000000e+00:6   9.99004624e-01/-3.15338765e-02:7   9.99004624e-01/0.00000000e+00:8
-3.15338765e-02/0.00000000e+00:9   9.99502188e-01/0.00000000e+00:10   -3.15548186e-02/0.00000000e+00:11   -4.32501652e-03/0.00000000e+00:12
#C 3.98107171e+03 12
2.49651483e-03/4.99027278e-02:1   2.49651483e-03/0.00000000e+00:2   4.99027278e-02/0.00000000e+00:3   4.99651361e-02/0.00000000e+00:4
1.52081038e+00/0.00000000e+00:5   -2.60266585e+01/0.00000000e+00:6   9.97503485e-01/-4.99027278e-02:7   9.97503485e-01/0.00000000e+00:8
-4.99027278e-02/0.00000000e+00:9   9.98750963e-01/0.00000000e+00:10   -4.99859493e-02/0.00000000e+00:11   -1.08557826e-02/0.00000000e+00:12
#C 6.30957344e+03 12
6.24738131e-03/7.87930932e-02:1   6.24738131e-03/0.00000000e+00:2   7.87930932e-02/0.00000000e+00:3   7.90403777e-02/0.00000000e+00:4
1.49167342e+00/0.00000000e+00:5   -2.20430199e+01/0.00000000e+00:6   9.93752619e-01/-7.87930932e-02:7   9.93752619e-01/0.00000000e+00:8
-7.87930932e-02/0.00000000e+00:9   9.96871415e-01/0.00000000e+00:10   -7.91229092e-02/0.00000000e+00:11   -2.72171390e-02/0.00000000e+00:12
#C 1.00000000e+04 12
1.55458764e-02/1.23710154e-01:1   1.55458764e-02/0.00000000e+00:2   1.23710154e-01/0.00000000e+00:3   1.24683104e-01/0.00000000e+00:4
1.44578789e+00/0.00000000e+00:5   -1.80838479e+01/0.00000000e+00:6   9.84454124e-01/-1.23710154e-01:7   9.84454124e-01/0.00000000e+00:8
-1.23710154e-01/0.00000000e+00:9   9.92196615e-01/0.00000000e+00:10   -1.25008436e-01/0.00000000e+00:11   -6.80451755e-02/0.00000000e+00:12
#C 1.58489319e+04 12
3.81527491e-02/1.91564915e-01:1   3.81527491e-02/0.00000000e+00:2   1.91564915e-01/0.00000000e+00:3   1.95327287e-01/0.00000000e+00:4
1.37420517e+00/0.00000000e+00:5   -1.41847416e+01/0.00000000e+00:6   9.61847251e-01/-1.91564915e-01:7   9.61847251e-01/0.00000000e+00:8
-1.91564915e-01/0.00000000e+00:9   9.80738115e-01/0.00000000e+00:10   -1.96591154e-01/0.00000000e+00:11   -1.68938919e-01/0.00000000e+00:12
#C 2.51188643e+04 12
9.06088183e-02/2.87052017e-01:1   9.06088183e-02/0.00000000e+00:2   2.87052017e-01/0.00000000e+00:3   3.01012987e-01/0.00000000e+00:4
1.26504160e+00/0.00000000e+00:5   -1.04282953e+01/0.00000000e+00:6   9.09391182e-01/-2.87052017e-01:7   9.09391182e-01/0.00000000e+00:8
-2.87052017e-01/0.00000000e+00:9   9.53620041e-01/0.00000000e+00:10   -3.05754730e-01/0.00000000e+00:11   -4.12492614e-01/0.00000000e+00:12
#C 3.98107171e+04 12
2.00176794e-01/4.00132534e-01:1   2.00176794e-01/0.00000000e+00:2   4.00132534e-01/0.00000000e+00:3   4.47411213e-01/0.00000000e+00:4
1.10692776e+00/0.00000000e+00:5   -6.98586271e+00/0.00000000e+00:6   7.99823206e-01/-4.00132534e-01:7   7.99823206e-01/0.00000000e+00:8
-4.00132534e-01/0.00000000e+00:9   8.94328355e-01/0.00000000e+00:10   -4.63868565e-01/0.00000000e+00:11   -9.70059993e-01/0.00000000e+00:12
#C 6.30957344e+04 12
3.86000434e-01/4.86830668e-01:1   3.86000434e-01/0.00000000e+00:2   4.86830668e-01/0.00000000e+00:3   6.21289332e-01/0.00000000e+00:4
9.00409260e-01/0.00000000e+00:5   -4.13412207e+00/0.00000000e+00:6   6.13999566e-01/-4.86830668e-01:7   6.13999566e-01/0.00000000e+00:8
-4.86830668e-01/0.00000000e+00:9   7.83581244e-01/0.00000000e+00:10   -6.70387066e-01/0.00000000e+00:11   -2.11831936e+00/0.00000000e+00:12
#C 1.00000000e+05 12
6.12273363e-01/4.87231661e-01:1   6.12273363e-01/0.00000000e+00:2   4.87231661e-01/0.00000000e+00:3   7.82478986e-01/0.00000000e+00:4
6.72159234e-01/0.00000000e+00:5   -2.13054634e+00/0.00000000e+00:6   3.87726637e-01/-4.87231661e-01:7   3.87726637e-01/0.00000000e+00:8
-4.87231661e-01/0.00000000e+00:9   6.22676992e-01/0.00000000e+00:10   -8.98637093e-01/0.00000000e+00:11   -4.11474362e+00/0.00000000e+00:12
#C 1.58489319e+05 12
7.98655504e-01/4.01004850e-01:1   7.98655504e-01/0.00000000e+00:2   4.01004850e-01/0.00000000e+00:3   8.93675279e-01/0.00000000e+00:4
4.65326119e-01/0.00000000e+00:5   -9.76405108e-01/0.00000000e+00:6   2.01344496e-01/-4.01004850e-01:7   2.01344496e-01/0.00000000e+00:8
-4.01004850e-01/0.00000000e+00:9   4.48714269e-01/0.00000000e+00:10   -1.10547021e+00/0.00000000e+00:11   -6.96060239e+00/0.00000000e+00:12
#C 2.51188643e+05 12
9.08789741e-01/2.87907880e-01:1   9.08789741e-01/0.00000000e+00:2   2.87907880e-01/0.00000000e+00:3   9.53304642e-01/0.00000000e+00:4
3.06800786e-01/0.00000000e+00:5   -4.15365841e-01/0.00000000e+00:6   9.12102588e-02/-2.87907880e-01:7   9.12102588e-02/0.00000000e+00:8
-2.87907880e-01/0.00000000e+00:9   3.02010362e-01/0.00000000e+00:10   -1.26399554e+00/0.00000000e+00:11   -1.03995631e+01/0.00000000e+00:12
#C 3.98107171e+05 12
9.61579291e-01/1.92209672e-01:1   9.61579291e-01/0.00000000e+00:2   1.92209672e-01/0.00000000e+00:3   9.80601495e-01/0.00000000e+00:4
1.97289376e-01/0.00000000e+00:5   -1.70148983e-01/0.00000000e+00:6   3.84207089e-02/-1.92209672e-01:7   3.84207089e-02/0.00000000e+00:8
-1.92209672e-01/0.00000000e+00:9   1.96012012e-01/0.00000000e+00:10   -1.37350695e+00/0.00000000e+00:11   -1.41543463e+01/0.00000000e+00:12
#C 6.30957344e+05 12
9.84342355e-01/1.24147023e-01:1   9.84342355e-01/0.00000000e+00:2   1.24147023e-01/0.00000000e+00:3   9.92140290e-01/0.00000000e+00:4
1.25459376e-01/0.00000000e+00:5   -6.85382739e-02/0.00000000e+00:6   1.56576451e-02/-1.24147023e-01:7   1.56576451e-02/0.00000000e+00:8
-1.24147023e-01/0.00000000e+00:9   1.25130512e-01/0.00000000e+00:10   -1.44533695e+00/0.00000000e+00:11   -1.80527356e+01/0.00000000e+00:12
#C 1.00000000e+06 12
9.93707275e-01/7.90767124e-02:1   9.93707275e-01/0.00000000e+00:2   7.90767124e-02/0.00000000e+00:3   9.96848672e-01/0.00000000e+00:4
7.94101302e-02/0.00000000e+00:5   -2.74153059e-02/0.00000000e+00:6   6.29272483e-03/-7.90767124e-02:7   6.29272483e-03/0.00000000e+00:8
-7.90767124e-02/0.00000000e+00:9   7.93266968e-02/0.00000000e+00:10   -1.49138620e+00/0.00000000e+00:11   -2.20116126e+01/0.00000000e+00:12
#;
