#H
SOURCE='Xyce' VERSION='7.0'
TITLE='* ac-step-probe.cir'
SUBTITLE='Step param R1 = 5.0e-01 L1 = 1.0e-04'
TIME='01:52:58 PM' DATE='Feb 07, 2018' TEMPERATURE='2.70000000e+01'
ANALYSIS='AC Sweep' SERIALNO='12345'
ALLVALUES='NO' COMPLEXVALUES='YES' NODES='2'
SWEEPVAR='FREQ' SWEEPMODE='VAR_STEP'
XBEGIN='1.00000000e+02' XEND='1.00000000e+06'
FORMAT='0 VOLTSorAMPS;EFLOAT : NODEorBRANCH;NODE  '  
DGTLDATA='NO'
#N
'I(V1)' 'VM(B)' 
#C 1.00000000e+02 2
-1.96906130e+00/2.46820966e-01:1   9.92235178e-01/0.00000000e+00:2   
#C 1.58489319e+02 2
-1.92406152e+00/3.82245016e-01:1   9.80831669e-01/0.00000000e+00:2   
#C 2.51188643e+02 2
-1.81960662e+00/5.72928661e-01:1   9.53836103e-01/0.00000000e+00:2   
#C 3.98107171e+02 2
-1.60124858e+00/7.99065179e-01:1   8.94776110e-01/0.00000000e+00:2   
#C 6.30957344e+02 2
-1.23037189e+00/9.73107631e-01:1   7.84337901e-01/0.00000000e+00:2   
#C 1.00000000e+03 2
-7.77829795e-01/9.75015771e-01:1   6.23630418e-01/0.00000000e+00:2   
#C 1.58489319e+03 2
-4.04295450e-01/8.03216120e-01:1   4.49608413e-01/0.00000000e+00:2   
#C 2.51188643e+03 2
-1.83242793e-01/5.77001289e-01:1   3.02690265e-01/0.00000000e+00:2   
#C 3.98107171e+03 2
-7.72009801e-02/3.85313017e-01:1   1.96470074e-01/0.00000000e+00:2   
#C 6.30957344e+03 2
-3.14579503e-02/2.48899616e-01:1   1.25415211e-01/0.00000000e+00:2   
#C 1.00000000e+04 2
-1.26358387e-02/1.58546382e-01:1   7.94853404e-02/0.00000000e+00:2   
#C 1.58489319e+04 2
-5.04208533e-03/1.00417867e-01:1   5.02099857e-02/0.00000000e+00:2   
#C 2.51188643e+04 2
-2.00282249e-03/6.34553231e-02:1   3.16450825e-02/0.00000000e+00:2   
#C 3.98107171e+04 2
-7.90389468e-04/4.00609684e-02:1   1.98795054e-02/0.00000000e+00:2   
#C 6.30957344e+04 2
-3.07539202e-04/2.52814406e-02:1   1.24003871e-02/0.00000000e+00:2   
#C 1.00000000e+05 2
-1.15794646e-04/1.59509508e-02:1   7.60902906e-03/0.00000000e+00:2   
#C 1.58489319e+05 2
-4.05658555e-05/1.00619924e-02:1   4.50365715e-03/0.00000000e+00:2   
#C 2.51188643e+05 2
-1.24079933e-05/6.34582465e-03:1   2.49078234e-03/0.00000000e+00:2   
#C 3.98107171e+05 2
-3.12248816e-06/4.00169045e-03:1   1.24949753e-03/0.00000000e+00:2   
#C 6.30957344e+05 2
-6.46067577e-07/2.52371569e-03:1   5.68360615e-04/0.00000000e+00:2   
#C 1.00000000e+06 2
-1.16572558e-07/1.59191556e-03:1   2.41425514e-04/0.00000000e+00:2   
#;
#H
SOURCE='Xyce' VERSION='7.0'
TITLE='* ac-step-probe.cir'
SUBTITLE='Step param R1 = 2.0e+00 L1 = 1.0e-04'
TIME='01:52:58 PM' DATE='Feb 07, 2018' TEMPERATURE='2.70000000e+01'
ANALYSIS='AC Sweep' SERIALNO='12345'
ALLVALUES='NO' COMPLEXVALUES='YES' NODES='2'
SWEEPVAR='FREQ' SWEEPMODE='VAR_STEP'
XBEGIN='1.00000000e+02' XEND='1.00000000e+06'
FORMAT='0 VOLTSorAMPS;EFLOAT : NODEorBRANCH;NODE  '  
DGTLDATA='NO'
#N
'I(V1)' 'VM(B)' 
#C 1.00000000e+02 2
-4.99546409e-01/1.50659895e-02:1   9.99546306e-01/0.00000000e+00:2   
#C 1.58489319e+02 2
-4.98862189e-01/2.38453383e-02:1   9.98861541e-01/0.00000000e+00:2   
#C 2.51188643e+02 2
-4.97151730e-01/3.76629703e-02:1   9.97147662e-01/0.00000000e+00:2   
#C 3.98107171e+02 2
-4.92906446e-01/5.91829931e-02:1   9.92881107e-01/0.00000000e+00:2   
#C 6.30957344e+02 2
-4.82555268e-01/9.18325419e-02:1   9.82400395e-01/0.00000000e+00:2   
#C 1.00000000e+03 2
-4.58372470e-01/1.38264620e-01:1   9.57467984e-01/0.00000000e+00:2   
#C 1.58489319e+03 2
-4.07106937e-01/1.94674477e-01:1   9.02338004e-01/0.00000000e+00:2   
#C 2.51188643e+03 2
-3.17756484e-01/2.40971700e-01:1   7.97190673e-01/0.00000000e+00:2   
#C 3.98107171e+03 2
-2.04666090e-01/2.46375632e-01:1   6.39790732e-01/0.00000000e+00:2   
#C 6.30957344e+03 2
-1.07769566e-01/2.06420103e-01:1   4.64261922e-01/0.00000000e+00:2   
#C 1.00000000e+04 2
-4.88477280e-02/1.49744615e-01:1   3.12562723e-01/0.00000000e+00:2   
#C 1.58489319e+04 2
-2.01682882e-02/1.00386170e-01:1   2.00839678e-01/0.00000000e+00:2   
#C 2.51188643e+04 2
-7.75243852e-03/6.48254040e-02:1   1.24518581e-01/0.00000000e+00:2   
#C 3.98107171e+04 2
-2.71653847e-03/4.11197307e-02:1   7.37094088e-02/0.00000000e+00:2   
#C 6.30957344e+04 2
-8.20350528e-04/2.58334161e-02:1   4.05055682e-02/0.00000000e+00:2   
#C 1.00000000e+05 2
-2.02630216e-04/1.61636770e-02:1   2.01310813e-02/0.00000000e+00:2   
#C 1.58489319e+05 2
-4.12692474e-05/1.01233625e-02:1   9.08506988e-03/0.00000000e+00:2   
#C 2.51188643e+05 2
-7.37714171e-06/6.35926509e-03:1   3.84113049e-03/0.00000000e+00:2   
#C 3.98107171e+05 2
-1.23188875e-06/4.00394442e-03:1   1.56964248e-03/0.00000000e+00:2   
#C 6.30957344e+05 2
-1.99499069e-07/2.52401665e-03:1   6.31662994e-04/0.00000000e+00:2   
#C 1.00000000e+06 2
-3.18953711e-08/1.59195014e-03:1   2.52568292e-04/0.00000000e+00:2   
#;
#H
SOURCE='Xyce' VERSION='7.0'
TITLE='* ac-step-probe.cir'
SUBTITLE='Step param R1 = 5.0e-01 L1 = 1.0e-03'
TIME='01:52:58 PM' DATE='Feb 07, 2018' TEMPERATURE='2.70000000e+01'
ANALYSIS='AC Sweep' SERIALNO='12345'
ALLVALUES='NO' COMPLEXVALUES='YES' NODES='2'
SWEEPVAR='FREQ' SWEEPMODE='VAR_STEP'
XBEGIN='1.00000000e+02' XEND='1.00000000e+06'
FORMAT='0 VOLTSorAMPS;EFLOAT : NODEorBRANCH;NODE  '  
DGTLDATA='NO'
#N
'I(V1)' 'VM(B)' 
#C 1.00000000e+02 2
-7.75690694e-01/9.74518080e-01:1   6.22772308e-01/0.00000000e+00:2   
#C 1.58489319e+02 2
-4.02849780e-01/8.02129550e-01:1   4.48803844e-01/0.00000000e+00:2   
#C 2.51188643e+02 2
-1.82503343e-01/5.75933540e-01:1   3.02078916e-01/0.00000000e+00:2   
#C 3.98107171e+02 2
-7.68782644e-02/3.84508130e-01:1   1.96059002e-01/0.00000000e+00:2   
#C 6.30957344e+02 2
-3.13305890e-02/2.48354220e-01:1   1.25161074e-01/0.00000000e+00:2   
#C 1.00000000e+03 2
-1.25915823e-02/1.58192494e-01:1   7.93460218e-02/0.00000000e+00:2   
#C 1.58489319e+03 2
-5.03179200e-03/1.00192388e-01:1   5.01587081e-02/0.00000000e+00:2   
#C 2.51188643e+03 2
-2.00615536e-03/6.33129996e-02:1   3.16714016e-02/0.00000000e+00:2   
#C 3.98107171e+03 2
-7.99072079e-04/3.99719355e-02:1   1.99883976e-02/0.00000000e+00:2   
#C 6.30957344e+03 2
-3.18117596e-04/2.52266522e-02:1   1.26118515e-02/0.00000000e+00:2   
#C 1.00000000e+04 2
-1.26581823e-04/1.59184637e-02:1   7.95555854e-03/0.00000000e+00:2   
#C 1.58489319e+04 2
-5.03200036e-05/1.00442508e-02:1   5.01597466e-03/0.00000000e+00:2   
#C 2.51188643e+04 2
-1.99583987e-05/6.33758416e-03:1   3.15898708e-03/0.00000000e+00:2   
#C 3.98107171e+04 2
-7.87193767e-06/3.99876022e-03:1   1.98392763e-03/0.00000000e+00:2   
#C 6.30957344e+04 2
-3.06253579e-06/2.52303906e-03:1   1.23744410e-03/0.00000000e+00:2   
#C 1.00000000e+05 2
-1.15326774e-06/1.59191082e-03:1   7.59364121e-04/0.00000000e+00:2   
#C 1.58489319e+05 2
-4.04203273e-07/1.00440086e-03:1   4.49557156e-04/0.00000000e+00:2   
#C 2.51188643e+05 2
-1.23736500e-07/6.33704846e-04:1   2.48733291e-04/0.00000000e+00:2   
#C 3.98107171e+05 2
-3.11701221e-08/3.99818120e-04:1   1.24840142e-04/0.00000000e+00:2   
#C 6.30957344e+05 2
-6.45477906e-09/2.52256380e-04:1   5.68101182e-05/0.00000000e+00:2   
#C 1.00000000e+06 2
-1.16524301e-09/1.59158604e-04:1   2.41375539e-05/0.00000000e+00:2   
#;
#H
SOURCE='Xyce' VERSION='7.0'
TITLE='* ac-step-probe.cir'
SUBTITLE='Step param R1 = 2.0e+00 L1 = 1.0e-03'
TIME='01:52:58 PM' DATE='Feb 07, 2018' TEMPERATURE='2.70000000e+01'
ANALYSIS='AC Sweep' SERIALNO='12345'
ALLVALUES='NO' COMPLEXVALUES='YES' NODES='2'
SWEEPVAR='FREQ' SWEEPMODE='VAR_STEP'
XBEGIN='1.00000000e+02' XEND='1.00000000e+06'
FORMAT='0 VOLTSorAMPS;EFLOAT : NODEorBRANCH;NODE  '  
DGTLDATA='NO'
#N
'I(V1)' 'VM(B)' 
#C 1.00000000e+02 2
-4.55412132e-01/1.42499879e-01:1   9.54371136e-01/0.00000000e+00:2   
#C 1.58489319e+02 2
-4.01306355e-01/1.99015535e-01:1   8.95886549e-01/0.00000000e+00:2   
#C 2.51188643e+02 2
-3.09070419e-01/2.42924320e-01:1   7.86219332e-01/0.00000000e+00:2   
#C 3.98107171e+02 2
-1.95943790e-01/2.44090922e-01:1   6.26009249e-01/0.00000000e+00:2   
#C 6.30957344e+02 2
-1.02083024e-01/2.01553410e-01:1   4.51847373e-01/0.00000000e+00:2   
#C 1.00000000e+03 2
-4.63297304e-02/1.44989928e-01:1   3.04400166e-01/0.00000000e+00:2   
#C 1.58489319e+03 2
-1.95290922e-02/9.68867065e-02:1   1.97631436e-01/0.00000000e+00:2   
#C 2.51188643e+03 2
-7.95711349e-03/6.26035558e-02:1   1.26151603e-01/0.00000000e+00:2   
#C 3.98107171e+03 2
-3.19360674e-03/3.98823353e-02:1   7.99200443e-02/0.00000000e+00:2   
#C 6.30957344e+03 2
-1.27147901e-03/2.52610277e-02:1   5.04277504e-02/0.00000000e+00:2   
#C 1.00000000e+04 2
-5.02184396e-04/1.59626156e-02:1   3.16917780e-02/0.00000000e+00:2   
#C 1.58489319e+04 2
-1.95416540e-04/1.00769931e-02:1   1.97694987e-02/0.00000000e+00:2   
#C 2.51188643e+04 2
-7.35407769e-05/6.35835385e-03:1   1.21277184e-02/0.00000000e+00:2   
#C 3.98107171e+04 2
-2.57294030e-05/4.01045751e-03:1   7.17347935e-03/0.00000000e+00:2   
#C 6.30957344e+04 2
-7.85181418e-06/2.52862183e-03:1   3.96278038e-03/0.00000000e+00:2   
#C 1.00000000e+05 2
-1.97035001e-06/1.59401917e-03:1   1.98511965e-03/0.00000000e+00:2   
#C 1.58489319e+05 2
-4.06733340e-07/1.00500905e-03:1   9.01923877e-04/0.00000000e+00:2   
#C 2.51188643e+05 2
-7.32876668e-08/6.33838483e-04:1   3.82851582e-04/0.00000000e+00:2   
#C 3.98107171e+05 2
-1.22848294e-08/3.99840590e-04:1   1.56747117e-04/0.00000000e+00:2   
#C 6.30957344e+05 2
-1.99274214e-09/2.52259385e-04:1   6.31306921e-05/0.00000000e+00:2   
#C 1.00000000e+06 2
-3.18809213e-10/1.59158949e-04:1   2.52511074e-05/0.00000000e+00:2   
#;
