Title: AC test of -r output ASCII format with .OP
Date: Wed Jul 10 09:06:34 2013
Plotname: DC operating point
Flags: real
No. Variables: 3
No. Points: 1                 
Variables:
	0	frequency	frequency
	1	V(1)	voltage
	2	V1#branch	current
Values:
0	0.00000000e+00
	0.00000000e+00
	0.00000000e+00

Plotname: AC Analysis
Flags: complex
No. Variables: 3
No. Points: 71                
Variables:
	0	frequency	frequency
	1	V(1)	voltage
	2	V1#branch	current
Values:
0	1.00000000e+02, 0.00000000e+00
	0.00000000e+00, 0.00000000e+00
	0.00000000e+00, 0.00000000e+00

1	1.25892541e+02, 0.00000000e+00
	0.00000000e+00, 0.00000000e+00
	0.00000000e+00, 0.00000000e+00

2	1.58489319e+02, 0.00000000e+00
	0.00000000e+00, 0.00000000e+00
	0.00000000e+00, 0.00000000e+00

3	1.99526231e+02, 0.00000000e+00
	0.00000000e+00, 0.00000000e+00
	0.00000000e+00, 0.00000000e+00

4	2.51188643e+02, 0.00000000e+00
	0.00000000e+00, 0.00000000e+00
	0.00000000e+00, 0.00000000e+00

5	3.16227766e+02, 0.00000000e+00
	0.00000000e+00, 0.00000000e+00
	0.00000000e+00, 0.00000000e+00

6	3.98107171e+02, 0.00000000e+00
	0.00000000e+00, 0.00000000e+00
	0.00000000e+00, 0.00000000e+00

7	5.01187234e+02, 0.00000000e+00
	0.00000000e+00, 0.00000000e+00
	0.00000000e+00, 0.00000000e+00

8	6.30957344e+02, 0.00000000e+00
	0.00000000e+00, 0.00000000e+00
	0.00000000e+00, 0.00000000e+00

9	7.94328235e+02, 0.00000000e+00
	0.00000000e+00, 0.00000000e+00
	0.00000000e+00, 0.00000000e+00

10	1.00000000e+03, 0.00000000e+00
	0.00000000e+00, 0.00000000e+00
	0.00000000e+00, 0.00000000e+00

11	1.25892541e+03, 0.00000000e+00
	0.00000000e+00, 0.00000000e+00
	0.00000000e+00, 0.00000000e+00

12	1.58489319e+03, 0.00000000e+00
	0.00000000e+00, 0.00000000e+00
	0.00000000e+00, 0.00000000e+00

13	1.99526231e+03, 0.00000000e+00
	0.00000000e+00, 0.00000000e+00
	0.00000000e+00, 0.00000000e+00

14	2.51188643e+03, 0.00000000e+00
	0.00000000e+00, 0.00000000e+00
	0.00000000e+00, 0.00000000e+00

15	3.16227766e+03, 0.00000000e+00
	0.00000000e+00, 0.00000000e+00
	0.00000000e+00, 0.00000000e+00

16	3.98107171e+03, 0.00000000e+00
	0.00000000e+00, 0.00000000e+00
	0.00000000e+00, 0.00000000e+00

17	5.01187234e+03, 0.00000000e+00
	0.00000000e+00, 0.00000000e+00
	0.00000000e+00, 0.00000000e+00

18	6.30957344e+03, 0.00000000e+00
	0.00000000e+00, 0.00000000e+00
	0.00000000e+00, 0.00000000e+00

19	7.94328235e+03, 0.00000000e+00
	0.00000000e+00, 0.00000000e+00
	0.00000000e+00, 0.00000000e+00

20	1.00000000e+04, 0.00000000e+00
	0.00000000e+00, 0.00000000e+00
	0.00000000e+00, 0.00000000e+00

21	1.25892541e+04, 0.00000000e+00
	0.00000000e+00, 0.00000000e+00
	0.00000000e+00, 0.00000000e+00

22	1.58489319e+04, 0.00000000e+00
	0.00000000e+00, 0.00000000e+00
	0.00000000e+00, 0.00000000e+00

23	1.99526231e+04, 0.00000000e+00
	0.00000000e+00, 0.00000000e+00
	0.00000000e+00, 0.00000000e+00

24	2.51188643e+04, 0.00000000e+00
	0.00000000e+00, 0.00000000e+00
	0.00000000e+00, 0.00000000e+00

25	3.16227766e+04, 0.00000000e+00
	0.00000000e+00, 0.00000000e+00
	0.00000000e+00, 0.00000000e+00

26	3.98107171e+04, 0.00000000e+00
	0.00000000e+00, 0.00000000e+00
	0.00000000e+00, 0.00000000e+00

27	5.01187234e+04, 0.00000000e+00
	0.00000000e+00, 0.00000000e+00
	0.00000000e+00, 0.00000000e+00

28	6.30957344e+04, 0.00000000e+00
	0.00000000e+00, 0.00000000e+00
	0.00000000e+00, 0.00000000e+00

29	7.94328235e+04, 0.00000000e+00
	0.00000000e+00, 0.00000000e+00
	0.00000000e+00, 0.00000000e+00

30	1.00000000e+05, 0.00000000e+00
	0.00000000e+00, 0.00000000e+00
	0.00000000e+00, 0.00000000e+00

31	1.25892541e+05, 0.00000000e+00
	0.00000000e+00, 0.00000000e+00
	0.00000000e+00, 0.00000000e+00

32	1.58489319e+05, 0.00000000e+00
	0.00000000e+00, 0.00000000e+00
	0.00000000e+00, 0.00000000e+00

33	1.99526231e+05, 0.00000000e+00
	0.00000000e+00, 0.00000000e+00
	0.00000000e+00, 0.00000000e+00

34	2.51188643e+05, 0.00000000e+00
	0.00000000e+00, 0.00000000e+00
	0.00000000e+00, 0.00000000e+00

35	3.16227766e+05, 0.00000000e+00
	0.00000000e+00, 0.00000000e+00
	0.00000000e+00, 0.00000000e+00

36	3.98107171e+05, 0.00000000e+00
	0.00000000e+00, 0.00000000e+00
	0.00000000e+00, 0.00000000e+00

37	5.01187234e+05, 0.00000000e+00
	0.00000000e+00, 0.00000000e+00
	0.00000000e+00, 0.00000000e+00

38	6.30957344e+05, 0.00000000e+00
	0.00000000e+00, 0.00000000e+00
	0.00000000e+00, 0.00000000e+00

39	7.94328235e+05, 0.00000000e+00
	0.00000000e+00, 0.00000000e+00
	0.00000000e+00, 0.00000000e+00

40	1.00000000e+06, 0.00000000e+00
	0.00000000e+00, 0.00000000e+00
	0.00000000e+00, 0.00000000e+00

41	1.25892541e+06, 0.00000000e+00
	0.00000000e+00, 0.00000000e+00
	0.00000000e+00, 0.00000000e+00

42	1.58489319e+06, 0.00000000e+00
	0.00000000e+00, 0.00000000e+00
	0.00000000e+00, 0.00000000e+00

43	1.99526231e+06, 0.00000000e+00
	0.00000000e+00, 0.00000000e+00
	0.00000000e+00, 0.00000000e+00

44	2.51188643e+06, 0.00000000e+00
	0.00000000e+00, 0.00000000e+00
	0.00000000e+00, 0.00000000e+00

45	3.16227766e+06, 0.00000000e+00
	0.00000000e+00, 0.00000000e+00
	0.00000000e+00, 0.00000000e+00

46	3.98107171e+06, 0.00000000e+00
	0.00000000e+00, 0.00000000e+00
	0.00000000e+00, 0.00000000e+00

47	5.01187234e+06, 0.00000000e+00
	0.00000000e+00, 0.00000000e+00
	0.00000000e+00, 0.00000000e+00

48	6.30957344e+06, 0.00000000e+00
	0.00000000e+00, 0.00000000e+00
	0.00000000e+00, 0.00000000e+00

49	7.94328235e+06, 0.00000000e+00
	0.00000000e+00, 0.00000000e+00
	0.00000000e+00, 0.00000000e+00

50	1.00000000e+07, 0.00000000e+00
	0.00000000e+00, 0.00000000e+00
	0.00000000e+00, 0.00000000e+00

51	1.25892541e+07, 0.00000000e+00
	0.00000000e+00, 0.00000000e+00
	0.00000000e+00, 0.00000000e+00

52	1.58489319e+07, 0.00000000e+00
	0.00000000e+00, 0.00000000e+00
	0.00000000e+00, 0.00000000e+00

53	1.99526231e+07, 0.00000000e+00
	0.00000000e+00, 0.00000000e+00
	0.00000000e+00, 0.00000000e+00

54	2.51188643e+07, 0.00000000e+00
	0.00000000e+00, 0.00000000e+00
	0.00000000e+00, 0.00000000e+00

55	3.16227766e+07, 0.00000000e+00
	0.00000000e+00, 0.00000000e+00
	0.00000000e+00, 0.00000000e+00

56	3.98107171e+07, 0.00000000e+00
	0.00000000e+00, 0.00000000e+00
	0.00000000e+00, 0.00000000e+00

57	5.01187234e+07, 0.00000000e+00
	0.00000000e+00, 0.00000000e+00
	0.00000000e+00, 0.00000000e+00

58	6.30957344e+07, 0.00000000e+00
	0.00000000e+00, 0.00000000e+00
	0.00000000e+00, 0.00000000e+00

59	7.94328235e+07, 0.00000000e+00
	0.00000000e+00, 0.00000000e+00
	0.00000000e+00, 0.00000000e+00

60	1.00000000e+08, 0.00000000e+00
	0.00000000e+00, 0.00000000e+00
	0.00000000e+00, 0.00000000e+00

61	1.25892541e+08, 0.00000000e+00
	0.00000000e+00, 0.00000000e+00
	0.00000000e+00, 0.00000000e+00

62	1.58489319e+08, 0.00000000e+00
	0.00000000e+00, 0.00000000e+00
	0.00000000e+00, 0.00000000e+00

63	1.99526231e+08, 0.00000000e+00
	0.00000000e+00, 0.00000000e+00
	0.00000000e+00, 0.00000000e+00

64	2.51188643e+08, 0.00000000e+00
	0.00000000e+00, 0.00000000e+00
	0.00000000e+00, 0.00000000e+00

65	3.16227766e+08, 0.00000000e+00
	0.00000000e+00, 0.00000000e+00
	0.00000000e+00, 0.00000000e+00

66	3.98107171e+08, 0.00000000e+00
	0.00000000e+00, 0.00000000e+00
	0.00000000e+00, 0.00000000e+00

67	5.01187234e+08, 0.00000000e+00
	0.00000000e+00, 0.00000000e+00
	0.00000000e+00, 0.00000000e+00

68	6.30957344e+08, 0.00000000e+00
	0.00000000e+00, 0.00000000e+00
	0.00000000e+00, 0.00000000e+00

69	7.94328235e+08, 0.00000000e+00
	0.00000000e+00, 0.00000000e+00
	0.00000000e+00, 0.00000000e+00

70	1.00000000e+09, 0.00000000e+00
	0.00000000e+00, 0.00000000e+00
	0.00000000e+00, 0.00000000e+00

