#H
SOURCE='Xyce' VERSION='7.0'
TITLE='* op-step-probe.cir'
SUBTITLE='Step param R1 = 1.0e+00'
TIME='02:53:29 PM' DATE='Mar 19, 2019' TEMPERATURE='2.70000000e+01'
ANALYSIS='AC Sweep' SERIALNO='12345'
ALLVALUES='NO' COMPLEXVALUES='YES' NODES='2'
SWEEPVAR='FREQ' SWEEPMODE='VAR_STEP'
XBEGIN='1.00000000e+02' XEND='1.00000000e+06'
FORMAT='0 VOLTSorAMPS;EFLOAT : NODEorBRANCH;NODE  '  
DGTLDATA='NO'
#N
'V(A)' 'V(B)' 
#C 1.00000000e+02 2
1.00000000e+00/0.00000000e+00:1   3.94784020e-07/6.28318283e-04:2   
#C 1.58489319e+02 2
1.00000000e+00/0.00000000e+00:1   9.91652032e-07/9.95816775e-04:2   
#C 2.51188643e+02 2
1.00000000e+00/0.00000000e+00:1   2.49091355e-06/1.57826086e-03:2   
#C 3.98107171e+02 2
1.00000000e+00/0.00000000e+00:1   6.25686838e-06/2.50136547e-03:2   
#C 6.30957344e+02 2
1.00000000e+00/0.00000000e+00:1   1.57163941e-05/3.96435961e-03:2   
#C 1.00000000e+03 2
1.00000000e+00/0.00000000e+00:1   3.94768591e-05/6.28293727e-03:2   
#C 1.58489319e+03 2
1.00000000e+00/0.00000000e+00:1   9.91554687e-05/9.95719021e-03:2   
#C 2.51188643e+03 2
1.00000000e+00/0.00000000e+00:1   2.49029944e-04/1.57787176e-02:2   
#C 3.98107171e+03 2
1.00000000e+00/0.00000000e+00:1   6.25299509e-04/2.49981701e-02:2   
#C 6.30957344e+03 2
1.00000000e+00/0.00000000e+00:1   1.56919786e-03/3.95820095e-02:2   
#C 1.00000000e+04 2
1.00000000e+00/0.00000000e+00:1   3.93231759e-03/6.25847783e-02:2   
#C 1.58489319e+04 2
1.00000000e+00/0.00000000e+00:1   9.81915817e-03/9.86039670e-02:2   
#C 2.51188643e+04 2
1.00000000e+00/0.00000000e+00:1   2.43038092e-02/1.53990695e-01:2   
#C 3.98107171e+04 2
1.00000000e+00/0.00000000e+00:1   5.88847133e-02/2.35408801e-01:2   
#C 6.30957344e+04 2
1.00000000e+00/0.00000000e+00:1   1.35820060e-01/3.42597389e-01:2   
#C 1.00000000e+05 2
1.00000000e+00/0.00000000e+00:1   2.83043200e-01/4.50477243e-01:2   
#C 1.58489319e+05 2
1.00000000e+00/0.00000000e+00:1   4.97904508e-01/4.99995609e-01:2   
#C 2.51188643e+05 2
1.00000000e+00/0.00000000e+00:1   7.13542542e-01/4.52105721e-01:2   
#C 3.98107171e+05 2
1.00000000e+00/0.00000000e+00:1   8.62200256e-01/3.44689679e-01:2   
#C 6.30957344e+05 2
1.00000000e+00/0.00000000e+00:1   9.40179370e-01/2.37154216e-01:2   
#C 1.00000000e+06 2
1.00000000e+00/0.00000000e+00:1   9.75295477e-01/1.55223096e-01:2   
#;
#H
SOURCE='Xyce' VERSION='7.0'
TITLE='* op-step-probe.cir'
SUBTITLE='Step param R1 = 2.0e+00'
TIME='02:53:29 PM' DATE='Mar 19, 2019' TEMPERATURE='2.70000000e+01'
ANALYSIS='AC Sweep' SERIALNO='12345'
ALLVALUES='NO' COMPLEXVALUES='YES' NODES='2'
SWEEPVAR='FREQ' SWEEPMODE='VAR_STEP'
XBEGIN='1.00000000e+02' XEND='1.00000000e+06'
FORMAT='0 VOLTSorAMPS;EFLOAT : NODEorBRANCH;NODE  '  
DGTLDATA='NO'
#N
'V(A)' 'V(B)' 
#C 1.00000000e+02 2
1.00000000e+00/0.00000000e+00:1   1.57913421e-06/1.25663508e-03:2   
#C 1.58489319e+02 2
1.00000000e+00/0.00000000e+00:1   3.96659633e-06/1.99162762e-03:2   
#C 2.51188643e+02 2
1.00000000e+00/0.00000000e+00:1   9.96357974e-06/3.15649813e-03:2   
#C 3.98107171e+02 2
1.00000000e+00/0.00000000e+00:1   2.50270038e-05/5.00263705e-03:2   
#C 6.30957344e+02 2
1.00000000e+00/0.00000000e+00:1   6.28626126e-05/7.92834540e-03:2   
#C 1.00000000e+03 2
1.00000000e+00/0.00000000e+00:1   1.57888738e-04/1.25643865e-02:2   
#C 1.58489319e+03 2
1.00000000e+00/0.00000000e+00:1   3.96503928e-04/1.99084583e-02:2   
#C 2.51188643e+03 2
1.00000000e+00/0.00000000e+00:1   9.95376141e-04/3.15338765e-02:2   
#C 3.98107171e+03 2
1.00000000e+00/0.00000000e+00:1   2.49651483e-03/4.99027278e-02:2   
#C 6.30957344e+03 2
1.00000000e+00/0.00000000e+00:1   6.24738131e-03/7.87930932e-02:2   
#C 1.00000000e+04 2
1.00000000e+00/0.00000000e+00:1   1.55458764e-02/1.23710154e-01:2   
#C 1.58489319e+04 2
1.00000000e+00/0.00000000e+00:1   3.81527491e-02/1.91564915e-01:2   
#C 2.51188643e+04 2
1.00000000e+00/0.00000000e+00:1   9.06088183e-02/2.87052017e-01:2   
#C 3.98107171e+04 2
1.00000000e+00/0.00000000e+00:1   2.00176794e-01/4.00132534e-01:2   
#C 6.30957344e+04 2
1.00000000e+00/0.00000000e+00:1   3.86000434e-01/4.86830668e-01:2   
#C 1.00000000e+05 2
1.00000000e+00/0.00000000e+00:1   6.12273363e-01/4.87231661e-01:2   
#C 1.58489319e+05 2
1.00000000e+00/0.00000000e+00:1   7.98655504e-01/4.01004850e-01:2   
#C 2.51188643e+05 2
1.00000000e+00/0.00000000e+00:1   9.08789741e-01/2.87907880e-01:2   
#C 3.98107171e+05 2
1.00000000e+00/0.00000000e+00:1   9.61579291e-01/1.92209672e-01:2   
#C 6.30957344e+05 2
1.00000000e+00/0.00000000e+00:1   9.84342355e-01/1.24147023e-01:2   
#C 1.00000000e+06 2
1.00000000e+00/0.00000000e+00:1   9.93707275e-01/7.90767124e-02:2   
#;
