Index       TIME              V(1)              V(2)              V(3)       
0        0.00000000e+00    5.00000000e+00    2.50000000e+00    0.00000000e+00
1        1.00000000e-10    5.00000000e+00    2.50000000e+00    0.00000000e+00
2        3.00000000e-10    5.00000000e+00    2.50000000e+00    0.00000000e+00
3        7.00000000e-10    5.00000000e+00    2.50000000e+00    0.00000000e+00
4        1.50000000e-09    5.00000000e+00    2.50000000e+00    0.00000000e+00
5        3.10000000e-09    5.00000000e+00    2.50000000e+00    0.00000000e+00
6        6.30000000e-09    5.00000000e+00    2.50000000e+00    0.00000000e+00
7        1.27000000e-08    5.00000000e+00    2.50000000e+00    0.00000000e+00
8        2.55000000e-08    5.00000000e+00    2.50000000e+00    0.00000000e+00
9        5.11000000e-08    5.00000000e+00    2.50000000e+00    0.00000000e+00
10       1.02300000e-07    5.00000000e+00    2.50000000e+00    0.00000000e+00
11       2.04700000e-07    5.00000000e+00    2.50000000e+00    0.00000000e+00
12       4.09500000e-07    5.00000000e+00    2.50000000e+00    0.00000000e+00
13       8.19100000e-07    5.00000000e+00    2.50000000e+00    0.00000000e+00
14       1.63830000e-06    5.00000000e+00    2.50000000e+00    0.00000000e+00
15       3.27670000e-06    5.00000000e+00    2.50000000e+00    0.00000000e+00
16       6.55350000e-06    5.00000000e+00    2.50000000e+00    0.00000000e+00
17       1.31071000e-05    5.00000000e+00    2.50000000e+00    0.00000000e+00
18       2.62143000e-05    5.00000000e+00    2.50000000e+00    0.00000000e+00
19       5.24287000e-05    5.00000000e+00    2.50000000e+00    0.00000000e+00
20       1.04857500e-04    5.00000000e+00    2.50000000e+00    0.00000000e+00
21       2.09715100e-04    5.00000000e+00    2.50000000e+00    0.00000000e+00
22       4.19430300e-04    5.00000000e+00    2.50000000e+00    0.00000000e+00
23       8.38860700e-04    5.00000000e+00    2.50000000e+00    0.00000000e+00
24       1.67772150e-03    5.00000000e+00    2.50000000e+00    0.00000000e+00
25       3.35544310e-03    5.00000000e+00    2.50000000e+00    0.00000000e+00
26       6.71088630e-03    5.00000000e+00    2.50000000e+00    0.00000000e+00
27       1.34217727e-02    5.00000000e+00    2.50000000e+00    0.00000000e+00
28       2.68435455e-02    5.00000000e+00    2.50000000e+00    0.00000000e+00
29       5.36870911e-02    5.00000000e+00    2.50000000e+00    0.00000000e+00
30       1.00000000e-01    5.00000000e+00    2.50000000e+00    0.00000000e+00
31       1.02450112e-01    5.00000000e+00    2.50000000e+00    2.45011215e-02
32       1.04540775e-01    5.00000000e+00    2.50000000e+00    4.54077543e-02
33       1.08722102e-01    5.00000000e+00    2.50000000e+00    8.72210201e-02
34       1.17084755e-01    5.00000000e+00    2.50000000e+00    1.70847552e-01
35       1.21266082e-01    5.00000000e+00    2.51326409e+00    2.12660817e-01
36       1.21987688e-01    5.00000000e+00    2.52291672e+00    2.19876879e-01
37       1.21998963e-01    5.00000000e+00    3.19445019e+00    2.19989630e-01
38       1.21999537e-01    5.00000000e+00    3.19448160e+00    2.19995373e-01
39       1.22000112e-01    5.00000000e+00    3.19451301e+00    2.20001116e-01
40       1.22000686e-01    5.00000000e+00    3.19454442e+00    2.20006859e-01
41       1.22001834e-01    5.00000000e+00    3.19460724e+00    2.20018344e-01
42       1.22004132e-01    5.00000000e+00    3.19473289e+00    2.20041316e-01
43       1.22008726e-01    5.00000000e+00    3.19498421e+00    2.20087259e-01
44       1.22017914e-01    5.00000000e+00    3.19548690e+00    2.20179145e-01
45       1.22036292e-01    5.00000000e+00    3.19649256e+00    2.20362917e-01
46       1.22073046e-01    5.00000000e+00    3.19850495e+00    2.20730460e-01
47       1.22146555e-01    5.00000000e+00    3.20253399e+00    2.21465548e-01
48       1.22293572e-01    5.00000000e+00    3.21060881e+00    2.22935723e-01
49       1.22587607e-01    5.00000000e+00    3.22682342e+00    2.25876073e-01
50       1.23175677e-01    5.00000000e+00    3.25949612e+00    2.31756773e-01
51       1.24351817e-01    5.00000000e+00    3.32568264e+00    2.43518174e-01
52       1.26704097e-01    5.00000000e+00    3.46033911e+00    2.67040975e-01
53       1.31408658e-01    5.00000000e+00    3.73012678e+00    3.14086576e-01
54       1.36113218e-01    5.00000000e+00    3.98527213e+00    3.61132178e-01
55       1.40817778e-01    5.00000000e+00    4.21149230e+00    4.08177780e-01
56       1.45522338e-01    5.00000000e+00    4.40088429e+00    4.55223382e-01
57       1.50226898e-01    5.00000000e+00    4.55188979e+00    5.02268983e-01
58       1.54931459e-01    5.00000000e+00    4.66762245e+00    5.49314585e-01
59       1.59636019e-01    5.00000000e+00    4.75366456e+00    5.96360187e-01
60       1.64340579e-01    5.00000000e+00    4.81622514e+00    6.43405789e-01
61       1.69045139e-01    5.00000000e+00    4.86100353e+00    6.90451390e-01
62       1.73749699e-01    5.00000000e+00    4.89268990e+00    7.37496992e-01
63       1.78454259e-01    5.00000000e+00    4.91487906e+00    7.84542594e-01
64       1.87863380e-01    5.00000000e+00    4.94043476e+00    8.78633797e-01
65       2.00000000e-01    5.00000000e+00    4.95049505e+00    1.00000000e+00
66       2.01881824e-01    5.00000000e+00    4.95049505e+00    1.00000000e+00
67       2.05645472e-01    5.00000000e+00    4.95049505e+00    1.00000000e+00
68       2.13172768e-01    5.00000000e+00    4.95049505e+00    1.00000000e+00
69       2.28227361e-01    5.00000000e+00    4.95049505e+00    1.00000000e+00
70       2.58336546e-01    5.00000000e+00    4.95049505e+00    1.00000000e+00
71       3.00000000e-01    5.00000000e+00    4.95049505e+00    1.00000000e+00
72       3.06021837e-01    5.00000000e+00    4.95049505e+00    9.93978163e-01
73       3.12043674e-01    5.00000000e+00    4.95049505e+00    9.87956326e-01
74       3.24087348e-01    5.00000000e+00    4.95049505e+00    9.75912652e-01
75       3.48174696e-01    5.00000000e+00    4.95049505e+00    9.51825304e-01
76       3.96349392e-01    5.00000000e+00    4.95049505e+00    9.03650608e-01
77       4.00000000e-01    5.00000000e+00    4.95049505e+00    9.00000000e-01
78       4.03650608e-01    5.00000000e+00    4.95049505e+00    9.00000000e-01
79       4.10951823e-01    5.00000000e+00    4.95049505e+00    9.00000000e-01
80       4.25554254e-01    5.00000000e+00    4.95049505e+00    9.00000000e-01
81       4.54759115e-01    5.00000000e+00    4.95049505e+00    9.00000000e-01
82       5.00000000e-01    5.00000000e+00    4.95049505e+00    9.00000000e-01
83       5.05840972e-01    5.00000000e+00    4.95049505e+00    9.05840972e-01
84       5.11681945e-01    5.00000000e+00    4.95049505e+00    9.11681945e-01
85       5.23363889e-01    5.00000000e+00    4.95049505e+00    9.23363889e-01
86       5.46727778e-01    5.00000000e+00    4.95049505e+00    9.46727778e-01
87       5.93455556e-01    5.00000000e+00    4.95049505e+00    9.93455556e-01
88       6.00000000e-01    5.00000000e+00    4.95049505e+00    1.00000000e+00
89       6.06544444e-01    5.00000000e+00    4.95049505e+00    1.00000000e+00
90       6.19633331e-01    5.00000000e+00    4.95049505e+00    1.00000000e+00
91       6.45811106e-01    5.00000000e+00    4.95049505e+00    1.00000000e+00
92       6.98166657e-01    5.00000000e+00    4.95049505e+00    1.00000000e+00
93       7.00000000e-01    5.00000000e+00    4.95049505e+00    1.00000000e+00
94       7.01833343e-01    5.00000000e+00    4.95049505e+00    9.81666567e-01
95       7.03265055e-01    5.00000000e+00    4.95049505e+00    9.67349453e-01
96       7.06128478e-01    5.00000000e+00    4.95049505e+00    9.38715225e-01
97       7.11855323e-01    5.00000000e+00    4.95049505e+00    8.81446768e-01
98       7.23309014e-01    5.00000000e+00    4.94935567e+00    7.66909856e-01
99       7.26191701e-01    5.00000000e+00    4.94649624e+00    7.38082985e-01
100      7.26390171e-01    5.00000000e+00    4.89190006e+00    7.36098287e-01
101      7.26422168e-01    5.00000000e+00    4.89171820e+00    7.35778319e-01
102      7.26454165e-01    5.00000000e+00    4.89153590e+00    7.35458351e-01
103      7.26486162e-01    5.00000000e+00    4.89135315e+00    7.35138383e-01
104      7.26550155e-01    5.00000000e+00    4.89098634e+00    7.34498447e-01
105      7.26678142e-01    5.00000000e+00    4.89024736e+00    7.33218576e-01
106      7.26934117e-01    5.00000000e+00    4.88874781e+00    7.30658832e-01
107      7.27446065e-01    5.00000000e+00    4.88566053e+00    7.25539346e-01
108      7.28469963e-01    5.00000000e+00    4.87911830e+00    7.15300374e-01
109      7.30517757e-01    5.00000000e+00    4.86443619e+00    6.94822429e-01
110      7.34613346e-01    5.00000000e+00    4.82753655e+00    6.53866539e-01
111      7.38708935e-01    5.00000000e+00    4.77803950e+00    6.12910649e-01
112      7.42804524e-01    5.00000000e+00    4.71235058e+00    5.71954759e-01
113      7.46900113e-01    5.00000000e+00    4.62643275e+00    5.30998869e-01
114      7.50995702e-01    5.00000000e+00    4.51622574e+00    4.90042979e-01
115      7.55091291e-01    5.00000000e+00    4.37838086e+00    4.49087089e-01
116      7.59186880e-01    5.00000000e+00    4.21128578e+00    4.08131199e-01
117      7.63282469e-01    5.00000000e+00    4.01618326e+00    3.67175309e-01
118      7.67378058e-01    5.00000000e+00    3.79800051e+00    3.26219419e-01
119      7.71473647e-01    5.00000000e+00    3.56544865e+00    2.85263529e-01
120      7.79664825e-01    5.00000000e+00    3.10506303e+00    2.03351749e-01
121      7.80961721e-01    5.00000000e+00    3.03795254e+00    1.90382788e-01
122      7.82258617e-01    5.00000000e+00    2.97348831e+00    1.77413827e-01
123      7.84852410e-01    5.00000000e+00    2.85383928e+00    1.51475904e-01
124      7.87446202e-01    5.00000000e+00    2.74856017e+00    1.25537982e-01
125      7.90039994e-01    5.00000000e+00    2.65972211e+00    9.96000595e-02
126      7.92633786e-01    5.00000000e+00    2.58906619e+00    7.36621371e-02
127      7.95227579e-01    5.00000000e+00    2.53807841e+00    4.77242146e-02
128      7.97821371e-01    5.00000000e+00    2.50807771e+00    2.17862922e-02
129      8.00000000e-01    5.00000000e+00    2.50000000e+00    0.00000000e+00
130      8.00259379e-01    5.00000000e+00    2.50000000e+00    0.00000000e+00
131      8.00778138e-01    5.00000000e+00    2.50000000e+00    0.00000000e+00
132      8.01815655e-01    5.00000000e+00    2.50000000e+00    0.00000000e+00
133      8.03890688e-01    5.00000000e+00    2.50000000e+00    0.00000000e+00
134      8.08040756e-01    5.00000000e+00    2.50000000e+00    0.00000000e+00
135      8.16340891e-01    5.00000000e+00    2.50000000e+00    0.00000000e+00
136      8.32941162e-01    5.00000000e+00    2.50000000e+00    0.00000000e+00
137      8.66141702e-01    5.00000000e+00    2.50000000e+00    0.00000000e+00
138      9.00000000e-01    5.00000000e+00    2.50000000e+00    0.00000000e+00
139      9.06640108e-01    5.00000000e+00    2.50000000e+00    3.32005407e-03
140      9.13280216e-01    5.00000000e+00    2.50000000e+00    6.64010815e-03
141      9.26560433e-01    5.00000000e+00    2.50000000e+00    1.32802163e-02
142      9.53120865e-01    5.00000000e+00    2.50000000e+00    2.65604326e-02
143      1.00000000e+00    5.00000000e+00    2.50000000e+00    5.00000000e-02
144      1.00531209e+00    5.00000000e+00    2.50000000e+00    5.00000000e-02
145      1.01593626e+00    5.00000000e+00    2.50000000e+00    5.00000000e-02
146      1.03718461e+00    5.00000000e+00    2.50000000e+00    5.00000000e-02
147      1.07968130e+00    5.00000000e+00    2.50000000e+00    5.00000000e-02
148      1.10000000e+00    5.00000000e+00    2.50000000e+00    5.00000000e-02
149      1.10849934e+00    5.00000000e+00    2.50000000e+00    4.57503308e-02
150      1.11699868e+00    5.00000000e+00    2.50000000e+00    4.15006616e-02
151      1.13399735e+00    5.00000000e+00    2.50000000e+00    3.30013231e-02
152      1.16799471e+00    5.00000000e+00    2.50000000e+00    1.60026463e-02
153      1.20000000e+00    5.00000000e+00    2.50000000e+00    0.00000000e+00
154      1.20679947e+00    5.00000000e+00    2.50000000e+00    0.00000000e+00
155      1.22039841e+00    5.00000000e+00    2.50000000e+00    0.00000000e+00
156      1.24759630e+00    5.00000000e+00    2.50000000e+00    0.00000000e+00
157      1.30000000e+00    5.00000000e+00    2.50000000e+00    0.00000000e+00
End of Xyce(TM) Simulation
