Index       FREQ        Re(I(V_COLL_COLL)) Im(I(V_COLL_COLL)) Re(I(V_BASE_COLL)) Im(I(V_BASE_COLL)) Re(I(V_EMIT_COLL)) Im(I(V_EMIT_COLL)) Re(I(V_SUBS_COLL)) Im(I(V_SUBS_COLL)) Re(V(THERM_COLL)) Im(V(THERM_COLL)) Re(I(V_COLL_BASE)) Im(I(V_COLL_BASE)) Re(I(V_BASE_BASE)) Im(I(V_BASE_BASE)) Re(I(V_EMIT_BASE)) Im(I(V_EMIT_BASE)) Re(I(V_SUBS_BASE)) Im(I(V_SUBS_BASE)) Re(V(THERM_BASE)) Im(V(THERM_BASE))
0        1.00000000e+10    2.69336388e-05    3.11598870e-03   -2.12324861e-05   -1.72230082e-03    4.92242818e-06   -2.06730887e-05   -1.06235808e-05   -1.37301478e-03    2.13115042e-05   -4.65811975e-04    7.17380154e-03   -1.89395071e-03    6.91710705e-05    4.61188203e-03   -7.24942775e-03   -2.74238929e-03    6.45513975e-06    2.44579680e-05   -1.16422126e-04   -8.34458613e-03
1        1.25892541e+10    4.21310426e-05    3.92262397e-03   -3.36476869e-05   -2.16805003e-03    8.35307626e-06   -2.61159706e-05   -1.68364320e-05   -1.72845797e-03    2.09495785e-05   -3.70235876e-04    7.15968609e-03   -2.38408468e-03    9.82787933e-05    5.80553081e-03   -7.26819565e-03   -3.45217630e-03    1.02307611e-05    3.07301744e-05   -1.22812841e-04   -6.62746925e-03
2        1.58489319e+10    6.62139366e-05    4.93794327e-03   -5.33195531e-05   -2.72901784e-03    1.37876194e-05   -3.30558958e-05   -2.66820028e-05   -2.17586954e-03    2.07166480e-05   -2.94375633e-04    7.13732043e-03   -3.00090339e-03    1.44399071e-04    7.30776330e-03   -7.29793273e-03   -4.34542605e-03    1.62132239e-05    3.85661474e-05   -1.26830651e-04   -5.26328158e-03
3        1.99526231e+10    1.04374290e-04    6.21580717e-03   -8.44850562e-05   -3.43484124e-03    2.23940975e-05   -4.19680648e-05   -4.22833315e-05   -2.73899786e-03    2.05624399e-05   -2.34191527e-04    7.10188775e-03   -3.77697983e-03    2.17463772e-04    9.19800028e-03   -7.34504256e-03   -5.46933132e-03    2.56910381e-05    4.83108723e-05   -1.29342803e-04   -4.17937944e-03
0        1.00000000e+10    2.77175633e-05    3.12858978e-03   -2.14627056e-05   -1.72593831e-03    4.41248280e-06   -2.95367220e-05   -1.06673405e-05   -1.37311475e-03    3.04514538e-05   -6.68527593e-04    1.02337270e-02   -1.97397293e-03    7.84862939e-05    4.66383382e-03   -1.03189409e-02   -2.72475366e-03    6.72759590e-06    3.48927653e-05   -1.69506456e-04   -1.18771452e-02
1        1.25892541e+10    4.31158395e-05    3.93848416e-03   -3.40122779e-05   -2.17262433e-03    7.80218088e-06   -3.72768666e-05   -1.69057425e-05   -1.72858296e-03    2.99327022e-05   -5.31361825e-04    1.02186826e-02   -2.48477917e-03    1.08554462e-04    5.87090775e-03   -1.03378999e-02   -3.42999139e-03    1.06628625e-05    4.38628146e-05   -1.78585838e-04   -9.43306099e-03
2        1.58489319e+10    6.75169187e-05    4.95790098e-03   -5.38968942e-05   -2.73476655e-03    1.31717507e-05   -4.71092769e-05   -2.67917751e-05   -2.17602516e-03    2.95986443e-05   -4.22492210e-04    1.01948452e-02   -3.12760753e-03    1.56195984e-04    7.39001503e-03   -1.03679394e-02   -4.31749870e-03    1.68982109e-05    5.50912010e-05   -1.84292676e-04   -7.49131078e-03
3        1.99526231e+10    1.06181116e-04    6.24091289e-03   -8.53990453e-05   -3.44205851e-03    2.16750770e-05   -5.96640422e-05   -4.24571474e-05   -2.73919034e-03    2.93771816e-05   -3.36121203e-04    1.01570816e-02   -3.93639126e-03    2.31669290e-04    9.30144335e-03   -1.04155274e-02   -5.43415090e-03    2.67764826e-05    6.90988090e-05   -1.87858796e-04   -5.94849544e-03
0        1.00000000e+10    2.88560306e-05    3.14497139e-03   -2.17543979e-05   -1.72972367e-03    3.62270443e-06   -4.19906910e-05   -1.07243371e-05   -1.37325703e-03    4.32271792e-05   -9.57214598e-04    1.45122535e-02   -2.08786637e-03    9.15653092e-05    4.73517569e-03   -1.46109343e-02   -2.69679504e-03    7.11546730e-06    4.94857221e-05   -2.47227517e-04   -1.67993684e-02
1        1.25892541e+10    4.45271048e-05    3.95910305e-03   -3.44741646e-05   -2.17738305e-03    6.94307716e-06   -5.29591078e-05   -1.69960174e-05   -1.72876089e-03    4.24857397e-05   -7.60823636e-04    1.44958548e-02   -2.62808032e-03    1.22986792e-04    5.96068364e-03   -1.46301195e-02   -3.39483175e-03    1.12779290e-05    6.22284398e-05   -2.60037454e-04   -1.33422843e-02
2        1.58489319e+10    6.93602845e-05    4.98384647e-03   -5.46282204e-05   -2.74074393e-03    1.22026811e-05   -6.68557227e-05   -2.69347451e-05   -2.17624681e-03    4.20079072e-05   -6.04948150e-04    1.44698722e-02   -3.30791031e-03    1.72771755e-04    7.50295966e-03   -1.46605171e-02   -4.27324990e-03    1.78731549e-05    7.82005477e-05   -2.68086396e-04   -1.05957103e-02
3        1.99526231e+10    1.08708665e-04    6.27354928e-03   -8.65566502e-05   -3.44955674e-03    2.05314997e-05   -8.45278422e-05   -4.26835150e-05   -2.73946470e-03    4.16905536e-05   -4.81287412e-04    1.44287113e-02   -4.16322292e-03    2.51638618e-04    9.44347944e-03   -1.47086712e-02   -5.37842513e-03    2.83212868e-05    9.81686133e-05   -2.73111720e-04   -8.41338992e-03
0        1.00000000e+10    3.05428726e-05    3.16639773e-03   -2.21283704e-05   -1.73369123e-03    2.38452383e-06   -5.92484249e-05   -1.07990260e-05   -1.37345807e-03    6.07919812e-05   -1.36578005e-03    2.04097178e-02   -2.24989592e-03    1.09873074e-04    4.83237147e-03   -2.05272584e-02   -2.65208105e-03    7.66745799e-06    6.96055066e-05   -3.60968586e-04   -2.35501927e-02
1        1.25892541e+10    4.65882625e-05    3.98607243e-03   -3.50662457e-05   -2.18236867e-03    5.59229718e-06   -7.46913751e-05   -1.71143140e-05   -1.72901238e-03    5.97365836e-05   -1.08557455e-03    2.03913251e-02   -2.83192061e-03    1.43200419e-04    6.08299034e-03   -2.05466786e-02   -3.33861892e-03    1.21531005e-05    8.75491781e-05   -3.78865700e-04   -1.87036753e-02
2        1.58489319e+10    7.20143143e-05    5.01778262e-03   -5.55655533e-05   -2.74700209e-03    1.06733265e-05   -9.42203361e-05   -2.71220876e-05   -2.17656019e-03    5.90557159e-05   -8.63178183e-04    2.03621839e-02   -3.56435951e-03    1.96003830e-04    7.65682336e-03   -2.05774480e-02   -4.20252423e-03    1.92602250e-05    1.10060378e-04   -3.90105468e-04   -1.48531758e-02
3        1.99526231e+10    1.12301369e-04    6.31623453e-03   -8.80400987e-05   -3.45739870e-03    1.87188479e-05   -1.18983033e-04   -4.29801179e-05   -2.73985280e-03    5.86024318e-05   -6.86747799e-04    2.03160212e-02   -4.48582419e-03    2.79649243e-04    9.63695997e-03   -2.06261894e-02   -5.28937947e-03    3.05188868e-05    1.38243688e-04   -3.97114021e-04   -1.17936534e-02
0        1.00000000e+10    3.30877045e-05    3.19434758e-03   -2.26093164e-05   -1.73788790e-03    4.18259058e-07   -8.27202513e-05   -1.08966472e-05   -1.37373942e-03    8.44043102e-05   -1.93894492e-03    2.83834146e-02   -2.47937257e-03    1.35351429e-04    4.96285329e-03   -2.85272156e-02   -2.58029904e-03    8.44959409e-06    9.68183219e-05   -5.26768155e-04   -3.26121906e-02
1        1.25892541e+10    4.96486372e-05    4.02125465e-03   -3.58275129e-05   -2.18763934e-03    3.44780952e-06   -1.04250958e-04   -1.72689338e-05   -1.72936435e-03    8.29106206e-05   -1.54116469e-03    2.83620631e-02   -3.12056846e-03    1.71348536e-04    6.24717622e-03   -2.85468046e-02   -3.24840312e-03    1.33929047e-05    1.21795364e-04   -5.51441725e-04   -2.59003577e-02
2        1.58489319e+10    7.58911972e-05    5.06205269e-03   -5.67704873e-05   -2.75361234e-03    8.24623623e-06   -1.31441499e-04   -2.73669461e-05   -2.17699885e-03    8.19456958e-05   -1.22545470e-03    2.83282356e-02   -3.92746141e-03    2.28379966e-04    7.86335848e-03   -2.85778405e-02   -4.08904547e-03    2.12249043e-05    1.53148406e-04   -5.66925745e-04   -2.05677846e-02
3        1.99526231e+10    1.17470864e-04    6.37191395e-03   -8.99466616e-05   -3.46567050e-03    1.58435465e-05   -1.65847264e-04   -4.33677491e-05   -2.74039619e-03    8.13012875e-05   -9.75002530e-04    2.82746525e-02   -4.94253981e-03    3.18718131e-04    9.89664714e-03   -2.86270018e-02   -5.14654507e-03    3.36312113e-05    1.92437737e-04   -5.76562497e-04   -1.63305099e-02
0        1.00000000e+10    3.69799597e-05    3.23038279e-03   -2.32240805e-05   -1.74237669e-03   -2.73309006e-06   -1.13878065e-04   -1.10227892e-05   -1.37412804e-03    1.15219392e-04   -2.73350032e-03    3.88968278e-02   -2.80122829e-03    1.70494914e-04    5.13426582e-03   -3.90768700e-02   -2.46575457e-03    9.54729522e-06    1.32717044e-04   -7.66088799e-04   -4.44378321e-02
1        1.25892541e+10    5.42485480e-05    4.06661739e-03   -3.68002283e-05   -2.19327315e-03    2.04127715e-08   -1.43493723e-04   -1.74687325e-05   -1.72985053e-03    1.13121792e-04   -2.17273957e-03    3.88710700e-02   -3.52534567e-03    2.10191969e-04    6.46285361e-03   -3.90963945e-02   -3.10447817e-03    1.51325020e-05    1.66970227e-04   -7.99516097e-04   -3.52914336e-02
2        1.58489319e+10    8.16117864e-05    5.11913233e-03   -5.83096360e-05   -2.76067064e-03    4.38118947e-06   -1.80856872e-04   -2.76833399e-05   -2.17760481e-03    1.11764379e-04   -1.72768163e-03    3.88302638e-02   -4.43657575e-03    2.73082362e-04    8.13464244e-03   -3.91273272e-02   -3.90804909e-03    2.39810795e-05    2.09982403e-04   -8.20470386e-04   -2.80243948e-02
3        1.99526231e+10    1.24965345e-04    6.44369762e-03   -9.23813364e-05   -3.47448828e-03    1.12845662e-05   -2.28062456e-04   -4.38685749e-05   -2.74114689e-03    1.10854206e-04   -1.37462588e-03    3.87656314e-02   -5.58282400e-03    3.72693663e-04    1.02376978e-02   -3.91763217e-02   -4.91878597e-03    3.79966493e-05    2.63912180e-04   -8.33474773e-04   -2.22497438e-02
0        1.00000000e+10    4.29708175e-05    3.27590436e-03   -2.39983655e-05   -1.74724023e-03   -7.78988558e-06   -1.54008265e-04   -1.11825664e-05   -1.37465587e-03    1.53945679e-04   -3.81802015e-03    5.23305819e-02   -3.24533266e-03    2.18385087e-04    5.35311151e-03   -5.25600302e-02   -2.28639933e-03    1.10632199e-05    1.78620483e-04   -1.10524583e-03   -5.93272081e-02
1        1.25892541e+10    6.12000107e-05    4.12392698e-03   -3.80245368e-05   -2.19937270e-03   -5.45365645e-06   -1.94043408e-04   -1.77218174e-05   -1.73051087e-03    1.51029720e-04   -3.03481029e-03    5.22982791e-02   -4.08376349e-03    2.63123314e-04    6.73819245e-03   -5.25789367e-02   -2.87916003e-03    1.75342376e-05    2.24731070e-04   -1.14955058e-03   -4.71148180e-02
2        1.58489319e+10    9.00843337e-05    5.19124344e-03   -6.02459185e-05   -2.76830339e-03   -1.75431613e-06   -2.44512190e-04   -2.80840991e-05   -2.17842786e-03    1.49138610e-04   -2.41321010e-03    5.22471081e-02   -5.13882078e-03    3.33995538e-04    8.48092761e-03   -5.26088892e-02   -3.62474967e-03    2.77855176e-05    2.82642844e-04   -1.17727799e-03   -3.74114156e-02
3        1.99526231e+10    1.35845112e-04    6.53437386e-03   -9.54428487e-05   -3.48400564e-03    4.10059588e-06   -3.08201681e-04   -4.45028591e-05   -2.74216654e-03    1.47864240e-04   -1.92011734e-03    5.21660682e-02   -6.46584696e-03    4.46237393e-04    1.06729527e-02   -5.26563267e-02   -4.56238008e-03    4.40211778e-05    3.55274349e-04   -1.19441328e-03   -2.97002931e-02
0        1.00000000e+10    5.21571394e-05    3.33182910e-03   -2.49526078e-05   -1.75258477e-03   -1.58250152e-05   -2.03886185e-04   -1.13795164e-05   -1.37535814e-03    2.00422701e-04   -5.27006375e-03    6.88677658e-02   -3.84356837e-03    2.82662324e-04    5.62299534e-03   -6.91635357e-02   -2.01461220e-03    1.31075288e-05    2.35185229e-04   -1.57216689e-03   -7.72765148e-02
1        1.25892541e+10    7.16655955e-05    4.19434154e-03   -3.95315549e-05   -2.20607021e-03   -1.41002389e-05   -2.56881885e-04   -1.80338016e-05   -1.73138945e-03    1.96420062e-04   -4.18902635e-03    6.88258532e-02   -4.83584505e-03    3.34107117e-04    7.07771015e-03   -6.91807325e-02   -2.53776558e-03    2.07722059e-05    2.95900485e-04   -1.62936680e-03   -6.13668672e-02
2        1.58489319e+10    1.02575267e-04    5.27984213e-03   -6.26272277e-05   -2.77667402e-03   -1.13699408e-05   -3.23645239e-04   -2.85780988e-05   -2.17952287e-03    1.93817418e-04   -3.33106261e-03    6.87594659e-02   -6.08444120e-03    4.15596242e-04    8.90785825e-03   -6.92079755e-02   -3.19557439e-03    3.29133681e-05    3.72157335e-04   -1.66507813e-03   -4.87251708e-02
3        1.99526231e+10    1.51540467e-04    6.64576430e-03   -9.92053064e-05   -3.49442247e-03   -7.05058259e-06   -4.07818747e-04   -4.52845783e-05   -2.74352309e-03    1.92053141e-04   -2.65048273e-03    6.86543435e-02   -7.65465058e-03    5.44633911e-04    1.12094314e-02   -6.92511168e-02   -4.02258290e-03    5.21394229e-05    4.67802048e-04   -1.68700976e-03   -3.86782557e-02
0        1.00000000e+10    6.60373715e-05    3.39830246e-03   -2.60993309e-05   -1.75854669e-03   -2.83234345e-05   -2.63485561e-04   -1.16146060e-05   -1.37627021e-03    2.53282086e-04   -7.17037862e-03    8.83934478e-02   -4.62429530e-03    3.67441136e-04    5.94310678e-03   -8.87766682e-02   -1.62087601e-03    1.57792561e-05    3.02064518e-04   -2.18975422e-03   -9.78525367e-02
1        1.25892541e+10    8.72050891e-05    4.27804944e-03   -4.13383578e-05   -2.21353581e-03   -2.74605021e-05   -3.31983145e-04   -1.84062292e-05   -1.73253048e-03    2.47869992e-04   -5.69956117e-03    8.83377320e-02   -5.81717214e-03    4.27541679e-04    7.48036159e-03   -8.87902765e-02   -2.04322648e-03    2.50027760e-05    3.80037026e-04   -2.26143021e-03   -7.77027167e-02
2        1.58489319e+10    1.20741183e-04    5.38516356e-03   -6.54776730e-05   -2.78599384e-03   -2.60957452e-05   -4.18224709e-04   -2.91677645e-05   -2.18094501e-03    2.44340464e-04   -4.53225571e-03    8.82494928e-02   -7.31806238e-03    5.22730316e-04    9.41406775e-03   -8.88118346e-02   -2.57396575e-03    3.96114714e-05    4.77960382e-04   -2.30602359e-03   -6.16907839e-02
3        1.99526231e+10    1.73860380e-04    6.77815122e-03   -1.03703516e-04   -3.50599923e-03   -2.39393937e-05   -5.26867079e-04   -4.62174708e-05   -2.74528491e-03    2.41931922e-04   -3.60629811e-03    8.81097958e-02   -9.20513486e-03    6.73432767e-04    1.18453112e-02   -8.88459692e-02   -3.24094030e-03    6.27406161e-05    6.00763981e-04   -2.33316109e-03   -4.89641093e-02
0        1.00000000e+10    8.65145270e-05    3.47461619e-03   -2.74458379e-05   -1.76530820e-03   -4.71827690e-05   -3.31884524e-04   -1.18859201e-05   -1.37742347e-03    3.09910336e-04   -9.59475563e-03    1.10462196e-01   -5.60554670e-03    4.77220174e-04    6.30784356e-03   -1.10958560e-01   -1.08009294e-03    1.91432704e-05    3.77796090e-04   -2.96725123e-03   -1.20165553e-01
1        1.25892541e+10    1.09767984e-04    4.37416503e-03   -4.34504785e-05   -2.22199756e-03   -4.74814248e-05   -4.18194192e-04   -1.88360808e-05   -1.73397328e-03    3.02716713e-04   -7.62663129e-03    1.10387273e-01   -7.05034524e-03    5.48110888e-04    7.93906788e-03   -1.10965712e-01   -1.36401716e-03    3.03281829e-05    4.75294528e-04   -3.05422461e-03   -9.54148844e-02
2        1.58489319e+10    1.46604683e-04    5.50609076e-03   -6.87997822e-05   -2.79654755e-03   -4.79566112e-05   -5.26799861e-04   -2.98482895e-05   -2.18274335e-03    2.98010616e-04   -6.06463801e-03    1.10268634e-01   -8.86795862e-03    6.60372305e-04    9.99059048e-03   -1.10977047e-01   -1.72034915e-03    4.80407549e-05    5.97717287e-04   -3.10807048e-03   -7.57453394e-02
3        1.99526231e+10    2.04941915e-04    6.93011337e-03   -1.08934745e-04   -3.51908984e-03   -4.87133654e-05   -6.63510564e-04   -4.72938038e-05   -2.74751297e-03    2.94776706e-04   -4.82559169e-03    1.10080854e-01   -1.11525609e-02    8.38061860e-04    1.25691964e-02   -1.10994993e-01   -2.16783561e-03    7.60773797e-05    7.51200075e-04   -3.14041405e-03   -6.01095343e-02
0        1.00000000e+10    1.15868179e-04    3.55945930e-03   -2.90072668e-05   -1.77314050e-03   -7.46714351e-05   -4.07477634e-04   -1.21894769e-05   -1.37884117e-03    3.66855225e-04   -1.26055139e-02    1.34363747e-01   -6.79023762e-03    6.16875279e-04    6.70821964e-03   -1.35003837e-01   -3.78003258e-04    2.32139106e-05    4.60021239e-04   -3.89367108e-03   -1.42979213e-01
1        1.25892541e+10    1.41660521e-04    4.48104350e-03   -4.58786968e-05   -2.23179564e-03   -7.64647616e-05   -5.13500844e-04   -1.93170623e-05   -1.73574701e-03    3.57469247e-04   -1.00197260e-02    1.34263093e-01   -8.53897524e-03    7.00751449e-04    8.44249193e-03   -1.35000615e-01   -4.82215309e-04    3.67707099e-05    5.78698619e-04   -3.99579284e-03   -1.13520731e-01
2        1.58489319e+10    1.82513583e-04    5.64055061e-03   -7.25972181e-05   -2.80876147e-03   -7.93066886e-05   -6.46834798e-04   -3.06096767e-05   -2.18495434e-03    3.51309754e-04   -7.96750403e-03    1.34103737e-01   -1.07385126e-02    8.33551867e-04    1.06231030e-02   -1.34995525e-01   -6.12264088e-04    5.82354540e-05    7.27673727e-04   -4.05859497e-03   -9.01075865e-02
3        1.99526231e+10    2.47197025e-04    7.09902542e-03   -1.14890857e-04   -3.53422751e-03   -8.38085507e-05   -8.14545231e-04   -4.84976174e-05   -2.75025268e-03    3.47048025e-04   -6.33955515e-03    1.33851589e-01   -1.35020857e-02    1.04368939e-03    1.33629520e-02   -1.34987479e-01   -7.75230758e-04    9.22012986e-05    9.14364496e-04   -4.09563844e-03   -7.14930731e-02
0        1.00000000e+10    1.56806468e-04    3.65153566e-03   -3.08382135e-05   -1.78251915e-03   -1.13446955e-04   -4.88481472e-04   -1.25213000e-05   -1.38053504e-03    4.20656188e-04   -1.62451375e-02    1.59262366e-01   -8.16707828e-03    7.91837991e-04    7.13506417e-03   -1.60082161e-01    4.86061290e-04    2.79578778e-05    5.45952813e-04   -4.93805645e-03   -1.64921196e-01
1        1.25892541e+10    1.85607737e-04    4.59705638e-03   -4.86800833e-05   -2.24352716e-03   -1.17084773e-04   -6.15662875e-04   -1.98428813e-05   -1.73786634e-03    4.08641993e-04   -1.29125587e-02    1.59128531e-01   -1.02688391e-02    8.90884190e-04    8.97906539e-03   -1.60063692e-01    6.03037418e-04    4.42773268e-05    6.86736325e-04   -5.05416904e-03   -1.30929933e-01
2        1.58489319e+10    2.31218859e-04    5.78648861e-03   -7.69307312e-05   -2.82338483e-03   -1.22846204e-04   -7.75507487e-04   -3.14419241e-05   -2.18759629e-03    4.00734577e-04   -1.02675918e-02    1.58916691e-01   -1.29116805e-02    1.04766874e-03    1.12969931e-02   -1.60034471e-01    7.51288509e-04    7.01105479e-05    8.63398912e-04   -5.12494187e-03   -1.03911141e-01
3        1.99526231e+10    3.03415669e-04    7.28228356e-03   -1.21637834e-04   -3.55235112e-03   -1.31964903e-04   -9.76405680e-04   -4.98129324e-05   -2.75352675e-03    3.95228457e-04   -8.16937420e-03    1.58581616e-01   -1.62306266e-02    1.29567141e-03    1.42080849e-02   -1.59988262e-01    9.37878648e-04    1.10974859e-04    1.08466301e-03   -5.16566083e-03   -8.24261527e-02
0        1.00000000e+10    2.12824824e-04    3.75062349e-03   -3.31047146e-05   -1.79442455e-03   -1.66839081e-04   -5.73696328e-04   -1.28810280e-05   -1.38250261e-03    4.69058983e-04   -2.05338014e-02    1.84344245e-01   -9.71963546e-03    1.00861443e-03    7.58384272e-03   -1.85386185e-01    1.50292228e-03    3.33248900e-05    6.32870465e-04   -6.05931071e-03   -1.84703421e-01
1        1.25892541e+10    2.45150868e-04    4.72192197e-03   -5.20494334e-05   -2.25842290e-03   -1.72688481e-04   -7.23171119e-04   -2.04129539e-05   -1.74032795e-03    4.53968668e-04   -1.63211300e-02    1.84168879e-01   -1.22192596e-02    1.12511787e-03    9.54304833e-03   -1.85346765e-01    1.88023250e-03    5.27681858e-05    7.95978816e-04   -6.18736013e-03   -1.46619318e-01
2        1.58489319e+10    2.96333169e-04    5.94353845e-03   -8.20403042e-05   -2.84196120e-03   -1.81948824e-04   -9.10912657e-04   -3.23440406e-05   -2.19066459e-03    4.44009073e-04   -1.29775787e-02    1.83891374e-01   -1.53612851e-02    1.30948885e-03    1.20049696e-02   -1.85284401e-01    2.35574742e-03    8.35384691e-05    1.00056806e-03   -6.26450042e-03   -1.16343258e-01
