Index      V(COLL)           V(BASE)          I(V_COLL)         I(V_BASE)    
0        0.00000000e+00    6.00000000e-01   -2.71824566e-08    3.98185413e-08
1        5.00000000e-02    6.00000000e-01    6.69361697e-07    1.69636110e-08
2        1.00000000e-01    6.00000000e-01    7.71343768e-07    1.18962148e-08
3        1.50000000e-01    6.00000000e-01    7.86498419e-07    1.07149686e-08
4        2.00000000e-01    6.00000000e-01    7.88937789e-07    1.04342662e-08
5        2.50000000e-01    6.00000000e-01    7.89503957e-07    1.03645449e-08
6        3.00000000e-01    6.00000000e-01    7.89788245e-07    1.03460223e-08
7        3.50000000e-01    6.00000000e-01    7.90025623e-07    1.03406497e-08
8        4.00000000e-01    6.00000000e-01    7.90251406e-07    1.03389213e-08
9        4.50000000e-01    6.00000000e-01    7.90471309e-07    1.03382964e-08
10       5.00000000e-01    6.00000000e-01    7.90686577e-07    1.03380383e-08
11       5.50000000e-01    6.00000000e-01    7.90897724e-07    1.03379134e-08
12       6.00000000e-01    6.00000000e-01    7.91105107e-07    1.03378411e-08
13       6.50000000e-01    6.00000000e-01    7.91309793e-07    1.03370164e-08
14       7.00000000e-01    6.00000000e-01    7.91511280e-07    1.03361827e-08
15       7.50000000e-01    6.00000000e-01    7.91710394e-07    1.03347292e-08
16       8.00000000e-01    6.00000000e-01    7.91907695e-07    1.03322892e-08
17       8.50000000e-01    6.00000000e-01    7.92103867e-07    1.03283493e-08
18       9.00000000e-01    6.00000000e-01    7.92299762e-07    1.03222136e-08
19       9.50000000e-01    6.00000000e-01    7.92496435e-07    1.03129651e-08
20       1.00000000e+00    6.00000000e-01    7.92695197e-07    1.02994223e-08
21       1.05000000e+00    6.00000000e-01    7.92897664e-07    1.02800884e-08
22       1.10000000e+00    6.00000000e-01    7.93105825e-07    1.02530897e-08
23       1.15000000e+00    6.00000000e-01    7.93322122e-07    1.02160946e-08
24       1.20000000e+00    6.00000000e-01    7.93549561e-07    1.01662072e-08
25       1.25000000e+00    6.00000000e-01    7.93791857e-07    1.00998238e-08
26       1.30000000e+00    6.00000000e-01    7.94053625e-07    1.00124471e-08
27       1.35000000e+00    6.00000000e-01    7.94340604e-07    9.89845833e-09
28       1.40000000e+00    6.00000000e-01    7.94659923e-07    9.75085891e-09
29       1.45000000e+00    6.00000000e-01    7.95020351e-07    9.56101130e-09
30       1.50000000e+00    6.00000000e-01    7.95432521e-07    9.31841938e-09
31       1.55000000e+00    6.00000000e-01    7.95909061e-07    9.01059215e-09
32       1.60000000e+00    6.00000000e-01    7.96464613e-07    8.62301672e-09
33       1.65000000e+00    6.00000000e-01    7.97115759e-07    8.13923400e-09
34       1.70000000e+00    6.00000000e-01    7.97880874e-07    7.54097498e-09
35       1.75000000e+00    6.00000000e-01    7.98779995e-07    6.80829803e-09
36       1.80000000e+00    6.00000000e-01    7.99834723e-07    5.91967805e-09
37       1.85000000e+00    6.00000000e-01    8.01068209e-07    4.85202951e-09
38       1.90000000e+00    6.00000000e-01    8.02505177e-07    3.58067825e-09
39       1.95000000e+00    6.00000000e-01    8.04171980e-07    2.07931461e-09
40       2.00000000e+00    6.00000000e-01    8.06096631e-07    3.19960015e-10
0        0.00000000e+00    6.50000000e-01   -1.45933586e-07    1.95878469e-07
1        5.00000000e-02    6.50000000e-01    4.32532537e-06    7.23430810e-08
2        1.00000000e-01    6.50000000e-01    4.97940388e-06    4.40877928e-08
3        1.50000000e-01    6.50000000e-01    5.07794225e-06    3.72907453e-08
4        2.00000000e-01    6.50000000e-01    5.09355615e-06    3.56325619e-08
5        2.50000000e-01    6.50000000e-01    5.09719007e-06    3.52114555e-08
6        3.00000000e-01    6.50000000e-01    5.09902259e-06    3.50977305e-08
7        3.50000000e-01    6.50000000e-01    5.10055373e-06    3.50646258e-08
8        4.00000000e-01    6.50000000e-01    5.10200885e-06    3.50542632e-08
9        4.50000000e-01    6.50000000e-01    5.10342480e-06    3.50508834e-08
10       5.00000000e-01    6.50000000e-01    5.10480988e-06    3.50498463e-08
11       5.50000000e-01    6.50000000e-01    5.10616769e-06    3.50496657e-08
12       6.00000000e-01    6.50000000e-01    5.10750074e-06    3.50498238e-08
13       6.50000000e-01    6.50000000e-01    5.10881109e-06    3.50501254e-08
14       7.00000000e-01    6.50000000e-01    5.11010551e-06    3.50454895e-08
15       7.50000000e-01    6.50000000e-01    5.11138064e-06    3.50407636e-08
16       8.00000000e-01    6.50000000e-01    5.11264174e-06    3.50320247e-08
17       8.50000000e-01    6.50000000e-01    5.11389234e-06    3.50169086e-08
18       9.00000000e-01    6.50000000e-01    5.11513678e-06    3.49921017e-08
19       9.50000000e-01    6.50000000e-01    5.11638052e-06    3.49531134e-08
20       1.00000000e+00    6.50000000e-01    5.11763031e-06    3.48940248e-08
21       1.05000000e+00    6.50000000e-01    5.11889457e-06    3.48072076e-08
22       1.10000000e+00    6.50000000e-01    5.12018372e-06    3.46829979e-08
23       1.15000000e+00    6.50000000e-01    5.12151056e-06    3.45092961e-08
24       1.20000000e+00    6.50000000e-01    5.12289082e-06    3.42710486e-08
25       1.25000000e+00    6.50000000e-01    5.12434392e-06    3.39495559e-08
26       1.30000000e+00    6.50000000e-01    5.12589382e-06    3.35215489e-08
27       1.35000000e+00    6.50000000e-01    5.12757032e-06    3.29579898e-08
28       1.40000000e+00    6.50000000e-01    5.12941049e-06    3.22225982e-08
29       1.45000000e+00    6.50000000e-01    5.13146037e-06    3.12701856e-08
30       1.50000000e+00    6.50000000e-01    5.13377663e-06    3.00449802e-08
31       1.55000000e+00    6.50000000e-01    5.13642798e-06    2.84792098e-08
32       1.60000000e+00    6.50000000e-01    5.13949602e-06    2.64922206e-08
33       1.65000000e+00    6.50000000e-01    5.14307542e-06    2.39903028e-08
34       1.70000000e+00    6.50000000e-01    5.14727337e-06    2.08671791e-08
35       1.75000000e+00    6.50000000e-01    5.15220869e-06    1.70048835e-08
36       1.80000000e+00    6.50000000e-01    5.15801096e-06    1.22746483e-08
37       1.85000000e+00    6.50000000e-01    5.16481989e-06    6.53747840e-09
38       1.90000000e+00    6.50000000e-01    5.17278522e-06   -3.55699795e-10
39       1.95000000e+00    6.50000000e-01    5.18206690e-06   -8.56422217e-09
40       2.00000000e+00    6.50000000e-01    5.19283541e-06   -1.82579907e-08
0        0.00000000e+00    7.00000000e-01   -7.81920839e-07    1.01382227e-06
1        5.00000000e-02    7.00000000e-01    2.73281756e-05    3.46081354e-07
2        1.00000000e-01    7.00000000e-01    3.14515094e-05    1.88087278e-07
3        1.50000000e-01    7.00000000e-01    3.20653136e-05    1.48871978e-07
4        2.00000000e-01    7.00000000e-01    3.21657946e-05    1.39076152e-07
5        2.50000000e-01    7.00000000e-01    3.21906623e-05    1.36544165e-07
6        3.00000000e-01    7.00000000e-01    3.22040519e-05    1.35855915e-07
7        3.50000000e-01    7.00000000e-01    3.22154437e-05    1.35660046e-07
8        4.00000000e-01    7.00000000e-01    3.22262841e-05    1.35605134e-07
9        4.50000000e-01    7.00000000e-01    3.22368244e-05    1.35593988e-07
10       5.00000000e-01    7.00000000e-01    3.22471306e-05    1.35597641e-07
11       5.50000000e-01    7.00000000e-01    3.22572351e-05    1.35606733e-07
12       6.00000000e-01    7.00000000e-01    3.22671608e-05    1.35617987e-07
13       6.50000000e-01    7.00000000e-01    3.22769263e-05    1.35630161e-07
14       7.00000000e-01    7.00000000e-01    3.22865468e-05    1.35642748e-07
15       7.50000000e-01    7.00000000e-01    3.22960668e-05    1.35623972e-07
16       8.00000000e-01    7.00000000e-01    3.23054663e-05    1.35604561e-07
17       8.50000000e-01    7.00000000e-01    3.23147795e-05    1.35559758e-07
18       9.00000000e-01    7.00000000e-01    3.23240298e-05    1.35474639e-07
19       9.50000000e-01    7.00000000e-01    3.23332454e-05    1.35328284e-07
20       1.00000000e+00    7.00000000e-01    3.23424613e-05    1.35092324e-07
21       1.05000000e+00    7.00000000e-01    3.23517209e-05    1.34729352e-07
22       1.10000000e+00    7.00000000e-01    3.23610782e-05    1.34191146e-07
23       1.15000000e+00    7.00000000e-01    3.23705996e-05    1.33416615e-07
24       1.20000000e+00    7.00000000e-01    3.23803669e-05    1.32329258e-07
25       1.25000000e+00    7.00000000e-01    3.23904806e-05    1.30833888e-07
26       1.30000000e+00    7.00000000e-01    3.24010643e-05    1.28812260e-07
27       1.35000000e+00    7.00000000e-01    3.24122712e-05    1.26117227e-07
28       1.40000000e+00    7.00000000e-01    3.24242911e-05    1.22565149e-07
29       1.45000000e+00    7.00000000e-01    3.24373606e-05    1.17926576e-07
30       1.50000000e+00    7.00000000e-01    3.24517734e-05    1.11915705e-07
31       1.55000000e+00    7.00000000e-01    3.24678911e-05    1.04179769e-07
32       1.60000000e+00    7.00000000e-01    3.24861522e-05    9.42900548e-08
33       1.65000000e+00    7.00000000e-01    3.25070779e-05    8.17362973e-08
34       1.70000000e+00    7.00000000e-01    3.25312728e-05    6.59255407e-08
35       1.75000000e+00    7.00000000e-01    3.25594219e-05    4.61851829e-08
36       1.80000000e+00    7.00000000e-01    3.25922848e-05    2.17684995e-08
37       1.85000000e+00    7.00000000e-01    3.26306904e-05   -8.13978826e-09
38       1.90000000e+00    7.00000000e-01    3.26755328e-05   -4.44199122e-08
39       1.95000000e+00    7.00000000e-01    3.27277705e-05   -8.80161623e-08
40       2.00000000e+00    7.00000000e-01    3.27884283e-05   -1.39938101e-07
0        0.00000000e+00    7.50000000e-01   -4.14063920e-06    5.42521391e-06
1        5.00000000e-02    7.50000000e-01    1.68105369e-04    1.82060481e-06
2        1.00000000e-01    7.50000000e-01    1.93959260e-04    9.24839655e-07
3        1.50000000e-01    7.50000000e-01    1.97911400e-04    6.93936215e-07
4        2.00000000e-01    7.50000000e-01    1.98631009e-04    6.34836565e-07
5        2.50000000e-01    7.50000000e-01    1.98865999e-04    6.19446203e-07
6        3.00000000e-01    7.50000000e-01    1.99022943e-04    6.15412899e-07
7        3.50000000e-01    7.50000000e-01    1.99163620e-04    6.14470013e-07
8        4.00000000e-01    7.50000000e-01    1.99298356e-04    6.14425135e-07
9        4.50000000e-01    7.50000000e-01    1.99429472e-04    6.14662463e-07
10       5.00000000e-01    7.50000000e-01    1.99557862e-04    6.14996333e-07
11       5.50000000e-01    7.50000000e-01    1.99684056e-04    6.15366283e-07
12       6.00000000e-01    7.50000000e-01    1.99808435e-04    6.15751034e-07
13       6.50000000e-01    7.50000000e-01    1.99931284e-04    6.16142503e-07
14       7.00000000e-01    7.50000000e-01    2.00052831e-04    6.16537370e-07
15       7.50000000e-01    7.50000000e-01    2.00173254e-04    6.16934286e-07
16       8.00000000e-01    7.50000000e-01    2.00292907e-04    6.17138488e-07
17       8.50000000e-01    7.50000000e-01    2.00411709e-04    6.17338815e-07
18       9.00000000e-01    7.50000000e-01    2.00529922e-04    6.17382713e-07
19       9.50000000e-01    7.50000000e-01    2.00647729e-04    6.17177865e-07
20       1.00000000e+00    7.50000000e-01    2.00765339e-04    6.16594650e-07
21       1.05000000e+00    7.50000000e-01    2.00883002e-04    6.15457089e-07
22       1.10000000e+00    7.50000000e-01    2.01001018e-04    6.13532929e-07
23       1.15000000e+00    7.50000000e-01    2.01119753e-04    6.10522555e-07
24       1.20000000e+00    7.50000000e-01    2.01239654e-04    6.06046101e-07
25       1.25000000e+00    7.50000000e-01    2.01361266e-04    5.99627606e-07
26       1.30000000e+00    7.50000000e-01    2.01485255e-04    5.90674542e-07
27       1.35000000e+00    7.50000000e-01    2.01612441e-04    5.78450509e-07
28       1.40000000e+00    7.50000000e-01    2.01743833e-04    5.62038780e-07
29       1.45000000e+00    7.50000000e-01    2.01880686e-04    5.40294939e-07
30       1.50000000e+00    7.50000000e-01    2.02024557e-04    5.11788630e-07
31       1.55000000e+00    7.50000000e-01    2.02177384e-04    4.74737539e-07
32       1.60000000e+00    7.50000000e-01    2.02341553e-04    4.26940688e-07
33       1.65000000e+00    7.50000000e-01    2.02519961e-04    3.65721508e-07
34       1.70000000e+00    7.50000000e-01    2.02716052e-04    2.87891622e-07
35       1.75000000e+00    7.50000000e-01    2.02933833e-04    1.89742181e-07
36       1.80000000e+00    7.50000000e-01    2.03177850e-04    6.70611858e-08
37       1.85000000e+00    7.50000000e-01    2.03453158e-04   -8.48336625e-08
38       1.90000000e+00    7.50000000e-01    2.03765284e-04   -2.71061714e-07
39       1.95000000e+00    7.50000000e-01    2.04120207e-04   -4.97158363e-07
40       2.00000000e+00    7.50000000e-01    2.04524354e-04   -7.69071126e-07
0        0.00000000e+00    8.00000000e-01   -2.07126625e-05    2.99747683e-05
1        5.00000000e-02    8.00000000e-01    9.49197072e-04    1.06481086e-05
2        1.00000000e-01    8.00000000e-01    1.11599766e-03    5.20770637e-06
3        1.50000000e-01    8.00000000e-01    1.14508106e-03    3.67951496e-06
4        2.00000000e-01    8.00000000e-01    1.15250273e-03    3.27027394e-06
5        2.50000000e-01    8.00000000e-01    1.15631410e-03    3.16537059e-06
6        3.00000000e-01    8.00000000e-01    1.15937427e-03    3.14339496e-06
7        3.50000000e-01    8.00000000e-01    1.16219118e-03    3.14482132e-06
8        4.00000000e-01    8.00000000e-01    1.16488527e-03    3.15327698e-06
9        4.50000000e-01    8.00000000e-01    1.16750131e-03    3.16404225e-06
10       5.00000000e-01    8.00000000e-01    1.17006327e-03    3.17566867e-06
11       5.50000000e-01    8.00000000e-01    1.17258662e-03    3.18767916e-06
12       6.00000000e-01    8.00000000e-01    1.17508211e-03    3.19990479e-06
13       6.50000000e-01    8.00000000e-01    1.17755762e-03    3.21228136e-06
14       7.00000000e-01    8.00000000e-01    1.18001906e-03    3.22478275e-06
15       7.50000000e-01    8.00000000e-01    1.18247099e-03    3.23739855e-06
16       8.00000000e-01    8.00000000e-01    1.18491699e-03    3.25012590e-06
17       8.50000000e-01    8.00000000e-01    1.18736138e-03    3.26186109e-06
18       9.00000000e-01    8.00000000e-01    1.18980511e-03    3.27366413e-06
19       9.50000000e-01    8.00000000e-01    1.19225124e-03    3.28466402e-06
20       1.00000000e+00    8.00000000e-01    1.19470210e-03    3.29432084e-06
21       1.05000000e+00    8.00000000e-01    1.19716007e-03    3.30187224e-06
22       1.10000000e+00    8.00000000e-01    1.19962770e-03    3.30627824e-06
23       1.15000000e+00    8.00000000e-01    1.20210787e-03    3.30616016e-06
24       1.20000000e+00    8.00000000e-01    1.20460387e-03    3.29973218e-06
25       1.25000000e+00    8.00000000e-01    1.20711957e-03    3.28472182e-06
26       1.30000000e+00    8.00000000e-01    1.20965957e-03    3.25827238e-06
27       1.35000000e+00    8.00000000e-01    1.21222938e-03    3.21681765e-06
28       1.40000000e+00    8.00000000e-01    1.21483572e-03    3.15591538e-06
29       1.45000000e+00    8.00000000e-01    1.21748677e-03    3.07002541e-06
30       1.50000000e+00    8.00000000e-01    1.22019265e-03    2.95222093e-06
31       1.55000000e+00    8.00000000e-01    1.22296593e-03    2.79383119e-06
32       1.60000000e+00    8.00000000e-01    1.22582218e-03    2.58403181e-06
33       1.65000000e+00    8.00000000e-01    1.22878064e-03    2.30942207e-06
34       1.70000000e+00    8.00000000e-01    1.23186477e-03    1.95364961e-06
35       1.75000000e+00    8.00000000e-01    1.23510267e-03    1.49714806e-06
36       1.80000000e+00    8.00000000e-01    1.23852725e-03    9.17031558e-07
37       1.85000000e+00    8.00000000e-01    1.24217632e-03    1.87142783e-07
38       1.90000000e+00    8.00000000e-01    1.24609238e-03   -7.21803338e-07
39       1.95000000e+00    8.00000000e-01    1.25032252e-03   -1.84206960e-06
40       2.00000000e+00    8.00000000e-01    1.25491843e-03   -3.20882081e-06
0        0.00000000e+00    8.50000000e-01   -9.36955797e-05    1.75593784e-04
1        5.00000000e-02    8.50000000e-01    3.69268215e-03    7.48530699e-05
2        1.00000000e-01    8.50000000e-01    4.78304239e-03    3.68235197e-05
3        1.50000000e-01    8.50000000e-01    5.05188954e-03    2.24241967e-05
4        2.00000000e-01    8.50000000e-01    5.14439989e-03    1.75716619e-05
5        2.50000000e-01    8.50000000e-01    5.19744674e-03    1.61700823e-05
6        3.00000000e-01    8.50000000e-01    5.23923738e-03    1.58947216e-05
7        3.50000000e-01    8.50000000e-01    5.27666747e-03    1.59773942e-05
8        4.00000000e-01    8.50000000e-01    5.31196075e-03    1.61791211e-05
9        4.50000000e-01    8.50000000e-01    5.34606750e-03    1.64257405e-05
10       5.00000000e-01    8.50000000e-01    5.37949105e-03    1.66935531e-05
11       5.50000000e-01    8.50000000e-01    5.41253795e-03    1.69746771e-05
12       6.00000000e-01    8.50000000e-01    5.44541247e-03    1.72664311e-05
13       6.50000000e-01    8.50000000e-01    5.47825946e-03    1.75679544e-05
14       7.00000000e-01    8.50000000e-01    5.51118663e-03    1.78790723e-05
15       7.50000000e-01    8.50000000e-01    5.54427724e-03    1.81999032e-05
16       8.00000000e-01    8.50000000e-01    5.57759729e-03    1.85307280e-05
17       8.50000000e-01    8.50000000e-01    5.61120087e-03    1.88718819e-05
18       9.00000000e-01    8.50000000e-01    5.64514290e-03    1.92194778e-05
19       9.50000000e-01    8.50000000e-01    5.67945506e-03    1.95778505e-05
20       1.00000000e+00    8.50000000e-01    5.71418015e-03    1.99439692e-05
21       1.05000000e+00    8.50000000e-01    5.74935541e-03    2.03159516e-05
22       1.10000000e+00    8.50000000e-01    5.78501806e-03    2.06909165e-05
23       1.15000000e+00    8.50000000e-01    5.82120668e-03    2.10647062e-05
24       1.20000000e+00    8.50000000e-01    5.85796254e-03    2.14315748e-05
25       1.25000000e+00    8.50000000e-01    5.89533105e-03    2.17838362e-05
26       1.30000000e+00    8.50000000e-01    5.93336320e-03    2.21114548e-05
27       1.35000000e+00    8.50000000e-01    5.97211732e-03    2.24015511e-05
28       1.40000000e+00    8.50000000e-01    6.01166112e-03    2.26377768e-05
29       1.45000000e+00    8.50000000e-01    6.05207428e-03    2.27994980e-05
30       1.50000000e+00    8.50000000e-01    6.09345180e-03    2.28607191e-05
31       1.55000000e+00    8.50000000e-01    6.13590831e-03    2.27886761e-05
32       1.60000000e+00    8.50000000e-01    6.17958352e-03    2.25420668e-05
33       1.65000000e+00    8.50000000e-01    6.22464886e-03    2.20689477e-05
34       1.70000000e+00    8.50000000e-01    6.27131506e-03    2.13044223e-05
35       1.75000000e+00    8.50000000e-01    6.31984020e-03    2.01683471e-05
36       1.80000000e+00    8.50000000e-01    6.37053772e-03    1.85633405e-05
37       1.85000000e+00    8.50000000e-01    6.42378355e-03    1.63733334e-05
38       1.90000000e+00    8.50000000e-01    6.48002241e-03    1.34627418e-05
39       1.95000000e+00    8.50000000e-01    6.53977352e-03    9.67609765e-06
40       2.00000000e+00    8.50000000e-01    6.60363680e-03    4.83777208e-06
0        0.00000000e+00    9.00000000e-01   -4.01097395e-04    8.20505715e-04
1        5.00000000e-02    9.00000000e-01    6.31130877e-03    4.21466496e-04
2        1.00000000e-01    9.00000000e-01    1.05012441e-02    2.62236815e-04
3        1.50000000e-01    9.00000000e-01    1.28981937e-02    1.86246710e-04
4        2.00000000e-01    9.00000000e-01    1.41196540e-02    1.32738489e-04
5        2.50000000e-01    9.00000000e-01    1.46829983e-02    9.60860937e-05
6        3.00000000e-01    9.00000000e-01    1.50186448e-02    7.80137887e-05
7        3.50000000e-01    9.00000000e-01    1.52596452e-02    7.17713238e-05
8        4.00000000e-01    9.00000000e-01    1.54574955e-02    7.10884798e-05
