Index       TIME              V(1)              V(2)              I(C1)             I(R1)             I(V1)      
0        0.00000000e+00    0.00000000e+00    0.00000000e+00    0.00000000e+00    0.00000000e+00    0.00000000e+00
1        1.00000000e-10    6.28318530e-05    3.14159249e-12    6.28318499e-08    6.28318499e-08   -6.28318499e-08
2        3.00000000e-10    1.88495558e-04    2.19911461e-11    1.88495536e-07    1.88495536e-07   -1.88495536e-07
3        7.00000000e-10    4.39822957e-04    1.09955716e-10    4.39822847e-07    4.39822847e-07   -4.39822847e-07
4        1.50000000e-09    9.42477657e-04    4.86946583e-10    9.42477170e-07    9.42477170e-07   -9.42477170e-07
5        3.10000000e-09    1.94778621e-03    2.04517392e-09    1.94778417e-06    1.94778417e-06   -1.94778417e-06
6        6.30000000e-09    3.95839641e-03    8.37859476e-09    3.95838803e-06    3.95838803e-06   -3.95838803e-06
7        1.27000000e-08    7.97956066e-03    3.39130803e-08    7.97952674e-06    7.97952674e-06   -7.97952674e-06
8        2.55000000e-08    1.60214370e-02    1.36449404e-07    1.60213006e-05    1.60213006e-05   -1.60213006e-05
9        5.11000000e-08    3.21015609e-02    5.47342377e-07    3.21010135e-05    3.21010135e-05   -3.21010135e-05
10       1.02300000e-07    6.42327344e-02    2.19164427e-06    6.42305428e-05    6.42305428e-05   -6.42305428e-05
11       1.53500000e-07    9.62974391e-02    4.65673950e-06    9.62927824e-05    9.62927824e-05   -9.62927824e-05
12       2.04700000e-07    1.28262494e-01    7.94005608e-06    1.28254554e-04    1.28254554e-04   -1.28254554e-04
13       2.55900000e-07    1.60094821e-01    1.20381753e-05    1.60082783e-04    1.60082783e-04   -1.60082783e-04
14       3.07100000e-07    1.91761479e-01    1.69468353e-05    1.91744533e-04    1.91744533e-04   -1.91744533e-04
15       3.58300000e-07    2.23229701e-01    2.26609356e-05    2.23207040e-04    2.23207040e-04   -2.23207040e-04
16       4.09500000e-07    2.54466921e-01    2.91745419e-05    2.54437746e-04    2.54437746e-04   -2.54437746e-04
17       4.60700000e-07    2.85440815e-01    3.64808928e-05    2.85404334e-04    2.85404334e-04   -2.85404334e-04
18       5.11900000e-07    3.16119331e-01    4.45724066e-05    3.16074758e-04    3.16074758e-04   -3.16074758e-04
19       5.63100000e-07    3.46470722e-01    5.34406890e-05    3.46417282e-04    3.46417282e-04   -3.46417282e-04
20       6.14300000e-07    3.76463581e-01    6.30765420e-05    3.76400504e-04    3.76400504e-04   -3.76400504e-04
21       6.65500000e-07    4.06066870e-01    7.34699730e-05    4.05993400e-04    4.05993400e-04   -4.05993400e-04
22       7.16700000e-07    4.35249956e-01    8.46102058e-05    4.35165345e-04    4.35165345e-04   -4.35165345e-04
23       7.67900000e-07    4.63982638e-01    9.64856913e-05    4.63886153e-04    4.63886153e-04   -4.63886153e-04
24       8.19100000e-07    4.92235185e-01    1.09084120e-04    4.92126101e-04    4.92126101e-04   -4.92126101e-04
25       8.70300000e-07    5.19978361e-01    1.22392432e-04    5.19855968e-04    5.19855968e-04   -5.19855968e-04
26       9.21500000e-07    5.47183456e-01    1.36396837e-04    5.47047059e-04    5.47047059e-04   -5.47047059e-04
27       9.72700000e-07    5.73822317e-01    1.51082821e-04    5.73671234e-04    5.73671234e-04   -5.73671234e-04
28       1.02390000e-06    5.99867380e-01    1.66435165e-04    5.99700944e-04    5.99700944e-04   -5.99700944e-04
29       1.07510000e-06    6.25291691e-01    1.82437962e-04    6.25109253e-04    6.25109253e-04   -6.25109253e-04
30       1.12630000e-06    6.50068942e-01    1.99074630e-04    6.49869867e-04    6.49869867e-04   -6.49869867e-04
31       1.17750000e-06    6.74173493e-01    2.16327934e-04    6.73957165e-04    6.73957165e-04   -6.73957165e-04
32       1.22870000e-06    6.97580399e-01    2.34179997e-04    6.97346219e-04    6.97346219e-04   -6.97346219e-04
33       1.27990000e-06    7.20265440e-01    2.52612325e-04    7.20012828e-04    7.20012828e-04   -7.20012828e-04
34       1.33110000e-06    7.42205140e-01    2.71605824e-04    7.41933534e-04    7.41933534e-04   -7.41933534e-04
35       1.38230000e-06    7.63376796e-01    2.91140817e-04    7.63085655e-04    7.63085655e-04   -7.63085655e-04
36       1.43350000e-06    7.83758499e-01    3.11197067e-04    7.83447302e-04    7.83447302e-04   -7.83447302e-04
37       1.48470000e-06    8.03329159e-01    3.31753801e-04    8.02997405e-04    8.02997405e-04   -8.02997405e-04
38       1.53590000e-06    8.22068522e-01    3.52789724e-04    8.21715732e-04    8.21715732e-04   -8.21715732e-04
39       1.58710000e-06    8.39957197e-01    3.74283046e-04    8.39582914e-04    8.39582914e-04   -8.39582914e-04
40       1.63830000e-06    8.56976673e-01    3.96211506e-04    8.56580461e-04    8.56580461e-04   -8.56580461e-04
41       1.68950000e-06    8.73109338e-01    4.18552390e-04    8.72690785e-04    8.72690785e-04   -8.72690785e-04
42       1.74070000e-06    8.88338497e-01    4.41282559e-04    8.87897214e-04    8.87897214e-04   -8.87897214e-04
43       1.79190000e-06    9.02648391e-01    4.64378470e-04    9.02184012e-04    9.02184012e-04   -9.02184012e-04
44       1.84310000e-06    9.16024212e-01    4.87816201e-04    9.15536396e-04    9.15536396e-04   -9.15536396e-04
45       1.89430000e-06    9.28452119e-01    5.11571479e-04    9.27940547e-04    9.27940547e-04   -9.27940547e-04
46       1.94550000e-06    9.39919250e-01    5.35619700e-04    9.39383631e-04    9.39383631e-04   -9.39383631e-04
47       1.99670000e-06    9.50413741e-01    5.59935958e-04    9.49853805e-04    9.49853805e-04   -9.49853805e-04
48       2.04790000e-06    9.59924730e-01    5.84495068e-04    9.59340235e-04    9.59340235e-04   -9.59340235e-04
49       2.09910000e-06    9.68442375e-01    6.09271595e-04    9.67833104e-04    9.67833104e-04   -9.67833104e-04
50       2.15030000e-06    9.75957864e-01    6.34239880e-04    9.75323624e-04    9.75323624e-04   -9.75323624e-04
51       2.20150000e-06    9.82463417e-01    6.59374064e-04    9.81804043e-04    9.81804043e-04   -9.81804043e-04
52       2.25270000e-06    9.87952304e-01    6.84648116e-04    9.87267656e-04    9.87267656e-04   -9.87267656e-04
53       2.30390000e-06    9.92418844e-01    7.10035861e-04    9.91708808e-04    9.91708808e-04   -9.91708808e-04
54       2.35510000e-06    9.95858416e-01    7.35511007e-04    9.95122905e-04    9.95122905e-04   -9.95122905e-04
55       2.40630000e-06    9.98267459e-01    7.61047172e-04    9.97506412e-04    9.97506412e-04   -9.97506412e-04
56       2.45750000e-06    9.99643482e-01    7.86617907e-04    9.98856864e-04    9.98856864e-04   -9.98856864e-04
57       2.50870000e-06    9.99985059e-01    8.12196733e-04    9.99172863e-04    9.99172863e-04   -9.99172863e-04
58       2.55990000e-06    9.99291839e-01    8.37757157e-04    9.98454082e-04    9.98454082e-04   -9.98454082e-04
59       2.61110000e-06    9.97564537e-01    8.63272709e-04    9.96701265e-04    9.96701265e-04   -9.96701265e-04
60       2.66230000e-06    9.94804942e-01    8.88716965e-04    9.93916225e-04    9.93916225e-04   -9.93916225e-04
61       2.71350000e-06    9.91015909e-01    9.14063572e-04    9.90101846e-04    9.90101846e-04   -9.90101846e-04
62       2.76470000e-06    9.86201359e-01    9.39286281e-04    9.85262073e-04    9.85262073e-04   -9.85262073e-04
63       2.81590000e-06    9.80366275e-01    9.64358970e-04    9.79401916e-04    9.79401916e-04   -9.79401916e-04
64       2.86710000e-06    9.73516693e-01    9.89255673e-04    9.72527438e-04    9.72527438e-04   -9.72527438e-04
65       2.91830000e-06    9.65659704e-01    1.01395060e-03    9.64645753e-04    9.64645753e-04   -9.64645753e-04
66       2.96950000e-06    9.56803436e-01    1.03841819e-03    9.55765018e-04    9.55765018e-04   -9.55765018e-04
67       3.02070000e-06    9.46957055e-01    1.06263309e-03    9.45894422e-04    9.45894422e-04   -9.45894422e-04
68       3.07190000e-06    9.36130750e-01    1.08657022e-03    9.35044180e-04    9.35044180e-04   -9.35044180e-04
69       3.12310000e-06    9.24335724e-01    1.11020479e-03    9.23225519e-04    9.23225519e-04   -9.23225519e-04
70       3.17430000e-06    9.11584182e-01    1.13351233e-03    9.10450670e-04    9.10450670e-04   -9.10450670e-04
71       3.22550000e-06    8.97889320e-01    1.15646869e-03    8.96732852e-04    8.96732852e-04   -8.96732852e-04
72       3.27670000e-06    8.83265311e-01    1.17905010e-03    8.82086261e-04    8.82086261e-04   -8.82086261e-04
73       3.32790000e-06    8.67727286e-01    1.20123316e-03    8.66526053e-04    8.66526053e-04   -8.66526053e-04
74       3.37910000e-06    8.51291325e-01    1.22299491e-03    8.50068330e-04    8.50068330e-04   -8.50068330e-04
75       3.43030000e-06    8.33974436e-01    1.24431280e-03    8.32730123e-04    8.32730123e-04   -8.32730123e-04
76       3.48150000e-06    8.15794539e-01    1.26516476e-03    8.14529374e-04    8.14529374e-04   -8.14529374e-04
77       3.53270000e-06    7.96770446e-01    1.28552917e-03    7.95484917e-04    7.95484917e-04   -7.95484917e-04
78       3.58390000e-06    7.76921844e-01    1.30538495e-03    7.75616460e-04    7.75616460e-04   -7.75616460e-04
79       3.63510000e-06    7.56269273e-01    1.32471153e-03    7.54944562e-04    7.54944562e-04   -7.54944562e-04
80       3.68630000e-06    7.34834104e-01    1.34348889e-03    7.33490615e-04    7.33490615e-04   -7.33490615e-04
81       3.73750000e-06    7.12638519e-01    1.36169758e-03    7.11276821e-04    7.11276821e-04   -7.11276821e-04
82       3.78870000e-06    6.89705485e-01    1.37931873e-03    6.88326167e-04    6.88326167e-04   -6.88326167e-04
83       3.83990000e-06    6.66058735e-01    1.39633409e-03    6.64662401e-04    6.64662401e-04   -6.64662401e-04
84       3.89110000e-06    6.41722738e-01    1.41272602e-03    6.40310012e-04    6.40310012e-04   -6.40310012e-04
85       3.94230000e-06    6.16722677e-01    1.42847755e-03    6.15294200e-04    6.15294200e-04   -6.15294200e-04
86       3.99350000e-06    5.91084423e-01    1.44357236e-03    5.89640851e-04    5.89640851e-04   -5.89640851e-04
87       4.04470000e-06    5.64834507e-01    1.45799480e-03    5.63376513e-04    5.63376513e-04   -5.63376513e-04
88       4.09590000e-06    5.38000093e-01    1.47172992e-03    5.36528363e-04    5.36528363e-04   -5.36528363e-04
89       4.14710000e-06    5.10608948e-01    1.48476350e-03    5.09124185e-04    5.09124185e-04   -5.09124185e-04
90       4.19830000e-06    4.82689419e-01    1.49708203e-03    4.81192337e-04    4.81192337e-04   -4.81192337e-04
91       4.24950000e-06    4.54270395e-01    1.50867273e-03    4.52761723e-04    4.52761723e-04   -4.52761723e-04
92       4.30070000e-06    4.25381287e-01    1.51952359e-03    4.23861763e-04    4.23861763e-04   -4.23861763e-04
93       4.35190000e-06    3.96051988e-01    1.52962336e-03    3.94522364e-04    3.94522364e-04   -3.94522364e-04
94       4.40310000e-06    3.66312849e-01    1.53896157e-03    3.64773887e-04    3.64773887e-04   -3.64773887e-04
95       4.45430000e-06    3.36194644e-01    1.54752854e-03    3.34647115e-04    3.34647115e-04   -3.34647115e-04
96       4.50550000e-06    3.05728540e-01    1.55531537e-03    3.04173225e-04    3.04173225e-04   -3.04173225e-04
97       4.55670000e-06    2.74946065e-01    1.56231400e-03    2.73383751e-04    2.73383751e-04   -2.73383751e-04
98       4.60790000e-06    2.43879071e-01    1.56851715e-03    2.42310554e-04    2.42310554e-04   -2.42310554e-04
99       4.65910000e-06    2.12559708e-01    1.57391838e-03    2.10985790e-04    2.10985790e-04   -2.10985790e-04
100      4.71030000e-06    1.81020385e-01    1.57851209e-03    1.79441873e-04    1.79441873e-04   -1.79441873e-04
101      4.76150000e-06    1.49293740e-01    1.58229351e-03    1.47711447e-04    1.47711447e-04   -1.47711447e-04
102      4.81270000e-06    1.17412604e-01    1.58525869e-03    1.15827345e-04    1.15827345e-04   -1.15827345e-04
103      4.86390000e-06    8.54099673e-02    1.58740455e-03    8.38225628e-05    8.38225628e-05   -8.38225628e-05
104      4.91510000e-06    5.33189474e-02    1.58872884e-03    5.17302185e-05    5.17302185e-05   -5.17302185e-05
105      4.96630000e-06    2.11727523e-02    1.58923018e-03    1.95835221e-05    1.95835221e-05   -1.95835221e-05
106      5.01750000e-06   -1.09953527e-02    1.58890802e-03   -1.25842607e-05   -1.25842607e-05    1.25842607e-05
107      5.06870000e-06   -4.31520796e-02    1.58776268e-03   -4.47398422e-05   -4.47398422e-05    4.47398422e-05
108      5.11990000e-06   -7.52641520e-02    1.58579532e-03   -7.68499474e-05   -7.68499474e-05    7.68499474e-05
109      5.17110000e-06   -1.07298340e-01    1.58300796e-03   -1.08881348e-04   -1.08881348e-04    1.08881348e-04
110      5.22230000e-06   -1.39221494e-01    1.57940346e-03   -1.40800898e-04   -1.40800898e-04    1.40800898e-04
111      5.27350000e-06   -1.71000580e-01    1.57498552e-03   -1.72575566e-04   -1.72575566e-04    1.72575566e-04
112      5.32470000e-06   -2.02602713e-01    1.56975871e-03   -2.04172471e-04   -2.04172471e-04    2.04172471e-04
113      5.37590000e-06   -2.33995189e-01    1.56372840e-03   -2.35558917e-04   -2.35558917e-04    2.35558917e-04
114      5.42710000e-06   -2.65145523e-01    1.55690082e-03   -2.66702424e-04   -2.66702424e-04    2.66702424e-04
115      5.47830000e-06   -2.96021482e-01    1.54928300e-03   -2.97570765e-04   -2.97570765e-04    2.97570765e-04
116      5.52950000e-06   -3.26591113e-01    1.54088283e-03   -3.28131996e-04   -3.28131996e-04    3.28131996e-04
117      5.58070000e-06   -3.56822784e-01    1.53170895e-03   -3.58354493e-04   -3.58354493e-04    3.58354493e-04
118      5.63190000e-06   -3.86685209e-01    1.52177085e-03   -3.88206980e-04   -3.88206980e-04    3.88206980e-04
119      5.68310000e-06   -4.16147487e-01    1.51107879e-03   -4.17658566e-04   -4.17658566e-04    4.17658566e-04
120      5.73430000e-06   -4.45179130e-01    1.49964382e-03   -4.46678774e-04   -4.46678774e-04    4.46678774e-04
121      5.78550000e-06   -4.73750095e-01    1.48747773e-03   -4.75237573e-04   -4.75237573e-04    4.75237573e-04
122      5.83670000e-06   -5.01830817e-01    1.47459312e-03   -5.03305410e-04   -5.03305410e-04    5.03305410e-04
123      5.88790000e-06   -5.29392238e-01    1.46100327e-03   -5.30853241e-04   -5.30853241e-04    5.30853241e-04
124      5.93910000e-06   -5.56405837e-01    1.44672225e-03   -5.57852559e-04   -5.57852559e-04    5.57852559e-04
125      5.99030000e-06   -5.82843659e-01    1.43176480e-03   -5.84275423e-04   -5.84275423e-04    5.84275423e-04
126      6.04150000e-06   -6.08678346e-01    1.41614638e-03   -6.10094492e-04   -6.10094492e-04    6.10094492e-04
127      6.09270000e-06   -6.33883165e-01    1.39988313e-03   -6.35283048e-04   -6.35283048e-04    6.35283048e-04
128      6.14390000e-06   -6.58432032e-01    1.38299187e-03   -6.59815024e-04   -6.59815024e-04    6.59815024e-04
129      6.19510000e-06   -6.82299545e-01    1.36549004e-03   -6.83665035e-04   -6.83665035e-04    6.83665035e-04
130      6.24630000e-06   -7.05461005e-01    1.34739575e-03   -7.06808401e-04   -7.06808401e-04    7.06808401e-04
131      6.29750000e-06   -7.27892444e-01    1.32872768e-03   -7.29221172e-04   -7.29221172e-04    7.29221172e-04
132      6.34870000e-06   -7.49570651e-01    1.30950515e-03   -7.50880156e-04   -7.50880156e-04    7.50880156e-04
133      6.39990000e-06   -7.70473191e-01    1.28974802e-03   -7.71762939e-04   -7.71762939e-04    7.71762939e-04
134      6.45110000e-06   -7.90578435e-01    1.26947671e-03   -7.91847911e-04   -7.91847911e-04    7.91847911e-04
135      6.50230000e-06   -8.09865577e-01    1.24871219e-03   -8.11114289e-04   -8.11114289e-04    8.11114289e-04
136      6.55350000e-06   -8.28314659e-01    1.22747591e-03   -8.29542135e-04   -8.29542135e-04    8.29542135e-04
137      6.60470000e-06   -8.45906590e-01    1.20578983e-03   -8.47112380e-04   -8.47112380e-04    8.47112380e-04
138      6.65590000e-06   -8.62623165e-01    1.18367638e-03   -8.63806842e-04   -8.63806842e-04    8.63806842e-04
139      6.70710000e-06   -8.78447086e-01    1.16115841e-03   -8.79608244e-04   -8.79608244e-04    8.79608244e-04
140      6.75830000e-06   -8.93361978e-01    1.13825920e-03   -8.94500237e-04   -8.94500237e-04    8.94500237e-04
141      6.80950000e-06   -9.07352406e-01    1.11500244e-03   -9.08467408e-04   -9.08467408e-04    9.08467408e-04
142      6.86070000e-06   -9.20403893e-01    1.09141216e-03   -9.21495306e-04   -9.21495306e-04    9.21495306e-04
143      6.91190000e-06   -9.32502934e-01    1.06751275e-03   -9.33570447e-04   -9.33570447e-04    9.33570447e-04
144      6.96310000e-06   -9.43637008e-01    1.04332894e-03   -9.44680337e-04   -9.44680337e-04    9.44680337e-04
145      7.01430000e-06   -9.53794594e-01    1.01888571e-03   -9.54813480e-04   -9.54813480e-04    9.54813480e-04
146      7.06550000e-06   -9.62965180e-01    9.94208350e-04   -9.63959388e-04   -9.63959388e-04    9.63959388e-04
147      7.11670000e-06   -9.71139276e-01    9.69322370e-04   -9.72108598e-04   -9.72108598e-04    9.72108598e-04
148      7.16790000e-06   -9.78308423e-01    9.44253502e-04   -9.79252677e-04   -9.79252677e-04    9.79252677e-04
149      7.21910000e-06   -9.84465204e-01    9.19027665e-04   -9.85384232e-04   -9.85384232e-04    9.85384232e-04
150      7.27030000e-06   -9.89603246e-01    8.93670944e-04   -9.90496917e-04   -9.90496917e-04    9.90496917e-04
151      7.32150000e-06   -9.93717234e-01    8.68209557e-04   -9.94585443e-04   -9.94585443e-04    9.94585443e-04
152      7.37270000e-06   -9.96802909e-01    8.42669830e-04   -9.97645579e-04   -9.97645579e-04    9.97645579e-04
153      7.42390000e-06   -9.98857079e-01    8.17078172e-04   -9.99674157e-04   -9.99674157e-04    9.99674157e-04
154      7.47510000e-06   -9.99877617e-01    7.91461043e-04   -1.00066908e-03   -1.00066908e-03    1.00066908e-03
155      7.52630000e-06   -9.99863469e-01    7.65844933e-04   -1.00062931e-03   -1.00062931e-03    1.00062931e-03
156      7.57750000e-06   -9.98814648e-01    7.40256327e-04   -9.99554904e-04   -9.99554904e-04    9.99554904e-04
157      7.62870000e-06   -9.96732240e-01    7.14721685e-04   -9.97446962e-04   -9.97446962e-04    9.97446962e-04
158      7.67990000e-06   -9.93618400e-01    6.89267409e-04   -9.94307667e-04   -9.94307667e-04    9.94307667e-04
159      7.73110000e-06   -9.89476349e-01    6.63919818e-04   -9.90140269e-04   -9.90140269e-04    9.90140269e-04
160      7.78230000e-06   -9.84310375e-01    6.38705121e-04   -9.84949080e-04   -9.84949080e-04    9.84949080e-04
161      7.83350000e-06   -9.78125823e-01    6.13649391e-04   -9.78739472e-04   -9.78739472e-04    9.78739472e-04
162      7.88470000e-06   -9.70929093e-01    5.88778533e-04   -9.71517871e-04   -9.71517871e-04    9.71517871e-04
163      7.93590000e-06   -9.62727632e-01    5.64118265e-04   -9.63291750e-04   -9.63291750e-04    9.63291750e-04
164      7.98710000e-06   -9.53529927e-01    5.39694082e-04   -9.54069621e-04   -9.54069621e-04    9.54069621e-04
165      8.03830000e-06   -9.43345496e-01    5.15531240e-04   -9.43861027e-04   -9.43861027e-04    9.43861027e-04
166      8.08950000e-06   -9.32184879e-01    4.91654721e-04   -9.32676533e-04   -9.32676533e-04    9.32676533e-04
167      8.14070000e-06   -9.20059623e-01    4.68089211e-04   -9.20527712e-04   -9.20527712e-04    9.20527712e-04
168      8.19190000e-06   -9.06982277e-01    4.44859077e-04   -9.07427137e-04   -9.07427137e-04    9.07427137e-04
169      8.24310000e-06   -8.92966374e-01    4.21988334e-04   -8.93388362e-04   -8.93388362e-04    8.93388362e-04
170      8.29430000e-06   -8.78026417e-01    3.99500631e-04   -8.78425917e-04   -8.78425917e-04    8.78425917e-04
171      8.34550000e-06   -8.62177865e-01    3.77419216e-04   -8.62555284e-04   -8.62555284e-04    8.62555284e-04
172      8.39670000e-06   -8.45437120e-01    3.55766918e-04   -8.45792887e-04   -8.45792887e-04    8.45792887e-04
173      8.44790000e-06   -8.27821506e-01    3.34566122e-04   -8.28156072e-04   -8.28156072e-04    8.28156072e-04
