Index   V(13)           V(6)           V(8)           
0       5.00000000e+00   1.06577446e+00   1.00715686e+01   
1       5.05000000e+00   1.06577446e+00   1.00715686e+01   
2       5.10000000e+00   1.06577446e+00   1.00715686e+01   
3       5.15000000e+00   1.06577446e+00   1.00715686e+01   
4       5.20000000e+00   1.06577446e+00   1.00715686e+01   
5       5.25000000e+00   1.06577446e+00   1.00715686e+01   
6       5.30000000e+00   1.06577446e+00   1.00715686e+01   
7       5.35000000e+00   1.06577446e+00   1.00715686e+01   
8       5.40000000e+00   1.06577445e+00   1.00715686e+01   
9       5.45000000e+00   1.06577445e+00   1.00715686e+01   
10      5.50000000e+00   1.06577445e+00   1.00715686e+01   
11      5.55000000e+00   1.06577445e+00   1.00715686e+01   
12      5.60000000e+00   1.06577445e+00   1.00715686e+01   
13      5.65000000e+00   1.06577445e+00   1.00715686e+01   
14      5.70000000e+00   1.06577445e+00   1.00715686e+01   
15      5.75000000e+00   1.06577445e+00   1.00715686e+01   
16      5.80000000e+00   1.06577445e+00   1.00715686e+01   
17      5.85000000e+00   1.06577445e+00   1.00715686e+01   
18      5.90000000e+00   1.06577445e+00   1.00715686e+01   
19      5.95000000e+00   1.06577445e+00   1.00715686e+01   
20      6.00000000e+00   1.06577445e+00   1.00715686e+01   
21      6.05000000e+00   1.06577445e+00   1.00715685e+01   
22      6.10000000e+00   1.06577445e+00   1.00715685e+01   
23      6.15000000e+00   1.06577445e+00   1.00715685e+01   
24      6.20000000e+00   1.06577445e+00   1.00715685e+01   
25      6.25000000e+00   1.06577445e+00   1.00715685e+01   
26      6.30000000e+00   1.06577445e+00   1.00715685e+01   
27      6.35000000e+00   1.06577445e+00   1.00715685e+01   
28      6.40000000e+00   1.06577445e+00   1.00715685e+01   
29      6.45000000e+00   1.06577445e+00   1.00715685e+01   
30      6.50000000e+00   1.06577445e+00   1.00715685e+01   
31      6.55000000e+00   1.06577445e+00   1.00715685e+01   
32      6.60000000e+00   1.06577445e+00   1.00715685e+01   
33      6.65000000e+00   1.06577444e+00   1.00715685e+01   
34      6.70000000e+00   1.06577444e+00   1.00715685e+01   
35      6.75000000e+00   1.06577444e+00   1.00715685e+01   
36      6.80000000e+00   1.06577444e+00   1.00715685e+01   
37      6.85000000e+00   1.06577444e+00   1.00715685e+01   
38      6.90000000e+00   1.06577444e+00   1.00715685e+01   
39      6.95000000e+00   1.06577444e+00   1.00715685e+01   
40      7.00000000e+00   1.06577444e+00   1.00715685e+01   
41      7.05000000e+00   1.06577444e+00   1.00715685e+01   
42      7.10000000e+00   1.06577444e+00   1.00715685e+01   
43      7.15000000e+00   1.06577444e+00   1.00715685e+01   
44      7.20000000e+00   1.06577444e+00   1.00715685e+01   
45      7.25000000e+00   1.06577444e+00   1.00715685e+01   
46      7.30000000e+00   1.06577444e+00   1.00715685e+01   
47      7.35000000e+00   1.06577444e+00   1.00715684e+01   
48      7.40000000e+00   1.06577444e+00   1.00715684e+01   
49      7.45000000e+00   1.06577444e+00   1.00715684e+01   
50      7.50000000e+00   1.06577444e+00   1.00715684e+01   
51      7.55000000e+00   1.06577444e+00   1.00715684e+01   
52      7.60000000e+00   1.06577444e+00   1.00715684e+01   
53      7.65000000e+00   1.06577444e+00   1.00715684e+01   
54      7.70000000e+00   1.06577444e+00   1.00715684e+01   
55      7.75000000e+00   1.06577444e+00   1.00715684e+01   
56      7.80000000e+00   1.06577443e+00   1.00715684e+01   
57      7.85000000e+00   1.06577443e+00   1.00715684e+01   
58      7.90000000e+00   1.06577443e+00   1.00715684e+01   
59      7.95000000e+00   1.06577443e+00   1.00715684e+01   
60      8.00000000e+00   1.06577443e+00   1.00715684e+01   
61      8.05000000e+00   1.06577443e+00   1.00715684e+01   
62      8.10000000e+00   1.06577443e+00   1.00715684e+01   
63      8.15000000e+00   1.06577443e+00   1.00715684e+01   
64      8.20000000e+00   1.06577443e+00   1.00715684e+01   
65      8.25000000e+00   1.06577443e+00   1.00715684e+01   
66      8.30000000e+00   1.06577443e+00   1.00715684e+01   
67      8.35000000e+00   1.06577443e+00   1.00715684e+01   
68      8.40000000e+00   1.06577443e+00   1.00715684e+01   
69      8.45000000e+00   1.06577443e+00   1.00715683e+01   
70      8.50000000e+00   1.06577443e+00   1.00715683e+01   
71      8.55000000e+00   1.06577443e+00   1.00715683e+01   
72      8.60000000e+00   1.06577443e+00   1.00715683e+01   
73      8.65000000e+00   1.06577443e+00   1.00715683e+01   
74      8.70000000e+00   1.06577442e+00   1.00715683e+01   
75      8.75000000e+00   1.06577442e+00   1.00715683e+01   
76      8.80000000e+00   1.06577442e+00   1.00715683e+01   
77      8.85000000e+00   1.06577442e+00   1.00715683e+01   
78      8.90000000e+00   1.06577442e+00   1.00715683e+01   
79      8.95000000e+00   1.06577442e+00   1.00715683e+01   
80      9.00000000e+00   1.06577442e+00   1.00715682e+01   
81      9.05000000e+00   1.06577442e+00   1.00715682e+01   
82      9.10000000e+00   1.06577441e+00   1.00715682e+01   
83      9.15000000e+00   1.06577441e+00   1.00715682e+01   
84      9.20000000e+00   1.06577441e+00   1.00715681e+01   
85      9.25000000e+00   1.06577440e+00   1.00715681e+01   
86      9.30000000e+00   1.06577440e+00   1.00715681e+01   
87      9.35000000e+00   1.06577439e+00   1.00715680e+01   
88      9.40000000e+00   1.06577438e+00   1.00715679e+01   
89      9.45000000e+00   1.06577437e+00   1.00715678e+01   
90      9.50000000e+00   1.06577435e+00   1.00715676e+01   
91      9.55000000e+00   1.06577433e+00   1.00715674e+01   
92      9.60000000e+00   1.06577428e+00   1.00715670e+01   
93      9.65000000e+00   1.06577422e+00   1.00715664e+01   
94      9.70000000e+00   1.06577410e+00   1.00715652e+01   
95      9.75000000e+00   1.06577386e+00   1.00715630e+01   
96      9.80000000e+00   1.06577333e+00   1.00715580e+01   
97      9.85000000e+00   1.06577185e+00   1.00715440e+01   
98      9.90000000e+00   1.06576767e+00   1.00715045e+01   
99      9.95000000e+00   1.06575673e+00   1.00714011e+01   
100     1.00000000e+01   1.06572830e+00   1.00711324e+01   
101     1.00500000e+01   1.06565568e+00   1.00704462e+01   
102     1.01000000e+01   1.06547786e+00   1.00687658e+01   
103     1.01500000e+01   1.06507935e+00   1.00649999e+01   
104     1.02000000e+01   1.06431032e+00   1.00577326e+01   
105     1.02500000e+01   1.06307678e+00   1.00460756e+01   
106     1.03000000e+01   1.06139996e+00   1.00302296e+01   
107     1.03500000e+01   1.05936899e+00   1.00110370e+01   
108     1.04000000e+01   1.05707635e+00   9.98937147e+00   
109     1.04500000e+01   1.05459338e+00   9.96590748e+00   
110     1.05000000e+01   1.05197032e+00   9.94111953e+00   
111     1.05500000e+01   1.04924183e+00   9.91533530e+00   
112     1.06000000e+01   1.04643211e+00   9.88878345e+00   
113     1.06500000e+01   1.04355839e+00   9.86162678e+00   
114     1.07000000e+01   1.04063322e+00   9.83398392e+00   
115     1.07500000e+01   1.03766595e+00   9.80594321e+00   
116     1.08000000e+01   1.03466369e+00   9.77757189e+00   
117     1.08500000e+01   1.03163196e+00   9.74892205e+00   
118     1.09000000e+01   1.02857511e+00   9.72003477e+00   
119     1.09500000e+01   1.02549660e+00   9.69094290e+00   
120     1.10000000e+01   1.02239927e+00   9.66167312e+00   
121     1.10500000e+01   1.01928543e+00   9.63224734e+00   
122     1.11000000e+01   1.01615701e+00   9.60268374e+00   
123     1.11500000e+01   1.01301562e+00   9.57299757e+00   
124     1.12000000e+01   1.00986262e+00   9.54320173e+00   
125     1.12500000e+01   1.00669918e+00   9.51330723e+00   
126     1.13000000e+01   1.00352630e+00   9.48332352e+00   
127     1.13500000e+01   1.00034485e+00   9.45325880e+00   
128     1.14000000e+01   9.97155575e-01   9.42312018e+00   
129     1.14500000e+01   9.93959145e-01   9.39291392e+00   
130     1.15000000e+01   9.90756137e-01   9.36264549e+00   
131     1.15500000e+01   9.87547065e-01   9.33231977e+00   
132     1.16000000e+01   9.84332388e-01   9.30194107e+00   
133     1.16500000e+01   9.81112513e-01   9.27151324e+00   
134     1.17000000e+01   9.77887805e-01   9.24103975e+00   
135     1.17500000e+01   9.74658593e-01   9.21052370e+00   
136     1.18000000e+01   9.71425174e-01   9.17996790e+00   
137     1.18500000e+01   9.68187817e-01   9.14937487e+00   
138     1.19000000e+01   9.64946766e-01   9.11874694e+00   
139     1.19500000e+01   9.61702243e-01   9.08808620e+00   
140     1.20000000e+01   9.58454451e-01   9.05739456e+00   
141     1.20500000e+01   9.55203576e-01   9.02667379e+00   
142     1.21000000e+01   9.51949789e-01   8.99592550e+00   
143     1.21500000e+01   9.48693246e-01   8.96515118e+00   
144     1.22000000e+01   9.45434093e-01   8.93435218e+00   
145     1.22500000e+01   9.42172463e-01   8.90352977e+00   
146     1.23000000e+01   9.38908480e-01   8.87268513e+00   
147     1.23500000e+01   9.35642258e-01   8.84181934e+00   
148     1.24000000e+01   9.32373905e-01   8.81093341e+00   
149     1.24500000e+01   9.29103520e-01   8.78002827e+00   
150     1.25000000e+01   9.25831196e-01   8.74910480e+00   
151     1.25500000e+01   9.22557018e-01   8.71816382e+00   
152     1.26000000e+01   9.19281068e-01   8.68720609e+00   
153     1.26500000e+01   9.16003422e-01   8.65623233e+00   
154     1.27000000e+01   9.12724149e-01   8.62524321e+00   
155     1.27500000e+01   9.09443318e-01   8.59423936e+00   
156     1.28000000e+01   9.06160991e-01   8.56322136e+00   
157     1.28500000e+01   9.02877226e-01   8.53218979e+00   
158     1.29000000e+01   8.99592080e-01   8.50114515e+00   
159     1.29500000e+01   8.96305604e-01   8.47008796e+00   
160     1.30000000e+01   8.93017849e-01   8.43901867e+00   
161     1.30500000e+01   8.89728861e-01   8.40793773e+00   
162     1.31000000e+01   8.86438684e-01   8.37684556e+00   
163     1.31500000e+01   8.83147361e-01   8.34574256e+00   
164     1.32000000e+01   8.79854931e-01   8.31462910e+00   
165     1.32500000e+01   8.76561432e-01   8.28350553e+00   
166     1.33000000e+01   8.73266900e-01   8.25237221e+00   
167     1.33500000e+01   8.69971370e-01   8.22122944e+00   
168     1.34000000e+01   8.66674873e-01   8.19007755e+00   
169     1.34500000e+01   8.63377440e-01   8.15891681e+00   
170     1.35000000e+01   8.60079102e-01   8.12774751e+00   
171     1.35500000e+01   8.56779885e-01   8.09656992e+00   
172     1.36000000e+01   8.53479818e-01   8.06538428e+00   
173     1.36500000e+01   8.50178925e-01   8.03419084e+00   
174     1.37000000e+01   8.46877232e-01   8.00298984e+00   
175     1.37500000e+01   8.43574761e-01   7.97178149e+00   
176     1.38000000e+01   8.40271534e-01   7.94056600e+00   
177     1.38500000e+01   8.36967575e-01   7.90934358e+00   
178     1.39000000e+01   8.33662902e-01   7.87811442e+00   
179     1.39500000e+01   8.30357536e-01   7.84687871e+00   
180     1.40000000e+01   8.27051495e-01   7.81563663e+00   
181     1.40500000e+01   8.23744798e-01   7.78438834e+00   
182     1.41000000e+01   8.20437463e-01   7.75313402e+00   
183     1.41500000e+01   8.17129505e-01   7.72187382e+00   
184     1.42000000e+01   8.13820941e-01   7.69060790e+00   
185     1.42500000e+01   8.10511787e-01   7.65933639e+00   
186     1.43000000e+01   8.07202058e-01   7.62805945e+00   
187     1.43500000e+01   8.03891767e-01   7.59677720e+00   
188     1.44000000e+01   8.00580929e-01   7.56548978e+00   
189     1.44500000e+01   7.97269557e-01   7.53419731e+00   
190     1.45000000e+01   7.93957663e-01   7.50289992e+00   
191     1.45500000e+01   7.90645261e-01   7.47159771e+00   
192     1.46000000e+01   7.87332362e-01   7.44029082e+00   
193     1.46500000e+01   7.84018977e-01   7.40897933e+00   
194     1.47000000e+01   7.80705119e-01   7.37766337e+00   
195     1.47500000e+01   7.77390796e-01   7.34634303e+00   
196     1.48000000e+01   7.74076021e-01   7.31501840e+00   
197     1.48500000e+01   7.70760803e-01   7.28368959e+00   
198     1.49000000e+01   7.67445152e-01   7.25235668e+00   
199     1.49500000e+01   7.64129077e-01   7.22101977e+00   
200     1.50000000e+01   7.60812587e-01   7.18967894e+00   
201     1.50500000e+01   7.57495691e-01   7.15833428e+00   
202     1.51000000e+01   7.54178398e-01   7.12698586e+00   
203     1.51500000e+01   7.50860716e-01   7.09563376e+00   
204     1.52000000e+01   7.47542652e-01   7.06427807e+00   
205     1.52500000e+01   7.44224216e-01   7.03291884e+00   
206     1.53000000e+01   7.40905414e-01   7.00155616e+00   
207     1.53500000e+01   7.37586253e-01   6.97019009e+00   
208     1.54000000e+01   7.34266741e-01   6.93882070e+00   
209     1.54500000e+01   7.30946885e-01   6.90744806e+00   
210     1.55000000e+01   7.27626691e-01   6.87607223e+00   
211     1.55500000e+01   7.24306165e-01   6.84469326e+00   
212     1.56000000e+01   7.20985315e-01   6.81331123e+00   
213     1.56500000e+01   7.17664146e-01   6.78192618e+00   
214     1.57000000e+01   7.14342664e-01   6.75053818e+00   
215     1.57500000e+01   7.11020875e-01   6.71914727e+00   
216     1.58000000e+01   7.07698785e-01   6.68775352e+00   
217     1.58500000e+01   7.04376399e-01   6.65635697e+00   
218     1.59000000e+01   7.01053723e-01   6.62495768e+00   
219     1.59500000e+01   6.97730761e-01   6.59355569e+00   
220     1.60000000e+01   6.94407518e-01   6.56215105e+00   
221     1.60500000e+01   6.91084001e-01   6.53074381e+00   
222     1.61000000e+01   6.87760212e-01   6.49933401e+00   
223     1.61500000e+01   6.84436158e-01   6.46792170e+00   
224     1.62000000e+01   6.81111843e-01   6.43650692e+00   
225     1.62500000e+01   6.77787271e-01   6.40508971e+00   
226     1.63000000e+01   6.74462446e-01   6.37367011e+00   
227     1.63500000e+01   6.71137373e-01   6.34224817e+00   
228     1.64000000e+01   6.67812056e-01   6.31082392e+00   
229     1.64500000e+01   6.64486499e-01   6.27939742e+00   
230     1.65000000e+01   6.61160709e-01   6.24796870e+00   
231     1.65500000e+01   6.57834698e-01   6.21653789e+00   
232     1.66000000e+01   6.54508492e-01   6.18510525e+00   
233     1.66500000e+01   6.51182179e-01   6.15367159e+00   
234     1.67000000e+01   6.47856042e-01   6.12223959e+00   
235     1.67500000e+01   6.44531017e-01   6.09081811e+00   
236     1.68000000e+01   6.41210230e-01   6.05943667e+00   
237     1.68500000e+01   6.37903905e-01   6.02819191e+00   
238     1.69000000e+01   6.34643669e-01   5.99738267e+00   
239     1.69500000e+01   6.31512663e-01   5.96779467e+00   
240     1.70000000e+01   6.28657821e-01   5.94081641e+00   
241     1.70500000e+01   6.26193048e-01   5.91752431e+00   
242     1.71000000e+01   6.24095632e-01   5.89770373e+00   
243     1.71500000e+01   6.22269151e-01   5.88044347e+00   
244     1.72000000e+01   6.20626985e-01   5.86492501e+00   
245     1.72500000e+01   6.19110665e-01   5.85059578e+00   
246     1.73000000e+01   6.17682998e-01   5.83710433e+00   
247     1.73500000e+01   6.16320056e-01   5.82422453e+00   
248     1.74000000e+01   6.15005954e-01   5.81180627e+00   
249     1.74500000e+01   6.13729772e-01   5.79974635e+00   
250     1.75000000e+01   6.12483756e-01   5.78797150e+00   
251     1.75500000e+01   6.11262236e-01   5.77642813e+00   
252     1.76000000e+01   6.10060961e-01   5.76507608e+00   
253     1.76500000e+01   6.08876670e-01   5.75388453e+00   
254     1.77000000e+01   6.07706813e-01   5.74282939e+00   
255     1.77500000e+01   6.06549365e-01   5.73189150e+00   
256     1.78000000e+01   6.05402689e-01   5.72105541e+00   
257     1.78500000e+01   6.04265445e-01   5.71030846e+00   
258     1.79000000e+01   6.03136528e-01   5.69964019e+00   
259     1.79500000e+01   6.02015009e-01   5.68904183e+00   
260     1.80000000e+01   6.00900107e-01   5.67850601e+00   
261     1.80500000e+01   5.99791155e-01   5.66802641e+00   
262     1.81000000e+01   5.98687581e-01   5.65759764e+00   
263     1.81500000e+01   5.97588890e-01   5.64721501e+00   
264     1.82000000e+01   5.96494654e-01   5.63687448e+00   
265     1.82500000e+01   5.95404494e-01   5.62657247e+00   
266     1.83000000e+01   5.94318080e-01   5.61630586e+00   
267     1.83500000e+01   5.93235119e-01   5.60607187e+00   
268     1.84000000e+01   5.92155350e-01   5.59586806e+00   
269     1.84500000e+01   5.91078541e-01   5.58569222e+00   
270     1.85000000e+01   5.90004485e-01   5.57554238e+00   
271     1.85500000e+01   5.88932992e-01   5.56541678e+00   
272     1.86000000e+01   5.87863896e-01   5.55531381e+00   
273     1.86500000e+01   5.86797042e-01   5.54523204e+00   
274     1.87000000e+01   5.85732291e-01   5.53517015e+00   
275     1.87500000e+01   5.84669518e-01   5.52512694e+00   
276     1.88000000e+01   5.83608605e-01   5.51510132e+00   
277     1.88500000e+01   5.82549448e-01   5.50509229e+00   
278     1.89000000e+01   5.81491949e-01   5.49509892e+00   
279     1.89500000e+01   5.80436019e-01   5.48512038e+00   
280     1.90000000e+01   5.79381574e-01   5.47515588e+00   
281     1.90500000e+01   5.78328540e-01   5.46520470e+00   
282     1.91000000e+01   5.77276844e-01   5.45526617e+00   
283     1.91500000e+01   5.76226422e-01   5.44533969e+00   
284     1.92000000e+01   5.75177213e-01   5.43542464e+00   
285     1.92500000e+01   5.74129159e-01   5.42552055e+00   
286     1.93000000e+01   5.73082209e-01   5.41562687e+00   
287     1.93500000e+01   5.72036312e-01   5.40574315e+00   
288     1.94000000e+01   5.70991423e-01   5.39586895e+00   
289     1.94500000e+01   5.69947494e-01   5.38600387e+00   
290     1.95000000e+01   5.68904494e-01   5.37614752e+00   
291     1.95500000e+01   5.67862379e-01   5.36629953e+00   
292     1.96000000e+01   5.66821114e-01   5.35645958e+00   
293     1.96500000e+01   5.65780665e-01   5.34662734e+00   
294     1.97000000e+01   5.64741000e-01   5.33680251e+00   
295     1.97500000e+01   5.63702090e-01   5.32698481e+00   
296     1.98000000e+01   5.62663888e-01   5.31717382e+00   
297     1.98500000e+01   5.61626403e-01   5.30736959e+00   
298     1.99000000e+01   5.60589591e-01   5.29757172e+00   
299     1.99500000e+01   5.59553430e-01   5.28778000e+00   
300     2.00000000e+01   5.58517896e-01   5.27799420e+00   
301     2.00500000e+01   5.57482967e-01   5.26821412e+00   
302     2.01000000e+01   5.56448624e-01   5.25843957e+00   
303     2.01500000e+01   5.55414845e-01   5.24867037e+00   
304     2.02000000e+01   5.54381614e-01   5.23890633e+00   
305     2.02500000e+01   5.53348911e-01   5.22914729e+00   
306     2.03000000e+01   5.52316721e-01   5.21939309e+00   
307     2.03500000e+01   5.51285027e-01   5.20964359e+00   
308     2.04000000e+01   5.50253814e-01   5.19989862e+00   
309     2.04500000e+01   5.49223067e-01   5.19015806e+00   
310     2.05000000e+01   5.48192772e-01   5.18042177e+00   
311     2.05500000e+01   5.47162915e-01   5.17068963e+00   
312     2.06000000e+01   5.46133485e-01   5.16096151e+00   
313     2.06500000e+01   5.45104468e-01   5.15123731e+00   
314     2.07000000e+01   5.44075853e-01   5.14151689e+00   
315     2.07500000e+01   5.43047629e-01   5.13180017e+00   
316     2.08000000e+01   5.42019784e-01   5.12208704e+00   
317     2.08500000e+01   5.40992309e-01   5.11237740e+00   
318     2.09000000e+01   5.39965193e-01   5.10267115e+00   
319     2.09500000e+01   5.38938427e-01   5.09296821e+00   
320     2.10000000e+01   5.37912002e-01   5.08326849e+00   
321     2.10500000e+01   5.36885933e-01   5.07357207e+00   
322     2.11000000e+01   5.35860163e-01   5.06387854e+00   
323     2.11500000e+01   5.34834708e-01   5.05418799e+00   
324     2.12000000e+01   5.33809560e-01   5.04450034e+00   
325     2.12500000e+01   5.32784711e-01   5.03481552e+00   
326     2.13000000e+01   5.31760155e-01   5.02513346e+00   
327     2.13500000e+01   5.30735883e-01   5.01545410e+00   
328     2.14000000e+01   5.29711890e-01   5.00577736e+00   
329     2.14500000e+01   5.28688169e-01   4.99610319e+00   
330     2.15000000e+01   5.27664712e-01   4.98643153e+00   
331     2.15500000e+01   5.26641515e-01   4.97676232e+00   
