Index          TIME                 V(4)              {V(1)+1.5}              V(6)
0       0.00000000000e+00    1.49069701610e+01    1.28163580951e+01    0.00000000000e+00    
1       5.00000000000e-10    1.49069580039e+01    1.28163567496e+01    7.50000000000e-02    
2       8.34093371353e-10    1.49069455366e+01    1.28163550164e+01    1.25114005703e-01    
3       1.13477740557e-09    1.49069330238e+01    1.28163528759e+01    1.70216610836e-01    
4       1.43546143979e-09    1.49069206346e+01    1.28163505394e+01    2.15319215968e-01    
5       2.03682950822e-09    1.49068996892e+01    1.28163453283e+01    3.05524426234e-01    
6       3.23956564510e-09    1.49068811267e+01    1.28163370333e+01    4.85934846764e-01    
7       4.44230178197e-09    1.49068797280e+01    1.28163328349e+01    6.66345267295e-01    
8       5.64503791884e-09    1.49068812504e+01    1.28163310255e+01    8.46755687826e-01    
9       6.84777405571e-09    1.49068832148e+01    1.28163301411e+01    1.02716610836e+00    
10      8.05051019258e-09    1.49068854679e+01    1.28163296925e+01    1.20757652889e+00    
11      9.25324632945e-09    1.49068880182e+01    1.28163295049e+01    1.38798694942e+00    
12      1.04559824663e-08    1.49068906546e+01    1.28163294762e+01    1.56839736995e+00    
13      1.16587186032e-08    1.49068934513e+01    1.28163295671e+01    1.74880779048e+00    
14      1.28614547401e-08    1.49068962013e+01    1.28163297342e+01    1.92921821101e+00    
15      1.40641908769e-08    1.49068990188e+01    1.28163299646e+01    2.10962863154e+00    
16      1.64696631507e-08    1.49069044018e+01    1.28163305315e+01    2.47044947260e+00    
17      1.88751354244e-08    1.49069096703e+01    1.28163311975e+01    2.83127031366e+00    
18      2.12806076982e-08    1.49069148054e+01    1.28163319068e+01    3.19209115472e+00    
19      2.16976359936e-08    1.49069157327e+01    1.28163320341e+01    3.25464539904e+00    
20      2.21146642890e-08    1.49069166486e+01    1.28163321605e+01    3.31719964335e+00    
21      2.29487208799e-08    1.49069185651e+01    1.28163324166e+01    3.44230813198e+00    
22      2.37827774707e-08    1.49069206058e+01    1.28163326797e+01    3.56741662061e+00    
23      2.46168340616e-08    1.49069227416e+01    1.28163329489e+01    3.69252510924e+00    
24      2.54508906525e-08    1.49069249800e+01    1.28163332247e+01    3.81763359787e+00    
25      2.71190038342e-08    1.49069296188e+01    1.28163337956e+01    4.06785057513e+00    
26      2.87871170159e-08    1.49069343026e+01    1.28163343893e+01    4.31806755238e+00    
27      3.04552301976e-08    1.49069388225e+01    1.28163349989e+01    4.56828452964e+00    
28      3.21233433793e-08    1.49069430576e+01    1.28163356177e+01    4.81850150690e+00    
29      3.37914565610e-08    1.49069469571e+01    1.28163362392e+01    5.06871848415e+00    
30      3.54595697427e-08    1.49069505114e+01    1.28163368583e+01    5.31893546141e+00    
31      3.71276829245e-08    1.49069537237e+01    1.28163374706e+01    5.56915243867e+00    
32      3.87957961062e-08    1.49069566072e+01    1.28163380727e+01    5.81936941593e+00    
33      4.04639092879e-08    1.49069591738e+01    1.28163386615e+01    6.06958639318e+00    
34      4.21320224696e-08    1.49069614384e+01    1.28163392344e+01    6.31980337044e+00    
35      4.38001356513e-08    1.49069634098e+01    1.28163397892e+01    6.57002034770e+00    
36      4.54682488330e-08    1.49069650976e+01    1.28163403238e+01    6.82023732495e+00    
37      4.71363620147e-08    1.49069665226e+01    1.28163408364e+01    7.07045430221e+00    
38      4.88044751965e-08    1.49069677292e+01    1.28163413267e+01    7.32067127947e+00    
39      5.21407015599e-08    1.49069696193e+01    1.28163422425e+01    7.82110523398e+00    
40      5.54769279233e-08    1.49069706943e+01    1.28163430651e+01    8.32153918850e+00    
41      5.82793306123e-08    1.49069710209e+01    1.28163436769e+01    8.74189959185e+00    
42      6.10817333014e-08    1.49069711991e+01    1.28163442271e+01    9.16225999520e+00    
43      6.38841359904e-08    1.49069714175e+01    1.28163447340e+01    9.58262039856e+00    
44      6.94889413684e-08    1.49069720993e+01    1.28163456801e+01    1.04233412053e+01    
45      7.50937467464e-08    1.49069729642e+01    1.28163465793e+01    1.12640620120e+01    
46      8.06985521245e-08    1.49069739354e+01    1.28163474644e+01    1.21047828187e+01    
47      8.63033575025e-08    1.49069749235e+01    1.28163483518e+01    1.29455036254e+01    
48      9.19081628805e-08    1.49069758417e+01    1.28163492425e+01    1.37862244321e+01    
49      9.75129682586e-08    1.49069766973e+01    1.28163501369e+01    1.46269452388e+01    
50      1.00000000000e-07    1.49069770360e+01    1.28163505342e+01    1.50000000000e+01    
51      1.00235144445e-07    1.49069801997e+01    1.28163506107e+01    1.50000000000e+01    
52      1.00446774446e-07    1.49069856126e+01    1.28163507914e+01    1.50000000000e+01    
53      1.00658404447e-07    1.49069920238e+01    1.28163510368e+01    1.50000000000e+01    
54      1.01081664449e-07    1.49070071690e+01    1.28163518969e+01    1.50000000000e+01    
55      1.01928184452e-07    1.49070304160e+01    1.28163545867e+01    1.50000000000e+01    
56      1.02774704456e-07    1.49070407297e+01    1.28163579049e+01    1.50000000000e+01    
57      1.03621224459e-07    1.49070432822e+01    1.28163614097e+01    1.50000000000e+01    
58      1.05314264466e-07    1.49070399653e+01    1.28163685744e+01    1.50000000000e+01    
59      1.07007304473e-07    1.49070331701e+01    1.28163757755e+01    1.50000000000e+01    
60      1.08700344480e-07    1.49070268183e+01    1.28163829262e+01    1.50000000000e+01    
61      1.10393384487e-07    1.49070215023e+01    1.28163900061e+01    1.50000000000e+01    
62      1.12086424494e-07    1.49070172538e+01    1.28163970100e+01    1.50000000000e+01    
63      1.13779464501e-07    1.49070139488e+01    1.28164039455e+01    1.50000000000e+01    
64      1.15472504508e-07    1.49070114382e+01    1.28164108269e+01    1.50000000000e+01    
65      1.18858584521e-07    1.49070081843e+01    1.28164245128e+01    1.50000000000e+01    
66      1.25630744549e-07    1.49070060129e+01    1.28164520517e+01    1.50000000000e+01    
67      1.32402904577e-07    1.49070069649e+01    1.28164804377e+01    1.50000000000e+01    
68      1.39175064604e-07    1.49070092137e+01    1.28165103667e+01    1.50000000000e+01    
69      1.52719384659e-07    1.49070152757e+01    1.28165772785e+01    1.50000000000e+01    
70      1.66263704715e-07    1.49069927071e+01    1.28166572393e+01    1.50000000000e+01    
71      1.69649784729e-07    1.49068749421e+01    1.28166781354e+01    1.50000000000e+01    
72      1.73035864742e-07    1.49065605236e+01    1.28166959246e+01    1.50000000000e+01    
73      1.74846553557e-07    1.49068462782e+01    1.28167050026e+01    1.50000000000e+01    
74      1.75285946568e-07    1.49072728082e+01    1.28167073389e+01    1.50000000000e+01    
75      1.75725339580e-07    1.49082569550e+01    1.28167099905e+01    1.50000000000e+01    
76      1.76164732592e-07    1.49108768051e+01    1.28167139519e+01    1.50000000000e+01    
77      1.76604125603e-07    1.49161752608e+01    1.28167206022e+01    1.50000000000e+01    
78      1.77043518615e-07    1.49228248276e+01    1.28167300387e+01    1.50000000000e+01    
79      1.77482911627e-07    1.49297612898e+01    1.28167409498e+01    1.50000000000e+01    
80      1.77922304638e-07    1.49370040940e+01    1.28167523761e+01    1.50000000000e+01    
81      1.78801090662e-07    1.49528106553e+01    1.28167763554e+01    1.50000000000e+01    
82      1.79679876685e-07    1.49698008178e+01    1.28168017897e+01    1.50000000000e+01    
83      1.80558662708e-07    1.49867877473e+01    1.28168278935e+01    1.50000000000e+01    
84      1.81437448731e-07    1.50040454536e+01    1.28168540901e+01    1.50000000000e+01    
85      1.81592065206e-07    1.50071490939e+01    1.28168586996e+01    1.50000000000e+01    
86      1.81746681680e-07    1.50102858677e+01    1.28168632914e+01    1.50000000000e+01    
87      1.82055914628e-07    1.50166149395e+01    1.28168725805e+01    1.50000000000e+01    
88      1.82365147576e-07    1.50228855380e+01    1.28168822433e+01    1.50000000000e+01    
89      1.82674380524e-07    1.50289941911e+01    1.28168923369e+01    1.50000000000e+01    
90      1.83292846420e-07    1.50392735044e+01    1.28169136403e+01    1.50000000000e+01    
91      1.83911312316e-07    1.50396559429e+01    1.28169374272e+01    1.50000000000e+01    
92      1.84012737682e-07    1.50375358538e+01    1.28169417910e+01    1.50000000000e+01    
93      1.84114163049e-07    1.50349351283e+01    1.28169462435e+01    1.50000000000e+01    
94      1.84317013781e-07    1.50265201664e+01    1.28169557881e+01    1.50000000000e+01    
95      1.84519864514e-07    1.50131887848e+01    1.28169662892e+01    1.50000000000e+01    
96      1.84722715246e-07    1.49942621535e+01    1.28169778209e+01    1.50000000000e+01    
97      1.84925565978e-07    1.49692327327e+01    1.28169903847e+01    1.50000000000e+01    
98      1.85128416711e-07    1.49377470358e+01    1.28170039234e+01    1.50000000000e+01    
99      1.85331267443e-07    1.48995815620e+01    1.28170183378e+01    1.50000000000e+01    
100     1.85534118176e-07    1.48546271684e+01    1.28170334897e+01    1.50000000000e+01    
101     1.85736968908e-07    1.48028710637e+01    1.28170491884e+01    1.50000000000e+01    
102     1.85939819641e-07    1.47443817321e+01    1.28170651206e+01    1.50000000000e+01    
103     1.86142670373e-07    1.46792908871e+01    1.28170806498e+01    1.50000000000e+01    
104     1.86345521106e-07    1.46077755597e+01    1.28170942573e+01    1.50000000000e+01    
105     1.86548371838e-07    1.45300342445e+01    1.28171020733e+01    1.50000000000e+01    
106     1.86751222571e-07    1.44462514360e+01    1.28170947164e+01    1.50000000000e+01    
107     1.86954073303e-07    1.43565486081e+01    1.28170528667e+01    1.50000000000e+01    
108     1.87156924036e-07    1.42609462127e+01    1.28169456756e+01    1.50000000000e+01    
109     1.87359774768e-07    1.41593701083e+01    1.28167358525e+01    1.50000000000e+01    
110     1.87562625500e-07    1.40516868511e+01    1.28163874066e+01    1.50000000000e+01    
111     1.87765476233e-07    1.39377159605e+01    1.28158698495e+01    1.50000000000e+01    
112     1.87968326965e-07    1.38171846532e+01    1.28151584996e+01    1.50000000000e+01    
113     1.88171177698e-07    1.36896119190e+01    1.28142334058e+01    1.50000000000e+01    
114     1.88374028430e-07    1.35540857537e+01    1.28130782902e+01    1.50000000000e+01    
115     1.88576879163e-07    1.34087023196e+01    1.28116798171e+01    1.50000000000e+01    
116     1.88779729895e-07    1.32495583858e+01    1.28100271063e+01    1.50000000000e+01    
117     1.88982580628e-07    1.30717410041e+01    1.28081113967e+01    1.50000000000e+01    
118     1.89185431360e-07    1.28726508241e+01    1.28059258914e+01    1.50000000000e+01    
119     1.89388282093e-07    1.26525993520e+01    1.28034658198e+01    1.50000000000e+01    
120     1.89591132825e-07    1.24129293722e+01    1.28007285483e+01    1.50000000000e+01    
121     1.89793983558e-07    1.21552465462e+01    1.27977135886e+01    1.50000000000e+01    
122     1.89996834290e-07    1.18812596621e+01    1.27944224755e+01    1.50000000000e+01    
123     1.90199685022e-07    1.15928017249e+01    1.27908586432e+01    1.50000000000e+01    
124     1.90402535755e-07    1.12917461167e+01    1.27870271506e+01    1.50000000000e+01    
125     1.90605386487e-07    1.09799878872e+01    1.27829344867e+01    1.50000000000e+01    
126     1.90808237220e-07    1.06593910364e+01    1.27785883346e+01    1.50000000000e+01    
127     1.91011087952e-07    1.03317320409e+01    1.27739973034e+01    1.50000000000e+01    
128     1.91213938685e-07    9.99868467413e+00    1.27691707563e+01    1.50000000000e+01    
129     1.91416789417e-07    9.66178536501e+00    1.27641185764e+01    1.50000000000e+01    
130     1.91822490882e-07    8.98226503510e+00    1.27533837917e+01    1.50000000000e+01    
131     1.92228192347e-07    8.30202261312e+00    1.27418713372e+01    1.50000000000e+01    
132     1.92633893812e-07    7.62854257324e+00    1.27296645045e+01    1.50000000000e+01    
133     1.93039595277e-07    6.96754495650e+00    1.27168439997e+01    1.50000000000e+01    
134     1.93445296742e-07    6.32341424681e+00    1.27034863588e+01    1.50000000000e+01    
135     1.93850998207e-07    5.69958892801e+00    1.26896631781e+01    1.50000000000e+01    
136     1.94256699672e-07    5.09890732175e+00    1.26754409427e+01    1.50000000000e+01    
137     1.94662401137e-07    4.52389041495e+00    1.26608813132e+01    1.50000000000e+01    
138     1.95027532455e-07    4.03035421274e+00    1.26475360134e+01    1.50000000000e+01    
139     1.95392663774e-07    3.56159670601e+00    1.26340037976e+01    1.50000000000e+01    
140     1.95757795092e-07    3.12007442099e+00    1.26203231605e+01    1.50000000000e+01    
141     1.96086413279e-07    2.74880777148e+00    1.26079150270e+01    1.50000000000e+01    
142     1.96382169646e-07    2.43921650547e+00    1.25966956798e+01    1.50000000000e+01    
143     1.96648350378e-07    2.18501139013e+00    1.25865769170e+01    1.50000000000e+01    
144     1.96887913036e-07    1.98112972274e+00    1.25774710579e+01    1.50000000000e+01    
145     1.97103519428e-07    1.81776423943e+00    1.25692921879e+01    1.50000000000e+01    
146     1.97319125820e-07    1.67182374109e+00    1.25611420986e+01    1.50000000000e+01    
147     1.97534732212e-07    1.54349259323e+00    1.25530303911e+01    1.50000000000e+01    
148     1.97750338605e-07    1.43615582623e+00    1.25449648246e+01    1.50000000000e+01    
149     1.97965944997e-07    1.35215896502e+00    1.25369541424e+01    1.50000000000e+01    
150     1.98181551389e-07    1.28602292021e+00    1.25290080871e+01    1.50000000000e+01    
151     1.98397157781e-07    1.23229256744e+00    1.25211340041e+01    1.50000000000e+01    
152     1.98612764173e-07    1.18736469460e+00    1.25133350345e+01    1.50000000000e+01    
153     1.98828370566e-07    1.14833170206e+00    1.25056109108e+01    1.50000000000e+01    
154     1.99259583350e-07    1.08062774887e+00    1.24903745158e+01    1.50000000000e+01    
155     1.99690796135e-07    1.02089067404e+00    1.24753980449e+01    1.50000000000e+01    
156     2.00122008919e-07    9.65308018086e-01    1.24606503329e+01    1.50000000000e+01    
157     2.00984434488e-07    8.62343285977e-01    1.24317168181e+01    1.50000000000e+01    
158     2.02709285626e-07    6.81697611712e-01    1.23754576274e+01    1.50000000000e+01    
159     2.04434136763e-07    5.30468997327e-01    1.23205306031e+01    1.50000000000e+01    
160     2.06158987901e-07    3.98795319653e-01    1.22661331068e+01    1.50000000000e+01    
161     2.07883839039e-07    2.80383345327e-01    1.22117874363e+01    1.50000000000e+01    
162     2.09608690177e-07    1.85300885064e-01    1.21572096086e+01    1.50000000000e+01    
163     2.09882819056e-07    1.75273601729e-01    1.21484928169e+01    1.50000000000e+01    
164     2.10156947934e-07    1.66706719062e-01    1.21397678105e+01    1.50000000000e+01    
165     2.10705205692e-07    1.52904830435e-01    1.21222599385e+01    1.50000000000e+01    
166     2.11801721207e-07    1.33553025637e-01    1.20869478257e+01    1.50000000000e+01    
167     2.12898236722e-07    1.20023298593e-01    1.20511812306e+01    1.50000000000e+01    
168     2.13994752237e-07    1.09565655267e-01    1.20149409198e+01    1.50000000000e+01    
169     2.16187783268e-07    9.37534775572e-02    1.19412272385e+01    1.50000000000e+01    
170     2.18380814298e-07    8.16679252183e-02    1.18662231945e+01    1.50000000000e+01    
171     2.20573845328e-07    7.18467979206e-02    1.17903850794e+01    1.50000000000e+01    
172     2.22766876358e-07    6.34843237158e-02    1.17140745269e+01    1.50000000000e+01    
173     2.24959907389e-07    5.62303494049e-02    1.16375409583e+01    1.50000000000e+01    
174     2.29345969449e-07    4.39951804552e-02    1.14844302175e+01    1.50000000000e+01    
175     2.29971649540e-07    4.24966414314e-02    1.14626117599e+01    1.50000000000e+01    
176     2.31223009722e-07    3.95794052286e-02    1.14190013883e+01    1.50000000000e+01    
177     2.32474369904e-07    3.68362208750e-02    1.13754499009e+01    1.50000000000e+01    
178     2.33725730086e-07    3.42565687123e-02    1.13319680940e+01    1.50000000000e+01    
179     2.34977090268e-07    3.18346308290e-02    1.12885644098e+01    1.50000000000e+01    
180     2.36228450450e-07    2.95670225201e-02    1.12452429717e+01    1.50000000000e+01    
181     2.37479810632e-07    2.74499928191e-02    1.12020028793e+01    1.50000000000e+01    
182     2.38731170814e-07    2.54828325436e-02    1.11588392962e+01    1.50000000000e+01    
183     2.39982530996e-07    2.36630041681e-02    1.11157454555e+01    1.50000000000e+01    
184     2.41233891178e-07    2.19905202663e-02    1.10727143339e+01    1.50000000000e+01    
185     2.42485251360e-07    2.04629022152e-02    1.10297395594e+01    1.50000000000e+01    
186     2.44987971724e-07    1.78346905825e-02    1.09439361116e+01    1.50000000000e+01    
187     2.47490692088e-07    1.57509456080e-02    1.08583031995e+01    1.50000000000e+01    
188     2.49993412452e-07    1.41609961729e-02    1.07728142621e+01    1.50000000000e+01    
189     2.52496132816e-07    1.29919451740e-02    1.06874475203e+01    1.50000000000e+01    
190     2.54998853180e-07    1.21616465878e-02    1.06021838538e+01    1.50000000000e+01    
191     2.57501573544e-07    1.15877731904e-02    1.05170060016e+01    1.50000000000e+01    
192     2.60004293908e-07    1.12011577107e-02    1.04318983484e+01    1.50000000000e+01    
193     2.62507014272e-07    1.09460600555e-02    1.03468467934e+01    1.50000000000e+01    
194     2.65009734636e-07    1.07835154511e-02    1.02618384176e+01    1.50000000000e+01    
195     2.67512455000e-07    1.06848056397e-02    1.01768610159e+01    1.50000000000e+01    
196     2.70015175364e-07    1.06319769922e-02    1.00919025942e+01    1.50000000000e+01    
197     2.72517895728e-07    1.06105673177e-02    1.00069511313e+01    1.50000000000e+01    
198     2.75020616092e-07    1.06117773156e-02    9.92199472431e+00    1.50000000000e+01    
199     2.77523336456e-07    1.06260400508e-02    9.83702229615e+00    1.50000000000e+01    
200     2.80026056820e-07    1.06476292183e-02    9.75201994343e+00    1.50000000000e+01    
201     2.81014195065e-07    1.06557846520e-02    9.71843393129e+00    1.50000000000e+01    
202     2.81427691984e-07    1.06593665084e-02    9.70437322135e+00    1.50000000000e+01    
203     2.81841188903e-07    1.06630554881e-02    9.69030802054e+00    1.50000000000e+01    
204     2.82668182740e-07    1.06715226618e-02    9.66214912539e+00    1.50000000000e+01    
205     2.83368801900e-07    1.06807785603e-02    9.63826525294e+00    1.50000000000e+01    
206     2.83999359143e-07    1.06900525302e-02    9.61675288875e+00    1.50000000000e+01    
207     2.84629916386e-07    1.06987416353e-02    9.59522989412e+00    1.50000000000e+01    
208     2.85260473630e-07    1.07061971230e-02    9.57370020571e+00    1.50000000000e+01    
209     2.86521588117e-07    1.07176972724e-02    9.53063019317e+00    1.50000000000e+01    
210     2.87782702603e-07    1.07262388331e-02    9.48755258487e+00    1.50000000000e+01    
211     2.89043817090e-07    1.07325917806e-02    9.44447250533e+00    1.50000000000e+01    
212     2.90304931577e-07    1.07365687878e-02    9.40139364325e+00    1.50000000000e+01    
213     2.91566046064e-07    1.07373238206e-02    9.35832011628e+00    1.50000000000e+01    
