Index       TIME            V(N1,N2)      I(YMEMRISTOR!MR1) N(YMEMRISTOR!MR1_X) N(YMEMRISTOR!MR1:R)
0        0.00000000e+00    0.00000000e+00    0.00000000e+00    0.00000000e+00    0.00000000e+00
1        1.00000000e-10    3.14159265e-08    1.93018392e-16    7.74679954e-06    1.62761311e+08
2        3.00000000e-10    9.42476927e-08    1.73716357e-15    2.32403939e-05    5.42537817e+07
3        7.00000000e-10    2.19911013e-07    9.45787667e-15    5.42275731e-05    2.32516264e+07
4        1.50000000e-09    4.71236727e-07    4.34288931e-14    1.16201875e-04    1.08507655e+07
5        3.10000000e-09    9.73884448e-07    1.85488488e-13    2.40150251e-04    5.25037699e+06
6        6.30000000e-09    1.97916507e-06    7.66071536e-13    4.88046096e-04    2.58352535e+06
7        1.27000000e-08    3.98966702e-06    3.11304195e-12    9.83834152e-04    1.28159779e+06
8        2.55000000e-08    8.01043377e-06    1.25497912e-11    1.97539573e-03    6.38292416e+05
9        5.11000000e-08    1.60510189e-05    5.03912528e-11    3.95846079e-03    3.18528098e+05
10       1.02300000e-07    3.21283966e-05    2.01919876e-10    7.92435849e-03    1.59114801e+05
11       2.04700000e-07    6.42679918e-05    8.08150861e-10    1.58552248e-02    7.95249643e+04
12       4.09500000e-07    1.28486619e-04    3.23163792e-09    3.17132445e-02    3.97591945e+04
13       8.19100000e-07    2.56682239e-04    1.29093952e-08    6.34144616e-02    1.98835811e+04
14       1.63830000e-06    5.12113053e-04    5.14822869e-08    1.26757837e-01    9.94757284e+03
15       3.27670000e-06    1.01917171e-03    2.04661844e-07    2.53210178e-01    4.97998144e+03
16       4.91510000e-06    1.52123899e-03    4.57657820e-07    3.79352852e-01    3.32415289e+03
17       5.74898942e-06    1.77498716e-03    6.22143950e-07    4.41976930e-01    2.85319898e+03
18       6.04274530e-06    1.86401974e-03    6.84716584e-07    4.63196914e-01    2.72250380e+03
19       6.33650119e-06    1.95329504e-03    7.49563937e-07    4.83890981e-01    2.60608801e+03
20       6.92401295e-06    2.13102367e-03    8.82086815e-07    5.21954256e-01    2.41606674e+03
21       7.45277355e-06    2.29125477e-03    1.00396900e-06    5.52533599e-01    2.28237412e+03
22       7.98153414e-06    2.45099412e-03    1.12728691e-06    5.79971020e-01    2.17441905e+03
23       8.51029473e-06    2.61107961e-03    1.25191855e-06    6.04605862e-01    2.08584038e+03
24       9.03905532e-06    2.77073702e-03    1.37700709e-06    6.26699723e-01    2.01232289e+03
25       9.56781591e-06    2.93053960e-03    1.50240922e-06    6.46489508e-01    1.95073963e+03
26       1.00965765e-05    3.09063623e-03    1.62816012e-06    6.64312184e-01    1.89841895e+03
27       1.06253371e-05    3.25021302e-03    1.75355634e-06    6.80350963e-01    1.85367940e+03
28       1.11540977e-05    3.41032810e-03    1.87884110e-06    6.94738020e-01    1.81530577e+03
29       1.16828583e-05    3.56994616e-03    2.00326695e-06    7.07630201e-01    1.78224572e+03
30       1.22116189e-05    3.72995780e-03    2.12726937e-06    7.19200123e-01    1.75358632e+03
31       1.27403795e-05    3.88981928e-03    2.25055099e-06    7.29612983e-01    1.72857081e+03
32       1.37979007e-05    4.21003427e-03    2.49547116e-06    7.47487258e-01    1.68725684e+03
33       1.48554218e-05    4.52988830e-03    2.73777077e-06    7.62166800e-01    1.65477783e+03
34       1.59129430e-05    4.85030387e-03    2.97869029e-06    7.74462218e-01    1.62852224e+03
35       1.69704642e-05    5.17030075e-03    3.21807190e-06    7.84922880e-01    1.60683253e+03
36       1.80279854e-05    5.49059793e-03    3.45665447e-06    7.93937696e-01    1.58859916e+03
37       2.01430278e-05    6.13143747e-03    3.93491554e-06    8.09335826e-01    1.55839194e+03
38       2.43731125e-05    7.41176013e-03    4.89495366e-06    8.32898100e-01    1.51431645e+03
39       2.86031972e-05    8.69285097e-03    5.85713505e-06    8.49755170e-01    1.48425759e+03
40       3.28332820e-05    9.97256220e-03    6.82707785e-06    8.63380540e-01    1.46078723e+03
41       4.12934514e-05    1.25315610e-02    8.79872092e-06    8.85496308e-01    1.42412908e+03
42       4.97536209e-05    1.50878892e-02    1.07978793e-05    9.02545987e-01    1.39694709e+03
43       5.82137904e-05    1.76435988e-02    1.28160789e-05    9.16016063e-01    1.37602302e+03
44       6.66739598e-05    2.01982281e-02    1.48385597e-05    9.26356324e-01    1.36018065e+03
45       7.51341293e-05    2.27527058e-02    1.68541275e-05    9.33955303e-01    1.34853061e+03
46       8.35942988e-05    2.53060246e-02    1.88714673e-05    9.40105689e-01    1.33902582e+03
47       1.00514638e-04    3.04107922e-02    2.29044034e-05    9.49154097e-01    1.32460373e+03
48       1.34355316e-04    4.06082922e-02    3.09551626e-05    9.59690097e-01    1.30559007e+03
49       1.68195994e-04    5.07930353e-02    3.90566892e-05    9.66703141e-01    1.29012594e+03
50       2.35877349e-04    7.10590113e-02    5.53850457e-05    9.75955566e-01    1.26163704e+03
51       3.03558705e-04    9.11995182e-02    7.18680862e-05    9.81225947e-01    1.23326897e+03
52       3.71240061e-04    1.11141555e-01    8.85588078e-05    9.85126782e-01    1.20214324e+03
53       5.06602772e-04    1.50344297e-01    1.22789275e-04    9.91237242e-01    1.13127382e+03
54       6.41965484e-04    1.88347320e-01    1.58119523e-04    9.95161589e-01    1.05374945e+03
55       7.77328195e-04    2.24887000e-01    1.94513601e-04    9.97194140e-01    9.74528194e+02
56       9.12690907e-04    2.59672307e-01    2.31944545e-04    9.98325278e-01    8.97004713e+02
57       1.04805362e-03    2.92458745e-01    2.70260195e-04    9.99068651e-01    8.23903938e+02
58       1.18341633e-03    3.23001796e-01    3.09075312e-04    9.99584205e-01    7.57181485e+02
59       1.31877904e-03    3.51106034e-01    3.47859823e-04    9.99956808e-01    6.97835447e+02
60       1.45414175e-03    3.76577400e-01    3.85892974e-04    1.00023596e+00    6.46241299e+02
61       1.58950446e-03    3.99271719e-01    4.22358548e-04    1.00045189e+00    6.02284716e+02
62       1.72486718e-03    4.19045939e-01    4.56314661e-04    1.00062381e+00    5.65649082e+02
63       1.86022989e-03    4.35804684e-01    4.86822331e-04    1.00076434e+00    5.35861835e+02
64       1.99559260e-03    4.49450820e-01    5.12922539e-04    1.00088206e+00    5.12476404e+02
65       2.00000000e-03    4.49845144e-01    5.13694286e-04    1.00088557e+00    5.11812309e+02
End of Xyce(TM) Simulation
