Index       TIME            V(N1,N2)      I(YMEMRISTOR!MR1) N(YMEMRISTOR!MR1_X) N(YMEMRISTOR!MR1:R)
0        0.00000000e+00    0.00000000e+00    0.00000000e+00    1.10000000e-01    1.14625386e+04
1        1.00000000e-10    3.12794843e-08    2.72903658e-12    1.10007747e-01    1.14617314e+04
2        3.00000000e-10    9.38383668e-08    8.18825528e-12    1.10023240e-01    1.14601174e+04
3        7.00000000e-10    2.18955921e-07    1.91112865e-11    1.10054228e-01    1.14568908e+04
4        1.50000000e-09    4.69190112e-07    4.09757177e-11    1.10116202e-01    1.14504430e+04
5        3.10000000e-09    9.69654820e-07    8.47780538e-11    1.10240150e-01    1.14375692e+04
6        6.30000000e-09    1.97056954e-06    1.72676615e-10    1.10488046e-01    1.14119084e+04
7        1.27000000e-08    3.97234021e-06    3.49649241e-10    1.10983834e-01    1.13609310e+04
8        2.55000000e-08    7.97564646e-06    7.08296108e-10    1.11975396e-01    1.12603318e+04
9        5.11000000e-08    1.59813188e-05    1.44439307e-09    1.13958461e-01    1.10643910e+04
10       1.02300000e-07    3.19889039e-05    2.99177410e-09    1.17924361e-01    1.06923005e+04
11       2.04700000e-07    6.39890454e-05    6.38707815e-09    1.25855236e-01    1.00185435e+04
12       4.09500000e-07    1.27929291e-04    1.43782057e-08    1.41713287e-01    8.89749309e+03
13       8.19100000e-07    2.55570241e-04    3.51493914e-08    1.73414633e-01    7.27105002e+03
14       1.63830000e-06    5.09900007e-04    9.57431781e-08    2.36758520e-01    5.32581718e+03
15       3.27670000e-06    1.01478924e-03    2.92311257e-07    3.63212887e-01    3.47174240e+03
16       4.09590000e-06    1.26540089e-03    4.27252527e-07    4.25747647e-01    2.96185894e+03
17       4.91510000e-06    1.51498015e-03    5.82831885e-07    4.85105472e-01    2.59948900e+03
18       5.65238000e-06    1.73904951e-03    7.33886187e-07    5.32132935e-01    2.36979351e+03
19       6.27514070e-06    1.92807317e-03    8.66470835e-07    5.66678512e-01    2.22535434e+03
20       6.89790140e-06    2.11665006e-03    1.00221400e-06    5.97063572e-01    2.11212889e+03
21       7.52066210e-06    2.30589333e-03    1.14076200e-06    6.23832243e-01    2.02152018e+03
22       8.14342280e-06    2.49404387e-03    1.28044306e-06    6.47397332e-01    1.94795846e+03
23       8.76618350e-06    2.68313917e-03    1.42158421e-06    6.68108198e-01    1.88759288e+03
24       9.38894420e-06    2.87121266e-03    1.56279013e-06    6.86365310e-01    1.83740179e+03
25       1.00117049e-05    3.06026081e-03    1.70472198e-06    7.02453707e-01    1.79533674e+03
26       1.06344656e-05    3.24834580e-03    1.84594876e-06    7.16609344e-01    1.75988837e+03
27       1.12572263e-05    3.43741192e-03    1.98736672e-06    7.29077943e-01    1.72980611e+03
28       1.18799870e-05    3.62553064e-03    2.12789773e-06    7.40131802e-01    1.70398559e+03
29       1.25027477e-05    3.81463118e-03    2.26860065e-06    7.49959332e-01    1.68166971e+03
30       1.37482691e-05    4.19143727e-03    2.54815111e-06    7.66653045e-01    1.64507550e+03
31       1.49937905e-05    4.56924558e-03    2.82703583e-06    7.80239037e-01    1.61645118e+03
32       1.62393119e-05    4.94619220e-03    3.10441461e-06    7.91504790e-01    1.59346137e+03
33       1.74848333e-05    5.32401513e-03    3.38251201e-06    8.01214129e-01    1.57416619e+03
34       1.99758761e-05    6.07815113e-03    3.94123632e-06    8.17741804e-01    1.54237135e+03
35       2.49579617e-05    7.58727798e-03    5.06808844e-06    8.42410639e-01    1.49721589e+03
36       2.99400473e-05    9.09495885e-03    6.20401614e-06    8.60288953e-01    1.46607200e+03
37       3.49221329e-05    1.06024957e-02    7.34886689e-06    8.74152172e-01    1.44275385e+03
38       4.48863041e-05    1.36180890e-02    9.66811137e-06    8.95351776e-01    1.40834687e+03
39       5.48504753e-05    1.66250440e-02    1.20282896e-05    9.12404002e-01    1.38163611e+03
40       6.48146465e-05    1.96377966e-02    1.44122573e-05    9.25438565e-01    1.36164458e+03
41       7.47788177e-05    2.26427583e-02    1.67828381e-05    9.34525561e-01    1.34773495e+03
42       8.47429889e-05    2.56540365e-02    1.91619258e-05    9.41606873e-01    1.33679021e+03
43       1.04671331e-04    3.16626780e-02    2.39035010e-05    9.51296382e-01    1.32115344e+03
44       1.44528016e-04    4.36748053e-02    3.33897442e-05    9.62120851e-01    1.30064196e+03
45       1.58585772e-04    4.79011201e-02    3.67533574e-05    9.65038793e-01    1.29421227e+03
46       1.72643528e-04    5.21254427e-02    4.01299665e-05    9.67671211e-01    1.28793868e+03
47       2.00759040e-04    6.05580265e-02    4.68896046e-05    9.71748290e-01    1.27628842e+03
48       2.28874552e-04    6.89723827e-02    5.36752131e-05    9.74916561e-01    1.26492348e+03
49       2.85105577e-04    8.57248855e-02    6.73400857e-05    9.79764462e-01    1.24150714e+03
50       3.97567625e-04    1.18846597e-01    9.51293260e-05    9.86484656e-01    1.18915684e+03
51       5.97567625e-04    1.76033651e-01    1.46390119e-04    9.93944000e-01    1.07975008e+03
52       7.97567625e-04    2.30203099e-01    2.00044752e-04    9.97411038e-01    9.62752420e+02
53       9.97567625e-04    2.80480811e-01    2.55896957e-04    9.98861752e-01    8.50472081e+02
54       1.19756762e-03    3.26056816e-01    3.13153792e-04    9.99668025e-01    7.50593072e+02
55       1.39756762e-03    3.66262999e-01    3.70153754e-04    1.00016480e+00    6.66835241e+02
56       1.59756762e-03    4.00528971e-01    4.24468850e-04    1.00049600e+00    5.99888672e+02
57       1.79756762e-03    4.28428954e-01    4.73205755e-04    1.00073194e+00    5.48811085e+02
58       1.99756762e-03    4.49626022e-01    5.13278835e-04    1.00091000e+00    5.12167762e+02
59       2.00000000e-03    4.49844519e-01    5.13706572e-04    1.00091189e+00    5.11799901e+02
End of Xyce(TM) Simulation
