Index       TIME            V(N1,N2)      I(YMEMRISTOR!MR1) N(YMEMRISTOR!MR1_X) N(YMEMRISTOR!MR1:R)
0        0.00000000e+00    0.00000000e+00    0.00000000e+00    0.00000000e+00    0.00000000e+00
1        1.00000000e-10    3.14159265e-08    9.19135201e-18    3.68895216e-07    3.41798754e+09
2        3.00000000e-10    9.42477755e-08    8.27221474e-17    1.10668542e-06    1.13932942e+09
3        7.00000000e-10    2.19911463e-07    4.50376002e-16    2.58226539e-06    4.88284154e+08
4        1.50000000e-09    4.71238795e-07    2.06805160e-15    5.53342261e-06    2.27866076e+08
5        3.10000000e-09    9.73893281e-07    8.83286525e-15    1.14357262e-05    1.10257917e+08
6        6.30000000e-09    1.97920155e-06    3.64802694e-14    2.32402903e-05    5.42540324e+07
7        1.27000000e-08    3.98981526e-06    1.48245601e-13    4.68492453e-05    2.69135537e+07
8        2.55000000e-08    8.01103138e-06    5.97653687e-13    9.40664634e-05    1.34041407e+07
9        5.11000000e-08    1.60534185e-05    2.39994219e-12    1.88498132e-04    6.68909009e+06
10       1.02300000e-07    3.21380119e-05    9.61810965e-12    3.77350398e-04    3.34141087e+06
11       2.04700000e-07    6.43064760e-05    3.85064159e-11    7.55010654e-04    1.67002437e+06
12       4.09500000e-07    1.28640513e-04    1.54071796e-10    1.51015410e-03    8.34943318e+05
13       8.19100000e-07    2.57297026e-04    6.16204795e-10    3.01973305e-03    4.17555669e+05
14       1.63830000e-06    5.14563819e-04    2.46325881e-09    6.03606179e-03    2.08899959e+05
15       3.27670000e-06    1.02891259e-03    9.83877885e-09    1.20574236e-02    1.04581454e+05
16       4.91510000e-06    1.54301579e-03    2.21043735e-08    1.80637578e-02    6.98098784e+04
17       8.19190000e-06    2.57048675e-03    6.12177269e-08    3.00315429e-02    4.19927973e+04
18       1.14687000e-05    3.59698804e-03    1.19628668e-07    4.19397475e-02    3.00710531e+04
19       1.47455000e-05    4.62250869e-03    1.97163957e-07    5.37887220e-02    2.34476740e+04
20       2.12991000e-05    6.67066570e-03    4.08929183e-07    7.73105408e-02    1.63143234e+04
21       2.78527000e-05    8.71497631e-03    6.95170722e-07    1.00599577e-01    1.25373794e+04
22       3.44063000e-05    1.07554893e-02    1.05457991e-06    1.23658544e-01    1.01988788e+04
23       4.09599000e-05    1.27922156e-02    1.48587585e-06    1.46490117e-01    8.60836111e+03
24       4.75135000e-05    1.48252009e-02    1.98781103e-06    1.69096931e-01    7.45631155e+03
25       5.40671000e-05    1.68544531e-02    2.55916274e-06    1.91481589e-01    6.58328373e+03
26       6.71743000e-05    2.09018958e-02    3.90540055e-06    2.35595911e-01    5.34759547e+03
27       8.02815000e-05    2.49347124e-02    5.51536035e-06    2.78851889e-01    4.51467307e+03
28       9.33887000e-05    2.89530820e-02    7.38024859e-06    3.21269075e-01    3.91491629e+03
29       1.06495900e-04    3.29571275e-02    9.49165771e-06    3.62866499e-01    3.46222238e+03
30       1.19603100e-04    3.69479625e-02    1.18221204e-05    4.02989262e-01    3.11342636e+03
31       1.21591494e-04    3.75515004e-02    1.21860505e-05    4.08692669e-01    3.06931852e+03
32       1.23579888e-04    3.81581237e-02    1.25557087e-05    4.14368937e-01    3.02660677e+03
33       1.27556675e-04    3.93646479e-02    1.32886609e-05    4.25059632e-01    2.94915475e+03
34       1.31533463e-04    4.05767173e-02    1.39971578e-05    4.34287386e-01    2.88513443e+03
35       1.35510250e-04    4.17860785e-02    1.46632156e-05    4.41721706e-01    2.83519777e+03
36       1.39487038e-04    4.30020830e-02    1.52825453e-05    4.47292196e-01    2.79847176e+03
37       1.43463825e-04    4.42157621e-02    1.58514716e-05    4.51137756e-01    2.77316771e+03
38       1.47440613e-04    4.54358446e-02    1.63781561e-05    4.53536005e-01    2.75700684e+03
39       1.51417400e-04    4.66526193e-02    1.68737758e-05    4.54996358e-01    2.74662330e+03
40       1.59370975e-04    4.90939437e-02    1.78287360e-05    4.56676632e-01    2.73330954e+03
41       1.67324550e-04    5.15310813e-02    1.87510160e-05    4.57410607e-01    2.72554090e+03
42       1.83231700e-04    5.64096915e-02    2.05661895e-05    4.57919251e-01    2.71519826e+03
43       1.99138851e-04    6.12787878e-02    2.23654369e-05    4.57987989e-01    2.70676600e+03
44       2.03115638e-04    6.24967514e-02    2.28162168e-05    4.58000720e-01    2.70457147e+03
45       2.03239913e-04    6.25347948e-02    2.28303276e-05    4.58001609e-01    2.70449931e+03
46       2.03488462e-04    6.26108278e-02    2.28586399e-05    4.58005576e-01    2.70434202e+03
47       2.03550599e-04    6.26298348e-02    2.28657744e-05    4.58007702e-01    2.70429598e+03
48       2.03674874e-04    6.26678261e-02    2.28801164e-05    4.58013576e-01    2.70419433e+03
49       2.03923423e-04    6.27438908e-02    2.29099177e-05    4.58047007e-01    2.70386275e+03
50       2.03985560e-04    6.27628039e-02    2.29178085e-05    4.58064914e-01    2.70372365e+03
51       2.04109835e-04    6.28005802e-02    2.29342563e-05    4.58114366e-01    2.70336506e+03
52       2.04358384e-04    6.28768344e-02    2.29765605e-05    4.58395597e-01    2.70157177e+03
53       2.04420521e-04    6.28950305e-02    2.29908455e-05    4.58546170e-01    2.70065249e+03
54       2.04544796e-04    6.29310064e-02    2.30250217e-05    4.58961875e-01    2.69814280e+03
55       2.04793345e-04    6.30043027e-02    2.31332055e-05    4.60574911e-01    2.68856412e+03
56       2.05041895e-04    6.30744529e-02    2.32664849e-05    4.62706561e-01    2.67605491e+03
57       2.05538993e-04    6.32163661e-02    2.35252549e-05    4.66788797e-01    2.65240431e+03
58       2.06036091e-04    6.33580983e-02    2.37723688e-05    4.70623013e-01    2.63054910e+03
59       2.07030288e-04    6.36452825e-02    2.42366973e-05    4.77621703e-01    2.59151061e+03
60       2.09018682e-04    6.42240512e-02    2.50520182e-05    4.89180375e-01    2.52930061e+03
61       2.11007076e-04    6.48092025e-02    2.57300120e-05    4.97821122e-01    2.48442012e+03
62       2.12995470e-04    6.53958694e-02    2.62983350e-05    5.04188829e-01    2.45206435e+03
63       2.14983863e-04    6.59984071e-02    2.67934769e-05    5.08925349e-01    2.42823801e+03
64       2.16972257e-04    6.65876936e-02    2.72219530e-05    5.12421800e-01    2.41068351e+03
65       2.18960651e-04    6.71952884e-02    2.76109014e-05    5.14974249e-01    2.39771420e+03
66       2.22937438e-04    6.83901584e-02    2.82956127e-05    5.18384819e-01    2.37991668e+03
67       2.23931635e-04    6.86958959e-02    2.84501098e-05    5.18859311e-01    2.37721729e+03
68       2.24925832e-04    6.89974089e-02    2.86009895e-05    5.19295640e-01    2.37470219e+03
69       2.26914226e-04    6.96013053e-02    2.88944264e-05    5.19998889e-01    2.37044810e+03
70       2.30891013e-04    7.08088984e-02    2.94610386e-05    5.21006009e-01    2.36375717e+03
71       2.31015288e-04    7.08471231e-02    2.94801644e-05    5.21058229e-01    2.36345292e+03
72       2.31263837e-04    7.09223545e-02    2.95244425e-05    5.21277973e-01    2.36232399e+03
73       2.31325975e-04    7.09409851e-02    2.95387620e-05    5.21391521e-01    2.36177667e+03
74       2.31450249e-04    7.09771072e-02    2.95715054e-05    5.21699351e-01    2.36031940e+03
75       2.31698798e-04    7.10497719e-02    2.96849445e-05    5.23155982e-01    2.35361966e+03
76       2.31947348e-04    7.11197711e-02    2.98340600e-05    5.25257672e-01    2.34407941e+03
77       2.32444446e-04    7.12500678e-02    3.01156754e-05    5.29229701e-01    2.32625917e+03
78       2.32941545e-04    7.14094153e-02    3.03945571e-05    5.32918334e-01    2.30988126e+03
79       2.33935741e-04    7.16748640e-02    3.08894416e-05    5.39555109e-01    2.28101227e+03
80       2.35924135e-04    7.22675251e-02    3.17695712e-05    5.50298769e-01    2.23547412e+03
81       2.37912529e-04    7.28305268e-02    3.24890708e-05    5.58334556e-01    2.20235132e+03
82       2.39900923e-04    7.34356277e-02    3.31157418e-05    5.64330569e-01    2.17793402e+03
83       2.41889316e-04    7.40081252e-02    3.36406722e-05    5.68760340e-01    2.16000842e+03
84       2.43877710e-04    7.46203037e-02    3.41210755e-05    5.72061837e-01    2.14651054e+03
85       2.47854498e-04    7.57950718e-02    3.49393127e-05    5.76528454e-01    2.12789162e+03
86       2.55808073e-04    7.82104025e-02    3.63578580e-05    5.81040753e-01    2.10721156e+03
87       2.55947464e-04    7.82431224e-02    3.63801343e-05    5.81148557e-01    2.10676350e+03
88       2.56226245e-04    7.83260419e-02    3.64507486e-05    5.81647283e-01    2.10481221e+03
89       2.56783808e-04    7.84856038e-02    3.67173933e-05    5.84686075e-01    2.09359510e+03
90       2.57341371e-04    7.86427969e-02    3.70646664e-05    5.89011497e-01    2.07794855e+03
91       2.58456497e-04    7.89534468e-02    3.76994913e-05    5.96692747e-01    2.05066651e+03
92       2.59460110e-04    7.92419282e-02    3.82193902e-05    6.02672339e-01    2.02982874e+03
93       2.60463723e-04    7.95261708e-02    3.86895717e-05    6.07859104e-01    2.01202669e+03
94       2.62470950e-04    8.01099427e-02    3.95230208e-05    6.16330447e-01    1.98339047e+03
95       2.66485403e-04    8.12840945e-02    4.08491475e-05    6.27605099e-01    1.94580035e+03
96       2.70499857e-04    8.24792905e-02    4.18776197e-05    6.33870136e-01    1.92456512e+03
97       2.74514310e-04    8.36756669e-02    4.27378858e-05    6.37424370e-01    1.91181117e+03
98       2.82543216e-04    8.60885038e-02    4.42245791e-05    6.40658536e-01    1.89801535e+03
99       2.83546830e-04    8.63878594e-02    4.44102174e-05    6.41061219e-01    1.89630127e+03
100      2.83797733e-04    8.64566866e-02    4.45853907e-05    6.43064265e-01    1.89027473e+03
101      2.84048636e-04    8.65256912e-02    4.47587474e-05    6.45036473e-01    1.88437530e+03
102      2.84299540e-04    8.65942431e-02    4.49269093e-05    6.46934089e-01    1.87872912e+03
103      2.84801346e-04    8.67338330e-02    4.52514470e-05    6.50531416e-01    1.86809913e+03
104      2.85804960e-04    8.70115777e-02    4.58547408e-05    6.57045264e-01    1.84910334e+03
105      2.87812186e-04    8.75832957e-02    4.69143423e-05    6.67724634e-01    1.81856123e+03
106      2.89819413e-04    8.81547184e-02    4.78041832e-05    6.75861691e-01    1.79570460e+03
107      2.91826640e-04    8.87405200e-02    4.85763428e-05    6.82122379e-01    1.77823986e+03
108      2.93833866e-04    8.93225834e-02    4.92476015e-05    6.86918387e-01    1.76484799e+03
109      2.95841093e-04    8.99166866e-02    4.98479061e-05    6.90569869e-01    1.75451862e+03
110      2.99855546e-04    9.10995803e-02    5.08867884e-05    6.95549316e-01    1.73996758e+03
111      3.07884453e-04    9.34940175e-02    5.26147822e-05    7.00210341e-01    1.72430853e+03
112      3.08888066e-04    9.37892112e-02    5.28042420e-05    7.00452285e-01    1.72320365e+03
113      3.10895293e-04    9.43938845e-02    5.31869718e-05    7.00870308e-01    1.72112859e+03
114      3.11146196e-04    9.44662995e-02    5.32322642e-05    7.00912662e-01    1.72089876e+03
115      3.11648003e-04    9.46164173e-02    5.33257032e-05    7.00994167e-01    1.72043756e+03
116      3.11773454e-04    9.46538770e-02    5.33498842e-05    7.01025798e-01    1.72029472e+03
117      3.12024358e-04    9.47286499e-02    5.34024696e-05    7.01145521e-01    1.71987075e+03
118      3.12526164e-04    9.48708327e-02    5.36443440e-05    7.03232471e-01    1.71451962e+03
119      3.13027971e-04    9.50127475e-02    5.40090640e-05    7.06922795e-01    1.70532364e+03
120      3.13529778e-04    9.51396728e-02    5.43480034e-05    7.10380138e-01    1.69680501e+03
121      3.14031584e-04    9.52882387e-02    5.46831720e-05    7.13611374e-01    1.68886635e+03
122      3.15035198e-04    9.55561805e-02    5.52928594e-05    7.19480042e-01    1.67463257e+03
123      3.17042424e-04    9.61301453e-02    5.63921099e-05    7.29261913e-01    1.65119818e+03
124      3.19049651e-04    9.66909288e-02    5.73218090e-05    7.36845822e-01    1.63325846e+03
125      3.21056878e-04    9.72786985e-02    5.81403046e-05    7.42702982e-01    1.61939013e+03
126      3.23064104e-04    9.78501022e-02    5.88504158e-05    7.47237863e-01    1.60860239e+03
127      3.27078557e-04    9.90329117e-02    6.01097324e-05    7.53803502e-01    1.59260554e+03
128      3.35107464e-04    1.01385989e-01    6.21913155e-05    7.61174242e-01    1.57320735e+03
129      3.43136371e-04    1.03773382e-01    6.39658743e-05    7.64221323e-01    1.56283084e+03
130      3.51165277e-04    1.06144502e-01    6.55789929e-05    7.65317229e-01    1.55643881e+03
131      3.67223090e-04    1.10915033e-01    6.87197652e-05    7.66067375e-01    1.54631636e+03
132      3.69230317e-04    1.11503884e-01    6.91079810e-05    7.66148009e-01    1.54506971e+03
133      3.73244770e-04    1.12691098e-01    6.99089128e-05    7.66498827e-01    1.54216329e+03
134      3.74248383e-04    1.12988035e-01    7.01184031e-05    7.66683725e-01    1.54123834e+03
135      3.76255610e-04    1.13577409e-01    7.05474352e-05    7.67189322e-01    1.53912200e+03
136      3.80270063e-04    1.14760180e-01    7.14636144e-05    7.68772326e-01    1.53373392e+03
137      3.81273677e-04    1.15053823e-01    7.16955088e-05    7.69205806e-01    1.53231603e+03
138      3.83280903e-04    1.15641338e-01    7.21538787e-05    7.70004207e-01    1.52961724e+03
139      3.87295357e-04    1.16822546e-01    7.30440261e-05    7.71243323e-01    1.52491736e+03
140      3.88298970e-04    1.17117413e-01    7.32596374e-05    7.71477205e-01    1.52389251e+03
141      3.90306197e-04    1.17710249e-01    7.36898336e-05    7.71906936e-01    1.52191017e+03
142      3.94320650e-04    1.18888084e-01    7.45219793e-05    7.72504551e-01    1.51846756e+03
143      4.02349556e-04    1.21254817e-01    7.61347823e-05    7.73030571e-01    1.51282960e+03
144      4.04356783e-04    1.21843294e-01    7.65357804e-05    7.73150365e-01    1.51143895e+03
145      4.08371236e-04    1.23025030e-01    7.73681994e-05    7.73649882e-01    1.50812899e+03
146      4.16400143e-04    1.25366650e-01    7.91808731e-05    7.76175026e-01    1.49855938e+03
147      4.24429049e-04    1.27715005e-01    8.10295639e-05    7.78858074e-01    1.48866676e+03
148      4.32457956e-04    1.30046255e-01    8.29155463e-05    7.81851739e-01    1.47822118e+03
149      4.48515769e-04    1.34713977e-01    8.67344721e-05    7.87763573e-01    1.45750101e+03
150      4.64573582e-04    1.39356970e-01    9.05267903e-05    7.92984250e-01    1.43814265e+03
151      4.80631395e-04    1.43994855e-01    9.43659376e-05    7.98084222e-01    1.41902494e+03
152      5.12747021e-04    1.53203189e-01    1.02118800e-04    8.07709731e-01    1.38197965e+03
153      5.76978274e-04    1.71416751e-01    1.18097476e-04    8.25867698e-01    1.31037159e+03
154      7.05440779e-04    2.06836540e-01    1.51901800e-04    8.58943073e-01    1.17630566e+03
155      8.33903283e-04    2.40680117e-01    1.89565936e-04    8.95841312e-01    1.04635049e+03
156      8.51194243e-04    2.45083716e-01    1.94544537e-04    8.99299986e-01    1.03156818e+03
157      8.68485202e-04    2.49551741e-01    1.99658083e-04    9.02732292e-01    1.01674625e+03
158      8.85776162e-04    2.53862934e-01    2.04685205e-04    9.06118053e-01    1.00245010e+03
159      9.20358081e-04    2.62583656e-01    2.14806950e-04    9.11757974e-01    9.75110634e+02
160      9.54940000e-04    2.71064693e-01    2.24532155e-04    9.15569082e-01    9.50564316e+02
161      9.89521919e-04    2.79546868e-01    2.34178247e-04    9.18020272e-01    9.27610510e+02
162      1.05868576e-03    2.95924323e-01    2.52962218e-04    9.20726732e-01    8.85754354e+02
163      1.12784960e-03    3.11850104e-01    2.71735122e-04    9.22079583e-01    8.46844261e+02
164      1.26617727e-03    3.41636784e-01    3.09186921e-04    9.24347924e-01    7.76175016e+02
165      1.40450495e-03    3.68864258e-01    3.46512270e-04    9.26482655e-01    7.14235428e+02
166      1.54283262e-03    3.93118713e-01    3.82382482e-04    9.27991465e-01    6.61911364e+02
167      1.68116030e-03    4.14492042e-01    4.16238574e-04    9.29015551e-01    6.18160310e+02
168      1.81948798e-03    4.32612844e-01    4.46817401e-04    9.29844277e-01    5.82725490e+02
169      1.95781565e-03    4.47608051e-01    4.73796281e-04    9.31041087e-01    5.54255816e+02
170      2.09614333e-03    4.59174630e-01    4.95656131e-04    9.32150226e-01    5.32932882e+02
171      2.23447101e-03    4.67501740e-01    5.11859687e-04    9.32808457e-01    5.18066128e+02
172      2.37279868e-03    4.72292994e-01    5.21474504e-04    9.33331765e-01    5.09584882e+02
173      2.51112636e-03    4.73785043e-01    5.24799636e-04    9.34025639e-01    5.06678694e+02
174      2.64945404e-03    4.71694737e-01    5.21273679e-04    9.35075392e-01    5.09649832e+02
175      2.78778171e-03    4.66313767e-01    5.11466289e-04    9.36277717e-01    5.18186994e+02
176      2.92610939e-03    4.57394373e-01    4.95071827e-04    9.37350133e-01    5.33099975e+02
177      3.06443706e-03    4.45262374e-01    4.73219647e-04    9.38256728e-01    5.54229885e+02
178      3.20276474e-03    4.29694491e-01    4.46197448e-04    9.39029679e-01    5.82490849e+02
179      3.34109242e-03    4.11055234e-01    4.15443901e-04    9.39725589e-01    6.17823123e+02
180      3.47942009e-03    3.89163404e-01    3.81455141e-04    9.40345990e-01    6.61289374e+02
181      3.61774777e-03    3.64435177e-01    3.45643777e-04    9.40886469e-01    7.12759676e+02
182      3.75607545e-03    3.36738015e-01    3.08490351e-04    9.41345021e-01    7.73069762e+02
183      3.89440312e-03    3.06544872e-01    2.71172246e-04    9.41722230e-01    8.41396153e+02
184      4.03273080e-03    2.73773629e-01    2.34000657e-04    9.42178843e-01    9.17361146e+02
185      4.05002176e-03    2.69563115e-01    2.29458402e-04    9.42273358e-01    9.27149123e+02
186      4.08460368e-03    2.60967451e-01    2.20345480e-04    9.42524492e-01    9.47072400e+02
187      4.15376752e-03    2.43378745e-01    2.02449651e-04    9.43844574e-01    9.86855358e+02
188      4.22293135e-03    2.25294922e-01    1.84800508e-04    9.45363661e-01    1.02702392e+03
189      4.36125903e-03    1.87812354e-01    1.50247945e-04    9.48664331e-01    1.10653987e+03
190      4.63791438e-03    1.08578549e-01    8.38659957e-05    9.55902321e-01    1.24263755e+03
191      4.91456974e-03    2.58407706e-02    1.97403052e-05    9.63007758e-01    1.30702910e+03
192      4.98373357e-03    4.92193363e-03    3.76451455e-06    9.64534567e-01    1.30760629e+03
193      4.99237905e-03    2.30597049e-03    1.76415983e-06    9.64708646e-01    1.30722315e+03
194      4.99439693e-03    1.69539698e-03    1.29712782e-06    9.64748370e-01    1.30711967e+03
195      4.99843267e-03    4.74245719e-04    3.62886051e-07    9.64826037e-01    1.30689776e+03
196      4.99968728e-03    9.46237545e-05    7.24076418e-08    9.64849294e-01    1.30682527e+03
197      5.00219649e-03   -6.64506161e-04   -5.10734989e-07    9.69074812e-01    1.30103875e+03
198      5.00470570e-03   -1.42321839e-03   -1.10257407e-06    9.76745462e-01    1.29072496e+03
199      5.00721491e-03   -2.18155195e-03   -1.70140109e-06    9.83263248e-01    1.28206465e+03
200      5.00972412e-03   -2.93955711e-03   -2.30608580e-06    9.89019204e-01    1.27449072e+03
201      5.01474254e-03   -4.45499858e-03   -3.53144772e-06    9.99259839e-01    1.26118110e+03
202      5.02477938e-03   -7.48233819e-03   -6.03777068e-06    1.01700919e+00    1.23858189e+03
203      5.04485306e-03   -1.35284314e-02   -1.12168141e-05    1.04444481e+00    1.20451117e+03
204      5.06492675e-03   -1.95651772e-02   -1.65274730e-05    1.06341199e+00    1.18101354e+03
205      5.08500043e-03   -2.55925008e-02   -2.18998121e-05    1.07636606e+00    1.16431735e+03
206      5.10507411e-03   -3.16241906e-02   -2.73065864e-05    1.08510332e+00    1.15199042e+03
