Index       TIME              V(N1)             V(N2)            I(RPTG)      N(YMEMRISTOR!MR1_X) N(YMEMRISTOR!MR1:R)
0        0.00000000e+00    0.00000000e+00    0.00000000e+00    0.00000000e+00    0.00000000e+00    5.00000000e+01
1        1.00000000e-10    6.28318531e-07    3.14159265e-07    6.28318531e-09    0.00000000e+00    5.00000000e+01
2        3.00000000e-10    1.88495559e-06    9.42477796e-07    1.88495559e-08    0.00000000e+00    5.00000000e+01
3        7.00000000e-10    4.39822972e-06    2.19911486e-06    4.39822972e-08    0.00000000e+00    5.00000000e+01
4        1.50000000e-09    9.42477796e-06    4.71238898e-06    9.42477796e-08    0.00000000e+00    5.00000000e+01
5        3.10000000e-09    1.94778745e-05    9.73893723e-06    1.94778745e-07    0.00000000e+00    5.00000000e+01
6        6.30000000e-09    3.95840674e-05    1.97920337e-05    3.95840674e-07    0.00000000e+00    5.00000000e+01
7        1.27000000e-08    7.97964533e-05    3.98982267e-05    7.97964533e-07    0.00000000e+00    5.00000000e+01
8        2.55000000e-08    1.60221225e-04    8.01106123e-05    1.60221225e-06    0.00000000e+00    5.00000000e+01
9        5.11000000e-08    3.21070764e-04    1.60535382e-04    3.21070764e-06    0.00000000e+00    5.00000000e+01
10       1.02300000e-07    6.42769813e-04    3.21384906e-04    6.42769813e-06    0.00000000e+00    5.00000000e+01
11       2.04700000e-07    1.28616768e-03    6.43083839e-04    1.28616768e-05    0.00000000e+00    5.00000000e+01
12       4.09500000e-07    2.57296154e-03    1.28648077e-03    2.57296154e-05    0.00000000e+00    5.00000000e+01
13       8.19100000e-07    5.14653437e-03    2.57326718e-03    5.14653437e-05    0.00000000e+00    5.00000000e+01
14       1.63830000e-06    1.02935607e-02    5.14678035e-03    1.02935607e-04    0.00000000e+00    5.00000000e+01
15       3.27670000e-06    2.05866589e-02    1.02933294e-02    2.05866589e-04    1.13450528e-16    5.00000000e+01
16       6.55350000e-06    4.11652198e-02    2.05826099e-02    4.11652198e-04    3.12085866e-11    5.00000000e+01
17       9.83030000e-06    6.17263315e-02    3.08631657e-02    6.17263315e-04    6.10339882e-09    5.00000019e+01
18       1.31071000e-05    8.22612786e-02    4.11306366e-02    8.22612732e-04    1.98245852e-07    5.00000628e+01
19       1.63839000e-05    1.02761357e-01    5.13802072e-02    1.02760414e-03    2.75366220e-06    5.00008720e+01
20       1.96607000e-05    1.23217876e-01    6.16044693e-02    1.23208939e-03    2.30154362e-05    5.00072882e+01
21       2.29375000e-05    1.43622166e-01    7.17800173e-02    1.43560035e-03    1.36299383e-04    5.00431615e+01
22       2.33779404e-05    1.46360291e-01    7.31412886e-02    1.46282577e-03    1.67747826e-04    5.00531201e+01
23       2.38183809e-05    1.49097295e-01    7.45008380e-02    1.49001676e-03    2.02672503e-04    5.00641796e+01
24       2.46992618e-05    1.54567857e-01    7.72111511e-02    1.54422302e-03    2.97601176e-04    5.00942404e+01
25       2.55801427e-05    1.60033684e-01    7.99065129e-02    1.59813026e-03    4.35985566e-04    5.01380621e+01
26       2.64610236e-05    1.65494609e-01    8.25813440e-02    1.65162688e-03    6.34508599e-04    5.02009277e+01
27       2.73419045e-05    1.70950464e-01    8.52282707e-02    1.70456541e-03    9.14873320e-04    5.02897099e+01
28       2.82227854e-05    1.76401082e-01    8.78375387e-02    1.75675077e-03    1.30468834e-03    5.04131513e+01
29       2.91036663e-05    1.81846296e-01    9.03970574e-02    1.80794115e-03    1.83818727e-03    5.05820926e+01
30       2.99845472e-05    1.87285940e-01    9.28908632e-02    1.85781726e-03    2.55651446e-03    5.08095629e+01
31       3.07773400e-05    1.92176719e-01    9.50650641e-02    1.90130128e-03    3.39956707e-03    5.10765296e+01
32       3.14908535e-05    1.96574347e-01    9.69514655e-02    1.93902931e-03    4.35034132e-03    5.13776081e+01
33       3.22043670e-05    2.00968024e-01    9.87596933e-02    1.97519387e-03    5.51397181e-03    5.17460911e+01
34       3.28465292e-05    2.04918882e-01    1.00309810e-01    2.00619620e-03    6.76704188e-03    5.21428966e+01
35       3.34886914e-05    2.08866404e-01    1.01778720e-01    2.03557439e-03    8.23646159e-03    5.26082128e+01
36       3.41308535e-05    2.12810526e-01    1.03158003e-01    2.06316006e-03    9.94019575e-03    5.31477287e+01
37       3.47087995e-05    2.16357275e-01    1.04318407e-01    2.08636813e-03    1.16859530e-02    5.37005518e+01
38       3.52867454e-05    2.19901171e-01    1.05397547e-01    2.10795093e-03    1.36413151e-02    5.43197498e+01
39       3.58646914e-05    2.23442167e-01    1.06394278e-01    2.12788557e-03    1.58109028e-02    5.50067859e+01
40       3.64426374e-05    2.26980217e-01    1.07306898e-01    2.14613797e-03    1.81959493e-02    5.57620506e+01
41       3.70205833e-05    2.30515274e-01    1.08137098e-01    2.16274195e-03    2.07942793e-02    5.65848551e+01
42       3.75985293e-05    2.34047292e-01    1.08885919e-01    2.17771838e-03    2.36005272e-02    5.74735003e+01
43       3.81764752e-05    2.37576222e-01    1.09557590e-01    2.19115180e-03    2.66065019e-02    5.84253923e+01
44       3.87544212e-05    2.41102021e-01    1.10155286e-01    2.20310571e-03    2.98017072e-02    5.94372073e+01
45       3.93323671e-05    2.44624639e-01    1.10684930e-01    2.21369860e-03    3.31739063e-02    6.05050703e+01
46       3.99103131e-05    2.48144032e-01    1.11150864e-01    2.22301728e-03    3.67097220e-02    6.16247453e+01
47       4.04882590e-05    2.51660153e-01    1.11559718e-01    2.23119437e-03    4.03951800e-02    6.27918070e+01
48       4.10662050e-05    2.55172955e-01    1.11916064e-01    2.23832129e-03    4.42162019e-02    6.40017973e+01
49       4.16441510e-05    2.58682393e-01    1.12226428e-01    2.24452855e-03    4.81589925e-02    6.52503476e+01
50       4.22220969e-05    2.62188419e-01    1.12494950e-01    2.24989900e-03    5.22103469e-02    6.65332765e+01
51       4.28000429e-05    2.65690988e-01    1.12727555e-01    2.25455110e-03    5.63578554e-02    6.78466542e+01
52       4.33779888e-05    2.69190053e-01    1.12927615e-01    2.25855230e-03    6.05900385e-02    6.91868455e+01
53       4.39559348e-05    2.72685569e-01    1.13100249e-01    2.26200498e-03    6.48964086e-02    7.05505294e+01
54       4.45338807e-05    2.76177488e-01    1.13247967e-01    2.26495935e-03    6.92674861e-02    7.19347039e+01
55       4.51118267e-05    2.79665766e-01    1.13375077e-01    2.26750155e-03    7.36947745e-02    7.33366786e+01
56       4.56897726e-05    2.83150356e-01    1.13483283e-01    2.26966566e-03    7.81707120e-02    7.47540588e+01
57       4.62677186e-05    2.86631213e-01    1.13576175e-01    2.27152350e-03    8.26886067e-02    7.61847254e+01
58       4.74236105e-05    2.93581540e-01    1.13722386e-01    2.27444772e-03    9.18252388e-02    7.90779923e+01
59       4.85795024e-05    3.00516382e-01    1.13827699e-01    2.27655397e-03    1.01068829e-01    8.20051292e+01
60       4.97353943e-05    3.07435373e-01    1.13901403e-01    2.27802805e-03    1.10389247e-01    8.49565949e+01
61       5.08912862e-05    3.14338148e-01    1.13952610e-01    2.27905221e-03    1.19763621e-01    8.79251467e+01
62       5.32030701e-05    3.28093595e-01    1.14007220e-01    2.28014439e-03    1.38604278e-01    9.38913546e+01
63       5.55148539e-05    3.41779819e-01    1.14020783e-01    2.28041567e-03    1.57504307e-01    9.98763639e+01
64       5.78266377e-05    3.55393933e-01    1.14009042e-01    2.28018084e-03    1.76405922e-01    1.05861875e+02
65       6.01384215e-05    3.68933066e-01    1.13983129e-01    2.27966258e-03    1.95274703e-01    1.11836989e+02
66       6.24502054e-05    3.82394360e-01    1.13946716e-01    2.27893432e-03    2.14089242e-01    1.17794927e+02
67       6.47619892e-05    3.95774976e-01    1.13904567e-01    2.27809134e-03    2.32835607e-01    1.23731276e+02
68       6.70737730e-05    4.09072090e-01    1.13856737e-01    2.27713473e-03    2.51504160e-01    1.29642984e+02
69       6.93855568e-05    4.22282897e-01    1.13806038e-01    2.27612075e-03    2.70087839e-01    1.35527816e+02
70       7.16973406e-05    4.35404610e-01    1.13751331e-01    2.27502661e-03    2.88581103e-01    1.41384016e+02
71       7.40091245e-05    4.48434460e-01    1.13694802e-01    2.27389604e-03    3.06979382e-01    1.47210137e+02
72       7.63209083e-05    4.61369698e-01    1.13634871e-01    2.27269743e-03    3.25278683e-01    1.53004916e+02
73       7.86326921e-05    4.74207595e-01    1.13573522e-01    2.27147044e-03    3.43475421e-01    1.58767217e+02
74       8.09444759e-05    4.86945443e-01    1.13508988e-01    2.27017976e-03    3.61566248e-01    1.64495979e+02
75       8.32562598e-05    4.99580553e-01    1.13443193e-01    2.26886386e-03    3.79548011e-01    1.70190203e+02
76       8.55680436e-05    5.12110261e-01    1.13374279e-01    2.26748558e-03    3.97417663e-01    1.75848927e+02
77       8.78798274e-05    5.24531923e-01    1.13304160e-01    2.26608319e-03    4.15172269e-01    1.81471219e+02
78       9.01916112e-05    5.36842917e-01    1.13230924e-01    2.26461848e-03    4.32808949e-01    1.87056167e+02
79       9.25033950e-05    5.49040647e-01    1.13156494e-01    2.26312989e-03    4.50324896e-01    1.92602884e+02
80       9.48151789e-05    5.61122539e-01    1.13078922e-01    2.26157844e-03    4.67717341e-01    1.98110491e+02
81       9.71269627e-05    5.73086044e-01    1.13000145e-01    2.26000289e-03    4.84983570e-01    2.03578131e+02
82       9.94387465e-05    5.84928638e-01    1.12918185e-01    2.25836369e-03    5.02120900e-01    2.09004952e+02
83       1.01750530e-04    5.96647822e-01    1.12834996e-01    2.25669991e-03    5.19126697e-01    2.14390121e+02
84       1.04062314e-04    6.08241123e-01    1.12748576e-01    2.25497152e-03    5.35998354e-01    2.19732812e+02
85       1.06374098e-04    6.19706097e-01    1.12660896e-01    2.25321791e-03    5.52733311e-01    2.25032215e+02
86       1.08685882e-04    6.31040323e-01    1.12569932e-01    2.25139863e-03    5.69329037e-01    2.30287528e+02
87       1.10997666e-04    6.42241411e-01    1.12477669e-01    2.24955337e-03    5.85783044e-01    2.35497964e+02
88       1.13309449e-04    6.53306997e-01    1.12382065e-01    2.24764129e-03    6.02092874e-01    2.40662743e+02
89       1.15621233e-04    6.64234746e-01    1.12285118e-01    2.24570237e-03    6.18256115e-01    2.45781103e+02
90       1.17933017e-04    6.75022354e-01    1.12184771e-01    2.24369541e-03    6.34270386e-01    2.50852289e+02
91       1.20244801e-04    6.85667544e-01    1.12083032e-01    2.24166064e-03    6.50133350e-01    2.55875561e+02
92       1.22556585e-04    6.96168070e-01    1.11977827e-01    2.23955655e-03    6.65842706e-01    2.60850190e+02
93       1.24868369e-04    7.06521716e-01    1.11871179e-01    2.23742358e-03    6.81396197e-01    2.65775462e+02
94       1.27180152e-04    7.16726299e-01    1.11760996e-01    2.23521992e-03    6.96791603e-01    2.70650674e+02
95       1.29491936e-04    7.26779665e-01    1.11649312e-01    2.23298624e-03    7.12026751e-01    2.75475138e+02
96       1.31803720e-04    7.36679693e-01    1.11534021e-01    2.23068042e-03    7.27099507e-01    2.80248177e+02
97       1.34115504e-04    7.46424295e-01    1.11417166e-01    2.22834332e-03    7.42007785e-01    2.84969132e+02
98       1.36427288e-04    7.56011414e-01    1.11296628e-01    2.22593256e-03    7.56749537e-01    2.89637354e+02
99       1.38739071e-04    7.65439028e-01    1.11174458e-01    2.22348915e-03    7.71322771e-01    2.94252211e+02
100      1.41050855e-04    7.74705148e-01    1.11048524e-01    2.22097048e-03    7.85725531e-01    2.98813085e+02
101      1.43362639e-04    7.83807818e-01    1.10920884e-01    2.21841768e-03    7.99955918e-01    3.03319374e+02
102      1.45674423e-04    7.92745119e-01    1.10789396e-01    2.21578791e-03    8.14012075e-01    3.07770491e+02
103      1.47986207e-04    8.01515164e-01    1.10656121e-01    2.21312243e-03    8.27892201e-01    3.12165864e+02
104      1.50297991e-04    8.10116104e-01    1.10518908e-01    2.21037816e-03    8.41594539e-01    3.16504937e+02
105      1.52609774e-04    8.18546123e-01    1.10379824e-01    2.20759648e-03    8.55117390e-01    3.20787174e+02
106      1.54921558e-04    8.26803443e-01    1.10236704e-01    2.20473409e-03    8.68459105e-01    3.25012050e+02
107      1.57233342e-04    8.34886322e-01    1.10091622e-01    2.20183245e-03    8.81618090e-01    3.29179062e+02
108      1.59545126e-04    8.42793055e-01    1.09942403e-01    2.19884806e-03    8.94592807e-01    3.33287722e+02
109      1.61856910e-04    8.50521973e-01    1.09791123e-01    2.19582245e-03    9.07381774e-01    3.37337562e+02
110      1.64168694e-04    8.58071446e-01    1.09635596e-01    2.19271193e-03    9.19983565e-01    3.41328129e+02
111      1.66480477e-04    8.65439880e-01    1.09477904e-01    2.18955808e-03    9.32396818e-01    3.45258992e+02
112      1.68792261e-04    8.72625722e-01    1.09315850e-01    2.18631701e-03    9.44620223e-01    3.49129737e+02
113      1.71104045e-04    8.79627455e-01    1.09151518e-01    2.18303036e-03    9.56652541e-01    3.52939971e+02
114      1.73415829e-04    8.86443602e-01    1.08982701e-01    2.17965402e-03    9.68492586e-01    3.56689319e+02
115      1.75727613e-04    8.93072725e-01    1.08811485e-01    2.17622970e-03    9.80139245e-01    3.60377428e+02
116      1.78039396e-04    8.99513426e-01    1.08635654e-01    2.17271308e-03    9.91591463e-01    3.64003963e+02
117      1.80351180e-04    9.05764344e-01    1.08457294e-01    2.16914588e-03    1.00284826e+00    3.67568615e+02
118      1.82662964e-04    9.11824162e-01    1.08274180e-01    2.16548360e-03    1.01390871e+00    3.71071091e+02
119      1.84974748e-04    9.17691601e-01    1.08088399e-01    2.16176799e-03    1.02477197e+00    3.74511124e+02
120      1.87286532e-04    9.23365423e-01    1.07897717e-01    2.15795435e-03    1.03543727e+00    3.77888468e+02
121      1.89598316e-04    9.28844432e-01    1.07704220e-01    2.15408440e-03    1.04590389e+00    3.81202899e+02
122      1.91910099e-04    9.34127470e-01    1.07505664e-01    2.15011329e-03    1.05617121e+00    3.84454218e+02
123      1.94221883e-04    9.39213423e-01    1.07304136e-01    2.14608272e-03    1.06623868e+00    3.87642249e+02
124      1.96533667e-04    9.44101219e-01    1.07096308e-01    2.14192615e-03    1.07610590e+00    3.90766869e+02
125      1.98845451e-04    9.48789826e-01    1.06887482e-01    2.13774964e-03    1.08577238e+00    3.93827921e+02
126      2.01157235e-04    9.53278255e-01    1.06671114e-01    2.13342228e-03    1.09523780e+00    3.96825303e+02
127      2.03469018e-04    9.57565559e-01    1.06453569e-01    2.12907139e-03    1.10450192e+00    3.99758940e+02
128      2.05780802e-04    9.61650834e-01    1.06228289e-01    2.12456579e-03    1.11356458e+00    4.02628783e+02
129      2.08092586e-04    9.65533216e-01    1.06001645e-01    2.12003289e-03    1.12242572e+00    4.05434812e+02
130      2.10404370e-04    9.69211888e-01    1.05767059e-01    2.11534118e-03    1.13108536e+00    4.08177031e+02
131      2.12716154e-04    9.72686074e-01    1.05530907e-01    2.11061813e-03    1.13954361e+00    4.10855475e+02
132      2.15027938e-04    9.75955039e-01    1.05286596e-01    2.10573191e-03    1.14780065e+00    4.13470205e+02
133      2.17339721e-04    9.79018095e-01    1.05040503e-01    2.10081007e-03    1.15585678e+00    4.16021314e+02
134      2.19651505e-04    9.81874595e-01    1.04786021e-01    2.09572043e-03    1.16371238e+00    4.18508921e+02
135      2.21963289e-04    9.84523937e-01    1.04529529e-01    2.09059058e-03    1.17136794e+00    4.20933179e+02
136      2.24275073e-04    9.86965562e-01    1.04264402e-01    2.08528804e-03    1.17882401e+00    4.23294269e+02
137      2.26586857e-04    9.89198954e-01    1.03997021e-01    2.07994041e-03    1.18608128e+00    4.25592405e+02
138      2.28898641e-04    9.91223642e-01    1.03720746e-01    2.07441492e-03    1.19314052e+00    4.27827831e+02
139      2.31210424e-04    9.93039199e-01    1.03441957e-01    2.06883915e-03    1.20000261e+00    4.30000826e+02
140      2.33522208e-04    9.94645243e-01    1.03154002e-01    2.06308004e-03    1.20666852e+00    4.32111697e+02
141      2.35833992e-04    9.96041433e-01    1.02863258e-01    2.05726516e-03    1.21313934e+00    4.34160791e+02
142      2.38145776e-04    9.97227477e-01    1.02563057e-01    2.05126115e-03    1.21941626e+00    4.36148482e+02
143      2.40457560e-04    9.98203122e-01    1.02259777e-01    2.04519555e-03    1.22550058e+00    4.38075185e+02
144      2.42769343e-04    9.98968164e-01    1.01946736e-01    2.03893472e-03    1.23139372e+00    4.39941343e+02
145      2.45081127e-04    9.99522442e-01    1.01630308e-01    2.03260616e-03    1.23709718e+00    4.41747440e+02
146      2.47392911e-04    9.99865837e-01    1.01303798e-01    2.02607595e-03    1.24261261e+00    4.43493992e+02
147      2.49704695e-04    9.99998279e-01    1.00976568e-01    2.01953135e-03    1.24794163e+00    4.45181516e+02
148      2.52016479e-04    9.99919738e-01    1.00632735e-01    2.01265469e-03    1.25308623e+00    4.46810640e+02
149      2.54328263e-04    9.99630231e-01    1.00291048e-01    2.00582096e-03    1.25804840e+00    4.48381992e+02
150      2.56640046e-04    9.99129820e-01    9.99323924e-02    1.99864785e-03    1.26283020e+00    4.49896231e+02
151      2.58951830e-04    9.98418610e-01    9.95755350e-02    1.99151070e-03    1.26743386e+00    4.51354056e+02
152      2.61263614e-04    9.97496751e-01    9.92013360e-02    1.98402672e-03    1.27186169e+00    4.52756201e+02
153      2.63575398e-04    9.96364438e-01    9.88285689e-02    1.97657138e-03    1.27611613e+00    4.54103440e+02
154      2.65887182e-04    9.95021909e-01    9.84380732e-02    1.96876146e-03    1.28019972e+00    4.55396577e+02
155      2.68198966e-04    9.93469448e-01    9.80486276e-02    1.96097255e-03    1.28411514e+00    4.56636461e+02
156      2.70510749e-04    9.91707382e-01    9.76410526e-02    1.95282105e-03    1.28786516e+00    4.57823969e+02
157      2.72822533e-04    9.89736084e-01    9.72341319e-02    1.94468264e-03    1.29145269e+00    4.58960020e+02
158      2.75134317e-04    9.87555968e-01    9.68086688e-02    1.93617338e-03    1.29488073e+00    4.60045563e+02
159      2.77446101e-04    9.85167495e-01    9.63834518e-02    1.92766904e-03    1.29815238e+00    4.61081588e+02
160      2.79757885e-04    9.82571169e-01    9.59392690e-02    1.91878538e-03    1.30127088e+00    4.62069111e+02
161      2.82069668e-04    9.79767538e-01    9.54949138e-02    1.90989828e-03    1.30423954e+00    4.63009187e+02
162      2.84381452e-04    9.76757192e-01    9.50311616e-02    1.90062323e-03    1.30706179e+00    4.63902900e+02
163      2.86693236e-04    9.73540768e-01    9.45668108e-02    1.89133622e-03    1.30974115e+00    4.64751366e+02
164      2.89005020e-04    9.70118944e-01    9.40826267e-02    1.88165253e-03    1.31228124e+00    4.65555727e+02
165      2.91316804e-04    9.66492442e-01    9.35974134e-02    1.87194827e-03    1.31468576e+00    4.66317158e+02
166      2.93628588e-04    9.62662027e-01    9.30834608e-02    1.86166922e-03    1.31695863e+00    4.67036899e+02
167      2.95940371e-04    9.58628506e-01    9.25857090e-02    1.85171418e-03    1.31910356e+00    4.67716126e+02
168      2.98252155e-04    9.54392732e-01    9.20495892e-02    1.84099178e-03    1.32112446e+00    4.68356078e+02
169      3.00563939e-04    9.49955598e-01    9.15291831e-02    1.83058366e-03    1.32302535e+00    4.68958026e+02
170      3.02875723e-04    9.45318040e-01    9.09700014e-02    1.81940003e-03    1.32481026e+00    4.69523248e+02
171      3.05187507e-04    9.40481036e-01    9.04261030e-02    1.80852206e-03    1.32648331e+00    4.70053048e+02
172      3.07499290e-04    9.35445607e-01    8.98430224e-02    1.79686045e-03    1.32804862e+00    4.70548729e+02
173      3.09811074e-04    9.30212815e-01    8.92748106e-02    1.78549621e-03    1.32951038e+00    4.71011619e+02
