Index         TIME           {V(VOUT)+1.0}       {V(IN)+1.0}        {V(1)+1.0}
0       0.0000000000e+00   1.0000000019e+00   6.0000000000e+00   6.0000000000e+00   
1       7.5000000000e-09   1.0000000019e+00   6.0000000000e+00   6.0000000000e+00   
2       2.2500000000e-08   1.0000000019e+00   6.0000000000e+00   6.0000000000e+00   
3       5.2500000000e-08   1.0000000019e+00   6.0000000000e+00   6.0000000000e+00   
4       1.1250000000e-07   1.0000000019e+00   6.0000000000e+00   6.0000000000e+00   
5       2.3250000000e-07   1.0000000019e+00   6.0000000000e+00   6.0000000000e+00   
6       3.8250000000e-07   1.0000000019e+00   6.0000000000e+00   6.0000000000e+00   
7       5.3250000000e-07   1.0000000019e+00   6.0000000000e+00   6.0000000000e+00   
8       6.8250000000e-07   1.0000000019e+00   6.0000000000e+00   6.0000000000e+00   
9       8.3250000000e-07   1.0000000019e+00   6.0000000000e+00   6.0000000000e+00   
10      9.8250000000e-07   1.0000000019e+00   6.0000000000e+00   6.0000000000e+00   
11      1.1325000000e-06   1.0000000019e+00   6.0000000000e+00   6.0000000000e+00   
12      1.2825000000e-06   1.0000000019e+00   6.0000000000e+00   6.0000000000e+00   
13      1.4325000000e-06   1.0000000019e+00   6.0000000000e+00   6.0000000000e+00   
14      1.5000000000e-06   1.0000000019e+00   6.0000000000e+00   6.0000000000e+00   
15      1.5001460302e-06   1.0000000019e+00   5.9826103447e+00   5.8539698317e+00   
16      1.5002657903e-06   1.0000000019e+00   5.9578988818e+00   5.7342096579e+00   
17      1.5003855505e-06   1.0000000019e+00   5.9282433119e+00   5.6144494842e+00   
18      1.5006250709e-06   1.0000000019e+00   5.8422646840e+00   5.3749291368e+00   
19      1.5008645912e-06   1.0000000019e+00   5.7260794889e+00   5.1354087893e+00   
20      1.5011041116e-06   1.0000000019e+00   5.5856939438e+00   4.8958884419e+00   
21      1.5015831523e-06   1.0000000019e+00   5.2518288558e+00   4.4168477470e+00   
22      1.5025412336e-06   1.0000000019e+00   4.3801205371e+00   3.4587663572e+00   
23      1.5034993150e-06   1.0000000019e+00   3.3769162210e+00   2.5006849673e+00   
24      1.5035792490e-06   1.0000000019e+00   3.2985780872e+00   2.4207510125e+00   
25      1.5037391169e-06   1.0000000019e+00   3.1422501459e+00   2.2608831029e+00   
26      1.5038989848e-06   1.0000000019e+00   2.9843431682e+00   2.1010151932e+00   
27      1.5040588527e-06   1.0000000019e+00   2.8105369689e+00   1.9411472835e+00   
28      1.5042187206e-06   1.0000000019e+00   2.6221969419e+00   1.7812793739e+00   
29      1.5043785885e-06   1.0000000019e+00   2.4350356572e+00   1.6214114642e+00   
30      1.5045384564e-06   1.0000000019e+00   2.2536736872e+00   1.4615435546e+00   
31      1.5046983244e-06   1.0000000019e+00   2.0895175665e+00   1.3016756449e+00   
32      1.5048581923e-06   1.0000000019e+00   1.9362108236e+00   1.1418077352e+00   
33      1.5050000000e-06   1.0000000019e+00   1.8170398986e+00   1.0000000000e+00   
34      1.5050159868e-06   1.0000000019e+00   1.8058646083e+00   1.0000000000e+00   
35      1.5050282491e-06   1.0000000019e+00   1.7980386162e+00   1.0000000000e+00   
36      1.5050527737e-06   1.0000000019e+00   1.7838428700e+00   1.0000000000e+00   
37      1.5051018229e-06   1.0000000019e+00   1.7609347042e+00   1.0000000000e+00   
38      1.5051999213e-06   1.0000000019e+00   1.7287101608e+00   1.0000000000e+00   
39      1.5052980197e-06   1.0000000019e+00   1.7065850709e+00   1.0000000000e+00   
40      1.5053961181e-06   1.0000000019e+00   1.6886624478e+00   1.0000000000e+00   
41      1.5054942164e-06   1.0000000019e+00   1.6749699230e+00   1.0000000000e+00   
42      1.5055243315e-06   1.0000000019e+00   1.6714335487e+00   1.0000000000e+00   
43      1.5055845616e-06   1.0000000019e+00   1.6632217530e+00   1.0000000000e+00   
44      1.5057050217e-06   1.0000000019e+00   1.6415689450e+00   1.0000000000e+00   
45      1.5058126804e-06   1.0000000019e+00   1.6242521277e+00   1.0000000000e+00   
46      1.5059095732e-06   1.0000000019e+00   1.6053314465e+00   1.0000000000e+00   
47      1.5059967767e-06   1.0000000019e+00   1.5839009631e+00   1.0000000000e+00   
48      1.5060752598e-06   1.0000000019e+00   1.5650944849e+00   1.0000000000e+00   
49      1.5061537430e-06   1.0000000019e+00   1.5452676886e+00   1.0000000000e+00   
50      1.5062243778e-06   1.0000000019e+00   1.5272476750e+00   1.0000000000e+00   
51      1.5062950127e-06   1.0000000019e+00   1.5088817853e+00   1.0000000000e+00   
52      1.5063656475e-06   1.0000000019e+00   1.4891642135e+00   1.0000000000e+00   
53      1.5064362824e-06   1.0000000019e+00   1.4671286447e+00   1.0000000000e+00   
54      1.5065069172e-06   1.0000000019e+00   1.4441402910e+00   1.0000000000e+00   
55      1.5065775521e-06   1.0000000019e+00   1.4213646112e+00   1.0000000000e+00   
56      1.5066481869e-06   1.0000000019e+00   1.3992775410e+00   1.0000000000e+00   
57      1.5067188217e-06   1.0000000019e+00   1.3784710679e+00   1.0000000000e+00   
58      1.5067894566e-06   1.0000000019e+00   1.3593659376e+00   1.0000000000e+00   
59      1.5068600914e-06   1.0000000019e+00   1.3417911019e+00   1.0000000000e+00   
60      1.5069307263e-06   1.0000000019e+00   1.3255071490e+00   1.0000000000e+00   
61      1.5070013611e-06   1.0000000019e+00   1.3103141776e+00   1.0000000000e+00   
62      1.5070719960e-06   1.0000000019e+00   1.2961346398e+00   1.0000000000e+00   
63      1.5071426308e-06   1.0000000019e+00   1.2828145866e+00   1.0000000000e+00   
64      1.5072132657e-06   1.0000000019e+00   1.2704108548e+00   1.0000000000e+00   
65      1.5072839005e-06   1.0000000019e+00   1.2589793577e+00   1.0000000000e+00   
66      1.5073545353e-06   1.0000000019e+00   1.2483503697e+00   1.0000000000e+00   
67      1.5074251702e-06   1.0000000019e+00   1.2381808790e+00   1.0000000000e+00   
68      1.5074958050e-06   1.0000000019e+00   1.2282893976e+00   1.0000000000e+00   
69      1.5075664399e-06   1.0000000019e+00   1.2185846920e+00   1.0000000000e+00   
70      1.5076370747e-06   1.0000000019e+00   1.2090608524e+00   1.0000000000e+00   
71      1.5077077096e-06   1.0000000020e+00   1.1997140532e+00   1.0000000000e+00   
72      1.5078489792e-06   1.0000000020e+00   1.1817036356e+00   1.0000000000e+00   
73      1.5079902489e-06   1.0000000019e+00   1.1646194822e+00   1.0000000000e+00   
74      1.5081094701e-06   1.0000000019e+00   1.1510653772e+00   1.0000000000e+00   
75      1.5082167691e-06   1.0000000019e+00   1.1395639230e+00   1.0000000000e+00   
76      1.5083133383e-06   1.0000000019e+00   1.1297401029e+00   1.0000000000e+00   
77      1.5084002505e-06   1.0000000020e+00   1.1214317076e+00   1.0000000000e+00   
78      1.5084871627e-06   1.0000000019e+00   1.1136230457e+00   1.0000000000e+00   
79      1.5085653837e-06   1.0000000019e+00   1.1069708449e+00   1.0000000000e+00   
80      1.5086357826e-06   1.0000000019e+00   1.1012788387e+00   1.0000000000e+00   
81      1.5087061815e-06   1.0000000021e+00   1.0958298614e+00   1.0000000000e+00   
82      1.5087765804e-06   1.0000000022e+00   1.0906511135e+00   1.0000000000e+00   
83      1.5088469793e-06   1.0000000022e+00   1.0857549541e+00   1.0000000000e+00   
84      1.5089173782e-06   1.0000000021e+00   1.0811406299e+00   1.0000000000e+00   
85      1.5089877771e-06   1.0000000021e+00   1.0767934207e+00   1.0000000000e+00   
86      1.5090581760e-06   1.0000000021e+00   1.0727077148e+00   1.0000000000e+00   
87      1.5091285749e-06   1.0000000021e+00   1.0688575351e+00   1.0000000000e+00   
88      1.5091989738e-06   1.0000000015e+00   1.0652201038e+00   1.0000000000e+00   
89      1.5092693727e-06   1.0000000009e+00   1.0617735640e+00   1.0000000000e+00   
90      1.5093397716e-06   1.0000000007e+00   1.0585071559e+00   1.0000000000e+00   
91      1.5094101705e-06   1.0000000009e+00   1.0554057793e+00   1.0000000000e+00   
92      1.5094805694e-06   1.0000000014e+00   1.0524638840e+00   1.0000000000e+00   
93      1.5095509683e-06   1.0000000019e+00   1.0496736505e+00   1.0000000000e+00   
94      1.5096213672e-06   1.0000000018e+00   1.0470264584e+00   1.0000000000e+00   
95      1.5097621650e-06   1.0000000012e+00   1.0421044095e+00   1.0000000000e+00   
96      1.5099029628e-06   1.0000000019e+00   1.0376439898e+00   1.0000000000e+00   
97      1.5100437606e-06   1.0000000035e+00   1.0336147165e+00   1.0000000000e+00   
98      1.5101845584e-06   1.0000000042e+00   1.0299921487e+00   1.0000000000e+00   
99      1.5103253562e-06   1.0000000026e+00   1.0267416103e+00   1.0000000000e+00   
100     1.5104456984e-06   1.0000000003e+00   1.0242409387e+00   1.0000000000e+00   
101     1.5105540063e-06   1.0000000005e+00   1.0221929257e+00   1.0000000000e+00   
102     1.5106623142e-06   1.0000000033e+00   1.0203165558e+00   1.0000000000e+00   
103     1.5107530769e-06   1.0000000030e+00   1.0188645648e+00   1.0000000000e+00   
104     1.5108438396e-06   1.0000000014e+00   1.0175168361e+00   1.0000000000e+00   
105     1.5109346022e-06   1.0000000059e+00   1.0162635179e+00   1.0000000000e+00   
106     1.5110253649e-06   1.0000000149e+00   1.0150989715e+00   1.0000000000e+00   
107     1.5111161275e-06   1.0000000196e+00   1.0140168454e+00   1.0000000000e+00   
108     1.5112068902e-06   1.0000000206e+00   1.0130132897e+00   1.0000000000e+00   
109     1.5112976529e-06   1.0000000268e+00   1.0120816930e+00   1.0000000000e+00   
110     1.5113793393e-06   1.0000000285e+00   1.0113010149e+00   1.0000000000e+00   
111     1.5114610257e-06   1.0000000052e+00   1.0105699571e+00   1.0000000000e+00   
112     1.5115427121e-06   9.9999996673e-01   1.0098856461e+00   1.0000000000e+00   
113     1.5116243984e-06   9.9999994450e-01   1.0092441170e+00   1.0000000000e+00   
114     1.5117060848e-06   9.9999994765e-01   1.0086435325e+00   1.0000000000e+00   
115     1.5117877712e-06   9.9999996253e-01   1.0080806572e+00   1.0000000000e+00   
116     1.5118694576e-06   9.9999996240e-01   1.0075540283e+00   1.0000000000e+00   
117     1.5119511440e-06   9.9999993592e-01   1.0070606472e+00   1.0000000000e+00   
118     1.5120328304e-06   9.9999991269e-01   1.0065989686e+00   1.0000000000e+00   
119     1.5121145168e-06   9.9999992030e-01   1.0061664258e+00   1.0000000000e+00   
120     1.5121962032e-06   9.9999995382e-01   1.0057620030e+00   1.0000000000e+00   
121     1.5122778896e-06   1.0000000007e+00   1.0053834688e+00   1.0000000000e+00   
122     1.5124412624e-06   1.0000000814e+00   1.0046985023e+00   1.0000000000e+00   
123     1.5124691247e-06   1.0000000874e+00   1.0045919351e+00   1.0000000000e+00   
124     1.5124969869e-06   1.0000000909e+00   1.0044866497e+00   1.0000000000e+00   
125     1.5125527115e-06   1.0000000683e+00   1.0042832175e+00   1.0000000000e+00   
126     1.5126084360e-06   9.9999998702e-01   1.0040889868e+00   1.0000000000e+00   
127     1.5126641605e-06   9.9999988174e-01   1.0039035677e+00   1.0000000000e+00   
128     1.5127198851e-06   9.9999985538e-01   1.0037265309e+00   1.0000000000e+00   
129     1.5127756096e-06   9.9999994274e-01   1.0035574871e+00   1.0000000000e+00   
130     1.5128313341e-06   1.0000000660e+00   1.0033960767e+00   1.0000000000e+00   
131     1.5128870587e-06   1.0000001543e+00   1.0032419693e+00   1.0000000000e+00   
132     1.5129427832e-06   1.0000001627e+00   1.0030948219e+00   1.0000000000e+00   
133     1.5129985077e-06   1.0000000541e+00   1.0029543219e+00   1.0000000000e+00   
134     1.5130542323e-06   9.9999992395e-01   1.0028201610e+00   1.0000000000e+00   
135     1.5131099568e-06   9.9999995047e-01   1.0026920564e+00   1.0000000000e+00   
136     1.5131656813e-06   1.0000001500e+00   1.0025697257e+00   1.0000000000e+00   
137     1.5132214058e-06   1.0000004312e+00   1.0024529084e+00   1.0000000000e+00   
138     1.5132771304e-06   1.0000007522e+00   1.0023413515e+00   1.0000000000e+00   
139     1.5133328549e-06   1.0000010588e+00   1.0022348328e+00   1.0000000000e+00   
140     1.5133885794e-06   1.0000012636e+00   1.0021331320e+00   1.0000000000e+00   
141     1.5135000285e-06   1.0000016866e+00   1.0019432408e+00   1.0000000000e+00   
142     1.5135994445e-06   1.0000023826e+00   1.0017880988e+00   1.0000000000e+00   
143     1.5136889188e-06   1.0000023688e+00   1.0016590290e+00   1.0000000000e+00   
144     1.5137783932e-06   1.0000009044e+00   1.0015391958e+00   1.0000000000e+00   
145     1.5138678675e-06   9.9999919650e-01   1.0014279404e+00   1.0000000000e+00   
146     1.5139573419e-06   9.9999845776e-01   1.0013246544e+00   1.0000000000e+00   
147     1.5140468162e-06   9.9999840646e-01   1.0012287864e+00   1.0000000000e+00   
148     1.5141362906e-06   9.9999757546e-01   1.0011398140e+00   1.0000000000e+00   
149     1.5142257649e-06   9.9999528958e-01   1.0010572530e+00   1.0000000000e+00   
150     1.5143152393e-06   9.9999318036e-01   1.0009806414e+00   1.0000000000e+00   
151     1.5144047136e-06   9.9999249668e-01   1.0009095593e+00   1.0000000000e+00   
152     1.5144941880e-06   9.9999308937e-01   1.0008436129e+00   1.0000000000e+00   
153     1.5145836623e-06   9.9999479331e-01   1.0007824404e+00   1.0000000000e+00   
154     1.5146141779e-06   9.9999556701e-01   1.0007628620e+00   1.0000000000e+00   
155     1.5146446935e-06   9.9999631920e-01   1.0007435317e+00   1.0000000000e+00   
156     1.5147057247e-06   9.9999747688e-01   1.0007063201e+00   1.0000000000e+00   
157     1.5147667559e-06   9.9999774420e-01   1.0006709677e+00   1.0000000000e+00   
158     1.5148277871e-06   9.9999596367e-01   1.0006373814e+00   1.0000000000e+00   
159     1.5148888183e-06   9.9999134700e-01   1.0006054735e+00   1.0000000000e+00   
160     1.5149498495e-06   9.9998731731e-01   1.0005751603e+00   1.0000000000e+00   
161     1.5150108807e-06   9.9998850379e-01   1.0005463616e+00   1.0000000000e+00   
162     1.5150719119e-06   9.9999340399e-01   1.0005190009e+00   1.0000000000e+00   
163     1.5151329431e-06   9.9999823186e-01   1.0004930063e+00   1.0000000000e+00   
164     1.5151939743e-06   1.0000003572e+00   1.0004683100e+00   1.0000000000e+00   
165     1.5152550054e-06   9.9999676875e-01   1.0004448471e+00   1.0000000000e+00   
166     1.5153160366e-06   9.9999133047e-01   1.0004225560e+00   1.0000000000e+00   
167     1.5153770678e-06   9.9999280433e-01   1.0004013784e+00   1.0000000000e+00   
168     1.5154380990e-06   1.0000030538e+00   1.0003812587e+00   1.0000000000e+00   
169     1.5154991302e-06   1.0000200665e+00   1.0003621442e+00   1.0000000000e+00   
170     1.5155601614e-06   1.0000420465e+00   1.0003439850e+00   1.0000000000e+00   
171     1.5156211926e-06   1.0000649857e+00   1.0003267337e+00   1.0000000000e+00   
172     1.5156822238e-06   1.0000843913e+00   1.0003103455e+00   1.0000000000e+00   
173     1.5158042862e-06   1.0001410706e+00   1.0002799695e+00   1.0000000000e+00   
174     1.5159075135e-06   1.0002100373e+00   1.0002566134e+00   1.0000000000e+00   
175     1.5160107408e-06   1.0002254934e+00   1.0002352011e+00   1.0000000000e+00   
176     1.5161139680e-06   1.0001714017e+00   1.0002155713e+00   1.0000000000e+00   
177     1.5162171953e-06   1.0001338575e+00   1.0001975763e+00   1.0000000000e+00   
178     1.5163204226e-06   1.0001169118e+00   1.0001810808e+00   1.0000000000e+00   
179     1.5164236499e-06   1.0000204874e+00   1.0001659606e+00   1.0000000000e+00   
180     1.5165268772e-06   9.9983481040e-01   1.0001521013e+00   1.0000000000e+00   
181     1.5166301044e-06   9.9965402562e-01   1.0001393980e+00   1.0000000000e+00   
182     1.5167333317e-06   9.9952058575e-01   1.0001277544e+00   1.0000000000e+00   
183     1.5168365590e-06   9.9944964207e-01   1.0001170823e+00   1.0000000000e+00   
184     1.5169397863e-06   9.9942725364e-01   1.0001073008e+00   1.0000000000e+00   
185     1.5170430136e-06   9.9933672849e-01   1.0000983356e+00   1.0000000000e+00   
186     1.5171462408e-06   9.9903053685e-01   1.0000901184e+00   1.0000000000e+00   
187     1.5172494681e-06   9.9865669225e-01   1.0000825870e+00   1.0000000000e+00   
188     1.5173526954e-06   9.9860469475e-01   1.0000756841e+00   1.0000000000e+00   
189     1.5174559227e-06   9.9865672655e-01   1.0000693573e+00   1.0000000000e+00   
190     1.5175591500e-06   9.9836751906e-01   1.0000635587e+00   1.0000000000e+00   
191     1.5176623773e-06   9.9821553679e-01   1.0000582441e+00   1.0000000000e+00   
192     1.5177656045e-06   9.9906917267e-01   1.0000533734e+00   1.0000000000e+00   
193     1.5178688318e-06   1.0010817506e+00   1.0000489095e+00   1.0000000000e+00   
194     1.5179720591e-06   1.0036553495e+00   1.0000448186e+00   1.0000000000e+00   
195     1.5180752864e-06   1.0081837433e+00   1.0000410694e+00   1.0000000000e+00   
196     1.5181681909e-06   1.0142257230e+00   1.0000379643e+00   1.0000000000e+00   
197     1.5182610955e-06   1.0185890776e+00   1.0000350937e+00   1.0000000000e+00   
198     1.5183540000e-06   1.0208253496e+00   1.0000324399e+00   1.0000000000e+00   
199     1.5184469046e-06   1.0228723690e+00   1.0000299867e+00   1.0000000000e+00   
200     1.5185398091e-06   1.0257105132e+00   1.0000277188e+00   1.0000000000e+00   
201     1.5186327137e-06   1.0276218812e+00   1.0000256223e+00   1.0000000000e+00   
202     1.5187256183e-06   1.0247017978e+00   1.0000236843e+00   1.0000000000e+00   
203     1.5188185228e-06   1.0177998818e+00   1.0000218927e+00   1.0000000000e+00   
204     1.5189114274e-06   1.0090663347e+00   1.0000202366e+00   1.0000000000e+00   
205     1.5190043319e-06   9.9923037869e-01   1.0000187057e+00   1.0000000000e+00   
206     1.5190972365e-06   9.8933438068e-01   1.0000172905e+00   1.0000000000e+00   
207     1.5191901410e-06   9.7953614297e-01   1.0000159823e+00   1.0000000000e+00   
208     1.5192830456e-06   9.6807496907e-01   1.0000147730e+00   1.0000000000e+00   
209     1.5193759501e-06   9.4572158358e-01   1.0000136552e+00   1.0000000000e+00   
210     1.5194688547e-06   9.0327879443e-01   1.0000126218e+00   1.0000000000e+00   
211     1.5195524688e-06   8.7130179561e-01   1.0000117589e+00   1.0000000000e+00   
212     1.5196275057e-06   8.4979628844e-01   1.0000110349e+00   1.0000000000e+00   
213     1.5196950390e-06   8.2781346837e-01   1.0000104215e+00   1.0000000000e+00   
214     1.5197625723e-06   7.9177655591e-01   1.0000098421e+00   1.0000000000e+00   
215     1.5198233522e-06   7.4112075959e-01   1.0000093483e+00   1.0000000000e+00   
216     1.5198841321e-06   6.9892114639e-01   1.0000088793e+00   1.0000000000e+00   
217     1.5199449121e-06   6.6535801404e-01   1.0000084338e+00   1.0000000000e+00   
218     1.5200056920e-06   6.5014068891e-01   1.0000080106e+00   1.0000000000e+00   
219     1.5200664720e-06   6.6092380098e-01   1.0000076086e+00   1.0000000000e+00   
220     1.5201272519e-06   7.0236784115e-01   1.0000072268e+00   1.0000000000e+00   
221     1.5201880318e-06   7.7723692284e-01   1.0000068642e+00   1.0000000000e+00   
222     1.5202488118e-06   8.8773500268e-01   1.0000065197e+00   1.0000000000e+00   
223     1.5203095917e-06   1.1586476727e+00   1.0000061925e+00   1.0000000000e+00   
224     1.5203172784e-06   1.2302200074e+00   1.0000061525e+00   1.0000000000e+00   
225     1.5203249651e-06   1.3041646460e+00   1.0000061126e+00   1.0000000000e+00   
226     1.5203326517e-06   1.3803524311e+00   1.0000060729e+00   1.0000000000e+00   
227     1.5203480251e-06   1.5393993040e+00   1.0000059943e+00   1.0000000000e+00   
228     1.5203787718e-06   1.8840629446e+00   1.0000058402e+00   1.0000000000e+00   
229     1.5204095185e-06   2.2596358451e+00   1.0000056901e+00   1.0000000000e+00   
230     1.5204402651e-06   2.6617744989e+00   1.0000055438e+00   1.0000000000e+00   
231     1.5204710118e-06   3.0855633615e+00   1.0000054013e+00   1.0000000000e+00   
232     1.5204780751e-06   3.1859629921e+00   1.0000053692e+00   1.0000000000e+00   
233     1.5204922018e-06   3.3728787874e+00   1.0000053054e+00   1.0000000000e+00   
