Index       TIME          {V(6,2)+0.1}     {V(15,10)+0.1}     {V(5,3)+1.5}   
0        0.00000000e+00    1.00000000e-01    1.00000000e-01    1.50000000e+00
1        1.00000000e-09    1.01256505e-01    1.00942422e-01    1.50000348e+00
2        3.00000000e-09    1.03766340e-01    1.02825927e-01    1.50019835e+00
3        5.00000000e-09    1.06266662e-01    1.04705416e-01    1.50065503e+00
4        9.00000000e-09    1.11213538e-01    1.08441672e-01    1.50479793e+00
5        1.30000000e-08    1.16047180e-01    1.12129962e-01    1.51653915e+00
6        1.70000000e-08    1.20718779e-01    1.15749326e-01    1.53948814e+00
7        2.10000000e-08    1.25181160e-01    1.19279200e-01    1.57548222e+00
8        2.50000000e-08    1.29389263e-01    1.22699525e-01    1.62460634e+00
9        2.90000000e-08    1.33300593e-01    1.25990867e-01    1.68561989e+00
10       3.30000000e-08    1.36875656e-01    1.29134524e-01    1.75644648e+00
11       3.70000000e-08    1.40078349e-01    1.32112633e-01    1.83459398e+00
12       4.10000000e-08    1.42876333e-01    1.34908271e-01    1.91745309e+00
13       4.50000000e-08    1.45241353e-01    1.37505553e-01    2.00249874e+00
14       4.90000000e-08    1.47149527e-01    1.39889722e-01    2.08740140e+00
15       5.30000000e-08    1.48581587e-01    1.42047229e-01    2.17008721e+00
16       5.70000000e-08    1.49523071e-01    1.43965816e-01    2.24874961e+00
17       6.10000000e-08    1.49964474e-01    1.45634579e-01    2.32184046e+00
18       6.50000000e-08    1.49901336e-01    1.47044038e-01    2.38803643e+00
19       6.90000000e-08    1.49334297e-01    1.48186184e-01    2.44620054e+00
20       7.30000000e-08    1.48269082e-01    1.49054526e-01    2.49533243e+00
21       7.70000000e-08    1.46716447e-01    1.49644130e-01    2.53452307e+00
22       8.10000000e-08    1.44692071e-01    1.49951647e-01    2.56290845e+00
23       8.50000000e-08    1.42216396e-01    1.49975328e-01    2.57963615e+00
24       8.90000000e-08    1.39314422e-01    1.49715040e-01    2.58384224e+00
25       9.30000000e-08    1.36015451e-01    1.49172260e-01    2.57465314e+00
26       9.70000000e-08    1.32352798e-01    1.48350074e-01    2.55121358e+00
27       1.01000000e-07    1.28363447e-01    1.47253154e-01    2.51275650e+00
28       1.05000000e-07    1.24087684e-01    1.45887731e-01    2.45871598e+00
29       1.09000000e-07    1.19568683e-01    1.44261566e-01    2.38889208e+00
30       1.13000000e-07    1.14852079e-01    1.42383897e-01    2.30365313e+00
31       1.17000000e-07    1.09985499e-01    1.40265394e-01    2.20415628e+00
32       1.21000000e-07    1.05018086e-01    1.37918096e-01    2.09253525e+00
33       1.25000000e-07    1.00000000e-01    1.35355339e-01    1.97199994e+00
34       1.29000000e-07    9.49819143e-02    1.32591686e-01    1.84678112e+00
35       1.37000000e-07    8.51479209e-02    1.26525559e-01    1.60463724e+00
36       1.43861030e-07    7.71762461e-02    1.20837910e-01    1.42811967e+00
37       1.49544558e-07    7.10756731e-02    1.15858510e-01    1.32023237e+00
38       1.54345076e-07    6.63771967e-02    1.11508702e-01    1.26190556e+00
39       1.58665542e-07    6.25647181e-02    1.07512328e-01    1.23615501e+00
40       1.62986008e-07    5.91931956e-02    1.03466157e-01    1.23487701e+00
41       1.67306474e-07    5.63023427e-02    9.93970108e-02    1.25615918e+00
42       1.71626939e-07    5.39262112e-02    9.53318615e-02    1.29740717e+00
43       1.75947405e-07    5.20927900e-02    9.12976555e-02    1.35561633e+00
44       1.80267871e-07    5.08236753e-02    8.73211341e-02    1.42754824e+00
45       1.84588337e-07    5.01338160e-02    8.34286561e-02    1.50985250e+00
46       1.88908803e-07    5.00313383e-02    7.96460233e-02    1.59913677e+00
47       1.93229269e-07    5.05174491e-02    7.59983094e-02    1.69202699e+00
48       2.01870201e-07    5.32256669e-02    6.92033008e-02    1.87416181e+00
49       2.10511132e-07    5.81312433e-02    6.32234979e-02    2.03285327e+00
50       2.18149672e-07    6.41152678e-02    5.87435138e-02    2.13489459e+00
51       2.24414970e-07    7.00191703e-02    5.57026978e-02    2.18080869e+00
52       2.29894746e-07    7.57964948e-02    5.35477851e-02    2.18682556e+00
53       2.34826544e-07    8.13912833e-02    5.20311813e-02    2.16171778e+00
54       2.39265162e-07    8.66732638e-02    5.10201191e-02    2.11302826e+00
55       2.43703781e-07    9.21209161e-02    5.03517160e-02    2.03962322e+00
56       2.48142399e-07    9.76665176e-02    5.00306480e-02    1.94294353e+00
57       2.52581017e-07    1.03241128e-01    5.00591614e-02    1.82599737e+00
58       2.57019636e-07    1.08775446e-01    5.04370566e-02    1.69331674e+00
59       2.61458254e-07    1.14200672e-01    5.11616899e-02    1.55065142e+00
60       2.65896872e-07    1.19449361e-01    5.22279919e-02    1.40441584e+00
61       2.67436922e-07    1.21217215e-01    5.26765086e-02    1.35410186e+00
62       2.70517020e-07    1.24654976e-01    5.36927603e-02    1.25525798e+00
63       2.76677217e-07    1.31067778e-01    5.61894573e-02    1.07272956e+00
64       2.82221395e-07    1.36207876e-01    5.89420945e-02    9.32396285e-01
65       2.87211154e-07    1.40236435e-01    6.18034665e-02    8.30462406e-01
66       2.92200914e-07    1.43633034e-01    6.50024874e-02    7.53830017e-01
67       2.97190674e-07    1.46344327e-01    6.85108786e-02    7.03156480e-01
68       3.02180433e-07    1.48327728e-01    7.22976265e-02    6.78180738e-01
69       3.07170193e-07    1.49552087e-01    7.63292573e-02    6.78065112e-01
70       3.12159953e-07    1.49998174e-01    8.05701322e-02    7.01580763e-01
71       3.17149713e-07    1.49658982e-01    8.49827627e-02    7.47146153e-01
72       3.22139472e-07    1.48539838e-01    8.95281423e-02    8.12743217e-01
73       3.27129232e-07    1.46658320e-01    9.41660908e-02    8.95769505e-01
74       3.32118992e-07    1.44043980e-01    9.88556098e-02    9.92871863e-01
75       3.37108751e-07    1.40737879e-01    1.03555245e-01    1.09981825e+00
76       3.42098511e-07    1.36791942e-01    1.08223452e-01    1.21143719e+00
77       3.43820902e-07    1.35292281e-01    1.09820047e-01    1.24993725e+00
78       3.47265685e-07    1.32097523e-01    1.12980515e-01    1.32562122e+00
79       3.50710467e-07    1.28662326e-01    1.16086272e-01    1.39728093e+00
80       3.54155250e-07    1.25012424e-01    1.19124230e-01    1.46256079e+00
81       3.57600032e-07    1.21175157e-01    1.22081584e-01    1.51910990e+00
82       3.61044815e-07    1.17179269e-01    1.24945869e-01    1.56467684e+00
83       3.64489598e-07    1.13054694e-01    1.27705013e-01    1.59725369e+00
84       3.67934380e-07    1.08832329e-01    1.30347387e-01    1.61519720e+00
85       3.71379163e-07    1.04543801e-01    1.32861854e-01    1.61738055e+00
86       3.74823945e-07    1.00221236e-01    1.35237816e-01    1.60329271e+00
87       3.78268728e-07    9.58970143e-02    1.37465259e-01    1.57312424e+00
88       3.81713510e-07    9.16035273e-02    1.39534795e-01    1.52776512e+00
89       3.85158293e-07    8.73729371e-02    1.41437700e-01    1.46876180e+00
90       3.88603075e-07    8.32369346e-02    1.43165956e-01    1.39818630e+00
91       3.92047858e-07    7.92265020e-02    1.44712277e-01    1.31848534e+00
92       3.95492641e-07    7.53716809e-02    1.46070147e-01    1.23228576e+00
93       3.98937423e-07    7.17013472e-02    1.47233842e-01    1.14222922e+00
94       4.05826988e-07    6.50225302e-02    1.48959928e-01    9.61149562e-01
95       4.12716553e-07    5.93897967e-02    1.49861465e-01    7.90437638e-01
96       4.19606119e-07    5.49716070e-02    1.49923270e-01    6.41800928e-01
97       4.25806727e-07    5.21436994e-02    1.49259771e-01    5.32607016e-01
98       4.31387275e-07    5.05888913e-02    1.48087482e-01    4.56603939e-01
99       4.36967823e-07    5.00044722e-02    1.46383590e-01    4.02715563e-01
100      4.42548370e-07    5.04019198e-02    1.44166931e-01    3.71433802e-01
101      4.48128918e-07    5.17734285e-02    1.41462011e-01    3.63124910e-01
102      4.53709466e-07    5.40920631e-02    1.38298731e-01    3.78147475e-01
103      4.59290014e-07    5.73122878e-02    1.34712062e-01    4.16833813e-01
104      4.64870561e-07    6.13708602e-02    1.30741655e-01    4.79265472e-01
105      4.70451109e-07    6.61880737e-02    1.26431401e-01    5.64861365e-01
106      4.76031657e-07    7.16693227e-02    1.21828950e-01    6.71722985e-01
107      4.81612205e-07    7.77069603e-02    1.16985182e-01    7.95847820e-01
108      4.87192752e-07    8.41824129e-02    1.11953644e-01    9.30394682e-01
109      4.92773300e-07    9.09685085e-02    1.06789960e-01    1.06547804e+00
110      4.98353848e-07    9.79319743e-02    1.01551213e-01    1.18894411e+00
111      5.03934396e-07    1.04936054e-01    9.62953176e-02    1.28835195e+00
112      5.08956889e-07    1.11160736e-01    9.15983788e-02    1.34888367e+00
113      5.13477132e-07    1.16613876e-01    8.74342820e-02    1.37599667e+00
114      5.17997376e-07    1.21852823e-01    8.33613549e-02    1.37638271e+00
115      5.22517620e-07    1.26810032e-01    7.94091483e-02    1.35155590e+00
116      5.27037863e-07    1.31421593e-01    7.56063373e-02    1.30465366e+00
117      5.31558107e-07    1.35628053e-01    7.19805127e-02    1.23981541e+00
118      5.36078351e-07    1.39375179e-01    6.85579816e-02    1.16159475e+00
119      5.40598594e-07    1.42614661e-01    6.53635759e-02    1.07452751e+00
120      5.45118838e-07    1.45304735e-01    6.24204723e-02    9.82836995e-01
121      5.49639082e-07    1.47410719e-01    5.97500244e-02    8.90287484e-01
122      5.54159325e-07    1.48905461e-01    5.73716074e-02    8.00119063e-01
123      5.58679569e-07    1.49769691e-01    5.53024777e-02    7.15064573e-01
124      5.63199813e-07    1.49992267e-01    5.35576478e-02    6.37394369e-01
125      5.67720056e-07    1.49570318e-01    5.21497771e-02    5.69001934e-01
126      5.72240300e-07    1.48509285e-01    5.10890804e-02    5.11488551e-01
127      5.76760544e-07    1.46822848e-01    5.03832535e-02    4.66265226e-01
128      5.81280787e-07    1.44532749e-01    5.00374174e-02    4.34634181e-01
129      5.85801031e-07    1.41668512e-01    5.00540814e-02    4.17866630e-01
130      5.90321275e-07    1.38267065e-01    5.04331245e-02    4.17237177e-01
131      5.94841518e-07    1.34372260e-01    5.11717966e-02    4.34024972e-01
132      5.99361762e-07    1.30034312e-01    5.22647384e-02    4.69436112e-01
133      6.03882006e-07    1.25309148e-01    5.37040200e-02    5.24452528e-01
134      6.08402250e-07    1.20257686e-01    5.54791989e-02    5.99568711e-01
135      6.12922493e-07    1.14945053e-01    5.75773954e-02    6.94448220e-01
136      6.17442737e-07    1.09439740e-01    5.99833861e-02    8.07520640e-01
137      6.21962981e-07    1.03812727e-01    6.26797146e-02    9.35638938e-01
138      6.26483224e-07    9.81365571e-02    6.56468179e-02    1.07391109e+00
139      6.31003468e-07    9.24844122e-02    6.88631682e-02    1.21586704e+00
140      6.35523712e-07    8.69291617e-02    7.23054297e-02    1.35400386e+00
141      6.40043955e-07    8.15424267e-02    7.59486272e-02    1.48066334e+00
142      6.44564199e-07    7.63936554e-02    7.97663277e-02    1.58900906e+00
143      6.49084443e-07    7.15492284e-02    8.37308323e-02    1.67385017e+00
144      6.53604686e-07    6.70716022e-02    8.78133767e-02    1.73207600e+00
145      6.58124930e-07    6.30185045e-02    9.19843402e-02    1.76266845e+00
146      6.62645174e-07    5.94421898e-02    9.62134609e-02    1.76637605e+00
147      6.67165417e-07    5.63887656e-02    1.00470054e-01    1.74525507e+00
148      6.71685661e-07    5.38975981e-02    1.04723238e-01    1.70221672e+00
149      6.76205905e-07    5.20008046e-02    1.08942152e-01    1.64068679e+00
150      6.80726148e-07    5.07228395e-02    1.13096187e-01    1.56436830e+00
151      6.85246392e-07    5.00801790e-02    1.17155203e-01    1.47710137e+00
152      6.89766636e-07    5.00811084e-02    1.21089751e-01    1.38276451e+00
153      6.94286879e-07    5.07256158e-02    1.24871284e-01    1.28521349e+00
154      7.03327367e-07    5.39039374e-02    1.31866866e-01    1.09689286e+00
155      7.11463805e-07    5.87975857e-02    1.37378842e-01    9.52038322e-01
156      7.18763860e-07    6.46569787e-02    1.41580736e-01    8.58852158e-01
157      7.24894246e-07    7.05033271e-02    1.44504988e-01    8.17253622e-01
158      7.30323993e-07    7.62698916e-02    1.46600366e-01    8.14127640e-01
159      7.35210765e-07    8.18402858e-02    1.48069724e-01    8.41475295e-01
160      7.39608861e-07    8.70900358e-02    1.49043952e-01    8.91755563e-01
161      7.44006956e-07    9.24973623e-02    1.49681305e-01    9.66247428e-01
162      7.48405051e-07    9.79962647e-02    1.49977405e-01    1.06344004e+00
163      7.52803146e-07    1.03519624e-01    1.49930220e-01    1.18031103e+00
164      7.57201241e-07    1.09000024e-01    1.49540072e-01    1.31237258e+00
165      7.61599337e-07    1.14370571e-01    1.48809642e-01    1.45398945e+00
166      7.65997432e-07    1.19565714e-01    1.47743946e-01    1.59890476e+00
167      7.67540148e-07    1.21334603e-01    1.47291998e-01    1.64926374e+00
168      7.70625579e-07    1.24773565e-01    1.46268553e-01    1.74815821e+00
169      7.76796441e-07    1.31185028e-01    1.43756280e-01    1.93056081e+00
170      7.82350217e-07    1.36319326e-01    1.40988495e-01    2.07054032e+00
171      7.87348615e-07    1.40338740e-01    1.38112804e-01    2.17199260e+00
172      7.92347014e-07    1.43722394e-01    1.34899039e-01    2.24802225e+00
173      7.97345412e-07    1.46416961e-01    1.31375705e-01    2.29800021e+00
174      8.02343811e-07    1.48379974e-01    1.27574057e-01    2.32221043e+00
175      8.07342209e-07    1.49580493e-01    1.23527816e-01    2.32150933e+00
176      8.12340608e-07    1.49999599e-01    1.19272874e-01    2.29714387e+00
177      8.17339006e-07    1.49630685e-01    1.14846974e-01    2.25071736e+00
178      8.22337404e-07    1.48479567e-01    1.10289376e-01    2.18427731e+00
179      8.27335803e-07    1.46564386e-01    1.05640507e-01    2.10046598e+00
180      8.32334201e-07    1.43915326e-01    1.00941604e-01    2.00268773e+00
181      8.37332600e-07    1.40574139e-01    9.62343492e-02    1.89523589e+00
182      8.42330998e-07    1.36593482e-01    9.15604970e-02    1.78335010e+00
183      8.44037583e-07    1.35098878e-01    8.99797956e-02    1.74525594e+00
184      8.47450754e-07    1.31918858e-01    8.68511218e-02    1.67042658e+00
185      8.50863924e-07    1.28504104e-01    8.37768552e-02    1.59967149e+00
186      8.54277094e-07    1.24879728e-01    8.07697167e-02    1.53528450e+00
187      8.57690265e-07    1.21072384e-01    7.78421489e-02    1.47955053e+00
188      8.61103435e-07    1.17110071e-01    7.50062657e-02    1.43465489e+00
189      8.64516605e-07    1.13021930e-01    7.22738013e-02    1.40254457e+00
190      8.67929775e-07    1.08838024e-01    6.96560620e-02    1.38481295e+00
191      8.71342946e-07    1.04589122e-01    6.71638796e-02    1.38255445e+00
192      8.74756116e-07    1.00306472e-01    6.48075661e-02    1.39627009e+00
193      8.78169286e-07    9.60215673e-02    6.25968715e-02    1.42578477e+00
194      8.81582457e-07    9.17659207e-02    6.05409431e-02    1.47024880e+00
195      8.84995627e-07    8.75708283e-02    5.86482880e-02    1.52817694e+00
196      8.88408797e-07    8.34671413e-02    5.69267376e-02    1.59757217e+00
197      8.91821968e-07    7.94850385e-02    5.53834152e-02    1.67606810e+00
198      8.95235138e-07    7.56538046e-02    5.40247069e-02    1.76111491e+00
199      8.98648308e-07    7.20016151e-02    5.28562346e-02    1.85013803e+00
200      9.05474649e-07    6.53402887e-02    5.11085307e-02    2.02971471e+00
201      9.12300989e-07    5.96966513e-02    5.01692000e-02    2.19981218e+00
202      9.19127330e-07    5.52364130e-02    5.00537736e-02    2.34876622e+00
203      9.25271037e-07    5.23430287e-02    5.06561879e-02    2.45898573e+00
204      9.31414743e-07    5.05836209e-02    5.19196158e-02    2.54371371e+00
205      9.37558450e-07    5.00000539e-02    5.38271325e-02    2.60165875e+00
206      9.43702156e-07    5.06062135e-02    5.63531847e-02    2.63216071e+00
207      9.49845863e-07    5.23876763e-02    5.94639331e-02    2.63473382e+00
208      9.55989569e-07    5.53020532e-02    6.31177060e-02    2.60890090e+00
209      9.62133276e-07    5.92799979e-02    6.72655570e-02    2.55430434e+00
210      9.68276983e-07    6.42268570e-02    7.18519213e-02    2.47118109e+00
211      9.74420689e-07    7.00249221e-02    7.68153595e-02    2.36119927e+00
212      9.80564396e-07    7.65362310e-02    8.20893810e-02    2.22866295e+00
213      9.86708102e-07    8.36058498e-02    8.76033347e-02    2.08173979e+00
214      9.92851809e-07    9.10655601e-02    9.32833550e-02    1.93304989e+00
215      9.98995515e-07    9.87378615e-02    9.90533521e-02    1.79862271e+00
216      1.00000000e-06    1.00000000e-01    1.00000000e-01    1.77896734e+00
End of Xyce(TM) Simulation
