Index       V(4)            I(VMON1)          I(VMON2)            V(1)              V(2)       
0        0.00000000e+00    2.54397051e-16   -6.66407964e-18   -9.59076883e-11    1.33281593e-14
1        1.00000000e-02    4.33885397e-15    4.73740026e-13    9.99999836e-03    9.99999905e-03
2        2.00000000e-02    8.69198102e-15    1.16360841e-12    1.99999967e-02    1.99999977e-02
3        3.00000000e-02    1.35085044e-14    2.16827952e-12    2.99999949e-02    2.99999957e-02
4        4.00000000e-02    1.90188510e-14    3.63148892e-12    3.99999928e-02    3.99999927e-02
5        5.00000000e-02    2.55055560e-14    5.76259496e-12    4.99999904e-02    4.99999885e-02
6        6.00000000e-02    3.33252823e-14    8.86653521e-12    5.99999874e-02    5.99999823e-02
7        7.00000000e-02    4.29388523e-14    1.33874557e-11    6.99999838e-02    6.99999732e-02
8        8.00000000e-02    5.49526986e-14    1.99722516e-11    7.99999793e-02    7.99999601e-02
9        9.00000000e-02    7.01765502e-14    2.95631057e-11    8.99999735e-02    8.99999409e-02
10       1.00000000e-01    8.97042251e-14    4.35322521e-11    9.99999662e-02    9.99999129e-02
11       1.10000000e-01    1.15027305e-13    6.38782317e-11    1.09999957e-01    1.09999872e-01
12       1.20000000e-01    1.48195649e-13    9.35116860e-11    1.19999944e-01    1.19999813e-01
13       1.30000000e-01    1.92044692e-13    1.36671530e-10    1.29999928e-01    1.29999727e-01
14       1.40000000e-01    2.50518120e-13    1.99530970e-10    1.39999906e-01    1.39999601e-01
15       1.50000000e-01    3.29126884e-13    2.91079931e-10    1.49999876e-01    1.49999418e-01
16       1.60000000e-01    4.35603447e-13    4.24409944e-10    1.59999836e-01    1.59999151e-01
17       1.70000000e-01    5.80835925e-13    6.18584980e-10    1.69999781e-01    1.69998763e-01
18       1.80000000e-01    7.80204041e-13    9.01365340e-10    1.79999706e-01    1.79998197e-01
19       1.90000000e-01    1.05549255e-12    1.31317343e-09    1.89999602e-01    1.89997374e-01
20       2.00000000e-01    1.43763551e-12    1.91286740e-09    1.99999458e-01    1.99996174e-01
21       2.10000000e-01    1.97065683e-12    2.78614621e-09    2.09999257e-01    2.09994428e-01
22       2.20000000e-01    2.71733505e-12    4.05778491e-09    2.19998976e-01    2.19991884e-01
23       2.30000000e-01    3.76735424e-12    5.90944376e-09    2.29998580e-01    2.29988181e-01
24       2.40000000e-01    5.24904242e-12    8.60558790e-09    2.39998021e-01    2.39982789e-01
25       2.50000000e-01    7.34628848e-12    1.25312056e-08    2.49997230e-01    2.49974938e-01
26       2.60000000e-01    1.03229367e-11    1.82466857e-08    2.59996108e-01    2.59963507e-01
27       2.70000000e-01    1.45579802e-11    2.65676384e-08    2.69994512e-01    2.69946865e-01
28       2.80000000e-01    2.05963486e-11    3.86809557e-08    2.79992235e-01    2.79922638e-01
29       2.90000000e-01    2.92222051e-11    5.63134757e-08    2.89988983e-01    2.89887373e-01
30       3.00000000e-01    4.15647125e-11    8.19769164e-08    2.99984330e-01    2.99836046e-01
31       3.10000000e-01    5.92505668e-11    1.19323194e-07    3.09977663e-01    3.09761354e-01
32       3.20000000e-01    8.46237518e-11    1.73659111e-07    3.19968097e-01    3.19652682e-01
33       3.30000000e-01    1.21061595e-10    2.52690286e-07    3.29954360e-01    3.29494619e-01
34       3.40000000e-01    1.73428088e-10    3.67593124e-07    3.39934618e-01    3.39264814e-01
35       3.50000000e-01    2.48721396e-10    5.34552552e-07    3.49906232e-01    3.48930895e-01
36       3.60000000e-01    3.56992987e-10    7.76953572e-07    3.59865414e-01    3.58446093e-01
37       3.70000000e-01    5.12640266e-10    1.12847500e-06    3.69806735e-01    3.67743050e-01
38       3.80000000e-01    7.36199454e-10    1.63739597e-06    3.79722453e-01    3.76725208e-01
39       3.90000000e-01    1.05678129e-09    2.37246722e-06    3.89601593e-01    3.85255066e-01
40       4.00000000e-01    1.51527743e-09    3.43066788e-06    3.99428740e-01    3.93138664e-01
41       4.10000000e-01    2.16837980e-09    4.94696709e-06    4.09182521e-01    4.00106066e-01
42       4.20000000e-01    3.09323213e-09    7.10567463e-06    4.18833851e-01    4.05788651e-01
43       4.30000000e-01    4.39209078e-09    1.01518959e-05    4.28344182e-01    4.09696208e-01
44       4.40000000e-01    6.19566810e-09    1.43998910e-05    4.37664233e-01    4.11200218e-01
45       4.50000000e-01    8.66299831e-09    2.02330877e-05    4.46734050e-01    4.09533825e-01
46       4.60000000e-01    1.19752045e-08    2.80893208e-05    4.55485348e-01    4.03821358e-01
47       4.70000000e-01    1.63213372e-08    3.84267174e-05    4.63846856e-01    3.93146565e-01
48       4.80000000e-01    2.18771817e-08    5.16721885e-05    4.71752302e-01    3.76655623e-01
49       4.90000000e-01    2.87818622e-08    6.81639401e-05    4.79149238e-01    3.53672120e-01
50       5.00000000e-01    3.71196141e-08    8.81048231e-05    4.86005905e-01    3.23790354e-01
51       5.10000000e-01    4.69126929e-08    1.11533706e-04    4.92313915e-01    2.86932587e-01
52       5.20000000e-01    5.81265278e-08    1.38258063e-04    4.98086299e-01    2.43483874e-01
53       5.30000000e-01    7.06834404e-08    1.67256040e-04    5.03352343e-01    1.95487921e-01
54       5.40000000e-01    8.44795282e-08    1.93916274e-04    5.08151218e-01    1.52167452e-01
55       5.50000000e-01    9.93986785e-08    2.12477178e-04    5.12526698e-01    1.25045645e-01
56       5.60000000e-01    1.15322048e-07    2.24986525e-04    5.16523588e-01    1.10026951e-01
57       5.70000000e-01    1.32136648e-07    2.34541177e-04    5.20184484e-01    1.00917645e-01
58       5.80000000e-01    1.49739446e-07    2.42578547e-04    5.23548229e-01    9.48429069e-02
59       5.90000000e-01    1.68038516e-07    2.49746121e-04    5.26649479e-01    9.05077572e-02
60       6.00000000e-01    1.86953022e-07    2.56369623e-04    5.29518711e-01    8.72607534e-02
61       6.10000000e-01    2.06412482e-07    2.62630147e-04    5.32182494e-01    8.47397053e-02
62       6.20000000e-01    2.26355736e-07    2.68636483e-04    5.34663887e-01    8.27270335e-02
63       6.30000000e-01    2.46729820e-07    2.74458002e-04    5.36982858e-01    8.10839953e-02
64       6.40000000e-01    2.67488868e-07    2.80141047e-04    5.39156697e-01    7.97179069e-02
65       6.50000000e-01    2.88593113e-07    2.85717757e-04    5.41200396e-01    7.85644859e-02
66       6.60000000e-01    3.10008004e-07    2.91211122e-04    5.43126983e-01    7.75777566e-02
67       6.70000000e-01    3.31703436e-07    2.96638010e-04    5.44947805e-01    7.67239799e-02
68       6.80000000e-01    3.53653103e-07    3.02011074e-04    5.46672780e-01    7.59778520e-02
69       6.90000000e-01    3.75833938e-07    3.07339976e-04    5.48310605e-01    7.53200486e-02
70       7.00000000e-01    3.98225648e-07    3.12632223e-04    5.49868931e-01    7.47355536e-02
71       7.10000000e-01    4.20810313e-07    3.17893624e-04    5.51354512e-01    7.42127515e-02
72       7.20000000e-01    4.43572060e-07    3.23128746e-04    5.52773334e-01    7.37425081e-02
73       7.30000000e-01    4.66496785e-07    3.28341692e-04    5.54130712e-01    7.33166166e-02
74       7.40000000e-01    4.89571946e-07    3.33535564e-04    5.55431376e-01    7.29288718e-02
75       7.50000000e-01    5.12786238e-07    3.38712932e-04    5.56679588e-01    7.25741362e-02
76       7.60000000e-01    5.36129570e-07    3.43875914e-04    5.57879152e-01    7.22481713e-02
77       7.70000000e-01    5.59592852e-07    3.49026290e-04    5.59033495e-01    7.19474199e-02
78       7.80000000e-01    5.83167874e-07    3.54165559e-04    5.60145711e-01    7.16688828e-02
79       7.90000000e-01    6.06847209e-07    3.59294995e-04    5.61218602e-01    7.14100090e-02
80       8.00000000e-01    6.30624114e-07    3.64415685e-04    5.62254709e-01    7.11686302e-02
81       8.10000000e-01    6.54492453e-07    3.69528560e-04    5.63256345e-01    7.09428801e-02
82       8.20000000e-01    6.78446630e-07    3.74634427e-04    5.64225620e-01    7.07311469e-02
83       8.30000000e-01    7.02481530e-07    3.79733984e-04    5.65164463e-01    7.05320322e-02
84       8.40000000e-01    7.26592463e-07    3.84827842e-04    5.66074642e-01    7.03443169e-02
85       8.50000000e-01    7.50775125e-07    3.89916533e-04    5.66957778e-01    7.01669338e-02
86       8.60000000e-01    7.75025555e-07    3.95000528e-04    5.67815366e-01    6.99989445e-02
87       8.70000000e-01    7.99340100e-07    4.00080239e-04    5.68648782e-01    6.98395210e-02
88       8.80000000e-01    8.23715387e-07    4.05156037e-04    5.69459299e-01    6.96879263e-02
89       8.90000000e-01    8.48148295e-07    4.10228246e-04    5.70248093e-01    6.95435089e-02
90       9.00000000e-01    8.72635929e-07    4.15297155e-04    5.71016255e-01    6.94056909e-02
91       9.10000000e-01    8.97175601e-07    4.20363024e-04    5.71764799e-01    6.92739522e-02
92       9.20000000e-01    9.21764812e-07    4.25426087e-04    5.72494666e-01    6.91478266e-02
93       9.30000000e-01    9.46401235e-07    4.30486553e-04    5.73206734e-01    6.90268946e-02
94       9.40000000e-01    9.71082697e-07    4.35544611e-04    5.73901823e-01    6.89107777e-02
95       9.50000000e-01    9.95807169e-07    4.40600433e-04    5.74580697e-01    6.87991337e-02
96       9.60000000e-01    1.02057275e-06    4.45654174e-04    5.75244072e-01    6.86916527e-02
97       9.70000000e-01    1.04537767e-06    4.50705974e-04    5.75892618e-01    6.85880527e-02
98       9.80000000e-01    1.07022026e-06    4.55755961e-04    5.76526964e-01    6.84880774e-02
99       9.90000000e-01    1.09509894e-06    4.60804254e-04    5.77147700e-01    6.83914926e-02
100      1.00000000e+00    1.12001225e-06    4.65850958e-04    5.77755381e-01    6.82980843e-02
101      1.01000000e+00    1.14495880e-06    4.70896172e-04    5.78350531e-01    6.82076565e-02
102      1.02000000e+00    1.16993729e-06    4.75939985e-04    5.78933641e-01    6.81200294e-02
103      1.03000000e+00    1.19494648e-06    4.80982481e-04    5.79505176e-01    6.80350375e-02
104      1.04000000e+00    1.21998521e-06    4.86023736e-04    5.80065574e-01    6.79525284e-02
105      1.05000000e+00    1.24505238e-06    4.91063822e-04    5.80615252e-01    6.78723562e-02
106      1.06000000e+00    1.27014695e-06    4.96102802e-04    5.81154599e-01    6.77943961e-02
107      1.07000000e+00    1.29526793e-06    5.01140736e-04    5.81683989e-01    6.77185286e-02
108      1.08000000e+00    1.32041439e-06    5.06177679e-04    5.82203774e-01    6.76446422e-02
109      1.09000000e+00    1.34558544e-06    5.11213683e-04    5.82714287e-01    6.75726336e-02
110      1.10000000e+00    1.37078025e-06    5.16248797e-04    5.83215847e-01    6.75024069e-02
111      1.11000000e+00    1.39599800e-06    5.21283064e-04    5.83708754e-01    6.74338726e-02
112      1.12000000e+00    1.42123794e-06    5.26316527e-04    5.84193296e-01    6.73669450e-02
113      1.13000000e+00    1.44649935e-06    5.31349227e-04    5.84669745e-01    6.73015452e-02
114      1.14000000e+00    1.47178153e-06    5.36381198e-04    5.85138362e-01    6.72376044e-02
115      1.15000000e+00    1.49708384e-06    5.41412473e-04    5.85599394e-01    6.71750549e-02
116      1.16000000e+00    1.52240563e-06    5.46443083e-04    5.86053079e-01    6.71138332e-02
117      1.17000000e+00    1.54774631e-06    5.51473060e-04    5.86499641e-01    6.70538798e-02
118      1.18000000e+00    1.57310531e-06    5.56502431e-04    5.86939297e-01    6.69951389e-02
119      1.19000000e+00    1.59848209e-06    5.61531221e-04    5.87372253e-01    6.69375579e-02
120      1.20000000e+00    1.62387611e-06    5.66559456e-04    5.87798706e-01    6.68810877e-02
121      1.21000000e+00    1.64928688e-06    5.71587159e-04    5.88218844e-01    6.68256818e-02
122      1.22000000e+00    1.67471393e-06    5.76614352e-04    5.88632849e-01    6.67712965e-02
123      1.23000000e+00    1.70015678e-06    5.81641055e-04    5.89040894e-01    6.67178907e-02
124      1.24000000e+00    1.72561500e-06    5.86667287e-04    5.89443144e-01    6.66654255e-02
125      1.25000000e+00    1.75108817e-06    5.91693068e-04    5.89839760e-01    6.66138642e-02
126      1.26000000e+00    1.77657588e-06    5.96718414e-04    5.90230893e-01    6.65631721e-02
127      1.27000000e+00    1.80207774e-06    6.01743342e-04    5.90616691e-01    6.65133163e-02
128      1.28000000e+00    1.82759338e-06    6.06767867e-04    5.90997294e-01    6.64642659e-02
129      1.29000000e+00    1.85312244e-06    6.11792004e-04    5.91372840e-01    6.64159913e-02
130      1.30000000e+00    1.87866457e-06    6.16815768e-04    5.91743457e-01    6.63684647e-02
131      1.31000000e+00    1.90421944e-06    6.21839170e-04    5.92109271e-01    6.63216596e-02
132      1.32000000e+00    1.92978673e-06    6.26862225e-04    5.92470403e-01    6.62755507e-02
133      1.33000000e+00    1.95536613e-06    6.31884943e-04    5.92826971e-01    6.62301143e-02
134      1.34000000e+00    1.98095734e-06    6.36907336e-04    5.93179085e-01    6.61853276e-02
135      1.35000000e+00    2.00656007e-06    6.41929415e-04    5.93526853e-01    6.61411690e-02
136      1.36000000e+00    2.03217406e-06    6.46951191e-04    5.93870381e-01    6.60976179e-02
137      1.37000000e+00    2.05779902e-06    6.51972673e-04    5.94209769e-01    6.60546546e-02
138      1.38000000e+00    2.08343471e-06    6.56993870e-04    5.94545113e-01    6.60122606e-02
139      1.39000000e+00    2.10908088e-06    6.62014791e-04    5.94876507e-01    6.59704178e-02
140      1.40000000e+00    2.13473729e-06    6.67035445e-04    5.95204043e-01    6.59291093e-02
141      1.41000000e+00    2.16040369e-06    6.72055841e-04    5.95527807e-01    6.58883189e-02
142      1.42000000e+00    2.18607988e-06    6.77075985e-04    5.95847885e-01    6.58480310e-02
143      1.43000000e+00    2.21176563e-06    6.82095885e-04    5.96164357e-01    6.58082307e-02
144      1.44000000e+00    2.23746073e-06    6.87115548e-04    5.96477304e-01    6.57689038e-02
145      1.45000000e+00    2.26316498e-06    6.92134982e-04    5.96786801e-01    6.57300367e-02
146      1.46000000e+00    2.28887819e-06    6.97154192e-04    5.97092923e-01    6.56916164e-02
147      1.47000000e+00    2.31460016e-06    7.02173185e-04    5.97395741e-01    6.56536304e-02
148      1.48000000e+00    2.34033070e-06    7.07191967e-04    5.97695325e-01    6.56160667e-02
149      1.49000000e+00    2.36606965e-06    7.12210543e-04    5.97991743e-01    6.55789139e-02
150      1.50000000e+00    2.39181682e-06    7.17228920e-04    5.98285060e-01    6.55421608e-02
151      1.51000000e+00    2.41757205e-06    7.22247101e-04    5.98575339e-01    6.55057970e-02
152      1.52000000e+00    2.44333517e-06    7.27265094e-04    5.98862642e-01    6.54698123e-02
153      1.53000000e+00    2.46910603e-06    7.32282902e-04    5.99147027e-01    6.54341969e-02
154      1.54000000e+00    2.49488447e-06    7.37300529e-04    5.99428554e-01    6.53989414e-02
155      1.55000000e+00    2.52067035e-06    7.42317981e-04    5.99707278e-01    6.53640372e-02
156      1.56000000e+00    2.54646352e-06    7.47335265e-04    5.99983254e-01    6.53294691e-02
157      1.57000000e+00    2.57226384e-06    7.52352382e-04    6.00256534e-01    6.52952351e-02
158      1.58000000e+00    2.59807117e-06    7.57369337e-04    6.00527170e-01    6.52613268e-02
159      1.59000000e+00    2.62388538e-06    7.62386132e-04    6.00795213e-01    6.52277367e-02
160      1.60000000e+00    2.64970634e-06    7.67402771e-04    6.01060710e-01    6.51944571e-02
161      1.61000000e+00    2.67553393e-06    7.72419260e-04    6.01323710e-01    6.51614810e-02
162      1.62000000e+00    2.70136802e-06    7.77435599e-04    6.01584257e-01    6.51288013e-02
163      1.63000000e+00    2.72720850e-06    7.82451794e-04    6.01842397e-01    6.50964113e-02
164      1.64000000e+00    2.75305524e-06    7.87467848e-04    6.02098173e-01    6.50643046e-02
165      1.65000000e+00    2.77890815e-06    7.92483763e-04    6.02351629e-01    6.50324749e-02
166      1.66000000e+00    2.80476710e-06    7.97499542e-04    6.02602803e-01    6.50009162e-02
167      1.67000000e+00    2.83063199e-06    8.02515189e-04    6.02851738e-01    6.49696225e-02
168      1.68000000e+00    2.85650273e-06    8.07530706e-04    6.03098473e-01    6.49385880e-02
169      1.69000000e+00    2.88237919e-06    8.12546099e-04    6.03343044e-01    6.49078026e-02
170      1.70000000e+00    2.90826130e-06    8.17561367e-04    6.03585490e-01    6.48772660e-02
171      1.71000000e+00    2.93414895e-06    8.22576513e-04    6.03825846e-01    6.48469731e-02
172      1.72000000e+00    2.96004205e-06    8.27591541e-04    6.04064148e-01    6.48169190e-02
173      1.73000000e+00    2.98594050e-06    8.32606451e-04    6.04300430e-01    6.47870987e-02
174      1.74000000e+00    3.01184423e-06    8.37621246e-04    6.04534727e-01    6.47575078e-02
175      1.75000000e+00    3.03775313e-06    8.42635929e-04    6.04767069e-01    6.47281416e-02
176      1.76000000e+00    3.06366713e-06    8.47650502e-04    6.04997490e-01    6.46989959e-02
177      1.77000000e+00    3.08958615e-06    8.52664967e-04    6.05226021e-01    6.46700665e-02
178      1.78000000e+00    3.11551010e-06    8.57679325e-04    6.05452692e-01    6.46413492e-02
179      1.79000000e+00    3.14143891e-06    8.62693580e-04    6.05677533e-01    6.46128400e-02
180      1.80000000e+00    3.16737249e-06    8.67707732e-04    6.05900572e-01    6.45845352e-02
181      1.81000000e+00    3.19331078e-06    8.72721785e-04    6.06121838e-01    6.45564310e-02
182      1.82000000e+00    3.21925369e-06    8.77735738e-04    6.06341359e-01    6.45285237e-02
183      1.83000000e+00    3.24520116e-06    8.82749595e-04    6.06559161e-01    6.45008098e-02
184      1.84000000e+00    3.27115313e-06    8.87763357e-04    6.06775271e-01    6.44732859e-02
185      1.85000000e+00    3.29710951e-06    8.92777026e-04    6.06989716e-01    6.44459487e-02
186      1.86000000e+00    3.32307024e-06    8.97790603e-04    6.07202519e-01    6.44187949e-02
187      1.87000000e+00    3.34903526e-06    9.02804089e-04    6.07413706e-01    6.43918215e-02
188      1.88000000e+00    3.37500451e-06    9.07817487e-04    6.07623301e-01    6.43650252e-02
189      1.89000000e+00    3.40097791e-06    9.12830798e-04    6.07831327e-01    6.43384033e-02
190      1.90000000e+00    3.42695542e-06    9.17844024e-04    6.08037807e-01    6.43119527e-02
191      1.91000000e+00    3.45293696e-06    9.22857165e-04    6.08242765e-01    6.42856706e-02
192      1.92000000e+00    3.47892249e-06    9.27870223e-04    6.08446221e-01    6.42595544e-02
193      1.93000000e+00    3.50491194e-06    9.32883199e-04    6.08648198e-01    6.42336014e-02
194      1.94000000e+00    3.53090526e-06    9.37896096e-04    6.08848716e-01    6.42078089e-02
195      1.95000000e+00    3.55690239e-06    9.42908913e-04    6.09047797e-01    6.41821744e-02
196      1.96000000e+00    3.58290329e-06    9.47921652e-04    6.09245461e-01    6.41566955e-02
197      1.97000000e+00    3.60890789e-06    9.52934315e-04    6.09441727e-01    6.41313697e-02
198      1.98000000e+00    3.63491614e-06    9.57946903e-04    6.09636615e-01    6.41061948e-02
199      1.99000000e+00    3.66092800e-06    9.62959416e-04    6.09830144e-01    6.40811684e-02
200      2.00000000e+00    3.68694342e-06    9.67971856e-04    6.10022332e-01    6.40562883e-02
201      2.01000000e+00    3.71296234e-06    9.72984224e-04    6.10213198e-01    6.40315524e-02
202      2.02000000e+00    3.73898472e-06    9.77996521e-04    6.10402759e-01    6.40069585e-02
203      2.03000000e+00    3.76501052e-06    9.83008748e-04    6.10591034e-01    6.39825046e-02
204      2.04000000e+00    3.79103501e-06    9.88021104e-04    6.10779800e-01    6.39577922e-02
205      2.05000000e+00    3.81706745e-06    9.93033196e-04    6.10965573e-01    6.39336073e-02
206      2.06000000e+00    3.84310316e-06    9.98045222e-04    6.11150111e-01    6.39095561e-02
