Index       TIME             I(VPR2)          V(NODE3)           V(PR1)      
0        0.00000000e+00   -6.31088724e-30    0.00000000e+00    0.00000000e+00
1        1.00000000e-10    2.61049456e-15    2.51327396e-03    2.51327396e-03
2        3.00000000e-10    7.87846773e-15    7.53981790e-03    7.53981790e-03
3        7.00000000e-10    1.85678095e-14    1.75928621e-02    1.75928621e-02
4        1.50000000e-09    4.09971428e-14    3.76985537e-02    3.76985537e-02
5        3.10000000e-09    9.72680921e-14    7.79065714e-02    7.79065714e-02
6        6.30000000e-09    6.13661207e-13    1.58294923e-01    1.58294923e-01
7        1.27000000e-08    2.27586752e-10    3.18847141e-01    3.18847141e-01
8        1.91000000e-08    1.10839870e-07    4.78861764e-01    4.78861764e-01
9        2.26533109e-08    3.32152828e-06    5.66755044e-01    5.66755044e-01
10       2.37001446e-08    8.72002968e-06    5.91706623e-01    5.91706623e-01
11       2.47469782e-08    2.15861787e-05    6.15138997e-01    6.15138997e-01
12       2.57938119e-08    4.80501898e-05    6.35825000e-01    6.35825000e-01
13       2.68406455e-08    9.27698745e-05    6.52831945e-01    6.52831945e-01
14       2.78874792e-08    1.55562939e-04    6.66195168e-01    6.66195168e-01
15       2.89343128e-08    2.32873489e-04    6.76624727e-01    6.76624727e-01
16       2.99811465e-08    3.20779829e-04    6.84903840e-01    6.84903840e-01
17       3.10279801e-08    4.16245738e-04    6.91638633e-01    6.91638633e-01
18       3.31216475e-08    6.22082308e-04    7.02025581e-01    7.02025581e-01
19       3.73089821e-08    1.06579721e-03    7.15953184e-01    7.15953184e-01
20       4.14963167e-08    1.52921256e-03    7.25297598e-01    7.25297598e-01
21       4.56836513e-08    2.00119157e-03    7.32215559e-01    7.32215559e-01
22       5.40583205e-08    2.95185449e-03    7.42289381e-01    7.42289381e-01
23       6.24329897e-08    3.89848004e-03    7.49481631e-01    7.49481631e-01
24       7.08076589e-08    4.83225079e-03    7.55011796e-01    7.55011796e-01
25       7.91823281e-08    5.74734506e-03    7.59511935e-01    7.59511935e-01
26       8.75569973e-08    6.63992698e-03    7.63230135e-01    7.63230135e-01
27       9.59316665e-08    7.50624898e-03    7.66411450e-01    7.66411450e-01
28       1.04306336e-07    8.34347092e-03    7.69135476e-01    7.69135476e-01
29       1.12681005e-07    9.14862263e-03    7.71525188e-01    7.71525188e-01
30       1.21055674e-07    9.91930182e-03    7.73608666e-01    7.73608666e-01
31       1.29430343e-07    1.06529764e-02    7.75459885e-01    7.75459885e-01
32       1.37805013e-07    1.13475506e-02    7.77086694e-01    7.77086694e-01
33       1.46179682e-07    1.20008286e-02    7.78539208e-01    7.78539208e-01
34       1.54554351e-07    1.26109885e-02    7.79816086e-01    7.79816086e-01
35       1.62929020e-07    1.31761394e-02    7.80954202e-01    7.80954202e-01
36       1.71303689e-07    1.36947308e-02    7.81947586e-01    7.81947586e-01
37       1.79678359e-07    1.41651695e-02    7.82825042e-01    7.82825042e-01
38       1.88053028e-07    1.45861836e-02    7.83578043e-01    7.83578043e-01
39       1.96427697e-07    1.49564798e-02    7.84230110e-01    7.84230110e-01
40       2.04802366e-07    1.52750743e-02    7.84771150e-01    7.84771150e-01
41       2.13177035e-07    1.55409786e-02    7.85221016e-01    7.85221016e-01
42       2.21551705e-07    1.57535062e-02    7.85568513e-01    7.85568513e-01
43       2.29926374e-07    1.59119782e-02    7.85830813e-01    7.85830813e-01
44       2.38301043e-07    1.60160130e-02    7.85995798e-01    7.85995798e-01
45       2.46675712e-07    1.60652446e-02    7.86078571e-01    7.86078571e-01
46       2.55050381e-07    1.60596009e-02    7.86066096e-01    7.86066096e-01
47       2.63425051e-07    1.59990306e-02    7.85971776e-01    7.85971776e-01
48       2.71799720e-07    1.58837731e-02    7.85781522e-01    7.85781522e-01
49       2.80174389e-07    1.57140908e-02    7.85507218e-01    7.85507218e-01
50       2.88549058e-07    1.54905341e-02    7.85133455e-01    7.85133455e-01
51       2.96923727e-07    1.52136753e-02    7.84670611e-01    7.84670611e-01
52       3.05298397e-07    1.48843728e-02    7.84101519e-01    7.84101519e-01
53       3.13673066e-07    1.45035029e-02    7.83434851e-01    7.83434851e-01
54       3.22047735e-07    1.40722272e-02    7.82650993e-01    7.82650993e-01
55       3.30422404e-07    1.35917179e-02    7.81756416e-01    7.81756416e-01
56       3.38797074e-07    1.30634335e-02    7.80727948e-01    7.80727948e-01
57       3.47171743e-07    1.24888342e-02    7.79568853e-01    7.79568853e-01
58       3.55546412e-07    1.18696699e-02    7.78250515e-01    7.78250515e-01
59       3.63921081e-07    1.12076823e-02    7.76770999e-01    7.76770999e-01
60       3.72295750e-07    1.05049118e-02    7.75092840e-01    7.75092840e-01
61       3.80670420e-07    9.76338308e-03    7.73204807e-01    7.73204807e-01
62       3.89045089e-07    8.98544060e-03    7.71053797e-01    7.71053797e-01
63       3.97419758e-07    8.17341597e-03    7.68610128e-01    7.68610128e-01
64       4.05794427e-07    7.33001116e-03    7.65789737e-01    7.65789737e-01
65       4.14169096e-07    6.45795736e-03    7.62521138e-01    7.62521138e-01
66       4.22543766e-07    5.56049581e-03    7.58647927e-01    7.58647927e-01
67       4.30918435e-07    4.64109697e-03    7.53983602e-01    7.53983602e-01
68       4.39293104e-07    3.70425068e-03    7.48152122e-01    7.48152122e-01
69       4.47667773e-07    2.75576648e-03    7.40526393e-01    7.40526393e-01
70       4.56042442e-07    1.80565846e-03    7.29649822e-01    7.29649822e-01
71       4.64417112e-07    8.80098104e-04    7.10844234e-01    7.10844234e-01
72       4.65307756e-07    7.84877414e-04    7.08047380e-01    7.08047380e-01
73       4.67089045e-07    6.00758073e-04    7.01108683e-01    7.01108683e-01
74       4.70651623e-07    2.66449685e-04    6.80142103e-01    6.80142103e-01
75       4.71053147e-07    2.33870900e-04    6.76735215e-01    6.76735215e-01
76       4.71454671e-07    2.02714531e-04    6.73039239e-01    6.73039239e-01
77       4.72257720e-07    1.45891323e-04    6.64535819e-01    6.64535819e-01
78       4.73060769e-07    9.79539238e-05    6.54237576e-01    6.54237576e-01
79       4.73863818e-07    6.05708403e-05    6.41811315e-01    6.41811315e-01
80       4.74666867e-07    3.43372000e-05    6.27138516e-01    6.27138516e-01
81       4.75469916e-07    1.80170909e-05    6.10466871e-01    6.10466871e-01
82       4.76272964e-07    8.93366361e-06    5.92332255e-01    5.92332255e-01
83       4.77076013e-07    4.27797340e-06    5.73296966e-01    5.73296966e-01
84       4.78682111e-07    9.35176966e-07    5.33989328e-01    5.33989328e-01
85       4.80288208e-07    1.99893116e-07    4.94105789e-01    4.94105789e-01
86       4.83500404e-07    9.01986014e-09    4.13935890e-01    4.13935890e-01
87       4.86712599e-07    3.77733847e-10    3.33560934e-01    3.33560934e-01
88       4.93136989e-07    2.51064917e-11    1.72432820e-01    1.72432820e-01
89       5.05985770e-07   -2.43128267e-11   -1.50403340e-01   -1.50403340e-01
90       5.14626976e-07   -6.98762810e-11   -3.67098710e-01   -3.67098710e-01
91       5.21767354e-07   -6.86372971e-08   -5.45355601e-01   -5.45355601e-01
92       5.24490806e-07   -9.36751155e-07   -6.12907457e-01   -6.12907457e-01
93       5.27214258e-07   -1.17502164e-05   -6.78290722e-01   -6.78290722e-01
94       5.27586414e-07   -1.62129209e-05   -6.86613195e-01   -6.86613195e-01
95       5.28330725e-07   -2.97677764e-05   -7.02320886e-01   -7.02320886e-01
96       5.29819347e-07   -8.22894430e-05   -7.28607002e-01   -7.28607002e-01
97       5.31159107e-07   -1.60898735e-04   -7.45940911e-01   -7.45940911e-01
98       5.32364891e-07   -2.51618273e-04   -7.57500116e-01   -7.57500116e-01
99       5.33570674e-07   -3.55301974e-04   -7.66420122e-01   -7.66420122e-01
100      5.34776458e-07   -4.67792244e-04   -7.73530744e-01   -7.73530744e-01
101      5.37188026e-07   -7.09315486e-04   -7.84292443e-01   -7.84292443e-01
102      5.42011161e-07   -1.22597713e-03   -7.98441393e-01   -7.98441393e-01
103      5.46834296e-07   -1.76165190e-03   -8.07829345e-01   -8.07829345e-01
104      5.51657432e-07   -2.30440339e-03   -8.14736577e-01   -8.14736577e-01
105      5.61303702e-07   -3.39082851e-03   -8.24747456e-01   -8.24747456e-01
106      5.70949973e-07   -4.46415833e-03   -8.31858154e-01   -8.31858154e-01
107      5.80596243e-07   -5.51417165e-03   -8.37298462e-01   -8.37298462e-01
108      5.90242514e-07   -6.53374874e-03   -8.41701147e-01   -8.41701147e-01
109      5.99888784e-07   -7.51782429e-03   -8.45314244e-01   -8.45314244e-01
110      6.09535055e-07   -8.46149592e-03   -8.48382188e-01   -8.48382188e-01
111      6.19181325e-07   -9.36084765e-03   -8.50983807e-01   -8.50983807e-01
112      6.28827596e-07   -1.02119164e-02   -8.53241621e-01   -8.53241621e-01
113      6.38473866e-07   -1.10113996e-02   -8.55182741e-01   -8.55182741e-01
114      6.48120137e-07   -1.17559575e-02   -8.56880826e-01   -8.56880826e-01
115      6.57766407e-07   -1.24427911e-02   -8.58342545e-01   -8.58342545e-01
116      6.67412678e-07   -1.30691021e-02   -8.59617750e-01   -8.59617750e-01
117      6.77058948e-07   -1.36325810e-02   -8.60703654e-01   -8.60703654e-01
118      6.86705219e-07   -1.41309556e-02   -8.61636855e-01   -8.61636855e-01
119      6.96351489e-07   -1.45624172e-02   -8.62409592e-01   -8.62409592e-01
120      7.05997760e-07   -1.49252250e-02   -8.63050314e-01   -8.63050314e-01
121      7.15644030e-07   -1.52180887e-02   -8.63548262e-01   -8.63548262e-01
122      7.25290301e-07   -1.54398085e-02   -8.63926436e-01   -8.63926436e-01
123      7.34936571e-07   -1.55896280e-02   -8.64171930e-01   -8.64171930e-01
124      7.44582842e-07   -1.56668970e-02   -8.64303797e-01   -8.64303797e-01
125      7.54229112e-07   -1.56714033e-02   -8.64307244e-01   -8.64307244e-01
126      7.63875383e-07   -1.56030509e-02   -8.64198186e-01   -8.64198186e-01
127      7.73521653e-07   -1.54621767e-02   -8.63959815e-01   -8.63959815e-01
128      7.83167924e-07   -1.52492370e-02   -8.63605229e-01   -8.63605229e-01
129      7.92814194e-07   -1.49651167e-02   -8.63115128e-01   -8.63115128e-01
130      8.02460465e-07   -1.46108175e-02   -8.62499673e-01   -8.62499673e-01
131      8.12106735e-07   -1.41877654e-02   -8.61736142e-01   -8.61736142e-01
132      8.21753006e-07   -1.36974953e-02   -8.60831072e-01   -8.60831072e-01
133      8.31399276e-07   -1.31419633e-02   -8.59756664e-01   -8.59756664e-01
134      8.41045547e-07   -1.25232228e-02   -8.58514202e-01   -8.58514202e-01
135      8.50691817e-07   -1.18437484e-02   -8.57067785e-01   -8.57067785e-01
136      8.60338088e-07   -1.11060993e-02   -8.55409936e-01   -8.55409936e-01
137      8.69984358e-07   -1.03132647e-02   -8.53490676e-01   -8.53490676e-01
138      8.79630629e-07   -9.46831192e-03   -8.51285905e-01   -8.51285905e-01
139      8.89276899e-07   -8.57477087e-03   -8.48718350e-01   -8.48718350e-01
140      8.98923170e-07   -7.63627219e-03   -8.45727582e-01   -8.45727582e-01
141      9.08569440e-07   -6.65701292e-03   -8.42174481e-01   -8.42174481e-01
142      9.18215711e-07   -5.64143596e-03   -8.37902752e-01   -8.37902752e-01
143      9.27861981e-07   -4.59493795e-03   -8.32594670e-01   -8.32594670e-01
144      9.37508252e-07   -3.52395754e-03   -8.25750620e-01   -8.25750620e-01
145      9.47154522e-07   -2.43812606e-03   -8.16256079e-01   -8.16256079e-01
146      9.56800793e-07   -1.35722923e-03   -8.00986280e-01   -8.00986280e-01
147      9.58219303e-07   -1.20066179e-03   -7.97911796e-01   -7.97911796e-01
148      9.59637814e-07   -1.04624831e-03   -7.94324062e-01   -7.94324062e-01
149      9.62474835e-07   -7.44180927e-04   -7.85560259e-01   -7.85560259e-01
150      9.65311856e-07   -4.59495065e-04   -7.73023257e-01   -7.73023257e-01
151      9.68148877e-07   -2.10773764e-04   -7.53018521e-01   -7.53018521e-01
152      9.68542561e-07   -1.81845899e-04   -7.49104774e-01   -7.49104774e-01
153      9.68936246e-07   -1.54439914e-04   -7.44881845e-01   -7.44881845e-01
154      9.69723615e-07   -1.05988903e-04   -7.35149615e-01   -7.35149615e-01
155      9.70510984e-07   -6.73647816e-05   -7.23433495e-01   -7.23433495e-01
156      9.71298354e-07   -3.93993520e-05   -7.09567602e-01   -7.09567602e-01
157      9.72085723e-07   -2.13304332e-05   -6.93704847e-01   -6.93704847e-01
158      9.72873092e-07   -1.08798722e-05   -6.76301339e-01   -6.76301339e-01
159      9.73660462e-07   -5.33920215e-06   -6.57899246e-01   -6.57899246e-01
160      9.75235200e-07   -1.21613263e-06   -6.19655501e-01   -6.19655501e-01
161      9.76809939e-07   -2.69681507e-07   -5.80715746e-01   -5.80715746e-01
162      9.79959416e-07   -1.29828838e-08   -5.02342262e-01   -5.02342262e-01
163      9.83108893e-07   -6.45857492e-10   -4.23723197e-01   -4.23723197e-01
164      9.89407848e-07    2.23661443e-11   -2.66013350e-01   -2.66013350e-01
165      1.00200576e-06   -2.39685336e-11    5.04088360e-02    5.04088360e-02
166      1.00830471e-06    3.40544215e-12    2.08625455e-01    2.08625455e-01
167      1.01042616e-06    2.53232161e-11    2.61850663e-01    2.61850663e-01
168      1.01466907e-06    1.53094025e-09    3.68151767e-01    3.68151767e-01
169      1.02315487e-06    5.29995410e-06    5.78834646e-01    5.78834646e-01
170      1.02506418e-06    2.78815240e-05    6.21754620e-01    6.21754620e-01
171      1.02571184e-06    4.53525478e-05    6.34331321e-01    6.34331321e-01
172      1.02635951e-06    6.98430294e-05    6.45493476e-01    6.45493476e-01
173      1.02694240e-06    9.81234540e-05    6.54282287e-01    6.54282287e-01
174      1.02746701e-06    1.28363506e-04    6.61226960e-01    6.61226960e-01
175      1.02799162e-06    1.62672395e-04    6.67350403e-01    6.67350403e-01
176      1.02904084e-06    2.41393593e-04    6.77553650e-01    6.77553650e-01
177      1.03009005e-06    3.30402107e-04    6.85667890e-01    6.85667890e-01
178      1.03113927e-06    4.26744913e-04    6.92282601e-01    6.92282601e-01
179      1.03323770e-06    6.33914714e-04    7.02512673e-01    7.02512673e-01
180      1.03743456e-06    1.07949351e-03    7.16283536e-01    7.16283536e-01
181      1.04163143e-06    1.54434426e-03    7.25551842e-01    7.25551842e-01
182      1.04582829e-06    2.01756709e-03    7.32426480e-01    7.32426480e-01
183      1.05422202e-06    2.97043644e-03    7.42451458e-01    7.42451458e-01
184      1.06261575e-06    3.91901767e-03    7.49617418e-01    7.49617418e-01
185      1.07100948e-06    4.85454109e-03    7.55130813e-01    7.55130813e-01
186      1.07940320e-06    5.77119204e-03    7.59618942e-01    7.59618942e-01
187      1.08779693e-06    6.66512772e-03    7.63328084e-01    7.63328084e-01
188      1.09619066e-06    7.53259189e-03    7.66501998e-01    7.66501998e-01
189      1.10458439e-06    8.37073252e-03    7.69219818e-01    7.69219818e-01
190      1.11297812e-06    9.17656873e-03    7.71604024e-01    7.71604024e-01
191      1.12137184e-06    9.94768685e-03    7.73682544e-01    7.73682544e-01
192      1.12976557e-06    1.06815450e-02    7.75529111e-01    7.75529111e-01
193      1.13815930e-06    1.13760379e-02    7.77151517e-01    7.77151517e-01
194      1.14655303e-06    1.20289618e-02    7.78599734e-01    7.78599734e-01
195      1.15494676e-06    1.26384877e-02    7.79872399e-01    7.79872399e-01
196      1.16334048e-06    1.32027192e-02    7.81006295e-01    7.81006295e-01
197      1.17173421e-06    1.37201012e-02    7.81995436e-01    7.81995436e-01
198      1.18012794e-06    1.41890378e-02    7.82868562e-01    7.82868562e-01
199      1.18852167e-06    1.46082553e-02    7.83617134e-01    7.83617134e-01
200      1.19691540e-06    1.49764603e-02    7.84264621e-01    7.84264621e-01
201      1.20530912e-06    1.52926705e-02    7.84800914e-01    7.84800914e-01
202      1.21370285e-06    1.55558999e-02    7.85245824e-01    7.85245824e-01
203      1.22209658e-06    1.57654666e-02    7.85588133e-01    7.85588133e-01
204      1.23049031e-06    1.59206972e-02    7.85844974e-01    7.85844974e-01
205      1.23888403e-06    1.60212175e-02    7.86004197e-01    7.86004197e-01
206      1.24727776e-06    1.60666702e-02    7.86080866e-01    7.86080866e-01
207      1.25567149e-06    1.60569933e-02    7.86061898e-01    7.86061898e-01
208      1.26406522e-06    1.59921472e-02    7.85960653e-01    7.85960653e-01
209      1.27245895e-06    1.58723845e-02    7.85762979e-01    7.85762979e-01
210      1.28085267e-06    1.56979817e-02    7.85480705e-01    7.85480705e-01
211      1.28924640e-06    1.54695052e-02    7.85098336e-01    7.85098336e-01
212      1.29764013e-06    1.51875442e-02    7.84626174e-01    7.84626174e-01
213      1.30603386e-06    1.48529757e-02    7.84046928e-01    7.84046928e-01
214      1.31442759e-06    1.44666954e-02    7.83369166e-01    7.83369166e-01
215      1.32282131e-06    1.40298858e-02    7.82573089e-01    7.82573089e-01
216      1.33121504e-06    1.35437411e-02    7.81665010e-01    7.81665010e-01
217      1.33960877e-06    1.30097431e-02    7.80621477e-01    7.80621477e-01
218      1.34800250e-06    1.24293762e-02    7.79445492e-01    7.79445492e-01
219      1.35639623e-06    1.18044159e-02    7.78107999e-01    7.78107999e-01
220      1.36478995e-06    1.11366307e-02    7.76606605e-01    7.76606605e-01
221      1.37318368e-06    1.04280895e-02    7.74903090e-01    7.74903090e-01
222      1.38157741e-06    9.68084676e-03    7.72985361e-01    7.72985361e-01
223      1.38997114e-06    8.89727967e-03    7.70798900e-01    7.70798900e-01
224      1.39836487e-06    8.07975500e-03    7.68312220e-01    7.68312220e-01
225      1.40675859e-06    7.23101611e-03    7.65438239e-01    7.65438239e-01
226      1.41515232e-06    6.35384261e-03    7.62101061e-01    7.62101061e-01
227      1.42354605e-06    5.45154121e-03    7.58136470e-01    7.58136470e-01
228      1.43193978e-06    4.52767667e-03    7.53344363e-01    7.53344363e-01
229      1.44033351e-06    3.58690408e-03    7.47320864e-01    7.47320864e-01
230      1.44872723e-06    2.63537712e-03    7.39375204e-01    7.39375204e-01
231      1.45712096e-06    1.68470381e-03    7.27737076e-01    7.27737076e-01
232      1.46551469e-06    7.62718763e-04    7.07400645e-01    7.07400645e-01
233      1.46846417e-06    4.64605508e-04    6.94484656e-01    6.94484656e-01
234      1.46973416e-06    3.46097547e-04    6.86867717e-01    6.86867717e-01
235      1.47100415e-06    2.37782452e-04    6.77164062e-01    6.77164062e-01
236      1.47210192e-06    1.56280067e-04    6.66314144e-01    6.66314144e-01
237      1.47301041e-06    1.00663741e-04    6.54943070e-01    6.54943070e-01
238      1.47376613e-06    6.45190904e-05    6.43443763e-01    6.43443763e-01
239      1.47442123e-06    4.12141421e-05    6.31857741e-01    6.31857741e-01
240      1.47501083e-06    2.62695397e-05    6.20215070e-01    6.20215070e-01
241      1.47554147e-06    1.69585006e-05    6.08901501e-01    6.08901501e-01
242      1.47607211e-06    1.06901731e-05    5.96972584e-01    5.96972584e-01
243      1.47713338e-06    4.05523811e-06    5.71914572e-01    5.71914572e-01
244      1.47925593e-06    5.39567476e-07    5.19772484e-01    5.19772484e-01
245      1.48137848e-06    6.98661740e-08    4.66928739e-01    4.66928739e-01
246      1.48562358e-06    1.15615602e-09    3.60827394e-01    3.60827394e-01
247      1.48986868e-06    1.62247116e-11    2.54455844e-01    2.54455844e-01
248      1.49835888e-06    2.90140207e-12    4.12450380e-02    4.12450380e-02
249      1.50375630e-06   -9.62202766e-14   -9.43972869e-02   -9.43972869e-02
250      1.50853016e-06   -4.02582296e-13   -2.14283770e-01   -2.14283770e-01
251      1.51330403e-06   -1.96387703e-11   -3.33977471e-01   -3.33977471e-01
252      1.51807790e-06   -1.95671970e-09   -4.53370330e-01   -4.53370330e-01
253      1.52285176e-06   -1.94845223e-07   -5.72317130e-01   -5.72317130e-01
254      1.52762563e-06   -1.67619827e-05   -6.87474166e-01   -6.87474166e-01
