Index       TIME             I(VPR2)          V(NODE3)           V(PR1)      
0        0.00000000e+00   -6.31088724e-30    0.00000000e+00    0.00000000e+00
1        1.00000000e-10    2.61049456e-15    2.51327396e-03    2.51327396e-03
2        3.00000000e-10    7.87846773e-15    7.53981790e-03    7.53981790e-03
3        7.00000000e-10    1.85678095e-14    1.75928621e-02    1.75928621e-02
4        1.50000000e-09    4.09971428e-14    3.76985537e-02    3.76985537e-02
5        3.10000000e-09    9.72680921e-14    7.79065714e-02    7.79065714e-02
6        6.30000000e-09    6.13661207e-13    1.58294923e-01    1.58294923e-01
7        1.27000000e-08    2.27586752e-10    3.18847141e-01    3.18847141e-01
8        1.91000000e-08    1.10839870e-07    4.78861764e-01    4.78861764e-01
9        2.26533109e-08    3.32152828e-06    5.66755044e-01    5.66755044e-01
10       2.37001446e-08    8.72002968e-06    5.91706623e-01    5.91706623e-01
11       2.47469782e-08    2.15861787e-05    6.15138997e-01    6.15138997e-01
12       2.57938119e-08    4.80501898e-05    6.35825000e-01    6.35825000e-01
13       2.68406455e-08    9.27698745e-05    6.52831945e-01    6.52831945e-01
14       2.78874792e-08    1.55562939e-04    6.66195168e-01    6.66195168e-01
15       2.89343128e-08    2.32873489e-04    6.76624727e-01    6.76624727e-01
16       2.99811465e-08    3.20779829e-04    6.84903840e-01    6.84903840e-01
17       3.10279801e-08    4.16245738e-04    6.91638633e-01    6.91638633e-01
18       3.31216475e-08    6.22082308e-04    7.02025581e-01    7.02025581e-01
19       3.73089821e-08    1.06579721e-03    7.15953184e-01    7.15953184e-01
20       4.14963167e-08    1.52921256e-03    7.25297598e-01    7.25297598e-01
21       4.56836513e-08    2.00119157e-03    7.32215559e-01    7.32215559e-01
22       5.40583205e-08    2.95185449e-03    7.42289381e-01    7.42289381e-01
23       6.24329897e-08    3.89848004e-03    7.49481631e-01    7.49481631e-01
24       7.08076589e-08    4.83225079e-03    7.55011796e-01    7.55011796e-01
25       7.91823281e-08    5.74734506e-03    7.59511935e-01    7.59511935e-01
26       8.75569973e-08    6.63992698e-03    7.63230135e-01    7.63230135e-01
27       9.59316665e-08    7.50624898e-03    7.66411450e-01    7.66411450e-01
28       1.04306336e-07    8.34347092e-03    7.69135476e-01    7.69135476e-01
29       1.12681005e-07    9.14862263e-03    7.71525188e-01    7.71525188e-01
30       1.21055674e-07    9.91930182e-03    7.73608666e-01    7.73608666e-01
31       1.29430343e-07    1.06529764e-02    7.75459885e-01    7.75459885e-01
32       1.37805013e-07    1.13475506e-02    7.77086694e-01    7.77086694e-01
33       1.46179682e-07    1.20008286e-02    7.78539208e-01    7.78539208e-01
34       1.54554351e-07    1.26109885e-02    7.79816086e-01    7.79816086e-01
35       1.62929020e-07    1.31761394e-02    7.80954202e-01    7.80954202e-01
36       1.71303689e-07    1.36947308e-02    7.81947586e-01    7.81947586e-01
37       1.79678359e-07    1.41651695e-02    7.82825042e-01    7.82825042e-01
38       1.88053028e-07    1.45861836e-02    7.83578043e-01    7.83578043e-01
39       1.96427697e-07    1.49564798e-02    7.84230110e-01    7.84230110e-01
40       2.04802366e-07    1.52750743e-02    7.84771150e-01    7.84771150e-01
41       2.13177035e-07    1.55409786e-02    7.85221016e-01    7.85221016e-01
42       2.21551705e-07    1.57535062e-02    7.85568513e-01    7.85568513e-01
43       2.29926374e-07    1.59119782e-02    7.85830813e-01    7.85830813e-01
44       2.38301043e-07    1.60160130e-02    7.85995798e-01    7.85995798e-01
45       2.46675712e-07    1.60652446e-02    7.86078571e-01    7.86078571e-01
46       2.55050381e-07    1.60596009e-02    7.86066096e-01    7.86066096e-01
47       2.63425051e-07    1.59990306e-02    7.85971776e-01    7.85971776e-01
48       2.71799720e-07    1.58837731e-02    7.85781522e-01    7.85781522e-01
49       2.80174389e-07    1.57140908e-02    7.85507218e-01    7.85507218e-01
50       2.88549058e-07    1.54905341e-02    7.85133455e-01    7.85133455e-01
51       2.96923727e-07    1.52136753e-02    7.84670611e-01    7.84670611e-01
52       3.05298397e-07    1.48843728e-02    7.84101519e-01    7.84101519e-01
53       3.13673066e-07    1.45035029e-02    7.83434851e-01    7.83434851e-01
54       3.22047735e-07    1.40722272e-02    7.82650993e-01    7.82650993e-01
55       3.30422404e-07    1.35917179e-02    7.81756416e-01    7.81756416e-01
56       3.38797074e-07    1.30634335e-02    7.80727948e-01    7.80727948e-01
57       3.47171743e-07    1.24888342e-02    7.79568853e-01    7.79568853e-01
58       3.55546412e-07    1.18696699e-02    7.78250515e-01    7.78250515e-01
59       3.63921081e-07    1.12076823e-02    7.76770999e-01    7.76770999e-01
60       3.72295750e-07    1.05049118e-02    7.75092840e-01    7.75092840e-01
61       3.80670420e-07    9.76338308e-03    7.73204807e-01    7.73204807e-01
62       3.89045089e-07    8.98544060e-03    7.71053797e-01    7.71053797e-01
63       3.97419758e-07    8.17341597e-03    7.68610128e-01    7.68610128e-01
64       4.05794427e-07    7.33001116e-03    7.65789737e-01    7.65789737e-01
65       4.14169096e-07    6.45795736e-03    7.62521138e-01    7.62521138e-01
66       4.22543766e-07    5.56049581e-03    7.58647927e-01    7.58647927e-01
67       4.30918435e-07    4.64109697e-03    7.53983602e-01    7.53983602e-01
68       4.39293104e-07    3.70425068e-03    7.48152122e-01    7.48152122e-01
69       4.47667773e-07    2.75576648e-03    7.40526393e-01    7.40526393e-01
70       4.56042442e-07    1.80565846e-03    7.29649822e-01    7.29649822e-01
71       4.64417112e-07    8.80098104e-04    7.10844234e-01    7.10844234e-01
72       4.65307756e-07    7.84877414e-04    7.08047380e-01    7.08047380e-01
73       4.67089045e-07    6.00758073e-04    7.01108683e-01    7.01108683e-01
74       4.70651623e-07    2.66449685e-04    6.80142103e-01    6.80142103e-01
75       4.71053147e-07    2.33870900e-04    6.76735215e-01    6.76735215e-01
76       4.71454671e-07    2.02714531e-04    6.73039239e-01    6.73039239e-01
77       4.72257720e-07    1.45891323e-04    6.64535819e-01    6.64535819e-01
78       4.73060769e-07    9.79539238e-05    6.54237576e-01    6.54237576e-01
79       4.73863818e-07    6.05708403e-05    6.41811315e-01    6.41811315e-01
80       4.74666867e-07    3.43372000e-05    6.27138516e-01    6.27138516e-01
81       4.75469916e-07    1.80170909e-05    6.10466871e-01    6.10466871e-01
82       4.76272964e-07    8.93366361e-06    5.92332255e-01    5.92332255e-01
83       4.77076013e-07    4.27797340e-06    5.73296966e-01    5.73296966e-01
84       4.78682111e-07    9.35176966e-07    5.33989328e-01    5.33989328e-01
85       4.80288208e-07    1.99893116e-07    4.94105789e-01    4.94105789e-01
86       4.83500404e-07    9.01986014e-09    4.13935890e-01    4.13935890e-01
87       4.86712599e-07    3.77733847e-10    3.33560934e-01    3.33560934e-01
88       4.93136989e-07    2.51064917e-11    1.72432820e-01    1.72432820e-01
89       5.05985770e-07   -2.48815836e-11   -1.50403340e-01   -1.50403340e-01
90       5.14568288e-07   -2.41362596e-09   -3.65629438e-01   -3.65629438e-01
91       5.19485541e-07   -2.79177064e-07   -4.88446696e-01   -4.88446696e-01
92       5.22924525e-07   -7.27093933e-06   -5.72711756e-01   -5.72711756e-01
93       5.23810005e-07   -1.59341866e-05   -5.92994176e-01   -5.92994176e-01
94       5.24695484e-07   -3.27593727e-05   -6.11625754e-01   -6.11625754e-01
95       5.25580964e-07   -6.14145773e-05   -6.27872193e-01   -6.27872193e-01
96       5.26466444e-07   -1.03607143e-04   -6.41391345e-01   -6.41391345e-01
97       5.27351923e-07   -1.58411834e-04   -6.52367577e-01   -6.52367577e-01
98       5.28237403e-07   -2.23500053e-04   -6.61265929e-01   -6.61265929e-01
99       5.29122882e-07   -2.96457065e-04   -6.68568670e-01   -6.68568670e-01
100      5.30008362e-07   -3.75324904e-04   -6.74666716e-01   -6.74666716e-01
101      5.31779321e-07   -5.45384957e-04   -6.84327634e-01   -6.84327634e-01
102      5.35321240e-07   -9.13891489e-04   -6.97672084e-01   -6.97672084e-01
103      5.38863158e-07   -1.30113273e-03   -7.06833555e-01   -7.06833555e-01
104      5.42405077e-07   -1.69765015e-03   -7.13660861e-01   -7.13660861e-01
105      5.49488914e-07   -2.50068427e-03   -7.23708458e-01   -7.23708458e-01
106      5.56572751e-07   -3.30577753e-03   -7.30920122e-01   -7.30920122e-01
107      5.63656588e-07   -4.10523704e-03   -7.36501211e-01   -7.36501211e-01
108      5.70740425e-07   -4.89437650e-03   -7.41061228e-01   -7.41061228e-01
109      5.77824262e-07   -5.67032162e-03   -7.44853383e-01   -7.44853383e-01
110      5.84908099e-07   -6.43031355e-03   -7.48114547e-01   -7.48114547e-01
111      5.91991937e-07   -7.17239058e-03   -7.50929539e-01   -7.50929539e-01
112      5.99075774e-07   -7.89446477e-03   -7.53416394e-01   -7.53416394e-01
113      6.06159611e-07   -8.59491884e-03   -7.55607603e-01   -7.55607603e-01
114      6.13243448e-07   -9.27199197e-03   -7.57573502e-01   -7.57573502e-01
115      6.20327285e-07   -9.92426511e-03   -7.59325789e-01   -7.59325789e-01
116      6.27411122e-07   -1.05501931e-02   -7.60911632e-01   -7.60911632e-01
117      6.34494959e-07   -1.11485095e-02   -7.62333213e-01   -7.62333213e-01
118      6.41578796e-07   -1.17178434e-02   -7.63624893e-01   -7.63624893e-01
119      6.48662633e-07   -1.22570672e-02   -7.64784066e-01   -7.64784066e-01
120      6.55746470e-07   -1.27649685e-02   -7.65837329e-01   -7.65837329e-01
121      6.62830307e-07   -1.32405568e-02   -7.66779489e-01   -7.66779489e-01
122      6.69914145e-07   -1.36827730e-02   -7.67632098e-01   -7.67632098e-01
123      6.76997982e-07   -1.40907661e-02   -7.68388475e-01   -7.68388475e-01
124      6.84081819e-07   -1.44636300e-02   -7.69066712e-01   -7.69066712e-01
125      6.91165656e-07   -1.48006575e-02   -7.69659214e-01   -7.69659214e-01
126      6.98249493e-07   -1.51010972e-02   -7.70181590e-01   -7.70181590e-01
127      7.05333330e-07   -1.53643897e-02   -7.70625631e-01   -7.70625631e-01
128      7.12417167e-07   -1.55899403e-02   -7.71005103e-01   -7.71005103e-01
129      7.19501004e-07   -1.57773420e-02   -7.71311324e-01   -7.71311324e-01
130      7.26584841e-07   -1.59261587e-02   -7.71556645e-01   -7.71556645e-01
131      7.33668678e-07   -1.60361388e-02   -7.71731964e-01   -7.71731964e-01
132      7.40752515e-07   -1.61070066e-02   -7.71848508e-01   -7.71848508e-01
133      7.47836352e-07   -1.61386682e-02   -7.71896748e-01   -7.71896748e-01
134      7.54920190e-07   -1.61310088e-02   -7.71886982e-01   -7.71886982e-01
135      7.62004027e-07   -1.60840939e-02   -7.71809196e-01   -7.71809196e-01
136      7.69087864e-07   -1.59979697e-02   -7.71672884e-01   -7.71672884e-01
137      7.76171701e-07   -1.58728610e-02   -7.71467444e-01   -7.71467444e-01
138      7.83255538e-07   -1.57089741e-02   -7.71201629e-01   -7.71201629e-01
139      7.90339375e-07   -1.55066928e-02   -7.70864091e-01   -7.70864091e-01
140      7.97423212e-07   -1.52663812e-02   -7.70462842e-01   -7.70462842e-01
141      8.04507049e-07   -1.49885807e-02   -7.69985565e-01   -7.69985565e-01
142      8.11590886e-07   -1.46738105e-02   -7.69439453e-01   -7.69439453e-01
143      8.18674723e-07   -1.43227673e-02   -7.68810897e-01   -7.68810897e-01
144      8.25758560e-07   -1.39361218e-02   -7.68106088e-01   -7.68106088e-01
145      8.32842398e-07   -1.35147238e-02   -7.67309651e-01   -7.67309651e-01
146      8.39926235e-07   -1.30593915e-02   -7.66426426e-01   -7.66426426e-01
147      8.47010072e-07   -1.25711249e-02   -7.65438547e-01   -7.65438547e-01
148      8.54093909e-07   -1.20508867e-02   -7.64348869e-01   -7.64348869e-01
149      8.61177746e-07   -1.14998257e-02   -7.63135880e-01   -7.63135880e-01
150      8.68261583e-07   -1.09190468e-02   -7.61799294e-01   -7.61799294e-01
151      8.75345420e-07   -1.03098492e-02   -7.60311994e-01   -7.60311994e-01
152      8.82429257e-07   -9.67348234e-03   -7.58668355e-01   -7.58668355e-01
153      8.89513094e-07   -9.01140458e-03   -7.56832079e-01   -7.56832079e-01
154      8.96596931e-07   -8.32502251e-03   -7.54787755e-01   -7.54787755e-01
155      9.03680768e-07   -7.61597930e-03   -7.52482706e-01   -7.52482706e-01
156      9.10764605e-07   -6.88587785e-03   -7.49881800e-01   -7.49881800e-01
157      9.17848443e-07   -6.13661765e-03   -7.46899518e-01   -7.46899518e-01
158      9.24932280e-07   -5.37011415e-03   -7.43455495e-01   -7.43455495e-01
159      9.32016117e-07   -4.58873765e-03   -7.39386141e-01   -7.39386141e-01
160      9.39099954e-07   -3.79511022e-03   -7.34484636e-01   -7.34484636e-01
161      9.46183791e-07   -2.99288571e-03   -7.28344316e-01   -7.28344316e-01
162      9.53267628e-07   -2.18723851e-03   -7.20260261e-01   -7.20260261e-01
163      9.60351465e-07   -1.38877556e-03   -7.08446250e-01   -7.08446250e-01
164      9.67435302e-07   -6.24105967e-04   -6.87920170e-01   -6.87920170e-01
165      9.68071849e-07   -5.60241677e-04   -6.85022121e-01   -6.85022121e-01
166      9.69344943e-07   -4.35807568e-04   -6.78529129e-01   -6.78529129e-01
167      9.70618036e-07   -3.18994897e-04   -6.70462857e-01   -6.70462857e-01
168      9.71891130e-07   -2.13510695e-04   -6.60083909e-01   -6.60083909e-01
169      9.73164223e-07   -1.25052775e-04   -6.46254737e-01   -6.46254737e-01
170      9.74437317e-07   -6.06870468e-05   -6.27564176e-01   -6.27564176e-01
171      9.75710410e-07   -2.37773729e-05   -6.03341473e-01   -6.03341473e-01
172      9.76983504e-07   -7.90466875e-06   -5.74872467e-01   -5.74872467e-01
173      9.78256597e-07   -2.42164169e-06   -5.44288641e-01   -5.44288641e-01
174      9.80802784e-07   -2.11405269e-07   -4.81267282e-01   -4.81267282e-01
175      9.83094353e-07   -2.32687679e-08   -4.24082058e-01   -4.24082058e-01
176      9.87677490e-07   -1.61303126e-10   -3.09389108e-01   -3.09389108e-01
177      9.92260626e-07   -1.16466979e-10   -1.94435001e-01   -1.94435001e-01
178      1.00142690e-06    1.13100418e-10    3.58614028e-02    3.58614028e-02
179      1.00755462e-06    1.73241916e-12    1.89797041e-01    1.89797041e-01
180      1.01368234e-06    5.89006338e-10    3.43451225e-01    3.43451225e-01
181      1.01981006e-06    2.19735839e-07    4.96552636e-01    4.96552636e-01
182      1.02281723e-06    3.87248960e-06    5.70722505e-01    5.70722505e-01
183      1.02328166e-06    5.95703536e-06    5.81856007e-01    5.81856007e-01
184      1.02421054e-06    1.37036956e-05    6.03392502e-01    6.03392502e-01
185      1.02606829e-06    5.79257785e-05    6.40657017e-01    6.40657017e-01
186      1.02760062e-06    1.36735919e-04    6.62860380e-01    6.62860380e-01
187      1.02888616e-06    2.29056980e-04    6.76197626e-01    6.76197626e-01
188      1.03017169e-06    3.37666583e-04    6.86230059e-01    6.86230059e-01
189      1.03145722e-06    4.57059150e-04    6.94056722e-01    6.94056722e-01
190      1.03274275e-06    5.83700741e-04    7.00382336e-01    7.00382336e-01
191      1.03531382e-06    8.50759150e-04    7.10116526e-01    7.10116526e-01
192      1.04045594e-06    1.41306578e-03    7.23241376e-01    7.23241376e-01
193      1.04559807e-06    1.99134517e-03    7.32121789e-01    7.32121789e-01
194      1.05074020e-06    2.57506171e-03    7.38734894e-01    7.38734894e-01
195      1.06102445e-06    3.74000229e-03    7.48406319e-01    7.48406319e-01
196      1.07130871e-06    4.88747231e-03    7.55325825e-01    7.55325825e-01
197      1.08159296e-06    6.00681988e-03    7.60637000e-01    7.60637000e-01
198      1.09187722e-06    7.09026099e-03    7.64940041e-01    7.64940041e-01
199      1.10216147e-06    8.13200558e-03    7.68470538e-01    7.68470538e-01
200      1.11244573e-06    9.12645534e-03    7.71463763e-01    7.71463763e-01
201      1.12272998e-06    1.00690196e-02    7.73995184e-01    7.73995184e-01
202      1.13301424e-06    1.09551171e-02    7.76183652e-01    7.76183652e-01
203      1.14329849e-06    1.17808743e-02    7.78054974e-01    7.78054974e-01
204      1.15358275e-06    1.25424470e-02    7.79680890e-01    7.79680890e-01
205      1.16386700e-06    1.32365926e-02    7.81067337e-01    7.81067337e-01
206      1.17415126e-06    1.38601418e-02    7.82262931e-01    7.82262931e-01
207      1.18443551e-06    1.44104838e-02    7.83264264e-01    7.83264264e-01
208      1.19471977e-06    1.48851226e-02    7.84106987e-01    7.84106987e-01
209      1.20500402e-06    1.52821015e-02    7.84782634e-01    7.84782634e-01
210      1.21528828e-06    1.55996117e-02    7.85318792e-01    7.85318792e-01
211      1.22557253e-06    1.58363749e-02    7.85703790e-01    7.85703790e-01
212      1.23585679e-06    1.59912845e-02    7.85959720e-01    7.85959720e-01
213      1.24614104e-06    1.60637592e-02    7.86072427e-01    7.86072427e-01
214      1.25642530e-06    1.60534044e-02    7.86059875e-01    7.86059875e-01
215      1.26670955e-06    1.59603463e-02    7.85905520e-01    7.85905520e-01
216      1.27699381e-06    1.57849042e-02    7.85623819e-01    7.85623819e-01
217      1.28727806e-06    1.55279130e-02    7.85195452e-01    7.85195452e-01
218      1.29756232e-06    1.51903993e-02    7.84631397e-01    7.84631397e-01
219      1.30784657e-06    1.47738988e-02    7.83908631e-01    7.83908631e-01
220      1.31813083e-06    1.42801309e-02    7.83034001e-01    7.83034001e-01
221      1.32841508e-06    1.37113172e-02    7.81979032e-01    7.81979032e-01
222      1.33869934e-06    1.30698490e-02    7.80744715e-01    7.80744715e-01
223      1.34898359e-06    1.23586156e-02    7.79293838e-01    7.79293838e-01
224      1.35926785e-06    1.15806596e-02    7.77617673e-01    7.77617673e-01
225      1.36955210e-06    1.07395260e-02    7.75663666e-01    7.75663666e-01
226      1.37983636e-06    9.83890291e-03    7.73404521e-01    7.73404521e-01
227      1.39012061e-06    8.88301108e-03    7.70757376e-01    7.70757376e-01
228      1.40040487e-06    7.87623865e-03    7.67653628e-01    7.67653628e-01
229      1.41068912e-06    6.82362033e-03    7.63939746e-01    7.63939746e-01
230      1.42097338e-06    5.73053345e-03    7.59434496e-01    7.59434496e-01
231      1.43125763e-06    4.60347280e-03    7.53770235e-01    7.53770235e-01
232      1.44154189e-06    3.45031477e-03    7.46336208e-01    7.46336208e-01
233      1.45182614e-06    2.28313060e-03    7.35711852e-01    7.35711852e-01
234      1.46211039e-06    1.12993566e-03    7.17312808e-01    7.17312808e-01
235      1.46321321e-06    1.00900719e-03    7.14541135e-01    7.14541135e-01
236      1.46541883e-06    7.73307939e-04    7.07635559e-01    7.07635559e-01
237      1.46983007e-06    3.37374390e-04    6.86245011e-01    6.86245011e-01
238      1.47027703e-06    2.98297597e-04    6.83025406e-01    6.83025406e-01
239      1.47072399e-06    2.60567012e-04    6.79530701e-01    6.79530701e-01
240      1.47161790e-06    1.90542330e-04    6.71436771e-01    6.71436771e-01
241      1.47251181e-06    1.29667028e-04    6.61490581e-01    6.61490581e-01
242      1.47340572e-06    8.05392037e-05    6.49173210e-01    6.49173210e-01
243      1.47429963e-06    4.49749035e-05    6.34122147e-01    6.34122147e-01
244      1.47519355e-06    2.26754967e-05    6.16397818e-01    6.16397818e-01
245      1.47608746e-06    1.05341241e-05    5.96622293e-01    5.96622293e-01
246      1.47698137e-06    4.68331325e-06    5.75569769e-01    5.75569769e-01
247      1.47876920e-06    8.48293111e-07    5.31837541e-01    5.31837541e-01
248      1.48055702e-06    1.66456094e-07    4.87407546e-01    4.87407546e-01
249      1.48413267e-06   -7.29054632e-09    3.98130679e-01    3.98130679e-01
250      1.48770832e-06    1.23250462e-08    3.08614196e-01    3.08614196e-01
251      1.49485962e-06   -1.21714811e-08    1.29171937e-01    1.29171937e-01
252      1.50916221e-06    1.21587468e-08   -2.30146717e-01   -2.30146717e-01
253      1.51774734e-06   -5.21989457e-08   -4.45105052e-01   -4.45105052e-01
254      1.52008382e-06   -4.96462241e-07   -5.03323501e-01   -5.03323501e-01
