Index       TIME              V(1)              VR(1)             VI(1)             VM(1)             VP(1)            VDB(1)             I(V1)            IR(V1)            II(V1)            IM(V1)            IP(V1)            IDB(V1)            I(R1)            IR(R1)            II(R1)            IM(R1)            IP(R1)            IDB(R1)     
0        0.00000000e+00    4.65601775e-01    4.65601775e-01    0.00000000e+00    4.65601775e-01    0.00000000e+00   -6.63970746e+00   -4.65649056e-04   -4.65649056e-04    0.00000000e+00    4.65649056e-04    1.80000000e+02   -6.66388255e+01    4.65601775e-04    4.65601775e-04    0.00000000e+00    4.65601775e-04    0.00000000e+00   -6.66397075e+01
1        9.90099010e-07    5.61470724e-01    5.61470724e-01    0.00000000e+00    5.61470724e-01    0.00000000e+00   -5.01345768e+00   -5.61586867e-04   -5.61586867e-04    0.00000000e+00    5.61586867e-04    1.80000000e+02   -6.50116611e+01    5.61470724e-04    5.61470724e-04    0.00000000e+00    5.61470724e-04    0.00000000e+00   -6.50134577e+01
2        1.98019802e-06    6.54522786e-01    6.54522786e-01    0.00000000e+00    6.54522786e-01    0.00000000e+00   -3.68150460e+00   -6.54603043e-04   -6.54603043e-04    0.00000000e+00    6.54603043e-04    1.80000000e+02   -6.36804396e+01    6.54522786e-04    6.54522786e-04    0.00000000e+00    6.54522786e-04    0.00000000e+00   -6.36815046e+01
3        2.97029703e-06    7.48229002e-01    7.48229002e-01    0.00000000e+00    7.48229002e-01    0.00000000e+00   -2.51930925e+00   -7.48334686e-04   -7.48334686e-04    0.00000000e+00    7.48334686e-04    1.80000000e+02   -6.25180825e+01    7.48229002e-04    7.48229002e-04    0.00000000e+00    7.48229002e-04    0.00000000e+00   -6.25193092e+01
4        3.96039604e-06    8.42175377e-01    8.42175377e-01    0.00000000e+00    8.42175377e-01    0.00000000e+00   -1.49194920e+00   -8.42261082e-04   -8.42261082e-04    0.00000000e+00    8.42261082e-04    1.80000000e+02   -6.14910653e+01    8.42175377e-04    8.42175377e-04    0.00000000e+00    8.42175377e-04    0.00000000e+00   -6.14919492e+01
5        4.95049505e-06    9.36843603e-01    9.36843603e-01    0.00000000e+00    9.36843603e-01    0.00000000e+00   -5.66658088e-01   -9.36948419e-04   -9.36948419e-04    0.00000000e+00    9.36948419e-04    1.80000000e+02   -6.05656863e+01    9.36843603e-04    9.36843603e-04    0.00000000e+00    9.36843603e-04    0.00000000e+00   -6.05666581e+01
6        5.94059406e-06    1.03176725e+00    1.03176725e+00    0.00000000e+00    1.03176725e+00    0.00000000e+00    2.71634791e-01   -1.03185416e-03   -1.03185416e-03    0.00000000e+00    1.03185416e-03    1.80000000e+02   -5.97276336e+01    1.03176725e-03    1.03176725e-03    0.00000000e+00    1.03176725e-03    0.00000000e+00   -5.97283652e+01
7        6.93069307e-06    1.12721016e+00    1.12721016e+00    0.00000000e+00    1.12721016e+00    0.00000000e+00    1.04009790e+00   -1.12731687e-03   -1.12731687e-03    0.00000000e+00    1.12731687e-03    1.80000000e+02   -5.89590798e+01    1.12721016e-03    1.12721016e-03    0.00000000e+00    1.12721016e-03    0.00000000e+00   -5.89599021e+01
8        7.92079208e-06    1.22279892e+00    1.22279892e+00    0.00000000e+00    1.22279892e+00    0.00000000e+00    1.74710090e+00   -1.22288299e-03   -1.22288299e-03    0.00000000e+00    1.22288299e-03    1.80000000e+02   -5.82523019e+01    1.22279892e-03    1.22279892e-03    0.00000000e+00    1.22279892e-03    0.00000000e+00   -5.82528991e+01
9        8.91089109e-06    1.31882228e+00    1.31882228e+00    0.00000000e+00    1.31882228e+00    0.00000000e+00    2.40372548e+00   -1.31893841e-03   -1.31893841e-03    0.00000000e+00    1.31893841e-03    1.80000000e+02   -5.75955097e+01    1.31882228e-03    1.31882228e-03    0.00000000e+00    1.31882228e-03    0.00000000e+00   -5.75962745e+01
10       9.90099010e-06    1.41481512e+00    1.41481512e+00    0.00000000e+00    1.41481512e+00    0.00000000e+00    3.01399385e+00   -1.41486671e-03   -1.41486671e-03    0.00000000e+00    1.41486671e-03    1.80000000e+02   -5.69856894e+01    1.41481512e-03    1.41481512e-03    0.00000000e+00    1.41481512e-03    0.00000000e+00   -5.69860062e+01
11       1.08910891e-05    1.42305002e+00    1.42305002e+00    0.00000000e+00    1.42305002e+00    0.00000000e+00    3.06440330e+00   -1.42303932e-03   -1.42303932e-03    0.00000000e+00    1.42303932e-03    1.80000000e+02   -5.69356620e+01    1.42305002e-03    1.42305002e-03    0.00000000e+00    1.42305002e-03    0.00000000e+00   -5.69355967e+01
12       1.18811881e-05    1.42264147e+00    1.42264147e+00    0.00000000e+00    1.42264147e+00    0.00000000e+00    3.06190927e+00   -1.42264724e-03   -1.42264724e-03    0.00000000e+00    1.42264724e-03    1.80000000e+02   -5.69380555e+01    1.42264147e-03    1.42264147e-03    0.00000000e+00    1.42264147e-03    0.00000000e+00   -5.69380907e+01
13       1.28712871e-05    1.42248200e+00    1.42248200e+00    0.00000000e+00    1.42248200e+00    0.00000000e+00    3.06093561e+00   -1.42247806e-03   -1.42247806e-03    0.00000000e+00    1.42247806e-03    1.80000000e+02   -5.69390885e+01    1.42248200e-03    1.42248200e-03    0.00000000e+00    1.42248200e-03    0.00000000e+00   -5.69390644e+01
14       1.38613861e-05    1.42246592e+00    1.42246592e+00    0.00000000e+00    1.42246592e+00    0.00000000e+00    3.06083742e+00   -1.42246859e-03   -1.42246859e-03    0.00000000e+00    1.42246859e-03    1.80000000e+02   -5.69391463e+01    1.42246592e-03    1.42246592e-03    0.00000000e+00    1.42246592e-03    0.00000000e+00   -5.69391626e+01
15       1.48514851e-05    1.42244159e+00    1.42244159e+00    0.00000000e+00    1.42244159e+00    0.00000000e+00    3.06068887e+00   -1.42243965e-03   -1.42243965e-03    0.00000000e+00    1.42243965e-03    1.80000000e+02   -5.69393230e+01    1.42244159e-03    1.42244159e-03    0.00000000e+00    1.42244159e-03    0.00000000e+00   -5.69393111e+01
16       1.58415842e-05    1.42244898e+00    1.42244898e+00    0.00000000e+00    1.42244898e+00    0.00000000e+00    3.06073394e+00   -1.42245042e-03   -1.42245042e-03    0.00000000e+00    1.42245042e-03    1.80000000e+02   -5.69392573e+01    1.42244898e-03    1.42244898e-03    0.00000000e+00    1.42244898e-03    0.00000000e+00   -5.69392661e+01
17       1.68316832e-05    1.42244048e+00    1.42244048e+00    0.00000000e+00    1.42244048e+00    0.00000000e+00    3.06068204e+00   -1.42243938e-03   -1.42243938e-03    0.00000000e+00    1.42243938e-03    1.80000000e+02   -5.69393247e+01    1.42244048e-03    1.42244048e-03    0.00000000e+00    1.42244048e-03    0.00000000e+00   -5.69393180e+01
18       1.78217822e-05    1.42244610e+00    1.42244610e+00    0.00000000e+00    1.42244610e+00    0.00000000e+00    3.06071636e+00   -1.42244694e-03   -1.42244694e-03    0.00000000e+00    1.42244694e-03    1.80000000e+02   -5.69392785e+01    1.42244610e-03    1.42244610e-03    0.00000000e+00    1.42244610e-03    0.00000000e+00   -5.69392836e+01
19       1.88118812e-05    1.42244153e+00    1.42244153e+00    0.00000000e+00    1.42244153e+00    0.00000000e+00    3.06068849e+00   -1.42244088e-03   -1.42244088e-03    0.00000000e+00    1.42244088e-03    1.80000000e+02   -5.69393155e+01    1.42244153e-03    1.42244153e-03    0.00000000e+00    1.42244153e-03    0.00000000e+00   -5.69393115e+01
20       1.98019802e-05    1.42244499e+00    1.42244499e+00    0.00000000e+00    1.42244499e+00    0.00000000e+00    3.06070958e+00   -1.42244549e-03   -1.42244549e-03    0.00000000e+00    1.42244549e-03    1.80000000e+02   -5.69392874e+01    1.42244499e-03    1.42244499e-03    0.00000000e+00    1.42244499e-03    0.00000000e+00   -5.69392904e+01
21       2.07920792e-05    1.42244231e+00    1.42244231e+00    0.00000000e+00    1.42244231e+00    0.00000000e+00    3.06069325e+00   -1.42244193e-03   -1.42244193e-03    0.00000000e+00    1.42244193e-03    1.80000000e+02   -5.69393091e+01    1.42244231e-03    1.42244231e-03    0.00000000e+00    1.42244231e-03    0.00000000e+00   -5.69393068e+01
22       2.17821782e-05    1.42244434e+00    1.42244434e+00    0.00000000e+00    1.42244434e+00    0.00000000e+00    3.06070563e+00   -1.42244463e-03   -1.42244463e-03    0.00000000e+00    1.42244463e-03    1.80000000e+02   -5.69392926e+01    1.42244434e-03    1.42244434e-03    0.00000000e+00    1.42244434e-03    0.00000000e+00   -5.69392944e+01
23       2.27722772e-05    1.42244283e+00    1.42244283e+00    0.00000000e+00    1.42244283e+00    0.00000000e+00    3.06069641e+00   -1.42244262e-03   -1.42244262e-03    0.00000000e+00    1.42244262e-03    1.80000000e+02   -5.69393049e+01    1.42244283e-03    1.42244283e-03    0.00000000e+00    1.42244283e-03    0.00000000e+00   -5.69393036e+01
24       2.37623762e-05    1.42244391e+00    1.42244391e+00    0.00000000e+00    1.42244391e+00    0.00000000e+00    3.06070300e+00   -1.42244405e-03   -1.42244405e-03    0.00000000e+00    1.42244405e-03    1.80000000e+02   -5.69392961e+01    1.42244391e-03    1.42244391e-03    0.00000000e+00    1.42244391e-03    0.00000000e+00   -5.69392970e+01
25       2.47524752e-05    1.42244319e+00    1.42244319e+00    0.00000000e+00    1.42244319e+00    0.00000000e+00    3.06069861e+00   -1.42244310e-03   -1.42244310e-03    0.00000000e+00    1.42244310e-03    1.80000000e+02   -5.69393019e+01    1.42244319e-03    1.42244319e-03    0.00000000e+00    1.42244319e-03    0.00000000e+00   -5.69393014e+01
26       2.57425743e-05    1.42244360e+00    1.42244360e+00    0.00000000e+00    1.42244360e+00    0.00000000e+00    3.06070112e+00   -1.42244364e-03   -1.42244364e-03    0.00000000e+00    1.42244364e-03    1.80000000e+02   -5.69392986e+01    1.42244360e-03    1.42244360e-03    0.00000000e+00    1.42244360e-03    0.00000000e+00   -5.69392989e+01
27       2.67326733e-05    1.42244346e+00    1.42244346e+00    0.00000000e+00    1.42244346e+00    0.00000000e+00    3.06070024e+00   -1.42244346e-03   -1.42244346e-03    0.00000000e+00    1.42244346e-03    1.80000000e+02   -5.69392997e+01    1.42244346e-03    1.42244346e-03    0.00000000e+00    1.42244346e-03    0.00000000e+00   -5.69392998e+01
28       2.77227723e-05    1.42244337e+00    1.42244337e+00    0.00000000e+00    1.42244337e+00    0.00000000e+00    3.06069970e+00   -1.42244333e-03   -1.42244333e-03    0.00000000e+00    1.42244333e-03    1.80000000e+02   -5.69393005e+01    1.42244337e-03    1.42244337e-03    0.00000000e+00    1.42244337e-03    0.00000000e+00   -5.69393003e+01
29       2.87128713e-05    1.42244366e+00    1.42244366e+00    0.00000000e+00    1.42244366e+00    0.00000000e+00    3.06070150e+00   -1.42244374e-03   -1.42244374e-03    0.00000000e+00    1.42244374e-03    1.80000000e+02   -5.69392980e+01    1.42244366e-03    1.42244366e-03    0.00000000e+00    1.42244366e-03    0.00000000e+00   -5.69392985e+01
30       2.97029703e-05    1.42244318e+00    1.42244318e+00    0.00000000e+00    1.42244318e+00    0.00000000e+00    3.06069856e+00   -1.42244308e-03   -1.42244308e-03    0.00000000e+00    1.42244308e-03    1.80000000e+02   -5.69393021e+01    1.42244318e-03    1.42244318e-03    0.00000000e+00    1.42244318e-03    0.00000000e+00   -5.69393014e+01
31       3.06930693e-05    1.42244384e+00    1.42244384e+00    0.00000000e+00    1.42244384e+00    0.00000000e+00    3.06070255e+00   -1.42244397e-03   -1.42244397e-03    0.00000000e+00    1.42244397e-03    1.80000000e+02   -5.69392966e+01    1.42244384e-03    1.42244384e-03    0.00000000e+00    1.42244384e-03    0.00000000e+00   -5.69392975e+01
32       3.16831683e-05    1.42244302e+00    1.42244302e+00    0.00000000e+00    1.42244302e+00    0.00000000e+00    3.06069758e+00   -1.42244286e-03   -1.42244286e-03    0.00000000e+00    1.42244286e-03    1.80000000e+02   -5.69393034e+01    1.42244302e-03    1.42244302e-03    0.00000000e+00    1.42244302e-03    0.00000000e+00   -5.69393024e+01
33       3.26732673e-05    1.42244399e+00    1.42244399e+00    0.00000000e+00    1.42244399e+00    0.00000000e+00    3.06070347e+00   -1.42244417e-03   -1.42244417e-03    0.00000000e+00    1.42244417e-03    1.80000000e+02   -5.69392954e+01    1.42244399e-03    1.42244399e-03    0.00000000e+00    1.42244399e-03    0.00000000e+00   -5.69392965e+01
34       3.36633663e-05    1.42244288e+00    1.42244288e+00    0.00000000e+00    1.42244288e+00    0.00000000e+00    3.06069670e+00   -1.42244267e-03   -1.42244267e-03    0.00000000e+00    1.42244267e-03    1.80000000e+02   -5.69393046e+01    1.42244288e-03    1.42244288e-03    0.00000000e+00    1.42244288e-03    0.00000000e+00   -5.69393033e+01
35       3.46534653e-05    1.42244413e+00    1.42244413e+00    0.00000000e+00    1.42244413e+00    0.00000000e+00    3.06070434e+00   -1.42244436e-03   -1.42244436e-03    0.00000000e+00    1.42244436e-03    1.80000000e+02   -5.69392942e+01    1.42244413e-03    1.42244413e-03    0.00000000e+00    1.42244413e-03    0.00000000e+00   -5.69392957e+01
36       3.56435644e-05    1.42244273e+00    1.42244273e+00    0.00000000e+00    1.42244273e+00    0.00000000e+00    3.06069583e+00   -1.42244247e-03   -1.42244247e-03    0.00000000e+00    1.42244247e-03    1.80000000e+02   -5.69393058e+01    1.42244273e-03    1.42244273e-03    0.00000000e+00    1.42244273e-03    0.00000000e+00   -5.69393042e+01
37       3.66336634e-05    1.42244427e+00    1.42244427e+00    0.00000000e+00    1.42244427e+00    0.00000000e+00    3.06070523e+00   -1.42244456e-03   -1.42244456e-03    0.00000000e+00    1.42244456e-03    1.80000000e+02   -5.69392930e+01    1.42244427e-03    1.42244427e-03    0.00000000e+00    1.42244427e-03    0.00000000e+00   -5.69392948e+01
38       3.76237624e-05    1.42244258e+00    1.42244258e+00    0.00000000e+00    1.42244258e+00    0.00000000e+00    3.06069489e+00   -1.42244227e-03   -1.42244227e-03    0.00000000e+00    1.42244227e-03    1.80000000e+02   -5.69393070e+01    1.42244258e-03    1.42244258e-03    0.00000000e+00    1.42244258e-03    0.00000000e+00   -5.69393051e+01
39       3.86138614e-05    1.42244444e+00    1.42244444e+00    0.00000000e+00    1.42244444e+00    0.00000000e+00    3.06070625e+00   -1.42244479e-03   -1.42244479e-03    0.00000000e+00    1.42244479e-03    1.80000000e+02   -5.69392916e+01    1.42244444e-03    1.42244444e-03    0.00000000e+00    1.42244444e-03    0.00000000e+00   -5.69392938e+01
40       3.96039604e-05    1.42244240e+00    1.42244240e+00    0.00000000e+00    1.42244240e+00    0.00000000e+00    3.06069376e+00   -1.42244202e-03   -1.42244202e-03    0.00000000e+00    1.42244202e-03    1.80000000e+02   -5.69393086e+01    1.42244240e-03    1.42244240e-03    0.00000000e+00    1.42244240e-03    0.00000000e+00   -5.69393062e+01
41       4.05940594e-05    1.42244465e+00    1.42244465e+00    0.00000000e+00    1.42244465e+00    0.00000000e+00    3.06070753e+00   -1.42244507e-03   -1.42244507e-03    0.00000000e+00    1.42244507e-03    1.80000000e+02   -5.69392899e+01    1.42244465e-03    1.42244465e-03    0.00000000e+00    1.42244465e-03    0.00000000e+00   -5.69392925e+01
42       4.15841584e-05    1.42244215e+00    1.42244215e+00    0.00000000e+00    1.42244215e+00    0.00000000e+00    3.06069223e+00   -1.42244167e-03   -1.42244167e-03    0.00000000e+00    1.42244167e-03    1.80000000e+02   -5.69393107e+01    1.42244215e-03    1.42244215e-03    0.00000000e+00    1.42244215e-03    0.00000000e+00   -5.69393078e+01
43       4.25742574e-05    1.42244496e+00    1.42244496e+00    0.00000000e+00    1.42244496e+00    0.00000000e+00    3.06070944e+00   -1.42244550e-03   -1.42244550e-03    0.00000000e+00    1.42244550e-03    1.80000000e+02   -5.69392873e+01    1.42244496e-03    1.42244496e-03    0.00000000e+00    1.42244496e-03    0.00000000e+00   -5.69392906e+01
44       4.35643564e-05    1.42244174e+00    1.42244174e+00    0.00000000e+00    1.42244174e+00    0.00000000e+00    3.06068974e+00   -1.42244111e-03   -1.42244111e-03    0.00000000e+00    1.42244111e-03    1.80000000e+02   -5.69393141e+01    1.42244174e-03    1.42244174e-03    0.00000000e+00    1.42244174e-03    0.00000000e+00   -5.69393103e+01
45       4.45544554e-05    1.42244553e+00    1.42244553e+00    0.00000000e+00    1.42244553e+00    0.00000000e+00    3.06071289e+00   -1.42244628e-03   -1.42244628e-03    0.00000000e+00    1.42244628e-03    1.80000000e+02   -5.69392825e+01    1.42244553e-03    1.42244553e-03    0.00000000e+00    1.42244553e-03    0.00000000e+00   -5.69392871e+01
46       4.55445545e-05    1.42244089e+00    1.42244089e+00    0.00000000e+00    1.42244089e+00    0.00000000e+00    3.06068454e+00   -1.42243993e-03   -1.42243993e-03    0.00000000e+00    1.42243993e-03    1.80000000e+02   -5.69393213e+01    1.42244089e-03    1.42244089e-03    0.00000000e+00    1.42244089e-03    0.00000000e+00   -5.69393155e+01
47       4.65346535e-05    1.42244695e+00    1.42244695e+00    0.00000000e+00    1.42244695e+00    0.00000000e+00    3.06072156e+00   -1.42244828e-03   -1.42244828e-03    0.00000000e+00    1.42244828e-03    1.80000000e+02   -5.69392703e+01    1.42244695e-03    1.42244695e-03    0.00000000e+00    1.42244695e-03    0.00000000e+00   -5.69392784e+01
48       4.75247525e-05    1.42243816e+00    1.42243816e+00    0.00000000e+00    1.42243816e+00    0.00000000e+00    3.06066790e+00   -1.42243603e-03   -1.42243603e-03    0.00000000e+00    1.42243603e-03    1.80000000e+02   -5.69393451e+01    1.42243816e-03    1.42243816e-03    0.00000000e+00    1.42243816e-03    0.00000000e+00   -5.69393321e+01
49       4.85148515e-05    1.42245347e+00    1.42245347e+00    0.00000000e+00    1.42245347e+00    0.00000000e+00    3.06076140e+00   -1.42245788e-03   -1.42245788e-03    0.00000000e+00    1.42245788e-03    1.80000000e+02   -5.69392117e+01    1.42245347e-03    1.42245347e-03    0.00000000e+00    1.42245347e-03    0.00000000e+00   -5.69392386e+01
50       4.95049505e-05    1.42241476e+00    1.42241476e+00    0.00000000e+00    1.42241476e+00    0.00000000e+00    3.06052498e+00   -1.42239898e-03   -1.42239898e-03    0.00000000e+00    1.42239898e-03    1.80000000e+02   -5.69395714e+01    1.42241476e-03    1.42241476e-03    0.00000000e+00    1.42241476e-03    0.00000000e+00   -5.69394750e+01
51       5.04950495e-05    1.37339338e+00    1.37339338e+00    0.00000000e+00    1.37339338e+00    0.00000000e+00    2.75589901e+00   -1.37331034e-03   -1.37331034e-03    0.00000000e+00    1.37331034e-03    1.80000000e+02   -5.72446262e+01    1.37339338e-03    1.37339338e-03    0.00000000e+00    1.37339338e-03    0.00000000e+00   -5.72441010e+01
52       5.14851485e-05    1.27616007e+00    1.27616007e+00    0.00000000e+00    1.27616007e+00    0.00000000e+00    2.11810301e+00   -1.27605792e-03   -1.27605792e-03    0.00000000e+00    1.27605792e-03    1.80000000e+02   -5.78825923e+01    1.27616007e-03    1.27616007e-03    0.00000000e+00    1.27616007e-03    0.00000000e+00   -5.78818970e+01
53       5.24752475e-05    1.17976749e+00    1.17976749e+00    0.00000000e+00    1.17976749e+00    0.00000000e+00    1.43592852e+00   -1.17967262e-03   -1.17967262e-03    0.00000000e+00    1.17967262e-03    1.80000000e+02   -5.85647700e+01    1.17976749e-03    1.17976749e-03    0.00000000e+00    1.17976749e-03    0.00000000e+00   -5.85640715e+01
54       5.34653465e-05    1.08372440e+00    1.08372440e+00    0.00000000e+00    1.08372440e+00    0.00000000e+00    6.98377064e-01   -1.08362603e-03   -1.08362603e-03    0.00000000e+00    1.08362603e-03    1.80000000e+02   -5.93024114e+01    1.08372440e-03    1.08372440e-03    0.00000000e+00    1.08372440e-03    0.00000000e+00   -5.93016229e+01
55       5.44554455e-05    9.88010387e-01    9.88010387e-01    0.00000000e+00    9.88010387e-01    0.00000000e+00   -1.04769796e-01   -9.87915078e-04   -9.87915078e-04    0.00000000e+00    9.87915078e-04    1.80000000e+02   -6.01056077e+01    9.88010387e-04    9.88010387e-04    0.00000000e+00    9.88010387e-04    0.00000000e+00   -6.01047698e+01
