Index       TIME              V(A)              V(B)             V(A,B)            VR(A,B)           VI(A,B)           VM(A,B)          VDB(A,B)           VP(A,B)     
0        0.00000000e+00    1.00000000e+00    6.66666667e-01    3.33333333e-01    3.33333333e-01    0.00000000e+00    3.33333333e-01   -9.54242509e+00    0.00000000e+00
1        2.50000000e-11    1.02000000e+00    6.86666417e-01    3.33333583e-01    3.33333583e-01    0.00000000e+00    3.33333583e-01   -9.54241858e+00    0.00000000e+00
2        7.50000000e-11    1.06000000e+00    7.26664917e-01    3.33335083e-01    3.33335083e-01    0.00000000e+00    3.33335083e-01   -9.54237950e+00    0.00000000e+00
3        1.75000000e-10    1.14000000e+00    8.06657918e-01    3.33342082e-01    3.33342082e-01    0.00000000e+00    3.33342082e-01   -9.54219713e+00    0.00000000e+00
4        3.75000000e-10    1.30000000e+00    9.66627930e-01    3.33372070e-01    3.33372070e-01    0.00000000e+00    3.33372070e-01   -9.54141576e+00    0.00000000e+00
5        7.75000000e-10    1.62000000e+00    1.28650403e+00    3.33495973e-01    3.33495973e-01    0.00000000e+00    3.33495973e-01   -9.53818813e+00    0.00000000e+00
6        1.57500000e-09    2.26000000e+00    1.92600083e+00    3.33999174e-01    3.33999174e-01    0.00000000e+00    3.33999174e-01   -9.52509215e+00    0.00000000e+00
7        3.17500000e-09    3.54000000e+00    3.20397529e+00    3.36024714e-01    3.36024714e-01    0.00000000e+00    3.36024714e-01   -9.47257559e+00    0.00000000e+00
8        4.77500000e-09    4.82000000e+00    4.48093305e+00    3.39066954e-01    3.39066954e-01    0.00000000e+00    3.39066954e-01   -9.39429071e+00    0.00000000e+00
9        5.00000000e-09    5.00000000e+00    4.66048513e+00    3.39514867e-01    3.39514867e-01    0.00000000e+00    3.39514867e-01   -9.38282406e+00    0.00000000e+00
10       5.32000000e-09    5.00000000e+00    4.65984841e+00    3.40151595e-01    3.40151595e-01    0.00000000e+00    3.40151595e-01   -9.36654977e+00    0.00000000e+00
11       5.96000000e-09    5.00000000e+00    4.65857617e+00    3.41423828e-01    3.41423828e-01    0.00000000e+00    3.41423828e-01   -9.33412346e+00    0.00000000e+00
12       7.24000000e-09    5.00000000e+00    4.65603658e+00    3.43963418e-01    3.43963418e-01    0.00000000e+00    3.43963418e-01   -9.26975488e+00    0.00000000e+00
13       9.80000000e-09    5.00000000e+00    4.65097683e+00    3.49023169e-01    3.49023169e-01    0.00000000e+00    3.49023169e-01   -9.14291485e+00    0.00000000e+00
14       1.49200000e-08    5.00000000e+00    4.64093445e+00    3.59065546e-01    3.59065546e-01    0.00000000e+00    3.59065546e-01   -8.89652532e+00    0.00000000e+00
15       2.51600000e-08    5.00000000e+00    4.62115354e+00    3.78846464e-01    3.78846464e-01    0.00000000e+00    3.78846464e-01   -8.43073524e+00    0.00000000e+00
16       4.56400000e-08    5.00000000e+00    4.58277082e+00    4.17229183e-01    4.17229183e-01    0.00000000e+00    4.17229183e-01   -7.59250644e+00    0.00000000e+00
17       8.66000000e-08    5.00000000e+00    4.51044884e+00    4.89551160e-01    4.89551160e-01    0.00000000e+00    4.89551160e-01   -6.20403832e+00    0.00000000e+00
18       1.27560000e-07    5.00000000e+00    4.44231312e+00    5.57686878e-01    5.57686878e-01    0.00000000e+00    5.57686878e-01   -5.07219148e+00    0.00000000e+00
19       1.68520000e-07    5.00000000e+00    4.37812135e+00    6.21878654e-01    6.21878654e-01    0.00000000e+00    6.21878654e-01   -4.12588700e+00    0.00000000e+00
20       2.09480000e-07    5.00000000e+00    4.31764522e+00    6.82354776e-01    6.82354776e-01    0.00000000e+00    6.82354776e-01   -3.31979528e+00    0.00000000e+00
21       2.50440000e-07    5.00000000e+00    4.26066968e+00    7.39330321e-01    7.39330321e-01    0.00000000e+00    7.39330321e-01   -2.62322964e+00    0.00000000e+00
22       2.91400000e-07    5.00000000e+00    4.20699208e+00    7.93007915e-01    7.93007915e-01    0.00000000e+00    7.93007915e-01   -2.01444956e+00    0.00000000e+00
23       3.32360000e-07    5.00000000e+00    4.15642155e+00    8.43578455e-01    8.43578455e-01    0.00000000e+00    8.43578455e-01   -1.47749041e+00    0.00000000e+00
24       3.73320000e-07    5.00000000e+00    4.10877821e+00    8.91221788e-01    8.91221788e-01    0.00000000e+00    8.91221788e-01   -1.00028409e+00    0.00000000e+00
25       4.14280000e-07    5.00000000e+00    4.06389265e+00    9.36107352e-01    9.36107352e-01    0.00000000e+00    9.36107352e-01   -5.73486873e-01    0.00000000e+00
26       4.55240000e-07    5.00000000e+00    4.02160522e+00    9.78394777e-01    9.78394777e-01    0.00000000e+00    9.78394777e-01   -1.89717484e-01    0.00000000e+00
27       4.96200000e-07    5.00000000e+00    3.98176555e+00    1.01823445e+00    1.01823445e+00    0.00000000e+00    1.01823445e+00    1.56955751e-01    0.00000000e+00
28       5.37160000e-07    5.00000000e+00    3.94423194e+00    1.05576806e+00    1.05576806e+00    0.00000000e+00    1.05576806e+00    4.71370407e-01    0.00000000e+00
29       5.78120000e-07    5.00000000e+00    3.90887091e+00    1.09112909e+00    1.09112909e+00    0.00000000e+00    1.09112909e+00    7.57522700e-01    0.00000000e+00
30       6.19080000e-07    5.00000000e+00    3.87555670e+00    1.12444330e+00    1.12444330e+00    0.00000000e+00    1.12444330e+00    1.01875119e+00    0.00000000e+00
31       6.60040000e-07    5.00000000e+00    3.84417085e+00    1.15582915e+00    1.15582915e+00    0.00000000e+00    1.15582915e+00    1.25787288e+00    0.00000000e+00
32       7.41960000e-07    5.00000000e+00    3.78826842e+00    1.21173158e+00    1.21173158e+00    0.00000000e+00    1.21173158e+00    1.66812850e+00    0.00000000e+00
33       8.15688000e-07    5.00000000e+00    3.74296630e+00    1.25703370e+00    1.25703370e+00    0.00000000e+00    1.25703370e+00    1.98693845e+00    0.00000000e+00
34       8.89416000e-07    5.00000000e+00    3.70217532e+00    1.29782468e+00    1.29782468e+00    0.00000000e+00    1.29782468e+00    2.26432056e+00    0.00000000e+00
35       9.63144000e-07    5.00000000e+00    3.66544629e+00    1.33455371e+00    1.33455371e+00    0.00000000e+00    1.33455371e+00    2.50672116e+00    0.00000000e+00
36       1.03687200e-06    5.00000000e+00    3.63237470e+00    1.36762530e+00    1.36762530e+00    0.00000000e+00    1.36762530e+00    2.71934251e+00    0.00000000e+00
37       1.11060000e-06    5.00000000e+00    3.60259637e+00    1.39740363e+00    1.39740363e+00    0.00000000e+00    1.39740363e+00    2.90643737e+00    0.00000000e+00
38       1.18432800e-06    5.00000000e+00    3.57578334e+00    1.42421666e+00    1.42421666e+00    0.00000000e+00    1.42421666e+00    3.07152126e+00    0.00000000e+00
39       1.25805600e-06    5.00000000e+00    3.55164033e+00    1.44835967e+00    1.44835967e+00    0.00000000e+00    1.44835967e+00    3.21752848e+00    0.00000000e+00
40       1.33178400e-06    5.00000000e+00    3.52990147e+00    1.47009853e+00    1.47009853e+00    0.00000000e+00    1.47009853e+00    3.34692889e+00    0.00000000e+00
41       1.40551200e-06    5.00000000e+00    3.51032734e+00    1.48967266e+00    1.48967266e+00    0.00000000e+00    1.48967266e+00    3.46181692e+00    0.00000000e+00
42       1.47924000e-06    5.00000000e+00    3.49270240e+00    1.50729760e+00    1.50729760e+00    0.00000000e+00    1.50729760e+00    3.56398015e+00    0.00000000e+00
43       1.55296800e-06    5.00000000e+00    3.47683254e+00    1.52316746e+00    1.52316746e+00    0.00000000e+00    1.52316746e+00    3.65495309e+00    0.00000000e+00
44       1.70042400e-06    5.00000000e+00    3.45084159e+00    1.54915841e+00    1.54915841e+00    0.00000000e+00    1.54915841e+00    3.80191658e+00    0.00000000e+00
45       1.84788000e-06    5.00000000e+00    3.42955819e+00    1.57044181e+00    1.57044181e+00    0.00000000e+00    1.57044181e+00    3.92043697e+00    0.00000000e+00
46       1.99533600e-06    5.00000000e+00    3.41212970e+00    1.58787030e+00    1.58787030e+00    0.00000000e+00    1.58787030e+00    4.01630053e+00    0.00000000e+00
47       2.14279200e-06    5.00000000e+00    3.39785790e+00    1.60214210e+00    1.60214210e+00    0.00000000e+00    1.60214210e+00    4.09402068e+00    0.00000000e+00
48       2.29024800e-06    5.00000000e+00    3.38617104e+00    1.61382896e+00    1.61382896e+00    0.00000000e+00    1.61382896e+00    4.15715009e+00    0.00000000e+00
49       2.43770400e-06    5.00000000e+00    3.37660094e+00    1.62339906e+00    1.62339906e+00    0.00000000e+00    1.62339906e+00    4.20850581e+00    0.00000000e+00
50       2.58516000e-06    5.00000000e+00    3.36876420e+00    1.63123580e+00    1.63123580e+00    0.00000000e+00    1.63123580e+00    4.25033489e+00    0.00000000e+00
51       2.88007200e-06    5.00000000e+00    3.35789771e+00    1.64210229e+00    1.64210229e+00    0.00000000e+00    1.64210229e+00    4.30800416e+00    0.00000000e+00
52       3.17498400e-06    5.00000000e+00    3.35036392e+00    1.64963608e+00    1.64963608e+00    0.00000000e+00    1.64963608e+00    4.34776294e+00    0.00000000e+00
53       3.46989600e-06    5.00000000e+00    3.34514071e+00    1.65485929e+00    1.65485929e+00    0.00000000e+00    1.65485929e+00    4.37522143e+00    0.00000000e+00
54       3.76480800e-06    5.00000000e+00    3.34151944e+00    1.65848056e+00    1.65848056e+00    0.00000000e+00    1.65848056e+00    4.39420770e+00    0.00000000e+00
55       4.35463200e-06    5.00000000e+00    3.33767670e+00    1.66232330e+00    1.66232330e+00    0.00000000e+00    1.66232330e+00    4.41430982e+00    0.00000000e+00
56       4.94445600e-06    5.00000000e+00    3.33563783e+00    1.66436217e+00    1.66436217e+00    0.00000000e+00    1.66436217e+00    4.42495671e+00    0.00000000e+00
57       6.12410400e-06    5.00000000e+00    3.33416544e+00    1.66583456e+00    1.66583456e+00    0.00000000e+00    1.66583456e+00    4.43263735e+00    0.00000000e+00
58       7.30375200e-06    5.00000000e+00    3.33363379e+00    1.66636621e+00    1.66636621e+00    0.00000000e+00    1.66636621e+00    4.43540901e+00    0.00000000e+00
59       9.66304800e-06    5.00000000e+00    3.33339953e+00    1.66660047e+00    1.66660047e+00    0.00000000e+00    1.66660047e+00    4.43663001e+00    0.00000000e+00
60       1.43816400e-05    5.00000000e+00    3.33334153e+00    1.66665847e+00    1.66665847e+00    0.00000000e+00    1.66665847e+00    4.43693229e+00    0.00000000e+00
61       2.38188240e-05    5.00000000e+00    3.33333387e+00    1.66666613e+00    1.66666613e+00    0.00000000e+00    1.66666613e+00    4.43697217e+00    0.00000000e+00
62       3.38188240e-05    5.00000000e+00    3.33333337e+00    1.66666663e+00    1.66666663e+00    0.00000000e+00    1.66666663e+00    4.43697482e+00    0.00000000e+00
63       4.38188240e-05    5.00000000e+00    3.33333334e+00    1.66666666e+00    1.66666666e+00    0.00000000e+00    1.66666666e+00    4.43697498e+00    0.00000000e+00
64       4.99950000e-05    5.00000000e+00    3.33333333e+00    1.66666667e+00    1.66666667e+00    0.00000000e+00    1.66666667e+00    4.43697499e+00    0.00000000e+00
65       4.99950312e-05    4.97500000e+00    3.30833372e+00    1.66666628e+00    1.66666628e+00    0.00000000e+00    1.66666628e+00    4.43697296e+00    0.00000000e+00
66       4.99950625e-05    4.95000000e+00    3.28333451e+00    1.66666549e+00    1.66666549e+00    0.00000000e+00    1.66666549e+00    4.43696888e+00    0.00000000e+00
67       4.99951250e-05    4.90000000e+00    3.23333763e+00    1.66666237e+00    1.66666237e+00    0.00000000e+00    1.66666237e+00    4.43695260e+00    0.00000000e+00
68       4.99952500e-05    4.80000000e+00    3.13335013e+00    1.66664987e+00    1.66664987e+00    0.00000000e+00    1.66664987e+00    4.43688747e+00    0.00000000e+00
69       4.99955000e-05    4.60000000e+00    2.93340010e+00    1.66659990e+00    1.66659990e+00    0.00000000e+00    1.66659990e+00    4.43662702e+00    0.00000000e+00
70       4.99960000e-05    4.20000000e+00    2.53359990e+00    1.66640010e+00    1.66640010e+00    0.00000000e+00    1.66640010e+00    4.43558565e+00    0.00000000e+00
71       4.99970000e-05    3.40000000e+00    1.73439830e+00    1.66560170e+00    1.66560170e+00    0.00000000e+00    1.66560170e+00    4.43142309e+00    0.00000000e+00
72       4.99990000e-05    1.80000000e+00    1.37585548e-01    1.66241445e+00    1.66241445e+00    0.00000000e+00    1.66241445e+00    4.41478612e+00    0.00000000e+00
73       5.00000000e-05    1.00000000e+00   -6.60423817e-01    1.66042382e+00    1.66042382e+00    0.00000000e+00    1.66042382e+00    4.40437908e+00    0.00000000e+00
74       5.00002000e-05    1.00000000e+00   -6.60025809e-01    1.66002581e+00    1.66002581e+00    0.00000000e+00    1.66002581e+00    4.40229680e+00    0.00000000e+00
75       5.00004000e-05    1.00000000e+00   -6.59627920e-01    1.65962792e+00    1.65962792e+00    0.00000000e+00    1.65962792e+00    4.40021465e+00    0.00000000e+00
76       5.00008000e-05    1.00000000e+00   -6.58832621e-01    1.65883262e+00    1.65883262e+00    0.00000000e+00    1.65883262e+00    4.39605134e+00    0.00000000e+00
77       5.00016000e-05    1.00000000e+00   -6.57243928e-01    1.65724393e+00    1.65724393e+00    0.00000000e+00    1.65724393e+00    4.38772873e+00    0.00000000e+00
78       5.00032000e-05    1.00000000e+00   -6.54074150e-01    1.65407415e+00    1.65407415e+00    0.00000000e+00    1.65407415e+00    4.37109949e+00    0.00000000e+00
79       5.00064000e-05    1.00000000e+00   -6.47764879e-01    1.64776488e+00    1.64776488e+00    0.00000000e+00    1.64776488e+00    4.33790484e+00    0.00000000e+00
80       5.00128000e-05    1.00000000e+00   -6.35266322e-01    1.63526632e+00    1.63526632e+00    0.00000000e+00    1.63526632e+00    4.27176985e+00    0.00000000e+00
81       5.00256000e-05    1.00000000e+00   -6.10740112e-01    1.61074011e+00    1.61074011e+00    0.00000000e+00    1.61074011e+00    4.14050948e+00    0.00000000e+00
82       5.00384000e-05    1.00000000e+00   -5.86675934e-01    1.58667593e+00    1.58667593e+00    0.00000000e+00    1.58667593e+00    4.00976469e+00    0.00000000e+00
83       5.00512000e-05    1.00000000e+00   -5.63065084e-01    1.56306508e+00    1.56306508e+00    0.00000000e+00    1.56306508e+00    3.87954124e+00    0.00000000e+00
84       5.00640000e-05    1.00000000e+00   -5.39899023e-01    1.53989902e+00    1.53989902e+00    0.00000000e+00    1.53989902e+00    3.74984487e+00    0.00000000e+00
85       5.00768000e-05    1.00000000e+00   -5.17169371e-01    1.51716937e+00    1.51716937e+00    0.00000000e+00    1.51716937e+00    3.62068133e+00    0.00000000e+00
86       5.00896000e-05    1.00000000e+00   -4.94867907e-01    1.49486791e+00    1.49486791e+00    0.00000000e+00    1.49486791e+00    3.49205637e+00    0.00000000e+00
87       5.01024000e-05    1.00000000e+00   -4.72986565e-01    1.47298657e+00    1.47298657e+00    0.00000000e+00    1.47298657e+00    3.36397572e+00    0.00000000e+00
88       5.01152000e-05    1.00000000e+00   -4.51517431e-01    1.45151743e+00    1.45151743e+00    0.00000000e+00    1.45151743e+00    3.23644511e+00    0.00000000e+00
89       5.01280000e-05    1.00000000e+00   -4.30452738e-01    1.43045274e+00    1.43045274e+00    0.00000000e+00    1.43045274e+00    3.10947027e+00    0.00000000e+00
90       5.01408000e-05    1.00000000e+00   -4.09784869e-01    1.40978487e+00    1.40978487e+00    0.00000000e+00    1.40978487e+00    2.98305690e+00    0.00000000e+00
91       5.01536000e-05    1.00000000e+00   -3.89506347e-01    1.38950635e+00    1.38950635e+00    0.00000000e+00    1.38950635e+00    2.85721070e+00    0.00000000e+00
92       5.01664000e-05    1.00000000e+00   -3.69609838e-01    1.36960984e+00    1.36960984e+00    0.00000000e+00    1.36960984e+00    2.73193734e+00    0.00000000e+00
93       5.01920000e-05    1.00000000e+00   -3.31288365e-01    1.33128836e+00    1.33128836e+00    0.00000000e+00    1.33128836e+00    2.48544273e+00    0.00000000e+00
94       5.02147572e-05    1.00000000e+00   -2.98346813e-01    1.29834681e+00    1.29834681e+00    0.00000000e+00    1.29834681e+00    2.26781432e+00    0.00000000e+00
95       5.02375145e-05    1.00000000e+00   -2.66492631e-01    1.26649263e+00    1.26649263e+00    0.00000000e+00    1.26649263e+00    2.05205334e+00    0.00000000e+00
96       5.02602717e-05    1.00000000e+00   -2.35689925e-01    1.23568993e+00    1.23568993e+00    0.00000000e+00    1.23568993e+00    1.83819011e+00    0.00000000e+00
97       5.02830289e-05    1.00000000e+00   -2.05903987e-01    1.20590399e+00    1.20590399e+00    0.00000000e+00    1.20590399e+00    1.62625462e+00    0.00000000e+00
98       5.03057862e-05    1.00000000e+00   -1.77101255e-01    1.17710126e+00    1.17710126e+00    0.00000000e+00    1.17710126e+00    1.41627646e+00    0.00000000e+00
99       5.03285434e-05    1.00000000e+00   -1.49249274e-01    1.14924927e+00    1.14924927e+00    0.00000000e+00    1.14924927e+00    1.20828476e+00    0.00000000e+00
100      5.03513006e-05    1.00000000e+00   -1.22316661e-01    1.12231666e+00    1.12231666e+00    0.00000000e+00    1.12231666e+00    1.00230820e+00    0.00000000e+00
101      5.03740578e-05    1.00000000e+00   -9.62730675e-02    1.09627307e+00    1.09627307e+00    0.00000000e+00    1.09627307e+00    7.98374896e-01    0.00000000e+00
102      5.03968151e-05    1.00000000e+00   -7.10891485e-02    1.07108915e+00    1.07108915e+00    0.00000000e+00    1.07108915e+00    5.96512388e-01    0.00000000e+00
103      5.04195723e-05    1.00000000e+00   -4.67365269e-02    1.04673653e+00    1.04673653e+00    0.00000000e+00    1.04673653e+00    3.96747591e-01    0.00000000e+00
104      5.04423295e-05    1.00000000e+00   -2.31877622e-02    1.02318776e+00    1.02318776e+00    0.00000000e+00    1.02318776e+00    1.99106743e-01    0.00000000e+00
105      5.04650868e-05    1.00000000e+00   -4.16320028e-04    1.00041632e+00    1.00041632e+00    0.00000000e+00    1.00041632e+00    3.61535730e-03    0.00000000e+00
106      5.04878440e-05    1.00000000e+00    2.16034584e-02    9.78396542e-01    9.78396542e-01    0.00000000e+00    9.78396542e-01   -1.89701822e-01    0.00000000e+00
107      5.05106012e-05    1.00000000e+00    4.28963848e-02    9.57103615e-01    9.57103615e-01    0.00000000e+00    9.57103615e-01   -3.80820867e-01    0.00000000e+00
108      5.05333585e-05    1.00000000e+00    6.34864518e-02    9.36513548e-01    9.36513548e-01    0.00000000e+00    9.36513548e-01   -5.69718709e-01    0.00000000e+00
109      5.05561157e-05    1.00000000e+00    8.33968602e-02    9.16603140e-01    9.16603140e-01    0.00000000e+00    9.16603140e-01   -7.56373188e-01    0.00000000e+00
110      5.05788729e-05    1.00000000e+00    1.02650045e-01    8.97349955e-01    8.97349955e-01    0.00000000e+00    8.97349955e-01   -9.40763091e-01    0.00000000e+00
111      5.06016302e-05    1.00000000e+00    1.21267700e-01    8.78732300e-01    8.78732300e-01    0.00000000e+00    8.78732300e-01   -1.12286819e+00    0.00000000e+00
112      5.06243874e-05    1.00000000e+00    1.39270804e-01    8.60729196e-01    8.60729196e-01    0.00000000e+00    8.60729196e-01   -1.30266931e+00    0.00000000e+00
113      5.06471446e-05    1.00000000e+00    1.56679643e-01    8.43320357e-01    8.43320357e-01    0.00000000e+00    8.43320357e-01   -1.48014832e+00    0.00000000e+00
114      5.06699018e-05    1.00000000e+00    1.73513832e-01    8.26486168e-01    8.26486168e-01    0.00000000e+00    8.26486168e-01   -1.65528821e+00    0.00000000e+00
115      5.06926591e-05    1.00000000e+00    1.89792341e-01    8.10207659e-01    8.10207659e-01    0.00000000e+00    8.10207659e-01   -1.82807311e+00    0.00000000e+00
116      5.07154163e-05    1.00000000e+00    2.05533511e-01    7.94466489e-01    7.94466489e-01    0.00000000e+00    7.94466489e-01   -1.99848834e+00    0.00000000e+00
117      5.07381735e-05    1.00000000e+00    2.20755080e-01    7.79244920e-01    7.79244920e-01    0.00000000e+00    7.79244920e-01   -2.16652041e+00    0.00000000e+00
