Index       TIME              V(A)              V(B)             V(A,B)            VR(A,B)           VI(A,B)           VM(A,B)          VDB(A,B)           VP(A,B)     
0        0.00000000e+00    1.00000000e+00    6.29424162e-01    3.70575838e-01    3.70575838e-01    0.00000000e+00    3.70575838e-01   -8.62245802e+00    0.00000000e+00
1        1.00000000e-10    1.00006283e+00    6.29428190e-01    3.70634642e-01    3.70634642e-01    0.00000000e+00    3.70634642e-01   -8.62107982e+00    0.00000000e+00
2        3.00000000e-10    1.00018850e+00    6.29436386e-01    3.70752110e-01    3.70752110e-01    0.00000000e+00    3.70752110e-01   -8.61832737e+00    0.00000000e+00
3        7.00000000e-10    1.00043982e+00    6.29452770e-01    3.70987053e-01    3.70987053e-01    0.00000000e+00    3.70987053e-01   -8.61282494e+00    0.00000000e+00
4        1.50000000e-09    1.00094248e+00    6.29485511e-01    3.71456967e-01    3.71456967e-01    0.00000000e+00    3.71456967e-01   -8.60182983e+00    0.00000000e+00
5        3.10000000e-09    1.00194779e+00    6.29550875e-01    3.72396911e-01    3.72396911e-01    0.00000000e+00    3.72396911e-01   -8.57987861e+00    0.00000000e+00
6        6.30000000e-09    1.00395840e+00    6.29681143e-01    3.74277254e-01    3.74277254e-01    0.00000000e+00    3.74277254e-01   -8.53613132e+00    0.00000000e+00
7        1.27000000e-08    1.00797956e+00    6.29939847e-01    3.78039714e-01    3.78039714e-01    0.00000000e+00    3.78039714e-01   -8.44925149e+00    0.00000000e+00
8        2.55000000e-08    1.01602144e+00    6.30450072e-01    3.85571365e-01    3.85571365e-01    0.00000000e+00    3.85571365e-01   -8.27790454e+00    0.00000000e+00
9        5.11000000e-08    1.03210156e+00    6.31442848e-01    4.00658713e-01    4.00658713e-01    0.00000000e+00    4.00658713e-01   -7.94450818e+00    0.00000000e+00
10       1.02300000e-07    1.06423273e+00    6.33325508e-01    4.30907227e-01    4.30907227e-01    0.00000000e+00    4.30907227e-01   -7.31232444e+00    0.00000000e+00
11       2.04700000e-07    1.12826249e+00    6.36732326e-01    4.91530168e-01    4.91530168e-01    0.00000000e+00    4.91530168e-01   -6.16899644e+00    0.00000000e+00
12       3.07100000e-07    1.19176148e+00    6.39735127e-01    5.52026352e-01    5.52026352e-01    0.00000000e+00    5.52026352e-01   -5.16080379e+00    0.00000000e+00
13       4.09500000e-07    1.25446692e+00    6.42404297e-01    6.12062624e-01    6.12062624e-01    0.00000000e+00    6.12062624e-01   -4.26408280e+00    0.00000000e+00
14       5.11900000e-07    1.31611933e+00    6.44793996e-01    6.71325335e-01    6.71325335e-01    0.00000000e+00    6.71325335e-01   -3.46133926e+00    0.00000000e+00
15       6.14300000e-07    1.37646358e+00    6.46943754e-01    7.29519827e-01    7.29519827e-01    0.00000000e+00    7.29519827e-01   -2.73925801e+00    0.00000000e+00
16       7.16700000e-07    1.43524996e+00    6.48884217e-01    7.86365739e-01    7.86365739e-01    0.00000000e+00    7.86365739e-01   -2.08750833e+00    0.00000000e+00
17       8.19100000e-07    1.49223519e+00    6.50639628e-01    8.41595557e-01    8.41595557e-01    0.00000000e+00    8.41595557e-01   -1.49793132e+00    0.00000000e+00
18       9.21500000e-07    1.54718346e+00    6.52229439e-01    8.94954016e-01    8.94954016e-01    0.00000000e+00    8.94954016e-01   -9.63985571e-01    0.00000000e+00
19       1.02390000e-06    1.59986738e+00    6.53669446e-01    9.46197934e-01    9.46197934e-01    0.00000000e+00    9.46197934e-01   -4.80360091e-01    0.00000000e+00
20       1.12630000e-06    1.65006894e+00    6.54972612e-01    9.95096330e-01    9.95096330e-01    0.00000000e+00    9.95096330e-01   -4.26975099e-02    0.00000000e+00
21       1.22870000e-06    1.69758040e+00    6.56149667e-01    1.04143073e+00    1.04143073e+00    0.00000000e+00    1.04143073e+00    3.52607784e-01    0.00000000e+00
22       1.33110000e-06    1.74220514e+00    6.57209551e-01    1.08499559e+00    1.08499559e+00    0.00000000e+00    1.08499559e+00    7.08559451e-01    0.00000000e+00
23       1.43350000e-06    1.78375850e+00    6.58159748e-01    1.12559875e+00    1.12559875e+00    0.00000000e+00    1.12559875e+00    1.02767206e+00    0.00000000e+00
24       1.52566000e-06    1.81838810e+00    6.58926302e-01    1.15946179e+00    1.15946179e+00    0.00000000e+00    1.15946179e+00    1.28512885e+00    0.00000000e+00
25       1.61782000e-06    1.85027433e+00    6.59613043e-01    1.19066129e+00    1.19066129e+00    0.00000000e+00    1.19066129e+00    1.51576469e+00    0.00000000e+00
26       1.70998000e-06    1.87931033e+00    6.60223258e-01    1.21908707e+00    1.21908707e+00    0.00000000e+00    1.21908707e+00    1.72069449e+00    0.00000000e+00
27       1.80214000e-06    1.90539874e+00    6.60759757e-01    1.24463898e+00    1.24463898e+00    0.00000000e+00    1.24463898e+00    1.90086797e+00    0.00000000e+00
28       1.89430000e-06    1.92845212e+00    6.61224935e-01    1.26722718e+00    1.26722718e+00    0.00000000e+00    1.26722718e+00    2.05708961e+00    0.00000000e+00
29       1.98646000e-06    1.94839319e+00    6.61620803e-01    1.28677239e+00    1.28677239e+00    0.00000000e+00    1.28677239e+00    2.19003465e+00    0.00000000e+00
30       2.07862000e-06    1.96515511e+00    6.61949025e-01    1.30320608e+00    1.30320608e+00    0.00000000e+00    1.30320608e+00    2.30026195e+00    0.00000000e+00
31       2.17078000e-06    1.97868168e+00    6.62210949e-01    1.31647073e+00    1.31647073e+00    0.00000000e+00    1.31647073e+00    2.38822414e+00    0.00000000e+00
32       2.26294000e-06    1.98892756e+00    6.62407629e-01    1.32651993e+00    1.32651993e+00    0.00000000e+00    1.32651993e+00    2.45427561e+00    0.00000000e+00
33       2.35510000e-06    1.99585842e+00    6.62539847e-01    1.33331857e+00    1.33331857e+00    0.00000000e+00    1.33331857e+00    2.49867855e+00    0.00000000e+00
34       2.44726000e-06    1.99945100e+00    6.62608121e-01    1.33684288e+00    1.33684288e+00    0.00000000e+00    1.33684288e+00    2.52160736e+00    0.00000000e+00
35       2.53942000e-06    1.99969328e+00    6.62612719e-01    1.33708056e+00    1.33708056e+00    0.00000000e+00    1.33708056e+00    2.52315151e+00    0.00000000e+00
36       2.63158000e-06    1.99658444e+00    6.62553657e-01    1.33403078e+00    1.33403078e+00    0.00000000e+00    1.33403078e+00    2.50331701e+00    0.00000000e+00
37       2.72374000e-06    1.99013490e+00    6.62430706e-01    1.32770419e+00    1.32770419e+00    0.00000000e+00    1.32770419e+00    2.46202652e+00    0.00000000e+00
38       2.81590000e-06    1.98036627e+00    6.62243383e-01    1.31812289e+00    1.31812289e+00    0.00000000e+00    1.31812289e+00    2.39911805e+00    0.00000000e+00
39       2.90806000e-06    1.96731132e+00    6.61990946e-01    1.30532037e+00    1.30532037e+00    0.00000000e+00    1.30532037e+00    2.31434233e+00    0.00000000e+00
40       3.00022000e-06    1.95101379e+00    6.61672381e-01    1.28934141e+00    1.28934141e+00    0.00000000e+00    1.28934141e+00    2.20735863e+00    0.00000000e+00
41       3.09238000e-06    1.93152832e+00    6.61286383e-01    1.27024194e+00    1.27024194e+00    0.00000000e+00    1.27024194e+00    2.07772897e+00    0.00000000e+00
42       3.18454000e-06    1.90892024e+00    6.60831335e-01    1.24808890e+00    1.24808890e+00    0.00000000e+00    1.24808890e+00    1.92491042e+00    0.00000000e+00
43       3.27670000e-06    1.88326531e+00    6.60305281e-01    1.22296003e+00    1.22296003e+00    0.00000000e+00    1.22296003e+00    1.74824527e+00    0.00000000e+00
44       3.36886000e-06    1.85464955e+00    6.59705881e-01    1.19494367e+00    1.19494367e+00    0.00000000e+00    1.19494367e+00    1.54694864e+00    0.00000000e+00
45       3.46102000e-06    1.82316887e+00    6.59030376e-01    1.16413850e+00    1.16413850e+00    0.00000000e+00    1.16413850e+00    1.32009304e+00    0.00000000e+00
46       3.55318000e-06    1.78892882e+00    6.58275520e-01    1.13065329e+00    1.13065329e+00    0.00000000e+00    1.13065329e+00    1.06658905e+00    0.00000000e+00
47       3.64534000e-06    1.75204415e+00    6.57437519e-01    1.09460663e+00    1.09460663e+00    0.00000000e+00    1.09460663e+00    7.85161490e-01    0.00000000e+00
48       3.73750000e-06    1.71263852e+00    6.56511932e-01    1.05612659e+00    1.05612659e+00    0.00000000e+00    1.05612659e+00    4.74319517e-01    0.00000000e+00
49       3.82966000e-06    1.67084402e+00    6.55493567e-01    1.01535045e+00    1.01535045e+00    0.00000000e+00    1.01535045e+00    1.32319320e-01    0.00000000e+00
50       3.92182000e-06    1.62680075e+00    6.54376341e-01    9.72424408e-01    9.72424408e-01    0.00000000e+00    9.72424408e-01   -2.42882981e-01    0.00000000e+00
51       4.01398000e-06    1.58065635e+00    6.53153096e-01    9.27503253e-01    9.27503253e-01    0.00000000e+00    9.27503253e-01   -6.53691166e-01    0.00000000e+00
52       4.10614000e-06    1.53256550e+00    6.51815376e-01    8.80750128e-01    8.80750128e-01    0.00000000e+00    8.80750128e-01   -1.10294570e+00    0.00000000e+00
53       4.19830000e-06    1.48268942e+00    6.50353128e-01    8.32336290e-01    8.32336290e-01    0.00000000e+00    8.32336290e-01   -1.59402339e+00    0.00000000e+00
54       4.29046000e-06    1.43119529e+00    6.48754315e-01    7.82440972e-01    7.82440972e-01    0.00000000e+00    7.82440972e-01   -2.13096833e+00    0.00000000e+00
55       4.38262000e-06    1.37825572e+00    6.47004393e-01    7.31251331e-01    7.31251331e-01    0.00000000e+00    7.31251331e-01   -2.71866660e+00    0.00000000e+00
56       4.47478000e-06    1.32404819e+00    6.45085609e-01    6.78962584e-01    6.78962584e-01    0.00000000e+00    6.78962584e-01   -3.36308316e+00    0.00000000e+00
57       4.56694000e-06    1.26875440e+00    6.42976027e-01    6.25778376e-01    6.25778376e-01    0.00000000e+00    6.25778376e-01   -4.07158897e+00    0.00000000e+00
58       4.65910000e-06    1.21255971e+00    6.40648161e-01    5.71911547e-01    5.71911547e-01    0.00000000e+00    5.71911547e-01   -4.85342269e+00    0.00000000e+00
59       4.75126000e-06    1.15565248e+00    6.38066988e-01    5.17585493e-01    5.17585493e-01    0.00000000e+00    5.17585493e-01   -5.72035809e+00    0.00000000e+00
60       4.84342000e-06    1.09822348e+00    6.35187013e-01    4.63036472e-01    4.63036472e-01    0.00000000e+00    4.63036472e-01   -6.68769600e+00    0.00000000e+00
61       4.93558000e-06    1.04046523e+00    6.31947757e-01    4.08517472e-01    4.08517472e-01    0.00000000e+00    4.08517472e-01   -7.77578729e+00    0.00000000e+00
62       5.02774000e-06    9.82571326e-01    6.28266584e-01    3.54304743e-01    3.54304743e-01    0.00000000e+00    3.54304743e-01   -9.01246069e+00    0.00000000e+00
63       5.11990000e-06    9.24735848e-01    6.24026792e-01    3.00709056e-01    3.00709056e-01    0.00000000e+00    3.00709056e-01   -1.04370699e+01    0.00000000e+00
64       5.21206000e-06    8.67152666e-01    6.19056774e-01    2.48095892e-01    2.48095892e-01    0.00000000e+00    2.48095892e-01   -1.21076085e+01    0.00000000e+00
65       5.30422000e-06    8.10014808e-01    6.13073929e-01    1.96940880e-01    1.96940880e-01    0.00000000e+00    1.96940880e-01   -1.41132825e+01    0.00000000e+00
66       5.39638000e-06    7.53513809e-01    6.05659328e-01    1.47854481e-01    1.47854481e-01    0.00000000e+00    1.47854481e-01   -1.66033102e+01    0.00000000e+00
67       5.47932400e-06    7.03364018e-01    5.97113169e-01    1.06250848e-01    1.06250848e-01    0.00000000e+00    1.06250848e-01   -1.94733519e+01    0.00000000e+00
68       5.54820527e-06    6.62323293e-01    5.87903463e-01    7.44198305e-02    7.44198305e-02    0.00000000e+00    7.44198305e-02   -2.25662265e+01    0.00000000e+00
69       5.60207729e-06    6.30662219e-01    5.78641824e-01    5.20203950e-02    5.20203950e-02    0.00000000e+00    5.20203950e-02   -2.56765271e+01    0.00000000e+00
70       5.64456048e-06    6.05991078e-01    5.69483133e-01    3.65079446e-02    3.65079446e-02    0.00000000e+00    3.65079446e-02   -2.87522523e+01    0.00000000e+00
71       5.67908367e-06    5.86148481e-01    5.60426197e-01    2.57222839e-02    2.57222839e-02    0.00000000e+00    2.57222839e-02   -3.17938094e+01    0.00000000e+00
72       5.70838580e-06    5.69459147e-01    5.51349752e-01    1.81093953e-02    1.81093953e-02    0.00000000e+00    1.81093953e-02   -3.48419210e+01    0.00000000e+00
73       5.73446937e-06    5.54725581e-01    5.42073866e-01    1.26517151e-02    1.26517151e-02    0.00000000e+00    1.26517151e-02   -3.79570119e+01    0.00000000e+00
74       5.75794458e-06    5.41567513e-01    5.32746319e-01    8.82119391e-03    8.82119391e-03    0.00000000e+00    8.82119391e-03   -4.10894526e+01    0.00000000e+00
75       5.78141979e-06    5.28509180e-01    5.22559685e-01    5.94949483e-03    5.94949483e-03    0.00000000e+00    5.94949483e-03   -4.45103982e+01    0.00000000e+00
76       5.80489500e-06    5.15553422e-01    5.11651200e-01    3.90222201e-03    3.90222201e-03    0.00000000e+00    3.90222201e-03   -4.81737605e+01    0.00000000e+00
77       5.82837021e-06    5.02703058e-01    5.00197056e-01    2.50600258e-03    2.50600258e-03    0.00000000e+00    2.50600258e-03   -5.20203697e+01    0.00000000e+00
78       5.85184542e-06    4.89960884e-01    4.88374306e-01    1.58657893e-03    1.58657893e-03    0.00000000e+00    1.58657893e-03   -5.59907664e+01    0.00000000e+00
79       5.87532063e-06    4.77329673e-01    4.76333654e-01    9.96018759e-04    9.96018759e-04    0.00000000e+00    9.96018759e-04   -6.00346496e+01    0.00000000e+00
80       5.89879584e-06    4.64812171e-01    4.64189354e-01    6.22817061e-04    6.22817061e-04    0.00000000e+00    6.22817061e-04   -6.41127900e+01    0.00000000e+00
81       5.94574627e-06    4.40129165e-01    4.39885791e-01    2.43374421e-04    2.43374421e-04    0.00000000e+00    2.43374421e-04   -7.22745014e+01    0.00000000e+00
82       5.99269669e-06    4.15933346e-01    4.15837307e-01    9.60392182e-05    9.60392182e-05    0.00000000e+00    9.60392182e-05   -8.03510277e+01    0.00000000e+00
83       6.03964711e-06    3.92245767e-01    3.92207252e-01    3.85154910e-05    3.85154910e-05    0.00000000e+00    3.85154910e-05   -8.82872912e+01    0.00000000e+00
84       6.08659753e-06    3.69087042e-01    3.69071297e-01    1.57447298e-05    1.57447298e-05    0.00000000e+00    1.57447298e-05   -9.60572958e+01    0.00000000e+00
85       6.12885291e-06    3.48713025e-01    3.48705860e-01    7.16463415e-06    7.16463415e-06    0.00000000e+00    7.16463415e-06   -1.02896120e+02    0.00000000e+00
86       6.17110829e-06    3.28798068e-01    3.28794750e-01    3.31804028e-06    3.31804028e-06    0.00000000e+00    3.31804028e-06   -1.09582367e+02    0.00000000e+00
87       6.20913813e-06    3.11278714e-01    3.11277028e-01    1.68572087e-06    1.68572087e-06    0.00000000e+00    1.68572087e-06   -1.15464287e+02    0.00000000e+00
88       6.24716797e-06    2.94152575e-01    2.94151706e-01    8.69551464e-07    8.69551464e-07    0.00000000e+00    8.69551464e-07   -1.21214094e+02    0.00000000e+00
89       6.28139483e-06    2.79083337e-01    2.79082851e-01    4.85712294e-07    4.85712294e-07    0.00000000e+00    4.85712294e-07   -1.26272418e+02    0.00000000e+00
90       6.31562168e-06    2.64347496e-01    2.64347221e-01    2.74860145e-07    2.74860145e-07    0.00000000e+00    2.74860145e-07   -1.31217765e+02    0.00000000e+00
91       6.34984854e-06    2.49951867e-01    2.49951709e-01    1.57633965e-07    1.57633965e-07    0.00000000e+00    1.57633965e-07   -1.36047004e+02    0.00000000e+00
92       6.38065271e-06    2.37292188e-01    2.37292091e-01    9.67045887e-08    9.67045887e-08    0.00000000e+00    9.67045887e-08   -1.40291058e+02    0.00000000e+00
93       6.41145688e-06    2.24918218e-01    2.24918158e-01    6.00081635e-08    6.00081635e-08    0.00000000e+00    6.00081635e-08   -1.44435793e+02    0.00000000e+00
94       6.44226106e-06    2.12834591e-01    2.12834553e-01    3.76786680e-08    3.76786680e-08    0.00000000e+00    3.76786680e-08   -1.48478089e+02    0.00000000e+00
95       6.46998481e-06    2.02211315e-01    2.02211290e-01    2.50452270e-08    2.50452270e-08    0.00000000e+00    2.50452270e-08   -1.52025501e+02    0.00000000e+00
96       6.49770856e-06    1.91830109e-01    1.91830092e-01    1.68184995e-08    1.68184995e-08    0.00000000e+00    1.68184995e-08   -1.55484255e+02    0.00000000e+00
97       6.52543232e-06    1.81694122e-01    1.81694110e-01    1.14143556e-08    1.14143556e-08    0.00000000e+00    1.14143556e-08   -1.58850972e+02    0.00000000e+00
98       6.55038370e-06    1.72783940e-01    1.72783932e-01    8.12914733e-09    8.12914733e-09    0.00000000e+00    8.12914733e-09   -1.61799100e+02    0.00000000e+00
99       6.57533508e-06    1.64077069e-01    1.64077063e-01    5.84340878e-09    5.84340878e-09    0.00000000e+00    5.84340878e-09   -1.64666675e+02    0.00000000e+00
100      6.60028646e-06    1.55575647e-01    1.55575643e-01    4.24111118e-09    4.24111118e-09    0.00000000e+00    4.24111118e-09   -1.67450407e+02    0.00000000e+00
101      6.62274270e-06    1.48101756e-01    1.48101753e-01    3.20583424e-09    3.20583424e-09    0.00000000e+00    3.20583424e-09   -1.69881179e+02    0.00000000e+00
102      6.64519894e-06    1.40797460e-01    1.40797457e-01    2.44376436e-09    2.44376436e-09    0.00000000e+00    2.44376436e-09   -1.72238813e+02    0.00000000e+00
103      6.66765518e-06    1.33664213e-01    1.33664211e-01    1.87913038e-09    1.87913038e-09    0.00000000e+00    1.87913038e-09   -1.74520862e+02    0.00000000e+00
104      6.69011142e-06    1.26703437e-01    1.26703435e-01    1.45795892e-09    1.45795892e-09    0.00000000e+00    1.45795892e-09   -1.76725094e+02    0.00000000e+00
105      6.71032204e-06    1.20587345e-01    1.20587344e-01    1.16939380e-09    1.16939380e-09    0.00000000e+00    1.16939380e-09   -1.78640784e+02    0.00000000e+00
106      6.73053265e-06    1.14613064e-01    1.14613063e-01    9.45041989e-10    9.45041989e-10    0.00000000e+00    9.45041989e-10   -1.80490978e+02    0.00000000e+00
107      6.75074327e-06    1.08781555e-01    1.08781554e-01    7.69564537e-10    7.69564537e-10    0.00000000e+00    7.69564537e-10   -1.82275099e+02    0.00000000e+00
108      6.76893282e-06    1.03656046e-01    1.03656045e-01    6.43854747e-10    6.43854747e-10    0.00000000e+00    6.43854747e-10   -1.83824242e+02    0.00000000e+00
109      6.78712238e-06    9.86476141e-02    9.86476136e-02    5.41985165e-10    5.41985165e-10    0.00000000e+00    5.41985165e-10   -1.85320252e+02    0.00000000e+00
110      6.80531193e-06    9.37569143e-02    9.37569139e-02    4.58989208e-10    4.58989208e-10    0.00000000e+00    4.58989208e-10   -1.86763951e+02    0.00000000e+00
111      6.82350149e-06    8.89845852e-02    8.89845848e-02    3.90993030e-10    3.90993030e-10    0.00000000e+00    3.90993030e-10   -1.88156620e+02    0.00000000e+00
112      6.83987209e-06    8.47912113e-02    8.47912110e-02    3.40102141e-10    3.40102141e-10    0.00000000e+00    3.40102141e-10   -1.89367813e+02    0.00000000e+00
113      6.85624269e-06    8.06946664e-02    8.06946661e-02    2.97142921e-10    2.97142921e-10    0.00000000e+00    2.97142921e-10   -1.90540692e+02    0.00000000e+00
114      6.87261329e-06    7.66953838e-02    7.66953836e-02    2.60701571e-10    2.60701571e-10    0.00000000e+00    2.60701571e-10   -1.91677127e+02    0.00000000e+00
115      6.88898389e-06    7.27937868e-02    7.27937866e-02    2.29634686e-10    2.29634686e-10    0.00000000e+00    2.29634686e-10   -1.92779250e+02    0.00000000e+00
116      6.90371743e-06    6.93662119e-02    6.93662117e-02    2.05499701e-10    2.05499701e-10    0.00000000e+00    2.05499701e-10   -1.93743776e+02    0.00000000e+00
117      6.91845097e-06    6.60183905e-02    6.60183904e-02    1.84409668e-10    1.84409668e-10    0.00000000e+00    1.84409668e-10   -1.94684326e+02    0.00000000e+00
