Index       TIME              V(1)              I(V1)      
0        2.00000000e-04   -4.89859482e-16    1.32252760e-16
1        2.00000100e-04    6.28318531e-06   -6.28318531e-07
2        2.00000300e-04    1.88495559e-05   -1.88495559e-06
3        2.00000700e-04    4.39822971e-05   -4.39822971e-06
4        2.00001500e-04    9.42477795e-05   -9.42477795e-06
5        2.00003100e-04    1.94778743e-04   -1.94778743e-05
6        2.00006300e-04    3.95840664e-04   -3.95840664e-05
7        2.00012700e-04    7.97964449e-04   -7.97964449e-05
8        2.00025500e-04    1.60221157e-03   -1.60221157e-04
9        2.00051100e-04    3.21070218e-03   -3.21070218e-04
10       2.00102300e-04    6.42765431e-03   -6.42765431e-04
11       2.00204700e-04    1.28613257e-02   -1.28613257e-03
12       2.00409500e-04    2.57268050e-02   -2.57268050e-03
13       2.00819100e-04    5.14428543e-02   -5.14428543e-03
14       2.01228700e-04    7.71248330e-02   -7.71248330e-03
15       2.01638300e-04    1.02755732e-01   -1.02755732e-02
16       2.02047900e-04    1.28318575e-01   -1.28318575e-02
17       2.02457500e-04    1.53796433e-01   -1.53796433e-02
18       2.02867100e-04    1.79172431e-01   -1.79172431e-02
19       2.03276700e-04    2.04429764e-01   -2.04429764e-02
20       2.03686300e-04    2.29551702e-01   -2.29551702e-02
21       2.04095900e-04    2.54521607e-01   -2.54521607e-02
22       2.04505500e-04    2.79322943e-01   -2.79322943e-02
23       2.04915100e-04    3.03939283e-01   -3.03939283e-02
24       2.05324700e-04    3.28354323e-01   -3.28354323e-02
25       2.05734300e-04    3.52551894e-01   -3.52551894e-02
26       2.06143900e-04    3.76515969e-01   -3.76515969e-02
27       2.06553500e-04    4.00230677e-01   -4.00230677e-02
28       2.06963100e-04    4.23680312e-01   -4.23680312e-02
29       2.07372700e-04    4.46849342e-01   -4.46849342e-02
30       2.07782300e-04    4.69722424e-01   -4.69722424e-02
31       2.08191900e-04    4.92284408e-01   -4.92284408e-02
32       2.08601500e-04    5.14520351e-01   -5.14520351e-02
33       2.09011100e-04    5.36415527e-01   -5.36415527e-02
34       2.09420700e-04    5.57955434e-01   -5.57955434e-02
35       2.09830300e-04    5.79125807e-01   -5.79125807e-02
36       2.10239900e-04    5.99912623e-01   -5.99912623e-02
37       2.10649500e-04    6.20302117e-01   -6.20302117e-02
38       2.11059100e-04    6.40280783e-01   -6.40280783e-02
39       2.11468700e-04    6.59835391e-01   -6.59835391e-02
40       2.11878300e-04    6.78952989e-01   -6.78952989e-02
41       2.12287900e-04    6.97620916e-01   -6.97620916e-02
42       2.12697500e-04    7.15826807e-01   -7.15826807e-02
43       2.13107100e-04    7.33558605e-01   -7.33558605e-02
44       2.13516700e-04    7.50804566e-01   -7.50804566e-02
45       2.13926300e-04    7.67553268e-01   -7.67553268e-02
46       2.14335900e-04    7.83793619e-01   -7.83793619e-02
47       2.14745500e-04    7.99514862e-01   -7.99514862e-02
48       2.15155100e-04    8.14706585e-01   -8.14706585e-02
49       2.15564700e-04    8.29358727e-01   -8.29358727e-02
50       2.15974300e-04    8.43461583e-01   -8.43461583e-02
51       2.16383900e-04    8.57005814e-01   -8.57005814e-02
52       2.16793500e-04    8.69982449e-01   -8.69982449e-02
53       2.17203100e-04    8.82382893e-01   -8.82382893e-02
54       2.17612700e-04    8.94198933e-01   -8.94198933e-02
55       2.18022300e-04    9.05422745e-01   -9.05422745e-02
56       2.18431900e-04    9.16046894e-01   -9.16046894e-02
57       2.18841500e-04    9.26064343e-01   -9.26064343e-02
58       2.19251100e-04    9.35468459e-01   -9.35468459e-02
59       2.19660700e-04    9.44253013e-01   -9.44253013e-02
60       2.20070300e-04    9.52412187e-01   -9.52412187e-02
61       2.20479900e-04    9.59940576e-01   -9.59940576e-02
62       2.20889500e-04    9.66833196e-01   -9.66833196e-02
63       2.21299100e-04    9.73085481e-01   -9.73085481e-02
64       2.21708700e-04    9.78693290e-01   -9.78693290e-02
65       2.22118300e-04    9.83652909e-01   -9.83652909e-02
66       2.22527900e-04    9.87961054e-01   -9.87961054e-02
67       2.22937500e-04    9.91614870e-01   -9.91614870e-02
68       2.23347100e-04    9.94611939e-01   -9.94611939e-02
69       2.23756700e-04    9.96950275e-01   -9.96950275e-02
70       2.24166300e-04    9.98628329e-01   -9.98628329e-02
71       2.24575900e-04    9.99644990e-01   -9.99644990e-02
72       2.24985500e-04    9.99999585e-01   -9.99999585e-02
73       2.25395100e-04    9.99691879e-01   -9.99691879e-02
74       2.25804700e-04    9.98722075e-01   -9.98722075e-02
75       2.26214300e-04    9.97090817e-01   -9.97090817e-02
76       2.26623900e-04    9.94799184e-01   -9.94799184e-02
77       2.27033500e-04    9.91848694e-01   -9.91848694e-02
78       2.27443100e-04    9.88241301e-01   -9.88241301e-02
79       2.27852700e-04    9.83979395e-01   -9.83979395e-02
80       2.28262300e-04    9.79065798e-01   -9.79065798e-02
81       2.28671900e-04    9.73503764e-01   -9.73503764e-02
82       2.29081500e-04    9.67296977e-01   -9.67296977e-02
83       2.29491100e-04    9.60449548e-01   -9.60449548e-02
84       2.29900700e-04    9.52966012e-01   -9.52966012e-02
85       2.30310300e-04    9.44851326e-01   -9.44851326e-02
86       2.30719900e-04    9.36110863e-01   -9.36110863e-02
87       2.31129500e-04    9.26750412e-01   -9.26750412e-02
88       2.31539100e-04    9.16776174e-01   -9.16776174e-02
89       2.31948700e-04    9.06194753e-01   -9.06194753e-02
90       2.32358300e-04    8.95013158e-01   -8.95013158e-02
91       2.32767900e-04    8.83238795e-01   -8.83238795e-02
92       2.33177500e-04    8.70879462e-01   -8.70879462e-02
93       2.33587100e-04    8.57943344e-01   -8.57943344e-02
94       2.33996700e-04    8.44439008e-01   -8.44439008e-02
95       2.34406300e-04    8.30375400e-01   -8.30375400e-02
96       2.34815900e-04    8.15761833e-01   -8.15761833e-02
97       2.35225500e-04    8.00607986e-01   -8.00607986e-02
98       2.35635100e-04    7.84923895e-01   -7.84923895e-02
99       2.36044700e-04    7.68719947e-01   -7.68719947e-02
100      2.36454300e-04    7.52006876e-01   -7.52006876e-02
101      2.36863900e-04    7.34795749e-01   -7.34795749e-02
102      2.37273500e-04    7.17097966e-01   -7.17097966e-02
103      2.37683100e-04    6.98925248e-01   -6.98925248e-02
104      2.38092700e-04    6.80289631e-01   -6.80289631e-02
105      2.38502300e-04    6.61203457e-01   -6.61203457e-02
106      2.38911900e-04    6.41679368e-01   -6.41679368e-02
107      2.39321500e-04    6.21730293e-01   -6.21730293e-02
108      2.39731100e-04    6.01369445e-01   -6.01369445e-02
109      2.40140700e-04    5.80610309e-01   -5.80610309e-02
110      2.40550300e-04    5.59466635e-01   -5.59466635e-02
111      2.40959900e-04    5.37952425e-01   -5.37952425e-02
112      2.41369500e-04    5.16081928e-01   -5.16081928e-02
113      2.41779100e-04    4.93869629e-01   -4.93869629e-02
114      2.42188700e-04    4.71330240e-01   -4.71330240e-02
115      2.42598300e-04    4.48478688e-01   -4.48478688e-02
116      2.43007900e-04    4.25330109e-01   -4.25330109e-02
117      2.43417500e-04    4.01899832e-01   -4.01899832e-02
118      2.43827100e-04    3.78203377e-01   -3.78203377e-02
119      2.44236700e-04    3.54256437e-01   -3.54256437e-02
120      2.44646300e-04    3.30074872e-01   -3.30074872e-02
121      2.45055900e-04    3.05674699e-01   -3.05674699e-02
122      2.45465500e-04    2.81072077e-01   -2.81072077e-02
123      2.45875100e-04    2.56283300e-01   -2.56283300e-02
124      2.46284700e-04    2.31324786e-01   -2.31324786e-02
125      2.46694300e-04    2.06213066e-01   -2.06213066e-02
126      2.47103900e-04    1.80964771e-01   -1.80964771e-02
127      2.47513500e-04    1.55596622e-01   -1.55596622e-02
128      2.47923100e-04    1.30125421e-01   -1.30125421e-02
129      2.48332700e-04    1.04568039e-01   -1.04568039e-02
130      2.48742300e-04    7.89414004e-02   -7.89414004e-03
131      2.49151900e-04    5.32624791e-02   -5.32624791e-03
132      2.49561500e-04    2.75482819e-02   -2.75482819e-03
133      2.49971100e-04    1.81583956e-03   -1.81583956e-04
134      2.50380700e-04   -2.39178055e-02    2.39178055e-03
135      2.50790300e-04   -4.96356097e-02    4.96356097e-03
136      2.51199900e-04   -7.53205402e-02    7.53205402e-03
137      2.51609500e-04   -1.00955586e-01    1.00955586e-02
138      2.52019100e-04   -1.26523768e-01    1.26523768e-02
139      2.52428700e-04   -1.52008154e-01    1.52008154e-02
140      2.52838300e-04   -1.77391865e-01    1.77391865e-02
141      2.53247900e-04   -2.02658088e-01    2.02658088e-02
142      2.53657500e-04   -2.27790091e-01    2.27790091e-02
143      2.54067100e-04   -2.52771228e-01    2.52771228e-02
144      2.54476700e-04   -2.77584955e-01    2.77584955e-02
145      2.54886300e-04   -3.02214836e-01    3.02214836e-02
146      2.55295900e-04   -3.26644561e-01    3.26644561e-02
147      2.55705500e-04   -3.50857948e-01    3.50857948e-02
148      2.56115100e-04   -3.74838961e-01    3.74838961e-02
149      2.56524700e-04   -3.98571718e-01    3.98571718e-02
150      2.56934300e-04   -4.22040501e-01    4.22040501e-02
151      2.57343900e-04   -4.45229765e-01    4.45229765e-02
152      2.57753500e-04   -4.68124153e-01    4.68124153e-02
153      2.58163100e-04   -4.90708502e-01    4.90708502e-02
154      2.58572700e-04   -5.12967854e-01    5.12967854e-02
155      2.58982300e-04   -5.34887467e-01    5.34887467e-02
156      2.59391900e-04   -5.56452823e-01    5.56452823e-02
157      2.59801500e-04   -5.77649639e-01    5.77649639e-02
158      2.60211100e-04   -5.98463877e-01    5.98463877e-02
159      2.60620700e-04   -6.18881752e-01    6.18881752e-02
160      2.61030300e-04   -6.38889741e-01    6.38889741e-02
161      2.61439900e-04   -6.58474592e-01    6.58474592e-02
162      2.61849500e-04   -6.77623334e-01    6.77623334e-02
163      2.62259100e-04   -6.96323286e-01    6.96323286e-02
164      2.62668700e-04   -7.14562061e-01    7.14562061e-02
165      2.63078300e-04   -7.32327582e-01    7.32327582e-02
166      2.63487900e-04   -7.49608080e-01    7.49608080e-02
167      2.63897500e-04   -7.66392113e-01    7.66392113e-02
168      2.64307100e-04   -7.82668562e-01    7.82668562e-02
169      2.64716700e-04   -7.98426649e-01    7.98426649e-02
170      2.65126300e-04   -8.13655937e-01    8.13655937e-02
171      2.65535900e-04   -8.28346340e-01    8.28346340e-02
172      2.65945500e-04   -8.42488128e-01    8.42488128e-02
173      2.66355100e-04   -8.56071934e-01    8.56071934e-02
174      2.66764700e-04   -8.69088763e-01    8.69088763e-02
175      2.67174300e-04   -8.81529994e-01    8.81529994e-02
176      2.67583900e-04   -8.93387386e-01    8.93387386e-02
177      2.67993500e-04   -9.04653086e-01    9.04653086e-02
178      2.68403100e-04   -9.15319633e-01    9.15319633e-02
179      2.68812700e-04   -9.25379963e-01    9.25379963e-02
180      2.69222300e-04   -9.34827412e-01    9.34827412e-02
181      2.69631900e-04   -9.43655724e-01    9.43655724e-02
182      2.70041500e-04   -9.51859051e-01    9.51859051e-02
183      2.70451100e-04   -9.59431960e-01    9.59431960e-02
184      2.70860700e-04   -9.66369437e-01    9.66369437e-02
185      2.71270300e-04   -9.72666886e-01    9.72666886e-02
186      2.71679900e-04   -9.78320136e-01    9.78320136e-02
187      2.72089500e-04   -9.83325443e-01    9.83325443e-02
188      2.72499100e-04   -9.87679493e-01    9.87679493e-02
189      2.72908700e-04   -9.91379401e-01    9.91379401e-02
190      2.73318300e-04   -9.94422717e-01    9.94422717e-02
191      2.73727900e-04   -9.96807426e-01    9.96807426e-02
192      2.74137500e-04   -9.98531947e-01    9.98531947e-02
193      2.74547100e-04   -9.99595140e-01    9.99595140e-02
194      2.74956700e-04   -9.99996299e-01    9.99996299e-02
195      2.75366300e-04   -9.99735159e-01    9.99735159e-02
196      2.75775900e-04   -9.98811894e-01    9.98811894e-02
197      2.76185500e-04   -9.97227114e-01    9.97227114e-02
198      2.76595100e-04   -9.94981869e-01    9.94981869e-02
199      2.77004700e-04   -9.92077646e-01    9.92077646e-02
200      2.77414300e-04   -9.88516369e-01    9.88516369e-02
201      2.77823900e-04   -9.84300396e-01    9.84300396e-02
202      2.78233500e-04   -9.79432519e-01    9.79432519e-02
203      2.78643100e-04   -9.73915963e-01    9.73915963e-02
204      2.79052700e-04   -9.67754381e-01    9.67754381e-02
205      2.79462300e-04   -9.60951854e-01    9.60951854e-02
206      2.79871900e-04   -9.53512887e-01    9.53512887e-02
207      2.80281500e-04   -9.45442408e-01    9.45442408e-02
208      2.80691100e-04   -9.36745760e-01    9.36745760e-02
209      2.81100700e-04   -9.27428705e-01    9.27428705e-02
210      2.81510300e-04   -9.17497412e-01    9.17497412e-02
211      2.81919900e-04   -9.06958459e-01    9.06958459e-02
212      2.82329500e-04   -8.95818827e-01    8.95818827e-02
213      2.82739100e-04   -8.84085893e-01    8.84085893e-02
214      2.83148700e-04   -8.71767427e-01    8.71767427e-02
215      2.83558300e-04   -8.58871588e-01    8.58871588e-02
216      2.83967900e-04   -8.45406918e-01    8.45406918e-02
217      2.84377500e-04   -8.31382333e-01    8.31382333e-02
218      2.84787100e-04   -8.16807123e-01    8.16807123e-02
219      2.85196700e-04   -8.01690940e-01    8.01690940e-02
220      2.85606300e-04   -7.86043797e-01    7.86043797e-02
221      2.86015900e-04   -7.69876055e-01    7.69876055e-02
222      2.86425500e-04   -7.53198423e-01    7.53198423e-02
223      2.86835100e-04   -7.36021947e-01    7.36021947e-02
224      2.87244700e-04   -7.18358003e-01    7.18358003e-02
225      2.87654300e-04   -7.00218289e-01    7.00218289e-02
226      2.88063900e-04   -6.81614820e-01    6.81614820e-02
227      2.88473500e-04   -6.62559916e-01    6.62559916e-02
228      2.88883100e-04   -6.43066198e-01    6.43066198e-02
229      2.89292700e-04   -6.23146576e-01    6.23146576e-02
230      2.89702300e-04   -6.02814244e-01    6.02814244e-02
231      2.90111900e-04   -5.82082666e-01    5.82082666e-02
232      2.90521500e-04   -5.60965575e-01    5.60965575e-02
233      2.90931100e-04   -5.39476955e-01    5.39476955e-02
234      2.91340700e-04   -5.17631039e-01    5.17631039e-02
235      2.91750300e-04   -4.95442295e-01    4.95442295e-02
236      2.92159900e-04   -4.72925419e-01    4.72925419e-02
237      2.92569500e-04   -4.50095324e-01    4.50095324e-02
238      2.92979100e-04   -4.26967130e-01    4.26967130e-02
239      2.93388700e-04   -4.03556155e-01    4.03556155e-02
240      2.93798300e-04   -3.79877905e-01    3.79877905e-02
241      2.94207900e-04   -3.55948060e-01    3.55948060e-02
242      2.94617500e-04   -3.31782471e-01    3.31782471e-02
243      2.95027100e-04   -3.07397142e-01    3.07397142e-02
244      2.95436700e-04   -2.82808223e-01    2.82808223e-02
245      2.95846300e-04   -2.58032000e-01    2.58032000e-02
246      2.96255900e-04   -2.33084883e-01    2.33084883e-02
247      2.96665500e-04   -2.07983392e-01    2.07983392e-02
248      2.97075100e-04   -1.82744154e-01    1.82744154e-02
249      2.97484700e-04   -1.57383884e-01    1.57383884e-02
250      2.97894300e-04   -1.31919379e-01    1.31919379e-02
251      2.98303900e-04   -1.06367503e-01    1.06367503e-02
252      2.98713500e-04   -8.07451804e-02    8.07451804e-03
253      2.99123100e-04   -5.50693797e-02    5.50693797e-03
254      2.99532700e-04   -2.93571065e-02    2.93571065e-03
255      2.99942300e-04   -3.62538998e-03    3.62538998e-04
256      3.00000000e-04    2.81792562e-15   -2.81792562e-16
End of Xyce(TM) Simulation
