Index       TIME              V(1)              VR(1)             VI(1)             VM(1)             VP(1)            VDB(1)             I(V1)            IR(V1)            II(V1)            IM(V1)            IP(V1)            IDB(V1)            I(R1)            IR(R1)            II(R1)            IM(R1)            IP(R1)            IDB(R1)     
0        0.00000000e+00    4.41112436e-01    4.41112436e-01    0.00000000e+00    4.41112436e-01    0.00000000e+00   -7.10901397e+00   -8.82272113e-04   -8.82272113e-04    0.00000000e+00    8.82272113e-04    1.80000000e+02   -6.10879490e+01    8.82224872e-04    8.82224872e-04    0.00000000e+00    8.82224872e-04    0.00000000e+00   -6.10884141e+01
1        9.90099010e-07    5.36798678e-01    5.36798678e-01    0.00000000e+00    5.36798678e-01    0.00000000e+00   -5.40377125e+00   -1.07371320e-03   -1.07371320e-03    0.00000000e+00    1.07371320e-03    1.80000000e+02   -5.93822342e+01    1.07359736e-03    1.07359736e-03    0.00000000e+00    1.07359736e-03    0.00000000e+00   -5.93831713e+01
2        1.98019802e-06    6.29564870e-01    6.29564870e-01    0.00000000e+00    6.29564870e-01    0.00000000e+00   -4.01919028e+00   -1.25920975e-03   -1.25920975e-03    0.00000000e+00    1.25920975e-03    1.80000000e+02   -5.79980384e+01    1.25912974e-03    1.25912974e-03    0.00000000e+00    1.25912974e-03    0.00000000e+00   -5.79985904e+01
3        2.97029703e-06    7.23058361e-01    7.23058361e-01    0.00000000e+00    7.23058361e-01    0.00000000e+00   -2.81653295e+00   -1.44622221e-03   -1.44622221e-03    0.00000000e+00    1.44622221e-03    1.80000000e+02   -5.67952995e+01    1.44611672e-03    1.44611672e-03    0.00000000e+00    1.44611672e-03    0.00000000e+00   -5.67959330e+01
4        3.96039604e-06    8.16824984e-01    8.16824984e-01    0.00000000e+00    8.16824984e-01    0.00000000e+00   -1.75741974e+00   -1.63373552e-03   -1.63373552e-03    0.00000000e+00    1.63373552e-03    1.80000000e+02   -5.57363650e+01    1.63364997e-03    1.63364997e-03    0.00000000e+00    1.63364997e-03    0.00000000e+00   -5.57368198e+01
5        4.95049505e-06    9.11354770e-01    9.11354770e-01    0.00000000e+00    9.11354770e-01    0.00000000e+00   -8.06250585e-01   -1.82281422e-03   -1.82281422e-03    0.00000000e+00    1.82281422e-03    1.80000000e+02   -5.47851518e+01    1.82270954e-03    1.82270954e-03    0.00000000e+00    1.82270954e-03    0.00000000e+00   -5.47856507e+01
6        5.94059406e-06    1.00615842e+00    1.00615842e+00    0.00000000e+00    1.00615842e+00    0.00000000e+00    5.33272821e-02   -2.01240363e-03   -2.01240363e-03    0.00000000e+00    2.01240363e-03    1.80000000e+02   -5.39256982e+01    2.01231683e-03    2.01231683e-03    0.00000000e+00    2.01231683e-03    0.00000000e+00   -5.39260728e+01
7        6.93069307e-06    1.10150427e+00    1.10150427e+00    0.00000000e+00    1.10150427e+00    0.00000000e+00    8.39723731e-01   -2.20311516e-03   -2.20311516e-03    0.00000000e+00    2.20311516e-03    1.80000000e+02   -5.31392560e+01    2.20300855e-03    2.20300855e-03    0.00000000e+00    2.20300855e-03    0.00000000e+00   -5.31396764e+01
8        7.92079208e-06    1.19700569e+00    1.19700569e+00    0.00000000e+00    1.19700569e+00    0.00000000e+00    1.56192432e+00   -2.39409539e-03   -2.39409539e-03    0.00000000e+00    2.39409539e-03    1.80000000e+02   -5.24171710e+01    2.39401139e-03    2.39401139e-03    0.00000000e+00    2.39401139e-03    0.00000000e+00   -5.24174758e+01
9        8.91089109e-06    1.29295707e+00    1.29295707e+00    0.00000000e+00    1.29295707e+00    0.00000000e+00    2.23168209e+00   -2.58603020e-03   -2.58603020e-03    0.00000000e+00    2.58603020e-03    1.80000000e+02   -5.17473282e+01    2.58591414e-03    2.58591414e-03    0.00000000e+00    2.58591414e-03    0.00000000e+00   -5.17477180e+01
10       9.90099010e-06    1.38888097e+00    1.38888097e+00    0.00000000e+00    1.38888097e+00    0.00000000e+00    2.85330057e+00   -2.77781348e-03   -2.77781348e-03    0.00000000e+00    2.77781348e-03    1.80000000e+02   -5.11259384e+01    2.77776195e-03    2.77776195e-03    0.00000000e+00    2.77776195e-03    0.00000000e+00   -5.11260995e+01
11       1.08910891e-05    1.39708570e+00    1.39708570e+00    0.00000000e+00    1.39708570e+00    0.00000000e+00    2.90446095e+00   -2.79416069e-03   -2.79416069e-03    0.00000000e+00    2.79416069e-03    1.80000000e+02   -5.10749724e+01    2.79417140e-03    2.79417140e-03    0.00000000e+00    2.79417140e-03    0.00000000e+00   -5.10749391e+01
12       1.18811881e-05    1.39667193e+00    1.39667193e+00    0.00000000e+00    1.39667193e+00    0.00000000e+00    2.90188812e+00   -2.79334963e-03   -2.79334963e-03    0.00000000e+00    2.79334963e-03    1.80000000e+02   -5.10774940e+01    2.79334387e-03    2.79334387e-03    0.00000000e+00    2.79334387e-03    0.00000000e+00   -5.10775120e+01
13       1.28712871e-05    1.39651052e+00    1.39651052e+00    0.00000000e+00    1.39651052e+00    0.00000000e+00    2.90088423e+00   -2.79301709e-03   -2.79301709e-03    0.00000000e+00    2.79301709e-03    1.80000000e+02   -5.10785281e+01    2.79302104e-03    2.79302104e-03    0.00000000e+00    2.79302104e-03    0.00000000e+00   -5.10785159e+01
14       1.38613861e-05    1.39649462e+00    1.39649462e+00    0.00000000e+00    1.39649462e+00    0.00000000e+00    2.90078535e+00   -2.79299191e-03   -2.79299191e-03    0.00000000e+00    2.79299191e-03    1.80000000e+02   -5.10786065e+01    2.79298924e-03    2.79298924e-03    0.00000000e+00    2.79298924e-03    0.00000000e+00   -5.10786147e+01
15       1.48514851e-05    1.39646996e+00    1.39646996e+00    0.00000000e+00    1.39646996e+00    0.00000000e+00    2.90063195e+00   -2.79293797e-03   -2.79293797e-03    0.00000000e+00    2.79293797e-03    1.80000000e+02   -5.10787742e+01    2.79293992e-03    2.79293992e-03    0.00000000e+00    2.79293992e-03    0.00000000e+00   -5.10787681e+01
16       1.58415842e-05    1.39647756e+00    1.39647756e+00    0.00000000e+00    1.39647756e+00    0.00000000e+00    2.90067924e+00   -2.79295657e-03   -2.79295657e-03    0.00000000e+00    2.79295657e-03    1.80000000e+02   -5.10787164e+01    2.79295512e-03    2.79295512e-03    0.00000000e+00    2.79295512e-03    0.00000000e+00   -5.10787208e+01
17       1.68316832e-05    1.39646890e+00    1.39646890e+00    0.00000000e+00    1.39646890e+00    0.00000000e+00    2.90062535e+00   -2.79293670e-03   -2.79293670e-03    0.00000000e+00    2.79293670e-03    1.80000000e+02   -5.10787782e+01    2.79293779e-03    2.79293779e-03    0.00000000e+00    2.79293779e-03    0.00000000e+00   -5.10787747e+01
18       1.78217822e-05    1.39647465e+00    1.39647465e+00    0.00000000e+00    1.39647465e+00    0.00000000e+00    2.90066113e+00   -2.79295014e-03   -2.79295014e-03    0.00000000e+00    2.79295014e-03    1.80000000e+02   -5.10787363e+01    2.79294930e-03    2.79294930e-03    0.00000000e+00    2.79294930e-03    0.00000000e+00   -5.10787390e+01
19       1.88118812e-05    1.39646998e+00    1.39646998e+00    0.00000000e+00    1.39646998e+00    0.00000000e+00    2.90063210e+00   -2.79293932e-03   -2.79293932e-03    0.00000000e+00    2.79293932e-03    1.80000000e+02   -5.10787700e+01    2.79293997e-03    2.79293997e-03    0.00000000e+00    2.79293997e-03    0.00000000e+00   -5.10787680e+01
20       1.98019802e-05    1.39647352e+00    1.39647352e+00    0.00000000e+00    1.39647352e+00    0.00000000e+00    2.90065409e+00   -2.79294754e-03   -2.79294754e-03    0.00000000e+00    2.79294754e-03    1.80000000e+02   -5.10787444e+01    2.79294704e-03    2.79294704e-03    0.00000000e+00    2.79294704e-03    0.00000000e+00   -5.10787460e+01
21       2.07920792e-05    1.39647078e+00    1.39647078e+00    0.00000000e+00    1.39647078e+00    0.00000000e+00    2.90063705e+00   -2.79294117e-03   -2.79294117e-03    0.00000000e+00    2.79294117e-03    1.80000000e+02   -5.10787642e+01    2.79294156e-03    2.79294156e-03    0.00000000e+00    2.79294156e-03    0.00000000e+00   -5.10787630e+01
22       2.17821782e-05    1.39647286e+00    1.39647286e+00    0.00000000e+00    1.39647286e+00    0.00000000e+00    2.90064999e+00   -2.79294601e-03   -2.79294601e-03    0.00000000e+00    2.79294601e-03    1.80000000e+02   -5.10787492e+01    2.79294572e-03    2.79294572e-03    0.00000000e+00    2.79294572e-03    0.00000000e+00   -5.10787501e+01
23       2.27722772e-05    1.39647131e+00    1.39647131e+00    0.00000000e+00    1.39647131e+00    0.00000000e+00    2.90064034e+00   -2.79294241e-03   -2.79294241e-03    0.00000000e+00    2.79294241e-03    1.80000000e+02   -5.10787604e+01    2.79294262e-03    2.79294262e-03    0.00000000e+00    2.79294262e-03    0.00000000e+00   -5.10787597e+01
24       2.37623762e-05    1.39647242e+00    1.39647242e+00    0.00000000e+00    1.39647242e+00    0.00000000e+00    2.90064725e+00   -2.79294498e-03   -2.79294498e-03    0.00000000e+00    2.79294498e-03    1.80000000e+02   -5.10787524e+01    2.79294484e-03    2.79294484e-03    0.00000000e+00    2.79294484e-03    0.00000000e+00   -5.10787528e+01
25       2.47524752e-05    1.39647168e+00    1.39647168e+00    0.00000000e+00    1.39647168e+00    0.00000000e+00    2.90064263e+00   -2.79294326e-03   -2.79294326e-03    0.00000000e+00    2.79294326e-03    1.80000000e+02   -5.10787577e+01    2.79294335e-03    2.79294335e-03    0.00000000e+00    2.79294335e-03    0.00000000e+00   -5.10787575e+01
26       2.57425743e-05    1.39647211e+00    1.39647211e+00    0.00000000e+00    1.39647211e+00    0.00000000e+00    2.90064530e+00   -2.79294425e-03   -2.79294425e-03    0.00000000e+00    2.79294425e-03    1.80000000e+02   -5.10787547e+01    2.79294421e-03    2.79294421e-03    0.00000000e+00    2.79294421e-03    0.00000000e+00   -5.10787548e+01
27       2.67326733e-05    1.39647195e+00    1.39647195e+00    0.00000000e+00    1.39647195e+00    0.00000000e+00    2.90064432e+00   -2.79294390e-03   -2.79294390e-03    0.00000000e+00    2.79294390e-03    1.80000000e+02   -5.10787558e+01    2.79294390e-03    2.79294390e-03    0.00000000e+00    2.79294390e-03    0.00000000e+00   -5.10787558e+01
28       2.77227723e-05    1.39647187e+00    1.39647187e+00    0.00000000e+00    1.39647187e+00    0.00000000e+00    2.90064382e+00   -2.79294370e-03   -2.79294370e-03    0.00000000e+00    2.79294370e-03    1.80000000e+02   -5.10787564e+01    2.79294373e-03    2.79294373e-03    0.00000000e+00    2.79294373e-03    0.00000000e+00   -5.10787563e+01
29       2.87128713e-05    1.39647216e+00    1.39647216e+00    0.00000000e+00    1.39647216e+00    0.00000000e+00    2.90064564e+00   -2.79294439e-03   -2.79294439e-03    0.00000000e+00    2.79294439e-03    1.80000000e+02   -5.10787542e+01    2.79294432e-03    2.79294432e-03    0.00000000e+00    2.79294432e-03    0.00000000e+00   -5.10787544e+01
30       2.97029703e-05    1.39647168e+00    1.39647168e+00    0.00000000e+00    1.39647168e+00    0.00000000e+00    2.90064263e+00   -2.79294325e-03   -2.79294325e-03    0.00000000e+00    2.79294325e-03    1.80000000e+02   -5.10787578e+01    2.79294335e-03    2.79294335e-03    0.00000000e+00    2.79294335e-03    0.00000000e+00   -5.10787575e+01
31       3.06930693e-05    1.39647233e+00    1.39647233e+00    0.00000000e+00    1.39647233e+00    0.00000000e+00    2.90064672e+00   -2.79294480e-03   -2.79294480e-03    0.00000000e+00    2.79294480e-03    1.80000000e+02   -5.10787530e+01    2.79294467e-03    2.79294467e-03    0.00000000e+00    2.79294467e-03    0.00000000e+00   -5.10787534e+01
32       3.16831683e-05    1.39647151e+00    1.39647151e+00    0.00000000e+00    1.39647151e+00    0.00000000e+00    2.90064162e+00   -2.79294287e-03   -2.79294287e-03    0.00000000e+00    2.79294287e-03    1.80000000e+02   -5.10787590e+01    2.79294303e-03    2.79294303e-03    0.00000000e+00    2.79294303e-03    0.00000000e+00   -5.10787585e+01
33       3.26732673e-05    1.39647249e+00    1.39647249e+00    0.00000000e+00    1.39647249e+00    0.00000000e+00    2.90064768e+00   -2.79294516e-03   -2.79294516e-03    0.00000000e+00    2.79294516e-03    1.80000000e+02   -5.10787518e+01    2.79294498e-03    2.79294498e-03    0.00000000e+00    2.79294498e-03    0.00000000e+00   -5.10787524e+01
34       3.36633663e-05    1.39647137e+00    1.39647137e+00    0.00000000e+00    1.39647137e+00    0.00000000e+00    2.90064070e+00   -2.79294252e-03   -2.79294252e-03    0.00000000e+00    2.79294252e-03    1.80000000e+02   -5.10787600e+01    2.79294273e-03    2.79294273e-03    0.00000000e+00    2.79294273e-03    0.00000000e+00   -5.10787594e+01
35       3.46534653e-05    1.39647263e+00    1.39647263e+00    0.00000000e+00    1.39647263e+00    0.00000000e+00    2.90064859e+00   -2.79294550e-03   -2.79294550e-03    0.00000000e+00    2.79294550e-03    1.80000000e+02   -5.10787508e+01    2.79294527e-03    2.79294527e-03    0.00000000e+00    2.79294527e-03    0.00000000e+00   -5.10787515e+01
36       3.56435644e-05    1.39647122e+00    1.39647122e+00    0.00000000e+00    1.39647122e+00    0.00000000e+00    2.90063979e+00   -2.79294218e-03   -2.79294218e-03    0.00000000e+00    2.79294218e-03    1.80000000e+02   -5.10787611e+01    2.79294244e-03    2.79294244e-03    0.00000000e+00    2.79294244e-03    0.00000000e+00   -5.10787603e+01
37       3.66336634e-05    1.39647278e+00    1.39647278e+00    0.00000000e+00    1.39647278e+00    0.00000000e+00    2.90064951e+00   -2.79294585e-03   -2.79294585e-03    0.00000000e+00    2.79294585e-03    1.80000000e+02   -5.10787497e+01    2.79294557e-03    2.79294557e-03    0.00000000e+00    2.79294557e-03    0.00000000e+00   -5.10787506e+01
38       3.76237624e-05    1.39647106e+00    1.39647106e+00    0.00000000e+00    1.39647106e+00    0.00000000e+00    2.90063882e+00   -2.79294181e-03   -2.79294181e-03    0.00000000e+00    2.79294181e-03    1.80000000e+02   -5.10787622e+01    2.79294213e-03    2.79294213e-03    0.00000000e+00    2.79294213e-03    0.00000000e+00   -5.10787613e+01
39       3.86138614e-05    1.39647295e+00    1.39647295e+00    0.00000000e+00    1.39647295e+00    0.00000000e+00    2.90065057e+00   -2.79294625e-03   -2.79294625e-03    0.00000000e+00    2.79294625e-03    1.80000000e+02   -5.10787485e+01    2.79294590e-03    2.79294590e-03    0.00000000e+00    2.79294590e-03    0.00000000e+00   -5.10787495e+01
40       3.96039604e-05    1.39647088e+00    1.39647088e+00    0.00000000e+00    1.39647088e+00    0.00000000e+00    2.90063765e+00   -2.79294137e-03   -2.79294137e-03    0.00000000e+00    2.79294137e-03    1.80000000e+02   -5.10787636e+01    2.79294175e-03    2.79294175e-03    0.00000000e+00    2.79294175e-03    0.00000000e+00   -5.10787624e+01
41       4.05940594e-05    1.39647317e+00    1.39647317e+00    0.00000000e+00    1.39647317e+00    0.00000000e+00    2.90065190e+00   -2.79294675e-03   -2.79294675e-03    0.00000000e+00    2.79294675e-03    1.80000000e+02   -5.10787469e+01    2.79294633e-03    2.79294633e-03    0.00000000e+00    2.79294633e-03    0.00000000e+00   -5.10787482e+01
42       4.15841584e-05    1.39647062e+00    1.39647062e+00    0.00000000e+00    1.39647062e+00    0.00000000e+00    2.90063606e+00   -2.79294077e-03   -2.79294077e-03    0.00000000e+00    2.79294077e-03    1.80000000e+02   -5.10787655e+01    2.79294124e-03    2.79294124e-03    0.00000000e+00    2.79294124e-03    0.00000000e+00   -5.10787640e+01
43       4.25742574e-05    1.39647348e+00    1.39647348e+00    0.00000000e+00    1.39647348e+00    0.00000000e+00    2.90065388e+00   -2.79294751e-03   -2.79294751e-03    0.00000000e+00    2.79294751e-03    1.80000000e+02   -5.10787445e+01    2.79294697e-03    2.79294697e-03    0.00000000e+00    2.79294697e-03    0.00000000e+00   -5.10787462e+01
44       4.35643564e-05    1.39647020e+00    1.39647020e+00    0.00000000e+00    1.39647020e+00    0.00000000e+00    2.90063348e+00   -2.79293979e-03   -2.79293979e-03    0.00000000e+00    2.79293979e-03    1.80000000e+02   -5.10787685e+01    2.79294041e-03    2.79294041e-03    0.00000000e+00    2.79294041e-03    0.00000000e+00   -5.10787666e+01
45       4.45544554e-05    1.39647406e+00    1.39647406e+00    0.00000000e+00    1.39647406e+00    0.00000000e+00    2.90065747e+00   -2.79294888e-03   -2.79294888e-03    0.00000000e+00    2.79294888e-03    1.80000000e+02   -5.10787403e+01    2.79294812e-03    2.79294812e-03    0.00000000e+00    2.79294812e-03    0.00000000e+00   -5.10787426e+01
46       4.55445545e-05    1.39646934e+00    1.39646934e+00    0.00000000e+00    1.39646934e+00    0.00000000e+00    2.90062808e+00   -2.79293771e-03   -2.79293771e-03    0.00000000e+00    2.79293771e-03    1.80000000e+02   -5.10787750e+01    2.79293867e-03    2.79293867e-03    0.00000000e+00    2.79293867e-03    0.00000000e+00   -5.10787720e+01
47       4.65346535e-05    1.39647551e+00    1.39647551e+00    0.00000000e+00    1.39647551e+00    0.00000000e+00    2.90066647e+00   -2.79295235e-03   -2.79295235e-03    0.00000000e+00    2.79295235e-03    1.80000000e+02   -5.10787295e+01    2.79295102e-03    2.79295102e-03    0.00000000e+00    2.79295102e-03    0.00000000e+00   -5.10787336e+01
48       4.75247525e-05    1.39646656e+00    1.39646656e+00    0.00000000e+00    1.39646656e+00    0.00000000e+00    2.90061078e+00   -2.79293098e-03   -2.79293098e-03    0.00000000e+00    2.79293098e-03    1.80000000e+02   -5.10787959e+01    2.79293311e-03    2.79293311e-03    0.00000000e+00    2.79293311e-03    0.00000000e+00   -5.10787893e+01
49       4.85148515e-05    1.39648217e+00    1.39648217e+00    0.00000000e+00    1.39648217e+00    0.00000000e+00    2.90070788e+00   -2.79296874e-03   -2.79296874e-03    0.00000000e+00    2.79296874e-03    1.80000000e+02   -5.10786785e+01    2.79296433e-03    2.79296433e-03    0.00000000e+00    2.79296433e-03    0.00000000e+00   -5.10786922e+01
50       4.95049505e-05    1.39644268e+00    1.39644268e+00    0.00000000e+00    1.39644268e+00    0.00000000e+00    2.90046227e+00   -2.79286958e-03   -2.79286958e-03    0.00000000e+00    2.79286958e-03    1.80000000e+02   -5.10789869e+01    2.79288536e-03    2.79288536e-03    0.00000000e+00    2.79288536e-03    0.00000000e+00   -5.10789378e+01
51       5.04950495e-05    1.34743550e+00    1.34743550e+00    0.00000000e+00    1.34743550e+00    0.00000000e+00    2.59015974e+00   -2.69478800e-03   -2.69478800e-03    0.00000000e+00    2.69478800e-03    1.80000000e+02   -5.13895079e+01    2.69487101e-03    2.69487101e-03    0.00000000e+00    2.69487101e-03    0.00000000e+00   -5.13892404e+01
52       5.14851485e-05    1.25024710e+00    1.25024710e+00    0.00000000e+00    1.25024710e+00    0.00000000e+00    1.93991711e+00   -2.50039211e-03   -2.50039211e-03    0.00000000e+00    2.50039211e-03    1.80000000e+02   -5.20398376e+01    2.50049420e-03    2.50049420e-03    0.00000000e+00    2.50049420e-03    0.00000000e+00   -5.20394830e+01
53       5.24752475e-05    1.15391796e+00    1.15391796e+00    0.00000000e+00    1.15391796e+00    0.00000000e+00    1.24349866e+00   -2.30774111e-03   -2.30774111e-03    0.00000000e+00    2.30774111e-03    1.80000000e+02   -5.27362583e+01    2.30783592e-03    2.30783592e-03    0.00000000e+00    2.30783592e-03    0.00000000e+00   -5.27359014e+01
54       5.34653465e-05    1.05794889e+00    1.05794889e+00    0.00000000e+00    1.05794889e+00    0.00000000e+00    4.89293740e-01   -2.11579949e-03   -2.11579949e-03    0.00000000e+00    2.11579949e-03    1.80000000e+02   -5.34905098e+01    2.11589778e-03    2.11589778e-03    0.00000000e+00    2.11589778e-03    0.00000000e+00   -5.34901063e+01
55       5.44554455e-05    9.62321422e-01    9.62321422e-01    0.00000000e+00    9.62321422e-01    0.00000000e+00   -3.33596928e-01   -1.92454763e-03   -1.92454763e-03    0.00000000e+00    1.92454763e-03    1.80000000e+02   -5.43134267e+01    1.92464284e-03    1.92464284e-03    0.00000000e+00    1.92464284e-03    0.00000000e+00   -5.43129970e+01
