Index       FREQ            Re(V(1))          Im(V(1))            VR(1)             VI(1)             VM(1)             VP(1)            VDB(1)           Re(I(V1))         Im(I(V1))          IR(V1)            II(V1)            IM(V1)            IP(V1)            IDB(V1)          Re(I(R1))         Im(I(R1))          IR(R1)            II(R1)            IM(R1)            IP(R1)            IDB(R1)     
0       -5.00000000e+05   -7.08507061e-05   -1.02302118e-04   -7.08507061e-05   -1.02302118e-04    1.24440933e-04   -1.24705058e+02   -7.81007348e+01    1.42022804e-07    2.04381651e-07    1.42022804e-07    2.04381651e-07    2.48882173e-07    5.52049423e+01   -1.32080124e+02   -1.41701412e-07   -2.04604236e-07   -1.41701412e-07   -2.04604236e-07    2.48881866e-07   -1.24705058e+02   -1.32080135e+02
1       -4.90000000e+05   -9.04654326e-05   -1.33497179e-04   -9.04654326e-05   -1.33497179e-04    1.61262182e-04   -1.24123845e+02   -7.58493494e+01    1.81341871e-07    2.66715836e-07    1.81341871e-07    2.66715836e-07    3.22524745e-07    5.57879553e+01   -1.29828739e+02   -1.80930865e-07   -2.66994357e-07   -1.80930865e-07   -2.66994357e-07    3.22524363e-07   -1.24123845e+02   -1.29828749e+02
2       -4.80000000e+05   -2.67373389e-04   -1.71617442e-04   -2.67373389e-04   -1.71617442e-04    3.17712252e-04   -1.47305042e+02   -6.99593207e+01    5.35264363e-07    3.42428505e-07    5.35264363e-07    3.42428505e-07    6.35425227e-07    3.26085583e+01   -1.23938711e+02   -5.34746777e-07   -3.43234884e-07   -5.34746777e-07   -3.43234884e-07    6.35424505e-07   -1.47305042e+02   -1.23938721e+02
3       -4.70000000e+05   -3.58188173e-04   -2.08488558e-04   -3.58188173e-04   -2.08488558e-04    4.14446916e-04   -1.49797842e+02   -6.76506218e+01    7.16992033e-07    4.15919352e-07    7.16992033e-07    4.15919352e-07    8.28894735e-07    3.01175584e+01   -1.21630012e+02   -7.16376346e-07   -4.16977117e-07   -7.16376346e-07   -4.16977117e-07    8.28893832e-07   -1.49797842e+02   -1.21630022e+02
4       -4.60000000e+05   -3.80283955e-04   -8.19406840e-06   -3.80283955e-04   -8.19406840e-06    3.80372224e-04   -1.78765625e+02   -6.83958241e+01    7.60591592e-07    1.52890153e-08    7.60591592e-07    1.52890153e-08    7.60745243e-07    1.15157477e+00   -1.22375215e+02   -7.60567909e-07   -1.63881368e-08   -7.60567909e-07   -1.63881368e-08    7.60744448e-07   -1.78765625e+02   -1.22375224e+02
5       -4.50000000e+05   -5.43027751e-04    2.36898016e-05   -5.43027751e-04    2.36898016e-05    5.43544244e-04    1.77502033e+02   -6.52953020e+01    1.08598852e-06   -4.89149779e-08    1.08598852e-06   -4.89149779e-08    1.08708957e-06   -2.57896722e+00   -1.19274693e+02   -1.08605550e-06    4.73796031e-08   -1.08605550e-06    4.73796031e-08    1.08708849e-06    1.77502033e+02   -1.19274702e+02
6       -4.40000000e+05   -2.63644482e-04    1.51579250e-04   -2.63644482e-04    1.51579250e-04    3.04112943e-04    1.50103765e+02   -7.03393019e+01    5.26869908e-07   -3.03887373e-07    5.26869908e-07   -3.03887373e-07    6.08226467e-07   -2.99754352e+01   -1.24318694e+02   -5.27288964e-07    3.03158501e-07   -5.27288964e-07    3.03158501e-07    6.08225886e-07    1.50103765e+02   -1.24318702e+02
7       -4.30000000e+05   -3.83602791e-04    2.75057033e-04   -3.83602791e-04    2.75057033e-04    4.72024865e-04    1.44358112e+02   -6.65207025e+01    7.66462442e-07   -5.51150473e-07    7.66462442e-07   -5.51150473e-07    9.44050591e-07   -3.57192876e+01   -1.20500095e+02   -7.67205582e-07    5.50114066e-07   -7.67205582e-07    5.50114066e-07    9.44049729e-07    1.44358112e+02   -1.20500103e+02
8       -4.20000000e+05   -8.10552283e-05    1.07325111e-04   -8.10552283e-05    1.07325111e-04    1.34493976e-04    1.27061226e+02   -7.74259434e+01    1.61827232e-07   -2.14864122e-07    1.61827232e-07   -2.14864122e-07    2.68988186e-07   -5.30143741e+01   -1.31405336e+02   -1.62110457e-07    2.14650223e-07   -1.62110457e-07    2.14650223e-07    2.68987952e-07    1.27061226e+02   -1.31405343e+02
9       -4.10000000e+05   -8.63041593e-05    1.73364630e-04   -8.63041593e-05    1.73364630e-04    1.93658728e-04    1.16464982e+02   -7.42592585e+01    1.72161713e-07   -3.46951589e-07    1.72161713e-07   -3.46951589e-07    3.87317777e-07   -6.36088182e+01   -1.28238651e+02   -1.72608319e-07    3.46729261e-07   -1.72608319e-07    3.46729261e-07    3.87317456e-07    1.16464982e+02   -1.28238659e+02
10      -4.00000000e+05   -5.86947550e-05   -5.82863414e-05   -5.86947550e-05   -5.82863414e-05    8.27186306e-05   -1.35200035e+02   -8.16479333e+01    1.17536000e-07    1.16425167e-07    1.17536000e-07    1.16425167e-07    1.65437392e-07    4.47279653e+01   -1.35627327e+02   -1.17389510e-07   -1.16572683e-07   -1.17389510e-07   -1.16572683e-07    1.65437261e-07   -1.35200035e+02   -1.35627333e+02
11      -3.90000000e+05   -1.11221497e-04   -1.99357762e-04   -1.11221497e-04   -1.99357762e-04    2.28284338e-04   -1.19157104e+02   -7.28304777e+01    2.22931509e-07    3.98442983e-07    2.22931509e-07    3.98442983e-07    4.56569018e-07    6.07726956e+01   -1.26809871e+02   -2.22442994e-07   -3.98715524e-07   -2.22442994e-07   -3.98715524e-07    4.56568675e-07   -1.19157104e+02   -1.26809878e+02
12      -3.80000000e+05   -1.93285289e-04   -1.20543085e-04   -1.93285289e-04   -1.20543085e-04    2.27793411e-04   -1.48050120e+02   -7.28491768e+01    3.86858388e-07    2.40624679e-07    3.86858388e-07    2.40624679e-07    4.55587147e-07    3.18814799e+01   -1.26828571e+02   -3.86570578e-07   -2.41086169e-07   -3.86570578e-07   -2.41086169e-07    4.55586823e-07   -1.48050120e+02   -1.26828577e+02
13      -3.70000000e+05   -5.37114424e-04   -3.34838006e-04   -5.37114424e-04   -3.34838006e-04    6.32936328e-04   -1.48060519e+02   -6.39727995e+01    1.07500727e-06    6.68427340e-07    1.07500727e-06    6.68427340e-07    1.26587351e-06    3.18728806e+01   -1.17952194e+02   -1.07422885e-06   -6.69676013e-07   -1.07422885e-06   -6.69676013e-07    1.26587266e-06   -1.48060519e+02   -1.17952200e+02
14      -3.60000000e+05   -2.85614232e-04   -1.25958579e-05   -2.85614232e-04   -1.25958579e-05    2.85891841e-04   -1.77474838e+02   -7.08759648e+01    5.71256955e-07    2.45456716e-08    5.71256955e-07    2.45456716e-08    5.71784049e-07    2.46036191e+00   -1.24855359e+02   -5.71228463e-07   -2.51917158e-08   -5.71228463e-07   -2.51917158e-08    5.71783683e-07   -1.77474838e+02   -1.24855365e+02
15      -3.50000000e+05   -8.60351725e-04    3.04187305e-05   -8.60351725e-04    3.04187305e-05    8.60889301e-04    1.77975085e+02   -6.13010538e+01    1.72063655e-06   -6.27294732e-08    1.72063655e-06   -6.27294732e-08    1.72177964e-06   -2.08791507e+00   -1.15280449e+02   -1.72070345e-06    6.08374610e-08   -1.72070345e-06    6.08374610e-08    1.72177860e-06    1.77975085e+02   -1.15280454e+02
16      -3.40000000e+05   -2.14370740e-04    1.10732204e-04   -2.14370740e-04    1.10732204e-04    2.41280823e-04    1.52681596e+02   -7.23495439e+01    4.28504925e-07   -2.21922365e-07    4.28504925e-07   -2.21922365e-07    4.82561920e-07   -2.73796036e+01   -1.26328939e+02   -4.28741481e-07    2.21464408e-07   -4.28741481e-07    2.21464408e-07    4.82561645e-07    1.52681596e+02   -1.26328944e+02
17      -3.30000000e+05   -6.22837285e-04    4.59497703e-04   -6.22837285e-04    4.59497703e-04    7.73992521e-04    1.43581979e+02   -6.22252647e+01    1.24472182e-06   -9.20286829e-07    1.24472182e-06   -9.20286829e-07    1.54798587e-06   -3.64774212e+01   -1.16204660e+02   -1.24567457e-06    9.18995407e-07   -1.24567457e-06    9.18995407e-07    1.54798504e-06    1.43581979e+02   -1.16204665e+02
18      -3.20000000e+05   -7.79263108e-05    9.35620561e-05   -7.79263108e-05    9.35620561e-05    1.21763575e-04    1.29790364e+02   -7.82896522e+01    1.55664504e-07   -1.87280792e-07    1.55664504e-07   -1.87280792e-07    2.43527273e-07   -5.02672363e+01   -1.32269048e+02   -1.55852622e-07    1.87124112e-07   -1.55852622e-07    1.87124112e-07    2.43527150e-07    1.29790364e+02   -1.32269052e+02
19      -3.10000000e+05   -1.22582296e-04    3.06228708e-04   -1.22582296e-04    3.06228708e-04    3.29852150e-04    1.11816056e+02   -6.96336136e+01    2.44568124e-07   -6.12696180e-07    2.44568124e-07   -6.12696180e-07    6.59704613e-07   -6.82397444e+01   -1.23613010e+02   -2.45164592e-07    6.12457416e-07   -2.45164592e-07    6.12457416e-07    6.59704300e-07    1.11816056e+02   -1.23613014e+02
20      -3.00000000e+05   -4.52957942e-05   -2.69023989e-05   -4.52957942e-05   -2.69023989e-05    5.26825212e-05   -1.49292777e+02   -8.55666690e+01    9.06422982e-08    5.37194173e-08    9.06422982e-08    5.37194173e-08    1.05365089e-07    3.06532235e+01   -1.39546065e+02   -9.05915883e-08   -5.38047978e-08   -9.05915883e-08   -5.38047978e-08    1.05365042e-07   -1.49292777e+02   -1.39546069e+02
21      -2.90000000e+05   -1.60729541e-04   -3.51189556e-04   -1.60729541e-04   -3.51189556e-04    3.86222850e-04   -1.14592232e+02   -6.82632407e+01    3.22098992e-07    7.02086243e-07    3.22098992e-07    7.02086243e-07    7.72446020e-07    6.53555682e+01   -1.22242637e+02   -3.21459082e-07   -7.02379113e-07   -3.21459082e-07   -7.02379113e-07    7.72445700e-07   -1.14592232e+02   -1.22242641e+02
22      -2.80000000e+05   -1.38342335e-04   -8.92803577e-05   -1.38342335e-04   -8.92803577e-05    1.64649883e-04   -1.47163493e+02   -7.56687715e+01    2.76841741e-07    1.78317331e-07    2.76841741e-07    1.78317331e-07    3.29299893e-07    3.27861066e+01   -1.29648168e+02   -2.76684670e-07   -1.78560715e-07   -2.76684670e-07   -1.78560715e-07    3.29299766e-07   -1.47163493e+02   -1.29648172e+02
23      -2.70000000e+05   -9.54482337e-04   -6.25478710e-04   -9.54482337e-04   -6.25478710e-04    1.14116614e-03   -1.46762904e+02   -5.88530225e+01    1.91002577e-06    1.24933818e-06    1.91002577e-06    1.24933818e-06    2.28233309e-06    3.31884957e+01   -1.12832419e+02   -1.90896467e-06   -1.25095742e-06   -1.90896467e-06   -1.25095742e-06    2.28233227e-06   -1.46762904e+02   -1.12832423e+02
24      -2.60000000e+05   -2.21887380e-04   -2.08406369e-05   -2.21887380e-04   -2.08406369e-05    2.22863953e-04   -1.74634270e+02   -7.30392034e+01    4.43808805e-07    4.13187923e-08    4.43808805e-07    4.13187923e-08    4.45728054e-07    5.31892968e+00   -1.27018601e+02   -4.43774760e-07   -4.16812738e-08   -4.43774760e-07   -4.16812738e-08    4.45727906e-07   -1.74634270e+02   -1.27018604e+02
25      -2.50000000e+05   -1.62845432e-03    5.01697524e-05   -1.62845432e-03    5.01697524e-05    1.62922696e-03    1.78235378e+02   -5.57603682e+01    3.25682984e-06   -1.02897475e-07    3.25682984e-06   -1.02897475e-07    3.25845492e-06   -1.80962188e+00   -1.09739766e+02   -3.25690865e-06    1.00339505e-07   -3.25690865e-06    1.00339505e-07    3.25845392e-06    1.78235378e+02   -1.09739768e+02
26      -2.40000000e+05   -1.86007778e-04    8.42740587e-05   -1.86007778e-04    8.42740587e-05    2.04208253e-04    1.55626270e+02   -7.37985342e+01    3.71888475e-07   -1.68828611e-07    3.71888475e-07   -1.68828611e-07    4.08416622e-07   -2.44169300e+01   -1.27777932e+02   -3.72015557e-07    1.68548117e-07   -3.72015557e-07    1.68548117e-07    4.08416506e-07    1.55626270e+02   -1.27777934e+02
27      -2.30000000e+05   -1.23122812e-03    9.30556040e-04   -1.23122812e-03    9.30556040e-04    1.54332668e-03    1.42918195e+02   -5.62308427e+01    2.46111147e-06   -1.86289137e-06    2.46111147e-06   -1.86289137e-06    3.08665416e-06   -3.71232053e+01   -1.10210241e+02   -2.46245624e-06    1.86111208e-06   -2.46245624e-06    1.86111208e-06    3.08665335e-06    1.42918195e+02   -1.10210243e+02
28      -2.20000000e+05   -7.45715138e-05    9.69260224e-05   -7.45715138e-05    9.69260224e-05    1.22292945e-04    1.27573433e+02   -7.82519719e+01    1.49009047e-07   -1.93955125e-07    1.49009047e-07   -1.93955125e-07    2.44585949e-07   -5.24661673e+01   -1.32231370e+02   -1.49143028e-07    1.93852045e-07   -1.49143028e-07    1.93852045e-07    2.44585891e-07    1.27573433e+02   -1.32231372e+02
29      -2.10000000e+05   -2.20705618e-04    6.61129767e-04   -2.20705618e-04    6.61129767e-04    6.96996082e-04    1.08460608e+02   -6.31353933e+01    4.40538895e-07   -1.32255075e-06    4.40538895e-07   -1.32255075e-06    1.39399247e-06   -7.15771917e+01   -1.17114791e+02   -4.41411235e-07    1.32225953e-06   -4.41411235e-07    1.32225953e-06    1.39399216e-06    1.08460608e+02   -1.17114793e+02
30      -2.00000000e+05   -1.59951683e-05    8.45554069e-06   -1.59951683e-05    8.45554069e-06    1.80925835e-05    1.52137685e+02   -9.48499883e+01    3.19797111e-08   -1.69311815e-08    3.19797111e-08   -1.69311815e-08    3.61851742e-08   -2.78983153e+01   -1.48829387e+02   -3.19903367e-08    1.69110814e-08   -3.19903367e-08    1.69110814e-08    3.61851671e-08    1.52137685e+02   -1.48829388e+02
31      -1.90000000e+05   -3.13134046e-04   -8.07973606e-04   -3.13134046e-04   -8.07973606e-04    8.66530022e-04   -1.11184079e+02   -6.12443277e+01    6.27232655e-07    1.61557339e-06    6.27232655e-07    1.61557339e-06    1.73306035e-06    6.87817209e+01   -1.15223726e+02   -6.26268092e-07   -1.61594721e-06   -6.26268092e-07   -1.61594721e-06    1.73306004e-06   -1.11184079e+02   -1.15223728e+02
32      -1.80000000e+05   -6.70286376e-05   -7.26654047e-05   -6.70286376e-05   -7.26654047e-05    9.88589869e-05   -1.32689323e+02   -8.00996769e+01    1.34139458e-07    1.45255002e-07    1.34139458e-07    1.45255002e-07    1.97718005e-07    4.72782773e+01   -1.34079076e+02   -1.34057275e-07   -1.45330809e-07   -1.34057275e-07   -1.45330809e-07    1.97717974e-07   -1.32689323e+02   -1.34079077e+02
33      -1.70000000e+05   -2.30919319e-03   -1.56825560e-03   -2.30919319e-03   -1.56825560e-03    2.79137938e-03   -1.45818173e+02   -5.10836227e+01    4.62006150e-06    3.13404466e-06    4.62006150e-06    3.13404466e-06    5.58275955e-06    3.41512271e+01   -1.05063022e+02   -4.61838638e-06   -3.13651121e-06   -4.61838638e-06   -3.13651121e-06    5.58275875e-06   -1.45818173e+02   -1.05063023e+02
34      -1.60000000e+05   -1.56773323e-04   -5.13731472e-05   -1.56773323e-04   -5.13731472e-05    1.64975984e-04   -1.61856515e+02   -7.56515855e+01    3.13598293e-07    1.02588689e-07    3.13598293e-07    1.02588689e-07    3.29952009e-07    1.81146845e+01   -1.29630984e+02   -3.13546647e-07   -1.02746294e-07   -3.13546647e-07   -1.02746294e-07    3.29951967e-07   -1.61856515e+02   -1.29630986e+02
35      -1.50000000e+05   -4.39217709e-03    1.12960403e-04   -4.39217709e-03    1.12960403e-04    4.39362944e-03    1.78526761e+02   -4.71435315e+01    8.78424771e-06   -2.30060335e-07    8.78424771e-06   -2.30060335e-07    8.78725985e-06   -1.50023930e+00   -1.01122931e+02   -8.78435418e-06    2.25920806e-07   -8.78435418e-06    2.25920806e-07    8.78725887e-06    1.78526761e+02   -1.01122932e+02
36      -1.40000000e+05   -1.68009264e-04    5.59968020e-05   -1.68009264e-04    5.59968020e-05    1.77095326e-04    1.61566980e+02   -7.50358580e+01    3.35969270e-07   -1.12141393e-07    3.35969270e-07   -1.12141393e-07    3.54190687e-07   -1.84582195e+01   -1.29015257e+02   -3.36018527e-07    1.11993604e-07   -3.36018527e-07    1.11993604e-07    3.54190652e-07    1.61566980e+02   -1.29015258e+02
37      -1.30000000e+05   -3.73072291e-03    2.84009922e-03   -3.73072291e-03    2.84009922e-03    4.68875858e-03    1.42718955e+02   -4.65788426e+01    7.45912600e-06   -5.68324575e-06    7.45912600e-06   -5.68324575e-06    9.37751795e-06   -3.73044447e+01   -1.00558242e+02   -7.46144583e-06    5.68019845e-06   -7.46144583e-06    5.68019845e-06    9.37751717e-06    1.42718955e+02   -1.00558243e+02
38      -1.20000000e+05   -4.86022129e-05    1.38046452e-04   -4.86022129e-05    1.38046452e-04    1.46352308e-04    1.09395710e+02   -7.66920085e+01    9.71003413e-08   -2.76129550e-07    9.71003413e-08   -2.76129550e-07    2.92704637e-07   -7.06258897e+01   -1.30671408e+02   -9.72044259e-08    2.76092905e-07   -9.72044259e-08    2.76092905e-07    2.92704616e-07    1.09395710e+02   -1.30671409e+02
39      -1.10000000e+05   -7.09726733e-04    2.34378317e-03   -7.09726733e-04    2.34378317e-03    2.44888374e-03    1.06846966e+02   -5.22206366e+01    1.41783356e-06   -4.68805687e-06    1.41783356e-06   -4.68805687e-06    4.89776778e-06   -7.31728340e+01   -1.06200036e+02   -1.41945347e-06    4.68756634e-06   -1.41945347e-06    4.68756634e-06    4.89776749e-06    1.06846966e+02   -1.06200037e+02
40      -1.00000000e+05    1.39174229e-04    7.56017442e-05    1.39174229e-04    7.56017442e-05    1.58382732e-04    2.85115415e+01   -7.60058434e+01   -2.78395959e-07   -1.51116043e-07   -2.78395959e-07   -1.51116043e-07    3.16765479e-07   -1.51506459e+02   -1.29985243e+02    2.78348457e-07    1.51203488e-07    2.78348457e-07    1.51203488e-07    3.16765463e-07    2.85115415e+01   -1.29985244e+02
41      -9.00000000e+04   -1.23536013e-03   -3.60687756e-03   -1.23536013e-03   -3.60687756e-03    3.81256874e-03   -1.08906397e+02   -4.83756463e+01    2.47275990e-06    7.21305654e-06    2.47275990e-06    7.21305654e-06    7.62513779e-06    7.10774030e+01   -1.02355046e+02   -2.47072026e-06   -7.21375512e-06   -2.47072026e-06   -7.21375512e-06    7.62513748e-06   -1.08906397e+02   -1.02355046e+02
42      -8.00000000e+04    2.43989165e-04   -1.65157176e-04    2.43989165e-04   -1.65157176e-04    2.94631304e-04   -3.40942178e+01   -7.06144222e+01   -4.87895314e-07    3.30436994e-07   -4.87895314e-07    3.30436994e-07    5.89262628e-07    1.45891382e+02   -1.24593822e+02    4.87978331e-07   -3.30314352e-07    4.87978331e-07   -3.30314352e-07    5.89262609e-07   -3.40942178e+01   -1.24593822e+02
43      -7.00000000e+04   -1.32164257e-02   -9.33596307e-03   -1.32164257e-02   -9.33596307e-03    1.61812891e-02   -1.44762964e+02   -3.58197377e+01    2.64369576e-05    1.86661133e-05    2.64369576e-05    1.86661133e-05    3.23625789e-05    3.52244364e+01   -8.97991376e+01   -2.64328515e-05   -1.86719261e-05   -2.64328515e-05   -1.86719261e-05    3.23625781e-05   -1.44762964e+02   -8.97991378e+01
44      -6.00000000e+04    1.16896091e-04   -4.73737306e-04    1.16896091e-04   -4.73737306e-04    4.87946443e-04   -7.61389870e+01   -6.62325569e+01   -2.33613587e-07    9.47518681e-07   -2.33613587e-07    9.47518681e-07    9.75892903e-07    1.03850213e+02   -1.20211957e+02    2.33792181e-07   -9.47474612e-07    2.33792181e-07   -9.47474612e-07    9.75892886e-07   -7.61389870e+01   -1.20211957e+02
45      -5.00000000e+04   -3.89467427e-02    3.89502644e-04   -3.89467427e-02    3.89502644e-04    3.89486904e-02    1.79427009e+02   -2.81901428e+01    7.78933631e-05   -7.91240769e-07    7.78933631e-05   -7.91240769e-07    7.78973817e-05   -5.81990502e-01   -8.21695428e+01   -7.78934854e-05    7.79005289e-07   -7.78934854e-05    7.79005289e-07    7.78973807e-05    1.79427009e+02   -8.21695429e+01
46      -4.00000000e+04   -2.55283513e-04   -6.27742979e-04   -2.55283513e-04   -6.27742979e-04    6.77665788e-04   -1.12130044e+02   -6.33796888e+01    5.10724794e-07    1.25542180e-06    5.10724794e-07    1.25542180e-06    1.35533159e-06    6.78627562e+01   -1.17359089e+02   -5.10567025e-07   -1.25548596e-06   -5.10567025e-07   -1.25548596e-06    1.35533158e-06   -1.12130044e+02   -1.17359089e+02
47      -3.00000000e+04   -7.02347563e-02    5.16984866e-02   -7.02347563e-02    5.16984866e-02    8.72104037e-02    1.43643913e+02   -2.11886341e+01    1.40459768e-04   -1.03410212e-04    1.40459768e-04   -1.03410212e-04    1.74420808e-04   -3.63614875e+01   -7.51680341e+01   -1.40469513e-04    1.03396973e-04   -1.40469513e-04    1.03396973e-04    1.74420807e-04    1.43643913e+02   -7.51680342e+01
