Index    TIME    V(1)    VR(1)    VI(1)    I(V1)    
0   0.00000000e-001   4.65316936e-001   4.65316936e-001   0.00000000e-001   -4.65316936e-004   
1   1.00000000e-010   4.65326924e-001   4.65326924e-001   0.00000000e-001   -4.65426798e-004   
2   3.00000000e-010   4.65346919e-001   4.65346919e-001   0.00000000e-001   -4.65446896e-004   
3   7.00000000e-010   4.65386908e-001   4.65386908e-001   0.00000000e-001   -4.65486881e-004   
4   1.50000000e-009   4.65466880e-001   4.65466880e-001   0.00000000e-001   -4.65566845e-004   
5   3.10000000e-009   4.65626798e-001   4.65626798e-001   0.00000000e-001   -4.65726746e-004   
6   6.30000000e-009   4.65946530e-001   4.65946530e-001   0.00000000e-001   -4.66046447e-004   
7   1.27000000e-008   4.66585587e-001   4.66585587e-001   0.00000000e-001   -4.66685439e-004   
8   2.55000000e-008   4.67862095e-001   4.67862095e-001   0.00000000e-001   -4.67961822e-004   
9   5.11000000e-008   4.70408904e-001   4.70408904e-001   0.00000000e-001   -4.70508388e-004   
10   7.67000000e-008   4.72949718e-001   4.72949718e-001   0.00000000e-001   -4.73048968e-004   
11   1.02300000e-007   4.75484743e-001   4.75484743e-001   0.00000000e-001   -4.75583768e-004   
12   1.27900000e-007   4.78014183e-001   4.78014183e-001   0.00000000e-001   -4.78112990e-004   
13   1.53500000e-007   4.80538236e-001   4.80538236e-001   0.00000000e-001   -4.80636832e-004   
14   2.04700000e-007   4.85566218e-001   4.85566218e-001   0.00000000e-001   -4.85664421e-004   
15   2.50780000e-007   4.90076201e-001   4.90076201e-001   0.00000000e-001   -4.90174074e-004   
16   2.96860000e-007   4.94571975e-001   4.94571975e-001   0.00000000e-001   -4.94669540e-004   
17   3.42940000e-007   4.99054496e-001   4.99054496e-001   0.00000000e-001   -4.99151773e-004   
18   3.89020000e-007   5.03524676e-001   5.03524676e-001   0.00000000e-001   -5.03621685e-004   
19   4.35100000e-007   5.07983379e-001   5.07983379e-001   0.00000000e-001   -5.08080139e-004   
20   4.81180000e-007   5.12431427e-001   5.12431427e-001   0.00000000e-001   -5.12527956e-004   
21   5.27260000e-007   5.16869598e-001   5.16869598e-001   0.00000000e-001   -5.16965912e-004   
22   5.73340000e-007   5.21298627e-001   5.21298627e-001   0.00000000e-001   -5.21394743e-004   
23   6.19420000e-007   5.25719210e-001   5.25719210e-001   0.00000000e-001   -5.25815143e-004   
24   6.65500000e-007   5.30132002e-001   5.30132002e-001   0.00000000e-001   -5.30227766e-004   
25   7.11580000e-007   5.34537620e-001   5.34537620e-001   0.00000000e-001   -5.34633229e-004   
26   7.57660000e-007   5.38936647e-001   5.38936647e-001   0.00000000e-001   -5.39032112e-004   
27   8.03740000e-007   5.43329629e-001   5.43329629e-001   0.00000000e-001   -5.43424963e-004   
28   8.49820000e-007   5.47717079e-001   5.47717079e-001   0.00000000e-001   -5.47812293e-004   
29   9.41980000e-007   5.56472019e-001   5.56472019e-001   0.00000000e-001   -5.56567017e-004   
30   1.02492400e-006   5.64338985e-001   5.64338985e-001   0.00000000e-001   -5.64433832e-004   
31   1.10786800e-006   5.72195337e-001   5.72195337e-001   0.00000000e-001   -5.72290055e-004   
32   1.19081200e-006   5.80042950e-001   5.80042950e-001   0.00000000e-001   -5.80137564e-004   
33   1.27375600e-006   5.87883486e-001   5.87883486e-001   0.00000000e-001   -5.87978014e-004   
34   1.35670000e-006   5.95718409e-001   5.95718409e-001   0.00000000e-001   -5.95812870e-004   
35   1.52258800e-006   6.11369317e-001   6.11369317e-001   0.00000000e-001   -6.11463663e-004   
36   1.67188720e-006   6.25450802e-001   6.25450802e-001   0.00000000e-001   -6.25545119e-004   
37   1.97048560e-006   6.53602677e-001   6.53602677e-001   0.00000000e-001   -6.53696958e-004   
38   2.26908400e-006   6.81781034e-001   6.81781034e-001   0.00000000e-001   -6.81875403e-004   
39   2.53782256e-006   7.07174468e-001   7.07174468e-001   0.00000000e-001   -7.07268960e-004   
40   2.77968726e-006   7.30058652e-001   7.30058652e-001   0.00000000e-001   -7.30153268e-004   
41   2.99736550e-006   7.50680179e-001   7.50680179e-001   0.00000000e-001   -7.50774913e-004   
42   3.21504373e-006   7.71326361e-001   7.71326361e-001   0.00000000e-001   -7.71421209e-004   
43   3.43272196e-006   7.91997532e-001   7.91997532e-001   0.00000000e-001   -7.92092494e-004   
44   3.65040020e-006   8.12693634e-001   8.12693634e-001   0.00000000e-001   -8.12788711e-004   
45   3.86807843e-006   8.33414341e-001   8.33414341e-001   0.00000000e-001   -8.33509531e-004   
46   4.08575667e-006   8.54159144e-001   8.54159144e-001   0.00000000e-001   -8.54254444e-004   
47   4.30343490e-006   8.74927414e-001   8.74927414e-001   0.00000000e-001   -8.75022822e-004   
48   4.52111313e-006   8.95718449e-001   8.95718449e-001   0.00000000e-001   -8.95813962e-004   
49   4.73879137e-006   9.16531506e-001   9.16531506e-001   0.00000000e-001   -9.16627120e-004   
50   4.95646960e-006   9.37365824e-001   9.37365824e-001   0.00000000e-001   -9.37461535e-004   
51   5.17414783e-006   9.58220640e-001   9.58220640e-001   0.00000000e-001   -9.58316446e-004   
52   5.39182607e-006   9.79095203e-001   9.79095203e-001   0.00000000e-001   -9.79191100e-004   
53   5.60950430e-006   9.99988779e-001   9.99988779e-001   0.00000000e-001   -1.00008476e-003   
54   5.82718253e-006   1.02090066e+000   1.02090066e+000   0.00000000e-001   -1.02099672e-003   
55   6.04486077e-006   1.04183015e+000   1.04183015e+000   0.00000000e-001   -1.04192630e-003   
56   6.26253900e-006   1.06277660e+000   1.06277660e+000   0.00000000e-001   -1.06287282e-003   
57   6.48021724e-006   1.08373937e+000   1.08373937e+000   0.00000000e-001   -1.08383567e-003   
58   6.69789547e-006   1.10471787e+000   1.10471787e+000   0.00000000e-001   -1.10481425e-003   
59   6.91557370e-006   1.12571153e+000   1.12571153e+000   0.00000000e-001   -1.12580797e-003   
60   7.13325194e-006   1.14671979e+000   1.14671979e+000   0.00000000e-001   -1.14681630e-003   
61   7.35093017e-006   1.16774213e+000   1.16774213e+000   0.00000000e-001   -1.16783871e-003   
62   7.56860840e-006   1.18877807e+000   1.18877807e+000   0.00000000e-001   -1.18887470e-003   
63   7.78628664e-006   1.20982712e+000   1.20982712e+000   0.00000000e-001   -1.20992382e-003   
64   8.00396487e-006   1.23088884e+000   1.23088884e+000   0.00000000e-001   -1.23098559e-003   
65   8.22164310e-006   1.25196280e+000   1.25196280e+000   0.00000000e-001   -1.25205961e-003   
66   8.43932134e-006   1.27304859e+000   1.27304859e+000   0.00000000e-001   -1.27314546e-003   
67   8.65699957e-006   1.29414583e+000   1.29414583e+000   0.00000000e-001   -1.29424275e-003   
68   8.87467780e-006   1.31525415e+000   1.31525415e+000   0.00000000e-001   -1.31535112e-003   
69   9.09235604e-006   1.33637318e+000   1.33637318e+000   0.00000000e-001   -1.33647020e-003   
70   9.31003427e-006   1.35750260e+000   1.35750260e+000   0.00000000e-001   -1.35759967e-003   
71   9.52771251e-006   1.37864209e+000   1.37864209e+000   0.00000000e-001   -1.37873920e-003   
72   9.96306897e-006   1.42094986e+000   1.42094986e+000   0.00000000e-001   -1.42104704e-003   
73   1.00000000e-005   1.42454056e+000   1.42454056e+000   0.00000000e-001   -1.42463779e-003   
74   1.00242821e-005   1.42447569e+000   1.42447569e+000   0.00000000e-001   -1.42447302e-003   
75   1.00461360e-005   1.42441903e+000   1.42441903e+000   0.00000000e-001   -1.42441643e-003   
76   1.00898438e-005   1.42431192e+000   1.42431192e+000   0.00000000e-001   -1.42430947e-003   
77   1.01772594e-005   1.42411999e+000   1.42411999e+000   0.00000000e-001   -1.42411779e-003   
78   1.02646750e-005   1.42394817e+000   1.42394817e+000   0.00000000e-001   -1.42394620e-003   
79   1.03520906e-005   1.42379427e+000   1.42379427e+000   0.00000000e-001   -1.42379251e-003   
80   1.04395062e-005   1.42365637e+000   1.42365637e+000   0.00000000e-001   -1.42365479e-003   
81   1.05269218e-005   1.42353275e+000   1.42353275e+000   0.00000000e-001   -1.42353134e-003   
82   1.06143374e-005   1.42342190e+000   1.42342190e+000   0.00000000e-001   -1.42342063e-003   
83   1.07017529e-005   1.42332246e+000   1.42332246e+000   0.00000000e-001   -1.42332132e-003   
84   1.07891685e-005   1.42323323e+000   1.42323323e+000   0.00000000e-001   -1.42323221e-003   
85   1.09639997e-005   1.42308780e+000   1.42308780e+000   0.00000000e-001   -1.42308697e-003   
86   1.11213478e-005   1.42297919e+000   1.42297919e+000   0.00000000e-001   -1.42297850e-003   
87   1.12786959e-005   1.42288899e+000   1.42288899e+000   0.00000000e-001   -1.42288842e-003   
88   1.14360439e-005   1.42281406e+000   1.42281406e+000   0.00000000e-001   -1.42281358e-003   
89   1.15933920e-005   1.42275178e+000   1.42275178e+000   0.00000000e-001   -1.42275138e-003   
90   1.17507401e-005   1.42270000e+000   1.42270000e+000   0.00000000e-001   -1.42269967e-003   
91   1.19080881e-005   1.42265695e+000   1.42265695e+000   0.00000000e-001   -1.42265667e-003   
92   1.22227842e-005   1.42259560e+000   1.42259560e+000   0.00000000e-001   -1.42259541e-003   
93   1.25374804e-005   1.42255191e+000   1.42255191e+000   0.00000000e-001   -1.42255177e-003   
94   1.28521765e-005   1.42252078e+000   1.42252078e+000   0.00000000e-001   -1.42252069e-003   
95   1.31668726e-005   1.42249860e+000   1.42249860e+000   0.00000000e-001   -1.42249853e-003   
96   1.37962649e-005   1.42247401e+000   1.42247401e+000   0.00000000e-001   -1.42247397e-003   
97   1.44256572e-005   1.42246039e+000   1.42246039e+000   0.00000000e-001   -1.42246037e-003   
98   1.50550494e-005   1.42245285e+000   1.42245285e+000   0.00000000e-001   -1.42245284e-003   
99   1.63138340e-005   1.42244706e+000   1.42244706e+000   0.00000000e-001   -1.42244706e-003   
100   1.75726185e-005   1.42244485e+000   1.42244485e+000   0.00000000e-001   -1.42244484e-003   
101   2.00901875e-005   1.42244379e+000   1.42244379e+000   0.00000000e-001   -1.42244379e-003   
102   2.51253256e-005   1.42244351e+000   1.42244351e+000   0.00000000e-001   -1.42244351e-003   
103   3.51253256e-005   1.42244347e+000   1.42244347e+000   0.00000000e-001   -1.42244347e-003   
104   4.51253256e-005   1.42244347e+000   1.42244347e+000   0.00000000e-001   -1.42244347e-003   
105   5.00000000e-005   1.42244347e+000   1.42244347e+000   0.00000000e-001   -1.42244347e-003   
106   5.00156250e-005   1.42088199e+000   1.42088199e+000   0.00000000e-001   -1.42078206e-003   
107   5.00267226e-005   1.41977335e+000   1.41977335e+000   0.00000000e-001   -1.41967345e-003   
108   5.00489179e-005   1.41755762e+000   1.41755762e+000   0.00000000e-001   -1.41745779e-003   
109   5.00933083e-005   1.41313201e+000   1.41313201e+000   0.00000000e-001   -1.41303231e-003   
110   5.01820893e-005   1.40430188e+000   1.40430188e+000   0.00000000e-001   -1.40420242e-003   
111   5.02708702e-005   1.39549078e+000   1.39549078e+000   0.00000000e-001   -1.39539154e-003   
112   5.03596511e-005   1.38669687e+000   1.38669687e+000   0.00000000e-001   -1.38659782e-003   
113   5.04484321e-005   1.37791851e+000   1.37791851e+000   0.00000000e-001   -1.37781963e-003   
114   5.05372130e-005   1.36915425e+000   1.36915425e+000   0.00000000e-001   -1.36905553e-003   
115   5.06259939e-005   1.36040280e+000   1.36040280e+000   0.00000000e-001   -1.36030422e-003   
116   5.07147749e-005   1.35166300e+000   1.35166300e+000   0.00000000e-001   -1.35156456e-003   
117   5.08035558e-005   1.34293384e+000   1.34293384e+000   0.00000000e-001   -1.34283551e-003   
118   5.08923367e-005   1.33421438e+000   1.33421438e+000   0.00000000e-001   -1.33411617e-003   
119   5.10698986e-005   1.31680746e+000   1.31680746e+000   0.00000000e-001   -1.31670943e-003   
120   5.12297043e-005   1.30116433e+000   1.30116433e+000   0.00000000e-001   -1.30106644e-003   
121   5.13895100e-005   1.28554122e+000   1.28554122e+000   0.00000000e-001   -1.28544346e-003   
122   5.15493156e-005   1.26993573e+000   1.26993573e+000   0.00000000e-001   -1.26983808e-003   
123   5.17091213e-005   1.25434588e+000   1.25434588e+000   0.00000000e-001   -1.25424833e-003   
124   5.18689270e-005   1.23877004e+000   1.23877004e+000   0.00000000e-001   -1.23867257e-003   
125   5.20287327e-005   1.22320687e+000   1.22320687e+000   0.00000000e-001   -1.22310948e-003   
126   5.21885384e-005   1.20765527e+000   1.20765527e+000   0.00000000e-001   -1.20755795e-003   
127   5.23483441e-005   1.19211436e+000   1.19211436e+000   0.00000000e-001   -1.19201711e-003   
128   5.25081497e-005   1.17658341e+000   1.17658341e+000   0.00000000e-001   -1.17648622e-003   
129   5.26679554e-005   1.16106185e+000   1.16106185e+000   0.00000000e-001   -1.16096472e-003   
130   5.28277611e-005   1.14554922e+000   1.14554922e+000   0.00000000e-001   -1.14545215e-003   
131   5.31473725e-005   1.11455110e+000   1.11455110e+000   0.00000000e-001   -1.11445411e-003   
132   5.34669838e-005   1.08358450e+000   1.08358450e+000   0.00000000e-001   -1.08348761e-003   
133   5.37865952e-005   1.05264898e+000   1.05264898e+000   0.00000000e-001   -1.05255219e-003   
134   5.41062066e-005   1.02174467e+000   1.02174467e+000   0.00000000e-001   -1.02164798e-003   
135   5.44258179e-005   9.90872178e-001   9.90872178e-001   0.00000000e-001   -9.90775584e-004   
136   5.47454293e-005   9.60032478e-001   9.60032478e-001   0.00000000e-001   -9.59935987e-004   
137   5.50650407e-005   9.29226874e-001   9.29226874e-001   0.00000000e-001   -9.29130489e-004   
138   5.53526909e-005   9.01532296e-001   9.01532296e-001   0.00000000e-001   -9.01436017e-004   
139   5.56403411e-005   8.73867983e-001   8.73867983e-001   0.00000000e-001   -8.73771810e-004   
140   5.59279913e-005   8.46235456e-001   8.46235456e-001   0.00000000e-001   -8.46139393e-004   
141   5.61868766e-005   8.21394784e-001   8.21394784e-001   0.00000000e-001   -8.21298832e-004   
142   5.64457618e-005   7.96582602e-001   7.96582602e-001   0.00000000e-001   -7.96486760e-004   
143   5.67046470e-005   7.71800406e-001   7.71800406e-001   0.00000000e-001   -7.71704679e-004   
144   5.69376437e-005   7.49523451e-001   7.49523451e-001   0.00000000e-001   -7.49427841e-004   
145   5.71706403e-005   7.27273404e-001   7.27273404e-001   0.00000000e-001   -7.27177909e-004   
146   5.74036370e-005   7.05051668e-001   7.05051668e-001   0.00000000e-001   -7.04956294e-004   
147   5.76133340e-005   6.85077608e-001   6.85077608e-001   0.00000000e-001   -6.84982356e-004   
148   5.78230311e-005   6.65128911e-001   6.65128911e-001   0.00000000e-001   -6.65033780e-004   
149   5.80327281e-005   6.45206867e-001   6.45206867e-001   0.00000000e-001   -6.45111864e-004   
150   5.82214554e-005   6.27301011e-001   6.27301011e-001   0.00000000e-001   -6.27206134e-004   
151   5.84101827e-005   6.09418966e-001   6.09418966e-001   0.00000000e-001   -6.09324215e-004   
152   5.85989100e-005   5.91561908e-001   5.91561908e-001   0.00000000e-001   -5.91467290e-004   
153   5.87876373e-005   5.73731103e-001   5.73731103e-001   0.00000000e-001   -5.73636624e-004   
154   5.89574919e-005   5.57706994e-001   5.57706994e-001   0.00000000e-001   -5.57612654e-004   
155   5.91273465e-005   5.41706316e-001   5.41706316e-001   0.00000000e-001   -5.41612114e-004   
156   5.92972011e-005   5.25730214e-001   5.25730214e-001   0.00000000e-001   -5.25636157e-004   
157   5.94500702e-005   5.11373796e-001   5.11373796e-001   0.00000000e-001   -5.11279883e-004   
158   5.96029393e-005   4.97039237e-001   4.97039237e-001   0.00000000e-001   -4.96945467e-004   
159   5.97558085e-005   4.82727565e-001   4.82727565e-001   0.00000000e-001   -4.82633945e-004   
160   5.98933907e-005   4.69867585e-001   4.69867585e-001   0.00000000e-001   -4.69774114e-004   
161   6.00000000e-005   4.59916660e-001   4.59916660e-001   0.00000000e-001   -4.59823320e-004   
162   6.00067815e-005   4.59961695e-001   4.59961695e-001   0.00000000e-001   -4.59968335e-004   
163   6.00126140e-005   4.60000203e-001   4.60000203e-001   0.00000000e-001   -4.60006805e-004   
164   6.00242789e-005   4.60076160e-001   4.60076160e-001   0.00000000e-001   -4.60082672e-004   
165   6.00476087e-005   4.60223947e-001   4.60223947e-001   0.00000000e-001   -4.60230282e-004   
166   6.00709385e-005   4.60367845e-001   4.60367845e-001   0.00000000e-001   -4.60374013e-004   
167   6.01175981e-005   4.60640341e-001   4.60640341e-001   0.00000000e-001   -4.60646181e-004   
168   6.01642577e-005   4.60898729e-001   4.60898729e-001   0.00000000e-001   -4.60904267e-004   
169   6.02109173e-005   4.61143647e-001   4.61143647e-001   0.00000000e-001   -4.61148897e-004   
170   6.02575769e-005   4.61375714e-001   4.61375714e-001   0.00000000e-001   -4.61380688e-004   
171   6.03042366e-005   4.61595527e-001   4.61595527e-001   0.00000000e-001   -4.61600238e-004   
172   6.03508962e-005   4.61803666e-001   4.61803666e-001   0.00000000e-001   -4.61808127e-004   
173   6.03975558e-005   4.62000688e-001   4.62000688e-001   0.00000000e-001   -4.62004910e-004   
174   6.04442154e-005   4.62187131e-001   4.62187131e-001   0.00000000e-001   -4.62191127e-004   
175   6.04908750e-005   4.62363514e-001   4.62363514e-001   0.00000000e-001   -4.62367294e-004   
176   6.05375346e-005   4.62530334e-001   4.62530334e-001   0.00000000e-001   -4.62533910e-004   
177   6.05841943e-005   4.62688070e-001   4.62688070e-001   0.00000000e-001   -4.62691451e-004   
178   6.06308539e-005   4.62837179e-001   4.62837179e-001   0.00000000e-001   -4.62840375e-004   
179   6.06775135e-005   4.62978102e-001   4.62978102e-001   0.00000000e-001   -4.62981122e-004   
180   6.07241731e-005   4.63111257e-001   4.63111257e-001   0.00000000e-001   -4.63114111e-004   
181   6.07708327e-005   4.63237048e-001   4.63237048e-001   0.00000000e-001   -4.63239744e-004   
182   6.08174924e-005   4.63355858e-001   4.63355858e-001   0.00000000e-001   -4.63358405e-004   
183   6.08641520e-005   4.63468054e-001   4.63468054e-001   0.00000000e-001   -4.63470458e-004   
184   6.09108116e-005   4.63573984e-001   4.63573984e-001   0.00000000e-001   -4.63576255e-004   
185   6.09574712e-005   4.63673983e-001   4.63673983e-001   0.00000000e-001   -4.63676126e-004   
186   6.10041308e-005   4.63768367e-001   4.63768367e-001   0.00000000e-001   -4.63770390e-004   
187   6.10507904e-005   4.63857438e-001   4.63857438e-001   0.00000000e-001   -4.63859347e-004   
188   6.11441097e-005   4.64016383e-001   4.64016383e-001   0.00000000e-001   -4.64018087e-004   
189   6.12280970e-005   4.64145514e-001   4.64145514e-001   0.00000000e-001   -4.64147052e-004   
190   6.13120843e-005   4.64262013e-001   4.64262013e-001   0.00000000e-001   -4.64263400e-004   
191   6.13960716e-005   4.64367080e-001   4.64367080e-001   0.00000000e-001   -4.64368331e-004   
192   6.14800589e-005   4.64461809e-001   4.64461809e-001   0.00000000e-001   -4.64462937e-004   
193   6.15640462e-005   4.64547194e-001   4.64547194e-001   0.00000000e-001   -4.64548211e-004   
194   6.16480335e-005   4.64624138e-001   4.64624138e-001   0.00000000e-001   -4.64625054e-004   
195   6.17320209e-005   4.64693461e-001   4.64693461e-001   0.00000000e-001   -4.64694286e-004   
196   6.18160082e-005   4.64755904e-001   4.64755904e-001   0.00000000e-001   -4.64756647e-004   
197   6.18999955e-005   4.64812140e-001   4.64812140e-001   0.00000000e-001   -4.64812810e-004   
198   6.19839828e-005   4.64862779e-001   4.64862779e-001   0.00000000e-001   -4.64863382e-004   
199   6.20679701e-005   4.64908371e-001   4.64908371e-001   0.00000000e-001   -4.64908913e-004   
200   6.22359447e-005   4.64982967e-001   4.64982967e-001   0.00000000e-001   -4.64983411e-004   
201   6.23871219e-005   4.65038926e-001   4.65038926e-001   0.00000000e-001   -4.65039296e-004   
202   6.25382990e-005   4.65085549e-001   4.65085549e-001   0.00000000e-001   -4.65085858e-004   
203   6.26894762e-005   4.65124386e-001   4.65124386e-001   0.00000000e-001   -4.65124643e-004   
