Index    FREQ    Re(V(1))    Im(V(1))    VR(1)    VI(1)    VM(1)    VP(1)    VDB(1)    Re(I(V1))    Im(I(V1))    IR(V1)    II(V1)    IM(V1)    IP(V1)    IDB(V1)    
0   -5.00000000e+005   -7.11116631e-005   -1.02416073e-004   -7.11116631e-005   -1.02416073e-004   1.24683281e-004   -2.17771410e+000   -7.80838355e+001   7.14334127e-008   1.02192669e-007   7.14334127e-008   1.02192669e-007   1.24683896e-007   9.60736973e-001   -1.38083793e+002   
1   -4.90000000e+005   -9.06982043e-005   -1.33635240e-004   -9.06982043e-005   -1.33635240e-004   1.61507095e-004   -2.16708333e+000   -7.58361679e+001   9.11096352e-008   1.33356002e-007   9.11096352e-008   1.33356002e-007   1.61507860e-007   9.71430575e-001   -1.35836127e+002   
2   -4.80000000e+005   -2.67670163e-004   -1.71964350e-004   -2.67670163e-004   -1.71964350e-004   3.18149420e-004   -2.57054423e+000   -6.99473773e+001   2.68188795e-007   1.71157075e-007   2.68188795e-007   1.71157075e-007   3.18150867e-007   5.68032503e-001   -1.29947338e+002   
3   -4.70000000e+005   -3.58345304e-004   -2.08835243e-004   -3.58345304e-004   -2.08835243e-004   4.14757176e-004   -2.61393372e+000   -6.76441218e+001   3.58962014e-007   2.07777014e-007   3.58962014e-007   2.07777014e-007   4.14758985e-007   5.24705842e-001   -1.27644084e+002   
4   -4.60000000e+005   -3.80674631e-004   -8.48927964e-006   -3.80674631e-004   -8.48927964e-006   3.80769277e-004   -3.11929573e+000   -6.83867620e+001   3.80699167e-007   7.38902899e-009   3.80699167e-007   7.38902899e-009   3.80770868e-007   1.94066654e-002   -1.28386726e+002   
5   -4.50000000e+005   -5.43341443e-004   2.31747972e-005   -5.43341443e-004   2.31747972e-005   5.43835448e-004   3.09896613e+000   -6.52906498e+001   5.43275918e-007   -2.47110589e-008   5.43275918e-007   -2.47110589e-008   5.43837622e-007   -4.54539537e-002   -1.25290615e+002   
6   -4.40000000e+005   -2.63933088e-004   1.51364462e-004   -2.63933088e-004   1.51364462e-004   3.04256266e-004   2.62088971e+000   -7.03352094e+001   2.63514625e-007   -1.52094132e-007   2.63514625e-007   -1.52094132e-007   3.04257428e-007   -5.23467537e-001   -1.30335176e+002   
7   -4.30000000e+005   -3.84125333e-004   2.74632056e-004   -3.84125333e-004   2.74632056e-004   4.72202327e-004   2.52090060e+000   -6.65174375e+001   3.83383341e-007   -2.75669874e-007   3.83383341e-007   -2.75669874e-007   4.72204051e-007   -6.23393817e-001   -1.26517406e+002   
8   -4.20000000e+005   -8.12114930e-005   1.06962193e-004   -8.12114930e-005   1.06962193e-004   1.34298985e-004   2.22019386e+000   -7.74385454e+001   8.09292265e-008   -1.07176505e-007   8.09292265e-008   -1.07176505e-007   1.34299453e-007   -9.24037730e-001   -1.37438515e+002   
9   -4.10000000e+005   -8.67658009e-005   1.73152399e-004   -8.67658009e-005   1.73152399e-004   1.93675134e-004   2.03531955e+000   -7.42585227e+001   8.63197420e-008   -1.73375917e-007   8.63197420e-008   -1.73375917e-007   1.93675776e-007   -1.10884920e+000   -1.34258494e+002   
10   -4.00000000e+005   -5.89852691e-005   -5.88852839e-005   -5.89852691e-005   -5.88852839e-005   8.33470973e-005   -2.35704275e+000   -8.15821904e+001   5.91332640e-008   5.87370377e-008   5.91332640e-008   5.87370377e-008   8.33473605e-008   7.82036632e-001   -1.41582163e+002   
11   -3.90000000e+005   -1.11407450e-004   -1.99645480e-004   -1.11407450e-004   -1.99645480e-004   2.28626196e-004   -2.07978095e+000   -7.28174802e+001   1.11896670e-007   1.99372483e-007   1.11896670e-007   1.99372483e-007   2.28626883e-007   1.05936126e+000   -1.32817454e+002   
12   -3.80000000e+005   -1.93878777e-004   -1.21105514e-004   -1.93878777e-004   -1.21105514e-004   2.28594675e-004   -2.58324827e+000   -7.28186778e+001   1.94167929e-007   1.20642607e-007   1.94167929e-007   1.20642607e-007   2.28595327e-007   5.55956781e-001   -1.32818653e+002   
13   -3.70000000e+005   -5.37298140e-004   -3.35554284e-004   -5.37298140e-004   -3.35554284e-004   6.33471364e-004   -2.58333744e+000   -6.39654603e+001   5.38078230e-007   3.34305185e-007   5.38078230e-007   3.34305185e-007   6.33473076e-007   5.55930435e-001   -1.23965437e+002   
14   -3.60000000e+005   -2.86249611e-004   -1.28748354e-005   -2.86249611e-004   -1.28748354e-005   2.86539004e-004   -3.09664529e+000   -7.08563251e+001   2.86278733e-007   1.22273541e-008   2.86278733e-007   1.22273541e-008   2.86539737e-007   4.26854164e-002   -1.30856303e+002   
15   -3.50000000e+005   -8.61036895e-004   2.94589755e-005   -8.61036895e-004   2.94589755e-005   8.61540693e-004   3.10739262e+000   -6.12944841e+001   8.60972111e-007   -3.13524945e-008   8.60972111e-007   -3.13524945e-008   8.61542776e-007   -3.63991430e-002   -1.21294463e+002   
16   -3.40000000e+005   -2.14705876e-004   1.10487226e-004   -2.14705876e-004   1.10487226e-004   2.41466437e-004   2.66633492e+000   -7.23428645e+001   2.14469844e-007   -1.10945899e-007   2.14469844e-007   -1.10945899e-007   2.41466988e-007   -4.77394014e-001   -1.32342845e+002   
17   -3.30000000e+005   -6.23985697e-004   4.58916764e-004   -6.23985697e-004   4.58916764e-004   7.74572622e-004   2.50746202e+000   -6.22187572e+001   6.23034156e-007   -4.60210568e-007   6.23034156e-007   -4.60210568e-007   7.74574287e-007   -6.36204082e-001   -1.22218738e+002   
18   -3.20000000e+005   -7.81668069e-005   9.28699781e-005   -7.81668069e-005   9.28699781e-005   1.21387324e-004   2.27044035e+000   -7.83165332e+001   7.79800808e-008   -9.30271417e-008   7.79800808e-008   -9.30271417e-008   1.21387570e-007   -8.73162919e-001   -1.38316516e+002   
19   -3.10000000e+005   -1.23474349e-004   3.06166275e-004   -1.23474349e-004   3.06166275e-004   3.30126798e-004   1.95413724e+000   -6.96263844e+001   1.22878002e-007   -3.06406777e-007   1.22878002e-007   -3.06406777e-007   3.30127424e-007   -1.18940320e+000   -1.29626368e+002   
20   -3.00000000e+005   -4.60762141e-005   -2.79613796e-005   -4.60762141e-005   -2.79613796e-005   5.38967184e-005   -2.59615114e+000   -8.53687535e+001   4.61289201e-008   2.78745280e-008   4.61289201e-008   2.78745280e-008   5.38968142e-008   5.43556555e-001   -1.45368738e+002   
21   -2.90000000e+005   -1.60976715e-004   -3.51550531e-004   -1.60976715e-004   -3.51550531e-004   3.86653952e-004   -2.00020450e+000   -6.82535509e+001   1.61617283e-007   3.51257211e-007   1.61617283e-007   3.51257211e-007   3.86654593e-007   1.13956603e+000   -1.28253537e+002   
22   -2.80000000e+005   -1.39779894e-004   -8.99619085e-005   -1.39779894e-004   -8.99619085e-005   1.66227446e-004   -2.56973190e+000   -7.55859454e+001   1.39938163e-007   8.97159948e-008   1.39938163e-007   8.97159948e-008   1.66227703e-007   5.70101462e-001   -1.35585932e+002   
23   -2.70000000e+005   -9.54928250e-004   -6.26907240e-004   -9.54928250e-004   -6.26907240e-004   1.14232248e-003   -2.56066389e+000   -5.88442255e+001   9.55991773e-007   6.25287242e-007   9.55991773e-007   6.25287242e-007   1.14232412e-006   5.79232309e-001   -1.18844213e+002   
24   -2.60000000e+005   -2.23166178e-004   -2.08022933e-005   -2.23166178e-004   -2.08022933e-005   2.24133617e-004   -3.04864687e+000   -7.29898600e+001   2.23200161e-007   2.04377227e-008   2.23200161e-007   2.04377227e-008   2.24133916e-007   9.13121583e-002   -1.32989848e+002   
25   -2.50000000e+005   -1.63032683e-003   4.83532898e-005   -1.63032683e-003   4.83532898e-005   1.63104372e-003   3.11194270e+000   -5.57506880e+001   1.63025087e-006   -5.09142012e-008   1.63025087e-006   -5.09142012e-008   1.63104573e-006   -3.12207516e-002   -1.15750677e+002   
26   -2.40000000e+005   -1.86492438e-004   8.41359517e-005   -1.86492438e-004   8.41359517e-005   2.04592981e-004   2.71778330e+000   -7.37821854e+001   1.86365564e-007   -8.44171757e-008   1.86365564e-007   -8.44171757e-008   2.04593214e-007   -4.25317320e-001   -1.33782176e+002   
27   -2.30000000e+005   -1.23419784e-003   9.29986454e-004   -1.23419784e-003   9.29986454e-004   1.54535404e-003   2.49584580e+000   -5.62194402e+001   1.23285388e-006   -9.31770033e-007   1.23285388e-006   -9.31770033e-007   1.54535565e-006   -6.47191981e-001   -1.16219431e+002   
28   -2.20000000e+005   -7.51773694e-005   9.55036965e-005   -7.51773694e-005   9.55036965e-005   1.21542556e-004   2.23766321e+000   -7.83054327e+001   7.50453545e-008   -9.56076143e-008   7.50453545e-008   -9.56076143e-008   1.21542672e-007   -9.05311743e-001   -1.38305424e+002   
29   -2.10000000e+005   -2.22765471e-004   6.61917229e-004   -2.22765471e-004   6.61917229e-004   6.98397361e-004   1.89543532e+000   -6.31179482e+001   2.21892092e-007   -6.62211162e-007   2.21892092e-007   -6.62211162e-007   6.98397969e-007   -1.24747680e+000   -1.23117941e+002   
30   -2.00000000e+005   -1.84558733e-005   6.41845233e-006   -1.84558733e-005   6.41845233e-006   1.95401072e-005   2.80690328e+000   -9.41814611e+001   1.84478077e-008   -6.44164467e-009   1.84478077e-008   -6.44164467e-009   1.95401227e-008   -3.35946014e-001   -1.54181454e+002   
31   -1.90000000e+005   -3.13525840e-004   -8.08321532e-004   -3.13525840e-004   -8.08321532e-004   8.66996051e-004   -1.94080460e+000   -6.12396576e+001   3.14490818e-007   8.07947244e-007   3.14490818e-007   8.07947244e-007   8.66996669e-007   1.19959425e+000   -1.21239651e+002   
32   -1.80000000e+005   -7.12562941e-005   -7.30279309e-005   -7.12562941e-005   -7.30279309e-005   1.02032045e-004   -2.34391631e+000   -7.98252682e+001   7.13388867e-008   7.29473419e-008   7.13388867e-008   7.29473419e-008   1.02032110e-007   7.96545371e-001   -1.39825263e+002   
33   -1.70000000e+005   -2.31085279e-003   -1.57172667e-003   -2.31085279e-003   -1.57172667e-003   2.79470309e-003   -2.54431339e+000   -5.10732865e+001   2.31253162e-006   1.56925836e-006   2.31253162e-006   1.56925836e-006   2.79470468e-006   5.96211125e-001   -1.11073282e+002   
34   -1.60000000e+005   -1.60072157e-004   -4.94118464e-005   -1.60072157e-004   -4.94118464e-005   1.67525001e-004   -2.84218729e+000   -7.55184074e+001   1.60121831e-007   4.92509243e-008   1.60121831e-007   4.92509243e-008   1.67525086e-007   2.98400050e-001   -1.35518403e+002   
35   -1.50000000e+005   -4.39895045e-003   1.09088249e-004   -4.39895045e-003   1.09088249e-004   4.40030286e-003   3.11679904e+000   -4.71303486e+001   4.39884763e-006   -1.13234162e-007   4.39884763e-006   -1.13234162e-007   4.40030482e-006   -2.57360950e-002   -1.07130345e+002   
36   -1.40000000e+005   -1.68792493e-004   5.70331512e-005   -1.68792493e-004   5.70331512e-005   1.78167579e-004   2.81574749e+000   -7.49834264e+001   1.68742324e-007   -5.71816288e-008   1.68742324e-007   -5.71816288e-008   1.78167648e-007   -3.26724811e-001   -1.34983423e+002   
37   -1.30000000e+005   -3.74108500e-003   2.84154590e-003   -3.74108500e-003   2.84154590e-003   4.69788251e-003   2.49200670e+000   -4.65619570e+001   3.73876399e-006   -2.84460167e-006   3.73876399e-006   -2.84460167e-006   4.69788408e-006   -6.50402769e-001   -1.06561954e+002   
38   -1.20000000e+005   -5.08349931e-005   1.34652964e-004   -5.08349931e-005   1.34652964e-004   1.43929209e-004   1.93177972e+000   -7.68370212e+001   5.07334672e-008   -1.34691292e-007   5.07334672e-008   -1.34691292e-007   1.43929250e-007   -1.21056692e+000   -1.36837019e+002   
39   -1.10000000e+005   -7.16292967e-004   2.35062863e-003   -7.16292967e-004   2.35062863e-003   2.45734218e-003   1.86658141e+000   -5.21906873e+001   7.14668329e-007   -2.35112370e-006   7.14668329e-007   -2.35112370e-006   2.45734276e-006   -1.27570239e+000   -1.12190685e+002   
40   -1.00000000e+005   1.28283817e-004   7.12712794e-005   1.28283817e-004   7.12712794e-005   1.46752625e-004   5.07113351e-001   -7.66682825e+001   -1.28328598e-007   -7.11906763e-008   -1.28328598e-007   -7.11906763e-008   1.46752654e-007   -2.63510762e+000   -1.36668281e+002   
41   -9.00000000e+004   -1.23590799e-003   -3.60499120e-003   -1.23590799e-003   -3.60499120e-003   3.81096184e-003   -1.90107159e+000   -4.83793080e+001   1.23794657e-006   3.60429232e-006   1.23794657e-006   3.60429232e-006   3.81096245e-006   1.23995557e+000   -1.08379307e+002   
42   -8.00000000e+004   2.23863609e-004   -1.58825582e-004   2.23863609e-004   -1.58825582e-004   2.74482205e-004   -6.17056605e-001   -7.12297161e+001   -2.23783774e-007   1.58938108e-007   -2.23783774e-007   1.58938108e-007   2.74482239e-007   2.52403339e+000   -1.31229715e+002   
43   -7.00000000e+004   -1.32268815e-002   -9.34829856e-003   -1.32268815e-002   -9.34829856e-003   1.61969466e-002   -2.52634075e+000   -3.58113370e+001   1.32309931e-005   9.34248107e-006   1.32309931e-005   9.34248107e-006   1.61969482e-005   6.14812079e-001   -9.58113361e+001   
44   -6.00000000e+004   1.00357670e-004   -4.47654575e-004   1.00357670e-004   -4.47654575e-004   4.58766041e-004   -1.35025726e+000   -6.67681747e+001   -1.00188908e-007   4.47692409e-007   -1.00188908e-007   4.47692409e-007   4.58766074e-007   1.79095840e+000   -1.26768174e+002   
45   -5.00000000e+004   -3.89976137e-002   3.79877955e-004   -3.89976137e-002   3.79877955e-004   3.89994639e-002   3.13185191e+000   -2.81788273e+001   3.89974944e-005   -3.92129417e-007   3.89974944e-005   -3.92129417e-007   3.89994658e-005   -1.00549076e-002   -8.81788268e+001   
46   -4.00000000e+004   -2.49631405e-004   -5.88662491e-004   -2.49631405e-004   -5.88662491e-004   6.39405479e-004   -1.97187511e+000   -6.38844729e+001   2.49779352e-007   5.88599752e-007   2.49779352e-007   5.88599752e-007   6.39405499e-007   1.16946622e+000   -1.23884473e+002   
47   -3.00000000e+004   -7.03464105e-002   5.17613672e-002   -7.03464105e-002   5.17613672e-002   8.73376013e-002   2.50723725e+000   -2.11759748e+001   7.03366537e-005   -5.17746272e-005   7.03366537e-005   -5.17746272e-005   8.73376028e-005   -6.34543902e-001   -8.11759746e+001   
48   -2.00000000e+004   -6.44570228e-004   -4.22634870e-004   -6.44570228e-004   -4.22634870e-004   7.70772996e-004   -2.56123150e+000   -6.22614702e+001   6.44623338e-007   4.22553870e-007   6.44623338e-007   4.22553870e-007   7.70773002e-007   5.80235492e-001   -1.22261470e+002   
49   -1.00000000e+004   -9.20403026e-002   2.85256883e-001   -9.20403026e-002   2.85256883e-001   2.99738063e-001   1.88290815e+000   -1.04651621e+001   9.20223794e-005   -2.85262666e-004   9.20223794e-005   -2.85262666e-004   2.99738064e-004   -1.25874733e+000   -7.04651621e+001   
50   0.00000000e-001   9.43061545e-001   0.00000000e-001   9.43061545e-001   0.00000000e-001   9.43061545e-001   0.00000000e-001   -5.09199283e-001   -9.43061545e-004   0.00000000e-001   -9.43061545e-004   0.00000000e-001   9.43061545e-004   3.14159265e+000   -6.05091993e+001   
51   1.00000000e+004   -9.20403026e-002   -2.85256883e-001   -9.20403026e-002   -2.85256883e-001   2.99738063e-001   -1.88290815e+000   -1.04651621e+001   9.20223794e-005   2.85262666e-004   9.20223794e-005   2.85262666e-004   2.99738064e-004   1.25874733e+000   -7.04651621e+001   
52   2.00000000e+004   -6.44570228e-004   4.22634870e-004   -6.44570228e-004   4.22634870e-004   7.70772996e-004   2.56123150e+000   -6.22614702e+001   6.44623338e-007   -4.22553870e-007   6.44623338e-007   -4.22553870e-007   7.70773002e-007   -5.80235492e-001   -1.22261470e+002   
53   3.00000000e+004   -7.03464105e-002   -5.17613672e-002   -7.03464105e-002   -5.17613672e-002   8.73376013e-002   -2.50723725e+000   -2.11759748e+001   7.03366537e-005   5.17746272e-005   7.03366537e-005   5.17746272e-005   8.73376028e-005   6.34543902e-001   -8.11759746e+001   
54   4.00000000e+004   -2.49631405e-004   5.88662491e-004   -2.49631405e-004   5.88662491e-004   6.39405479e-004   1.97187511e+000   -6.38844729e+001   2.49779352e-007   -5.88599752e-007   2.49779352e-007   -5.88599752e-007   6.39405499e-007   -1.16946622e+000   -1.23884473e+002   
55   5.00000000e+004   -3.89976137e-002   -3.79877955e-004   -3.89976137e-002   -3.79877955e-004   3.89994639e-002   -3.13185191e+000   -2.81788273e+001   3.89974944e-005   3.92129417e-007   3.89974944e-005   3.92129417e-007   3.89994658e-005   1.00549076e-002   -8.81788268e+001   
56   6.00000000e+004   1.00357670e-004   4.47654575e-004   1.00357670e-004   4.47654575e-004   4.58766041e-004   1.35025726e+000   -6.67681747e+001   -1.00188908e-007   -4.47692409e-007   -1.00188908e-007   -4.47692409e-007   4.58766074e-007   -1.79095840e+000   -1.26768174e+002   
57   7.00000000e+004   -1.32268815e-002   9.34829856e-003   -1.32268815e-002   9.34829856e-003   1.61969466e-002   2.52634075e+000   -3.58113370e+001   1.32309931e-005   -9.34248107e-006   1.32309931e-005   -9.34248107e-006   1.61969482e-005   -6.14812079e-001   -9.58113361e+001   
58   8.00000000e+004   2.23863609e-004   1.58825582e-004   2.23863609e-004   1.58825582e-004   2.74482205e-004   6.17056605e-001   -7.12297161e+001   -2.23783774e-007   -1.58938108e-007   -2.23783774e-007   -1.58938108e-007   2.74482239e-007   -2.52403339e+000   -1.31229715e+002   
59   9.00000000e+004   -1.23590799e-003   3.60499120e-003   -1.23590799e-003   3.60499120e-003   3.81096184e-003   1.90107159e+000   -4.83793080e+001   1.23794657e-006   -3.60429232e-006   1.23794657e-006   -3.60429232e-006   3.81096245e-006   -1.23995557e+000   -1.08379307e+002   
60   1.00000000e+005   1.28283817e-004   -7.12712794e-005   1.28283817e-004   -7.12712794e-005   1.46752625e-004   -5.07113351e-001   -7.66682825e+001   -1.28328598e-007   7.11906763e-008   -1.28328598e-007   7.11906763e-008   1.46752654e-007   2.63510762e+000   -1.36668281e+002   
61   1.10000000e+005   -7.16292967e-004   -2.35062863e-003   -7.16292967e-004   -2.35062863e-003   2.45734218e-003   -1.86658141e+000   -5.21906873e+001   7.14668329e-007   2.35112370e-006   7.14668329e-007   2.35112370e-006   2.45734276e-006   1.27570239e+000   -1.12190685e+002   
62   1.20000000e+005   -5.08349931e-005   -1.34652964e-004   -5.08349931e-005   -1.34652964e-004   1.43929209e-004   -1.93177972e+000   -7.68370212e+001   5.07334672e-008   1.34691292e-007   5.07334672e-008   1.34691292e-007   1.43929250e-007   1.21056692e+000   -1.36837019e+002   
63   1.30000000e+005   -3.74108500e-003   -2.84154590e-003   -3.74108500e-003   -2.84154590e-003   4.69788251e-003   -2.49200670e+000   -4.65619570e+001   3.73876399e-006   2.84460167e-006   3.73876399e-006   2.84460167e-006   4.69788408e-006   6.50402769e-001   -1.06561954e+002   
64   1.40000000e+005   -1.68792493e-004   -5.70331512e-005   -1.68792493e-004   -5.70331512e-005   1.78167579e-004   -2.81574749e+000   -7.49834264e+001   1.68742324e-007   5.71816288e-008   1.68742324e-007   5.71816288e-008   1.78167648e-007   3.26724811e-001   -1.34983423e+002   
65   1.50000000e+005   -4.39895045e-003   -1.09088249e-004   -4.39895045e-003   -1.09088249e-004   4.40030286e-003   -3.11679904e+000   -4.71303486e+001   4.39884763e-006   1.13234162e-007   4.39884763e-006   1.13234162e-007   4.40030482e-006   2.57360950e-002   -1.07130345e+002   
66   1.60000000e+005   -1.60072157e-004   4.94118464e-005   -1.60072157e-004   4.94118464e-005   1.67525001e-004   2.84218729e+000   -7.55184074e+001   1.60121831e-007   -4.92509243e-008   1.60121831e-007   -4.92509243e-008   1.67525086e-007   -2.98400050e-001   -1.35518403e+002   
67   1.70000000e+005   -2.31085279e-003   1.57172667e-003   -2.31085279e-003   1.57172667e-003   2.79470309e-003   2.54431339e+000   -5.10732865e+001   2.31253162e-006   -1.56925836e-006   2.31253162e-006   -1.56925836e-006   2.79470468e-006   -5.96211125e-001   -1.11073282e+002   
68   1.80000000e+005   -7.12562941e-005   7.30279309e-005   -7.12562941e-005   7.30279309e-005   1.02032045e-004   2.34391631e+000   -7.98252682e+001   7.13388867e-008   -7.29473419e-008   7.13388867e-008   -7.29473419e-008   1.02032110e-007   -7.96545371e-001   -1.39825263e+002   
