Title: NOISE test of -r output ASCII format with .OP
Date: Mon May 07 05:19:40 2018
Plotname: DC operating point
Flags: real
No. Variables: 3
No. Points: 1                 
Variables:
	0	frequency	frequency
	1	V(1)	voltage
	2	V1#branch	current
Values:
0	0.00000000e+00
	5.00000000e+00
	-5.00000000e-05

Plotname: Noise Analysis
Flags: complex
No. Variables: 3
No. Points: 16                
Variables:
	0	frequency	frequency
	1	V(1)	voltage
	2	V1#branch	current
Values:
0	1.00000000e+02, 0.00000000e+00
	1.00000000e+00, 0.00000000e+00
	-1.00000000e-05, 0.00000000e+00

1	1.58489319e+02, 0.00000000e+00
	1.00000000e+00, 0.00000000e+00
	-1.00000000e-05, 0.00000000e+00

2	2.51188643e+02, 0.00000000e+00
	1.00000000e+00, 0.00000000e+00
	-1.00000000e-05, 0.00000000e+00

3	3.98107171e+02, 0.00000000e+00
	1.00000000e+00, 0.00000000e+00
	-1.00000000e-05, 0.00000000e+00

4	6.30957344e+02, 0.00000000e+00
	1.00000000e+00, 0.00000000e+00
	-1.00000000e-05, 0.00000000e+00

5	1.00000000e+03, 0.00000000e+00
	1.00000000e+00, 0.00000000e+00
	-1.00000000e-05, 0.00000000e+00

6	1.58489319e+03, 0.00000000e+00
	1.00000000e+00, 0.00000000e+00
	-1.00000000e-05, 0.00000000e+00

7	2.51188643e+03, 0.00000000e+00
	1.00000000e+00, 0.00000000e+00
	-1.00000000e-05, 0.00000000e+00

8	3.98107171e+03, 0.00000000e+00
	1.00000000e+00, 0.00000000e+00
	-1.00000000e-05, 0.00000000e+00

9	6.30957344e+03, 0.00000000e+00
	1.00000000e+00, 0.00000000e+00
	-1.00000000e-05, 0.00000000e+00

10	1.00000000e+04, 0.00000000e+00
	1.00000000e+00, 0.00000000e+00
	-1.00000000e-05, 0.00000000e+00

11	1.58489319e+04, 0.00000000e+00
	1.00000000e+00, 0.00000000e+00
	-1.00000000e-05, 0.00000000e+00

12	2.51188643e+04, 0.00000000e+00
	1.00000000e+00, 0.00000000e+00
	-1.00000000e-05, 0.00000000e+00

13	3.98107171e+04, 0.00000000e+00
	1.00000000e+00, 0.00000000e+00
	-1.00000000e-05, 0.00000000e+00

14	6.30957344e+04, 0.00000000e+00
	1.00000000e+00, 0.00000000e+00
	-1.00000000e-05, 0.00000000e+00

15	1.00000000e+05, 0.00000000e+00
	1.00000000e+00, 0.00000000e+00
	-1.00000000e-05, 0.00000000e+00

