Index        TIME          {V(3)+1.0}       {V(4)+1.0}       {V(5)+1.0}       {V(7)+1.0}       {V(8)+1.0}       {V(9)+1.0}       {V(10)+1.0}      {V(11)+1.0}
0       0.00000000e+00   1.00000000e+00   1.10000000e+01   1.00000001e+00   1.10000000e+01   1.00000001e+00   1.10000000e+01   1.00000001e+00   1.10000000e+01   
1       5.00000000e-11   1.00000000e+00   1.10000000e+01   1.00000001e+00   1.10000000e+01   1.00000001e+00   1.10000000e+01   1.00000001e+00   1.10000000e+01   
2       1.50000000e-10   1.00000000e+00   1.10000000e+01   1.00000001e+00   1.10000000e+01   1.00000001e+00   1.10000000e+01   1.00000001e+00   1.10000000e+01   
3       3.50000000e-10   1.00000000e+00   1.10000000e+01   1.00000001e+00   1.10000000e+01   1.00000001e+00   1.10000000e+01   1.00000001e+00   1.10000000e+01   
4       7.50000000e-10   1.00000000e+00   1.10000000e+01   1.00000001e+00   1.10000000e+01   1.00000001e+00   1.10000000e+01   1.00000001e+00   1.10000000e+01   
5       1.55000000e-09   1.00000000e+00   1.10000000e+01   1.00000001e+00   1.10000000e+01   1.00000001e+00   1.10000000e+01   1.00000001e+00   1.10000000e+01   
6       2.55000000e-09   1.00000000e+00   1.10000000e+01   1.00000001e+00   1.10000000e+01   1.00000001e+00   1.10000000e+01   1.00000001e+00   1.10000000e+01   
7       3.55000000e-09   1.00000000e+00   1.10000000e+01   1.00000001e+00   1.10000000e+01   1.00000001e+00   1.10000000e+01   1.00000001e+00   1.10000000e+01   
8       4.55000000e-09   1.00000000e+00   1.10000000e+01   1.00000001e+00   1.10000000e+01   1.00000001e+00   1.10000000e+01   1.00000001e+00   1.10000000e+01   
9       5.55000000e-09   1.00000000e+00   1.10000000e+01   1.00000001e+00   1.10000000e+01   1.00000001e+00   1.10000000e+01   1.00000001e+00   1.10000000e+01   
10      6.55000000e-09   1.00000000e+00   1.10000000e+01   1.00000001e+00   1.10000000e+01   1.00000001e+00   1.10000000e+01   1.00000001e+00   1.10000000e+01   
11      7.55000000e-09   1.00000000e+00   1.10000000e+01   1.00000001e+00   1.10000000e+01   1.00000001e+00   1.10000000e+01   1.00000001e+00   1.10000000e+01   
12      8.55000000e-09   1.00000000e+00   1.10000000e+01   1.00000001e+00   1.10000000e+01   1.00000001e+00   1.10000000e+01   1.00000001e+00   1.10000000e+01   
13      9.55000000e-09   1.00000000e+00   1.10000000e+01   1.00000001e+00   1.10000000e+01   1.00000001e+00   1.10000000e+01   1.00000001e+00   1.10000000e+01   
14      1.00000000e-08   1.00000000e+00   1.10000000e+01   1.00000001e+00   1.10000000e+01   1.00000001e+00   1.10000000e+01   1.00000001e+00   1.10000000e+01   
15      1.01000000e-08   1.05000000e+00   1.10012528e+01   1.00002011e+00   1.10000005e+01   1.00000001e+00   1.10000000e+01   1.00000001e+00   1.10000000e+01   
16      1.01125000e-08   1.05625000e+00   1.10014137e+01   1.00002270e+00   1.10000006e+01   1.00000002e+00   1.10000000e+01   1.00000001e+00   1.10000000e+01   
17      1.01375000e-08   1.06875000e+00   1.10017361e+01   1.00002782e+00   1.10000007e+01   1.00000002e+00   1.10000000e+01   1.00000001e+00   1.10000000e+01   
18      1.01625000e-08   1.08125000e+00   1.10020566e+01   1.00003278e+00   1.10000008e+01   1.00000002e+00   1.10000000e+01   1.00000001e+00   1.10000000e+01   
19      1.02125000e-08   1.10625000e+00   1.10026888e+01   1.00004211e+00   1.10000011e+01   1.00000002e+00   1.10000000e+01   1.00000001e+00   1.10000000e+01   
20      1.03125000e-08   1.15625000e+00   1.10039192e+01   1.00005856e+00   1.10000015e+01   1.00000003e+00   1.10000000e+01   1.00000001e+00   1.10000000e+01   
21      1.04125000e-08   1.20625000e+00   1.10051165e+01   1.00007303e+00   1.10000018e+01   1.00000003e+00   1.10000000e+01   1.00000001e+00   1.10000000e+01   
22      1.05125000e-08   1.25625000e+00   1.10062820e+01   1.00008569e+00   1.10000021e+01   1.00000003e+00   1.10000000e+01   1.00000001e+00   1.10000000e+01   
23      1.07125000e-08   1.35625000e+00   1.10085422e+01   1.00010736e+00   1.10000025e+01   1.00000004e+00   1.10000000e+01   1.00000001e+00   1.10000000e+01   
24      1.08151487e-08   1.40757436e+00   1.10096459e+01   1.00011572e+00   1.10000027e+01   1.00000004e+00   1.10000000e+01   1.00000001e+00   1.10000000e+01   
25      1.08696634e-08   1.43483168e+00   1.10102237e+01   1.00011979e+00   1.10000027e+01   1.00000004e+00   1.10000000e+01   1.00000001e+00   1.10000000e+01   
26      1.09241780e-08   1.46208899e+00   1.10107933e+01   1.00012352e+00   1.10000028e+01   1.00000004e+00   1.10000000e+01   1.00000001e+00   1.10000000e+01   
27      1.09637748e-08   1.48188739e+00   1.10112029e+01   1.00012605e+00   1.10000028e+01   1.00000004e+00   1.10000000e+01   1.00000001e+00   1.10000000e+01   
28      1.10033716e-08   1.50168578e+00   1.10116082e+01   1.00012842e+00   1.10000029e+01   1.00000003e+00   1.10000000e+01   1.00000001e+00   1.10000000e+01   
29      1.10429683e-08   1.52148417e+00   1.10120094e+01   1.00013063e+00   1.10000029e+01   1.00000003e+00   1.10000000e+01   1.00000001e+00   1.10000000e+01   
30      1.11221619e-08   1.56108096e+00   1.10127958e+01   1.00013447e+00   1.10000029e+01   1.00000003e+00   1.10000000e+01   1.00000001e+00   1.10000000e+01   
31      1.11931670e-08   1.59658349e+00   1.10134883e+01   1.00013748e+00   1.10000030e+01   1.00000003e+00   1.10000000e+01   1.00000001e+00   1.10000000e+01   
32      1.12641720e-08   1.63208602e+00   1.10141686e+01   1.00014008e+00   1.10000030e+01   1.00000003e+00   1.10000000e+01   1.00000001e+00   1.10000000e+01   
33      1.14061822e-08   1.70309109e+00   1.10154823e+01   1.00014393e+00   1.10000029e+01   1.00000003e+00   1.10000000e+01   1.00000001e+00   1.10000000e+01   
34      1.15224703e-08   1.76123517e+00   1.10165279e+01   1.00014627e+00   1.10000029e+01   1.00000002e+00   1.10000000e+01   1.00000001e+00   1.10000000e+01   
35      1.16387585e-08   1.81937925e+00   1.10175344e+01   1.00014775e+00   1.10000029e+01   1.00000002e+00   1.10000000e+01   1.00000001e+00   1.10000000e+01   
36      1.17550467e-08   1.87752333e+00   1.10184678e+01   1.00014790e+00   1.10000028e+01   1.00000002e+00   1.10000000e+01   1.00000001e+00   1.10000000e+01   
37      1.19595719e-08   1.97978593e+00   1.10197417e+01   1.00014264e+00   1.10000025e+01   1.00000001e+00   1.10000000e+01   1.00000001e+00   1.10000000e+01   
38      1.21436445e-08   2.07182227e+00   1.10204511e+01   1.00013197e+00   1.10000021e+01   1.00000001e+00   1.10000000e+01   1.00000001e+00   1.10000000e+01   
39      1.23277172e-08   2.16385861e+00   1.10205964e+01   1.00011434e+00   1.10000015e+01   9.99999998e-01   1.10000000e+01   1.00000001e+00   1.10000000e+01   
40      1.24933826e-08   2.24669131e+00   1.10201740e+01   1.00009212e+00   1.10000009e+01   9.99999989e-01   1.10000000e+01   1.00000001e+00   1.10000000e+01   
41      1.26590480e-08   2.32952402e+00   1.10191105e+01   1.00006306e+00   1.10000001e+01   9.99999979e-01   1.10000000e+01   1.00000001e+00   1.10000000e+01   
42      1.28081469e-08   2.40407345e+00   1.10175668e+01   1.00003102e+00   1.09999993e+01   9.99999970e-01   1.10000000e+01   1.00000001e+00   1.10000000e+01   
43      1.29572458e-08   2.47862289e+00   1.10153752e+01   9.99992851e-01   1.09999984e+01   9.99999960e-01   1.10000000e+01   1.00000001e+00   1.10000000e+01   
44      1.30878607e-08   2.54393035e+00   1.10129135e+01   9.99954536e-01   1.09999974e+01   9.99999950e-01   1.10000000e+01   1.00000001e+00   1.10000000e+01   
45      1.32054141e-08   2.60270706e+00   1.10102276e+01   9.99915995e-01   1.09999965e+01   9.99999941e-01   1.10000000e+01   1.00000001e+00   1.10000000e+01   
46      1.33229675e-08   2.66148377e+00   1.10070427e+01   9.99873343e-01   1.09999955e+01   9.99999932e-01   1.10000000e+01   1.00000001e+00   1.10000000e+01   
47      1.34405210e-08   2.72026049e+00   1.10033306e+01   9.99826542e-01   1.09999945e+01   9.99999922e-01   1.10000000e+01   1.00000001e+00   1.10000000e+01   
48      1.36756278e-08   2.83781391e+00   1.09945517e+01   9.99722585e-01   1.09999921e+01   9.99999902e-01   1.10000000e+01   1.00000001e+00   1.10000000e+01   
49      1.39107347e-08   2.95536734e+00   1.09834644e+01   9.99601848e-01   1.09999895e+01   9.99999882e-01   1.10000000e+01   1.00000001e+00   1.10000000e+01   
50      1.41458415e-08   3.07292076e+00   1.09697816e+01   9.99463574e-01   1.09999866e+01   9.99999861e-01   1.10000000e+01   1.00000001e+00   1.10000000e+01   
51      1.46160552e-08   3.30802762e+00   1.09334173e+01   9.99134066e-01   1.09999801e+01   9.99999819e-01   1.10000000e+01   1.00000001e+00   1.10000000e+01   
52      1.50862689e-08   3.54313447e+00   1.08839392e+01   9.98734183e-01   1.09999726e+01   9.99999778e-01   1.10000000e+01   1.00000001e+00   1.10000000e+01   
53      1.60266964e-08   4.01334818e+00   1.07370817e+01   9.97722530e-01   1.09999552e+01   9.99999706e-01   1.10000000e+01   1.00000001e+00   1.10000000e+01   
54      1.69671238e-08   4.48356188e+00   1.05166148e+01   9.96407211e-01   1.09999349e+01   9.99999641e-01   1.10000000e+01   1.00000001e+00   1.10000000e+01   
55      1.79075512e-08   4.95377559e+00   1.02066805e+01   9.94731723e-01   1.09999108e+01   9.99999573e-01   1.10000000e+01   1.00000001e+00   1.10000000e+01   
56      1.88479786e-08   5.42398929e+00   9.78888936e+00   9.92607707e-01   1.09998819e+01   9.99999488e-01   1.10000000e+01   1.00000001e+00   1.10000000e+01   
57      1.95882038e-08   5.79410189e+00   9.33950553e+00   9.90519088e-01   1.09998562e+01   9.99999435e-01   1.10000000e+01   1.00000001e+00   1.10000000e+01   
58      1.98479057e-08   5.92395286e+00   9.16997220e+00   9.89934335e-01   1.09998514e+01   9.99999481e-01   1.10000000e+01   1.00000001e+00   1.10000000e+01   
59      1.99973074e-08   5.99865368e+00   9.06833250e+00   9.89728434e-01   1.09998521e+01   9.99999557e-01   1.10000000e+01   1.00000001e+00   1.10000000e+01   
60      2.01411036e-08   6.07055181e+00   8.96650184e+00   9.89705167e-01   1.09998572e+01   9.99999691e-01   1.10000000e+01   1.00000001e+00   1.10000000e+01   
61      2.02848999e-08   6.14244994e+00   8.86042355e+00   9.89912415e-01   1.09998680e+01   9.99999898e-01   1.10000000e+01   1.00000001e+00   1.10000000e+01   
62      2.04286961e-08   6.21434807e+00   8.74981374e+00   9.90409924e-01   1.09998857e+01   1.00000019e+00   1.10000000e+01   1.00000001e+00   1.10000000e+01   
63      2.07162886e-08   6.35814432e+00   8.51634415e+00   9.92353703e-01   1.09999437e+01   1.00000103e+00   1.10000000e+01   1.00000001e+00   1.10000000e+01   
64      2.08316765e-08   6.41583823e+00   8.41573877e+00   9.93704716e-01   1.09999802e+01   1.00000152e+00   1.10000000e+01   1.00000001e+00   1.10000000e+01   
65      2.09131093e-08   6.45655466e+00   8.34271851e+00   9.94836964e-01   1.10000101e+01   1.00000190e+00   1.10000000e+01   1.00000001e+00   1.10000000e+01   
66      2.09945422e-08   6.49727109e+00   8.26780263e+00   9.96168430e-01   1.10000445e+01   1.00000234e+00   1.10000001e+01   1.00000001e+00   1.10000000e+01   
67      2.10204108e-08   6.51020541e+00   8.24382485e+00   9.96613126e-01   1.10000559e+01   1.00000248e+00   1.10000001e+01   1.00000001e+00   1.10000000e+01   
68      2.10462795e-08   6.52313973e+00   8.21967444e+00   9.97080261e-01   1.10000679e+01   1.00000263e+00   1.10000001e+01   1.00000001e+00   1.10000000e+01   
69      2.10721481e-08   6.53607405e+00   8.19535145e+00   9.97570440e-01   1.10000803e+01   1.00000278e+00   1.10000001e+01   1.00000001e+00   1.10000000e+01   
70      2.11238854e-08   6.56194268e+00   8.14630256e+00   9.98607165e-01   1.10001065e+01   1.00000310e+00   1.10000001e+01   1.00000001e+00   1.10000000e+01   
71      2.11756226e-08   6.58781132e+00   8.09660106e+00   9.99737762e-01   1.10001348e+01   1.00000344e+00   1.10000001e+01   1.00000001e+00   1.10000000e+01   
72      2.12273599e-08   6.61367996e+00   8.04622100e+00   1.00097048e+00   1.10001654e+01   1.00000381e+00   1.10000001e+01   1.00000001e+00   1.10000000e+01   
73      2.12790972e-08   6.63954859e+00   7.99515351e+00   1.00231158e+00   1.10001984e+01   1.00000420e+00   1.10000001e+01   1.00000001e+00   1.10000000e+01   
74      2.13135887e-08   6.65679435e+00   7.96072609e+00   1.00326836e+00   1.10002218e+01   1.00000448e+00   1.10000001e+01   1.00000001e+00   1.10000000e+01   
75      2.13480802e-08   6.67404011e+00   7.92599237e+00   1.00427707e+00   1.10002464e+01   1.00000476e+00   1.10000001e+01   1.00000001e+00   1.10000000e+01   
76      2.13825717e-08   6.69128587e+00   7.89095202e+00   1.00533920e+00   1.10002722e+01   1.00000506e+00   1.10000001e+01   1.00000001e+00   1.10000000e+01   
77      2.14170633e-08   6.70853163e+00   7.85560339e+00   1.00645734e+00   1.10002992e+01   1.00000537e+00   1.10000001e+01   1.00000001e+00   1.10000000e+01   
78      2.14515548e-08   6.72577738e+00   7.81994622e+00   1.00763294e+00   1.10003274e+01   1.00000569e+00   1.10000001e+01   1.00000001e+00   1.10000000e+01   
79      2.14860463e-08   6.74302314e+00   7.78397982e+00   1.00886779e+00   1.10003570e+01   1.00000603e+00   1.10000001e+01   1.00000001e+00   1.10000000e+01   
80      2.15550293e-08   6.77751466e+00   7.71112579e+00   1.01152293e+00   1.10004202e+01   1.00000673e+00   1.10000002e+01   1.00000001e+00   1.10000000e+01   
81      2.16240123e-08   6.81200617e+00   7.63704043e+00   1.01443737e+00   1.10004890e+01   1.00000749e+00   1.10000002e+01   1.00000001e+00   1.10000000e+01   
82      2.16929954e-08   6.84649769e+00   7.56172377e+00   1.01762577e+00   1.10005637e+01   1.00000831e+00   1.10000002e+01   1.00000001e+00   1.10000000e+01   
83      2.17619784e-08   6.88098920e+00   7.48517180e+00   1.02110687e+00   1.10006447e+01   1.00000917e+00   1.10000002e+01   1.00000001e+00   1.10000000e+01   
84      2.18309614e-08   6.91548072e+00   7.40738474e+00   1.02489516e+00   1.10007322e+01   1.00001010e+00   1.10000002e+01   1.00000001e+00   1.10000000e+01   
85      2.18999445e-08   6.94997223e+00   7.32836152e+00   1.02900641e+00   1.10008267e+01   1.00001109e+00   1.10000002e+01   1.00000001e+00   1.10000000e+01   
86      2.19725712e-08   6.98628562e+00   7.24383245e+00   1.03370998e+00   1.10009340e+01   1.00001219e+00   1.10000003e+01   1.00000001e+00   1.10000000e+01   
87      2.20451980e-08   7.02259901e+00   7.15793544e+00   1.03881533e+00   1.10010498e+01   1.00001337e+00   1.10000003e+01   1.00000001e+00   1.10000000e+01   
88      2.21178248e-08   7.05891239e+00   7.07067044e+00   1.04434292e+00   1.10011744e+01   1.00001462e+00   1.10000003e+01   1.00000001e+00   1.10000000e+01   
89      2.21904516e-08   7.09522578e+00   6.98200982e+00   1.05023064e+00   1.10013062e+01   1.00001592e+00   1.10000004e+01   1.00000001e+00   1.10000000e+01   
90      2.22630783e-08   7.13153916e+00   6.89195727e+00   1.05651010e+00   1.10014457e+01   1.00001726e+00   1.10000004e+01   1.00000001e+00   1.10000000e+01   
91      2.23357051e-08   7.16785255e+00   6.80050671e+00   1.06318368e+00   1.10015928e+01   1.00001864e+00   1.10000004e+01   1.00000001e+00   1.10000000e+01   
92      2.24083319e-08   7.20416593e+00   6.70765939e+00   1.07028245e+00   1.10017483e+01   1.00002007e+00   1.10000004e+01   1.00000001e+00   1.10000000e+01   
93      2.24809586e-08   7.24047932e+00   6.61340818e+00   1.07780469e+00   1.10019117e+01   1.00002155e+00   1.10000005e+01   1.00000001e+00   1.10000000e+01   
94      2.25535854e-08   7.27679270e+00   6.51774857e+00   1.08575891e+00   1.10020833e+01   1.00002306e+00   1.10000005e+01   1.00000001e+00   1.10000000e+01   
95      2.26262122e-08   7.31310609e+00   6.42069801e+00   1.09419650e+00   1.10022643e+01   1.00002463e+00   1.10000005e+01   1.00000001e+00   1.10000000e+01   
96      2.26988389e-08   7.34941947e+00   6.32224883e+00   1.10311987e+00   1.10024544e+01   1.00002626e+00   1.10000006e+01   1.00000001e+00   1.10000000e+01   
97      2.27714657e-08   7.38573286e+00   6.22240124e+00   1.11254671e+00   1.10026541e+01   1.00002794e+00   1.10000006e+01   1.00000001e+00   1.10000000e+01   
98      2.28440925e-08   7.42204625e+00   6.12116712e+00   1.12252781e+00   1.10028644e+01   1.00002969e+00   1.10000006e+01   1.00000001e+00   1.10000000e+01   
99      2.29167193e-08   7.45835963e+00   6.01854499e+00   1.13307616e+00   1.10030854e+01   1.00003151e+00   1.10000007e+01   1.00000001e+00   1.10000000e+01   
100     2.29893460e-08   7.49467302e+00   5.91453755e+00   1.14421654e+00   1.10033178e+01   1.00003340e+00   1.10000007e+01   1.00000001e+00   1.10000000e+01   
101     2.30982862e-08   7.54914309e+00   5.75593756e+00   1.16213031e+00   1.10036894e+01   1.00003639e+00   1.10000008e+01   1.00000001e+00   1.10000000e+01   
102     2.32072263e-08   7.60361317e+00   5.59424032e+00   1.18158007e+00   1.10040904e+01   1.00003958e+00   1.10000008e+01   1.00000001e+00   1.10000000e+01   
103     2.33161665e-08   7.65808325e+00   5.42945774e+00   1.20268948e+00   1.10045232e+01   1.00004299e+00   1.10000009e+01   1.00000001e+00   1.10000000e+01   
104     2.34251067e-08   7.71255333e+00   5.26160236e+00   1.22559110e+00   1.10049904e+01   1.00004664e+00   1.10000010e+01   1.00000001e+00   1.10000000e+01   
105     2.35558348e-08   7.77791742e+00   5.05840977e+00   1.25597975e+00   1.10056085e+01   1.00005149e+00   1.10000010e+01   1.00000001e+00   1.10000000e+01   
106     2.36865630e-08   7.84328152e+00   4.85281141e+00   1.28965479e+00   1.10062913e+01   1.00005686e+00   1.10000011e+01   1.00000002e+00   1.10000000e+01   
107     2.38172912e-08   7.90864561e+00   4.64535237e+00   1.32691324e+00   1.10070450e+01   1.00006280e+00   1.10000013e+01   1.00000002e+00   1.10000000e+01   
108     2.41430919e-08   8.07154593e+00   4.13740300e+00   1.43904840e+00   1.10093025e+01   1.00008053e+00   1.10000016e+01   1.00000002e+00   1.10000000e+01   
109     2.42496926e-08   8.12484630e+00   3.97465681e+00   1.48332091e+00   1.10101892e+01   1.00008742e+00   1.10000017e+01   1.00000002e+00   1.10000000e+01   
110     2.43562933e-08   8.17814667e+00   3.81522426e+00   1.53111787e+00   1.10111437e+01   1.00009478e+00   1.10000019e+01   1.00000002e+00   1.10000000e+01   
111     2.44343858e-08   8.21719288e+00   3.70045502e+00   1.56816534e+00   1.10118823e+01   1.00010044e+00   1.10000020e+01   1.00000002e+00   1.10000000e+01   
112     2.45124782e-08   8.25623908e+00   3.58786205e+00   1.60734408e+00   1.10126622e+01   1.00010640e+00   1.10000021e+01   1.00000002e+00   1.10000000e+01   
113     2.46686630e-08   8.33433150e+00   3.37200678e+00   1.69473187e+00   1.10143952e+01   1.00011945e+00   1.10000023e+01   1.00000002e+00   1.10000000e+01   
114     2.47674879e-08   8.38374395e+00   3.23933054e+00   1.75430450e+00   1.10155764e+01   1.00012836e+00   1.10000025e+01   1.00000003e+00   1.10000000e+01   
115     2.48561489e-08   8.42807447e+00   3.12331886e+00   1.81166464e+00   1.10167103e+01   1.00013696e+00   1.10000027e+01   1.00000003e+00   1.10000000e+01   
116     2.49448100e-08   8.47240500e+00   3.01058816e+00   1.87287964e+00   1.10178876e+01   1.00014560e+00   1.10000028e+01   1.00000003e+00   1.10000000e+01   
117     2.50334710e-08   8.51673552e+00   2.90169205e+00   1.93731127e+00   1.10190563e+01   1.00015344e+00   1.10000030e+01   1.00000003e+00   1.10000000e+01   
118     2.51221321e-08   8.56106604e+00   2.79683201e+00   2.00463577e+00   1.10201676e+01   1.00015972e+00   1.10000031e+01   1.00000003e+00   1.10000000e+01   
119     2.52107931e-08   8.60539656e+00   2.69476025e+00   2.07380076e+00   1.10212102e+01   1.00016452e+00   1.10000031e+01   1.00000003e+00   1.10000000e+01   
120     2.52994542e-08   8.64972709e+00   2.59640916e+00   2.14529715e+00   1.10221271e+01   1.00016686e+00   1.10000031e+01   1.00000003e+00   1.10000000e+01   
121     2.54767763e-08   8.73838813e+00   2.41209247e+00   2.29526715e+00   1.10232885e+01   1.00016020e+00   1.10000028e+01   1.00000002e+00   1.10000000e+01   
