Index        TIME          {V(20)+1.0}      {V(2)+1.0}
0       0.00000000e+00   1.00000000e+00   3.99999879e+00   
1       5.00000000e-12   1.01500000e+00   4.00857115e+00   
2       5.62500000e-12   1.01687500e+00   4.00962924e+00   
3       6.87500000e-12   1.02062500e+00   4.01168760e+00   
4       8.12500000e-12   1.02437500e+00   4.01368700e+00   
5       1.06250000e-11   1.03187500e+00   4.01745665e+00   
6       1.31250000e-11   1.03937500e+00   4.02100857e+00   
7       1.81250000e-11   1.05437500e+00   4.02733843e+00   
8       2.81250000e-11   1.08437500e+00   4.03754629e+00   
9       3.81250000e-11   1.11437500e+00   4.04582714e+00   
10      5.81250000e-11   1.17437500e+00   4.05735477e+00   
11      7.81250000e-11   1.23437500e+00   4.06564090e+00   
12      1.18125000e-10   1.35437500e+00   4.07595397e+00   
13      1.58125000e-10   1.47437500e+00   4.08342407e+00   
14      1.80167815e-10   1.54050345e+00   4.08707204e+00   
15      1.91189223e-10   1.57356767e+00   4.08881738e+00   
16      1.97532907e-10   1.59259872e+00   4.08980141e+00   
17      2.03242223e-10   1.60972667e+00   4.09067292e+00   
18      2.08309413e-10   1.62492824e+00   4.09143747e+00   
19      2.18443794e-10   1.65533138e+00   4.09294014e+00   
20      2.26020617e-10   1.67806185e+00   4.09405659e+00   
21      2.33597439e-10   1.70079232e+00   4.09516949e+00   
22      2.48751084e-10   1.74625325e+00   4.09739773e+00   
23      2.59261585e-10   1.77778475e+00   4.09895900e+00   
24      2.80282585e-10   1.84084776e+00   4.10215681e+00   
25      2.94833831e-10   1.88450149e+00   4.10443525e+00   
26      3.23936321e-10   1.97180896e+00   4.10925223e+00   
27      3.49769460e-10   2.04930838e+00   4.11381995e+00   
28      3.75602598e-10   2.12680779e+00   4.11872471e+00   
29      4.01435736e-10   2.20430721e+00   4.12401743e+00   
30      4.53102013e-10   2.35930604e+00   4.13619984e+00   
31      4.87738909e-10   2.46321673e+00   4.14546871e+00   
32      5.22375805e-10   2.56712742e+00   4.15595899e+00   
33      5.57012701e-10   2.67103810e+00   4.16789327e+00   
34      5.91649598e-10   2.77494879e+00   4.18123792e+00   
35      6.26286494e-10   2.87885948e+00   4.19700935e+00   
36      6.60923390e-10   2.98277017e+00   4.21522577e+00   
37      6.95560286e-10   3.08668086e+00   4.23640440e+00   
38      7.64834078e-10   3.29450223e+00   4.28909008e+00   
39      8.08636643e-10   3.42590993e+00   4.33205108e+00   
40      8.52439208e-10   3.55731762e+00   4.38107500e+00   
41      8.96241773e-10   3.68872532e+00   4.43490399e+00   
42      9.40044338e-10   3.82013301e+00   4.48866990e+00   
43      9.83846903e-10   3.95154071e+00   4.52887901e+00   
44      1.00000000e-09   4.00000000e+00   4.53970355e+00   
45      1.01615310e-09   4.00000000e+00   4.52731803e+00   
46      1.02019137e-09   4.00000000e+00   4.52447113e+00   
47      1.02422965e-09   4.00000000e+00   4.52183758e+00   
48      1.03230619e-09   4.00000000e+00   4.51723172e+00   
49      1.04038274e-09   4.00000000e+00   4.51313265e+00   
50      1.05653584e-09   4.00000000e+00   4.50634199e+00   
51      1.07268894e-09   4.00000000e+00   4.50063805e+00   
52      1.08884203e-09   4.00000000e+00   4.49579098e+00   
53      1.12114823e-09   4.00000000e+00   4.48731190e+00   
54      1.15345442e-09   4.00000000e+00   4.48124166e+00   
55      1.18576062e-09   4.00000000e+00   4.47606250e+00   
56      1.21806681e-09   4.00000000e+00   4.47153960e+00   
57      1.28267920e-09   4.00000000e+00   4.46348261e+00   
58      1.34729159e-09   4.00000000e+00   4.45744496e+00   
59      1.41190398e-09   4.00000000e+00   4.45219231e+00   
60      1.47651637e-09   4.00000000e+00   4.44752760e+00   
61      1.60574114e-09   4.00000000e+00   4.43908416e+00   
62      1.71791783e-09   4.00000000e+00   4.43325614e+00   
63      1.81887686e-09   4.00000000e+00   4.42845286e+00   
64      1.91983588e-09   4.00000000e+00   4.42395278e+00   
65      2.02079490e-09   4.00000000e+00   4.41962003e+00   
66      2.22271295e-09   4.00000000e+00   4.41067263e+00   
67      2.40406457e-09   4.00000000e+00   4.39987121e+00   
68      2.56728104e-09   4.00000000e+00   4.38639789e+00   
69      2.73049750e-09   4.00000000e+00   4.36766710e+00   
70      2.89371396e-09   4.00000000e+00   4.34193983e+00   
71      3.22014689e-09   4.00000000e+00   4.26471762e+00   
72      3.48308213e-09   4.00000000e+00   4.16433527e+00   
73      3.71972385e-09   4.00000000e+00   4.05921793e+00   
74      3.95636556e-09   4.00000000e+00   3.94097106e+00   
75      4.19300728e-09   4.00000000e+00   3.81107099e+00   
76      4.66629072e-09   4.00000000e+00   3.52605101e+00   
77      5.06123292e-09   4.00000000e+00   3.25858566e+00   
78      5.45617512e-09   4.00000000e+00   2.98157452e+00   
79      5.85111733e-09   4.00000000e+00   2.73988173e+00   
80      6.20656531e-09   4.00000000e+00   2.55978568e+00   
81      6.52646849e-09   4.00000000e+00   2.42058035e+00   
82      6.84637168e-09   4.00000000e+00   2.29914032e+00   
83      7.16627486e-09   4.00000000e+00   2.19179786e+00   
84      7.80608123e-09   4.00000000e+00   2.00399856e+00   
85      8.24399279e-09   4.00000000e+00   1.90158993e+00   
86      8.68190434e-09   4.00000000e+00   1.81007395e+00   
87      9.11981589e-09   4.00000000e+00   1.72812363e+00   
88      9.99563900e-09   4.00000000e+00   1.58382638e+00   
89      1.05296642e-08   4.00000000e+00   1.51373275e+00   
90      1.10102869e-08   4.00000000e+00   1.45733446e+00   
91      1.14909096e-08   4.00000000e+00   1.40698976e+00   
92      1.19715323e-08   4.00000000e+00   1.36208816e+00   
93      1.29327777e-08   4.00000000e+00   1.28350080e+00   
94      1.34025072e-08   4.00000000e+00   1.25276788e+00   
95      1.38722367e-08   4.00000000e+00   1.22531072e+00   
96      1.42949932e-08   4.00000000e+00   1.20301683e+00   
97      1.47177498e-08   4.00000000e+00   1.18291098e+00   
98      1.51405063e-08   4.00000000e+00   1.16478337e+00   
99      1.59860194e-08   4.00000000e+00   1.13260419e+00   
100     1.64268882e-08   4.00000000e+00   1.11894538e+00   
101     1.68677569e-08   4.00000000e+00   1.10668513e+00   
102     1.72645388e-08   4.00000000e+00   1.09668200e+00   
103     1.76613207e-08   4.00000000e+00   1.08761444e+00   
104     1.80581026e-08   4.00000000e+00   1.07939562e+00   
105     1.88516664e-08   4.00000000e+00   1.06470803e+00   
106     1.92834410e-08   4.00000000e+00   1.05815571e+00   
107     1.97152157e-08   4.00000000e+00   1.05226538e+00   
108     2.01469904e-08   4.00000000e+00   1.04697093e+00   
109     2.10105397e-08   4.00000000e+00   1.03759533e+00   
110     2.14426609e-08   4.00000000e+00   1.03378414e+00   
111     2.18747822e-08   4.00000000e+00   1.03035885e+00   
112     2.23069035e-08   4.00000000e+00   1.02728063e+00   
113     2.31711460e-08   4.00000000e+00   1.02182971e+00   
114     2.36029178e-08   4.00000000e+00   1.01961799e+00   
115     2.40346897e-08   4.00000000e+00   1.01763021e+00   
116     2.44664616e-08   4.00000000e+00   1.01584380e+00   
117     2.53300053e-08   4.00000000e+00   1.01267992e+00   
118     2.57624504e-08   4.00000000e+00   1.01139337e+00   
119     2.60000000e-08   4.00000000e+00   1.01072793e+00   
120     2.60050000e-08   3.98500000e+00   1.00336367e+00   
121     2.60056250e-08   3.98312500e+00   1.00244123e+00   
122     2.60068750e-08   3.97937500e+00   1.00058736e+00   
123     2.60078878e-08   3.97633651e+00   9.99079339e-01   
124     2.60089007e-08   3.97329802e+00   9.97565558e-01   
125     2.60099135e-08   3.97025953e+00   9.96046200e-01   
126     2.60119391e-08   3.96418255e+00   9.92995094e-01   
127     2.60139648e-08   3.95810557e+00   9.89915487e-01   
128     2.60159905e-08   3.95202859e+00   9.86817706e-01   
129     2.60200418e-08   3.93987464e+00   9.80557401e-01   
130     2.60240931e-08   3.92772068e+00   9.74239524e-01   
131     2.60281444e-08   3.91556672e+00   9.67870026e-01   
132     2.60362471e-08   3.89125880e+00   9.55026931e-01   
133     2.60443497e-08   3.86695089e+00   9.41964264e-01   
134     2.60524523e-08   3.84264297e+00   9.28783900e-01   
135     2.60605550e-08   3.81833505e+00   9.15504398e-01   
136     2.60767603e-08   3.76971922e+00   8.88768482e-01   
137     2.60929655e-08   3.72110339e+00   8.61680061e-01   
138     2.61091708e-08   3.67248755e+00   8.34456072e-01   
139     2.61253761e-08   3.62387172e+00   8.07155434e-01   
140     2.61415814e-08   3.57525589e+00   7.79829973e-01   
141     2.61577866e-08   3.52664006e+00   7.52538402e-01   
142     2.61869561e-08   3.43913156e+00   7.03656854e-01   
143     2.62128927e-08   3.36132183e+00   6.61070917e-01   
144     2.62388293e-08   3.28351209e+00   6.22201562e-01   
145     2.62647659e-08   3.20570236e+00   5.89739061e-01   
146     2.62839985e-08   3.14800454e+00   5.70474159e-01   
147     2.63032311e-08   3.09030671e+00   5.57014787e-01   
148     2.63224637e-08   3.03260888e+00   5.50385833e-01   
149     2.63609289e-08   2.91721323e+00   5.57054341e-01   
150     2.63791846e-08   2.86244617e+00   5.74909032e-01   
151     2.63974403e-08   2.80767911e+00   6.01660038e-01   
152     2.64156960e-08   2.75291206e+00   6.37883641e-01   
153     2.64522074e-08   2.64337794e+00   7.35789566e-01   
154     2.64850676e-08   2.54479723e+00   8.61878203e-01   
155     2.65146418e-08   2.45607459e+00   1.01337103e+00   
156     2.65236933e-08   2.42892005e+00   1.06788487e+00   
157     2.65327448e-08   2.40176550e+00   1.12711027e+00   
158     2.65508479e-08   2.34745641e+00   1.26267127e+00   
159     2.65640706e-08   2.30778809e+00   1.37872022e+00   
160     2.65772934e-08   2.26811976e+00   1.50924278e+00   
161     2.66037390e-08   2.18878310e+00   1.80590284e+00   
162     2.66258176e-08   2.12254712e+00   2.08674652e+00   
163     2.66478963e-08   2.05631114e+00   2.39307581e+00   
164     2.66699749e-08   1.99007516e+00   2.71874232e+00   
165     2.66920536e-08   1.92383918e+00   3.05350222e+00   
166     2.67058940e-08   1.88231788e+00   3.22786630e+00   
167     2.67197345e-08   1.84079659e+00   3.35220930e+00   
168     2.67335749e-08   1.79927529e+00   3.44750751e+00   
169     2.67474153e-08   1.75775400e+00   3.52756607e+00   
170     2.67612558e-08   1.71623270e+00   3.59122358e+00   
171     2.67750962e-08   1.67471140e+00   3.64434792e+00   
172     2.68027771e-08   1.59166881e+00   3.72187058e+00   
173     2.68276898e-08   1.51693048e+00   3.77312673e+00   
174     2.68526026e-08   1.44219215e+00   3.81097690e+00   
175     2.68775154e-08   1.36745382e+00   3.83904564e+00   
176     2.69273409e-08   1.21797715e+00   3.87916682e+00   
177     2.69771665e-08   1.06850049e+00   3.89823402e+00   
178     2.70000000e-08   1.00000000e+00   3.90538697e+00   
179     2.70228335e-08   1.00000000e+00   3.93863392e+00   
180     2.70242606e-08   1.00000000e+00   3.94063666e+00   
181     2.70271148e-08   1.00000000e+00   3.94438389e+00   
182     2.70296835e-08   1.00000000e+00   3.94755694e+00   
183     2.70348211e-08   1.00000000e+00   3.95319412e+00   
184     2.70399586e-08   1.00000000e+00   3.95819909e+00   
185     2.70502337e-08   1.00000000e+00   3.96619524e+00   
186     2.70605088e-08   1.00000000e+00   3.97258073e+00   
187     2.70707838e-08   1.00000000e+00   3.97768232e+00   
188     2.70913340e-08   1.00000000e+00   3.98564299e+00   
189     2.71098291e-08   1.00000000e+00   3.98950605e+00   
190     2.71283242e-08   1.00000000e+00   3.99218360e+00   
191     2.71468194e-08   1.00000000e+00   3.99404634e+00   
192     2.71838096e-08   1.00000000e+00   3.99658575e+00   
193     2.72207999e-08   1.00000000e+00   3.99745092e+00   
194     2.72577902e-08   1.00000000e+00   3.99795515e+00   
195     2.73317707e-08   1.00000000e+00   3.99842132e+00   
196     2.74057512e-08   1.00000000e+00   3.99867036e+00   
197     2.74797317e-08   1.00000000e+00   3.99882535e+00   
198     2.76276928e-08   1.00000000e+00   3.99903948e+00   
199     2.77756538e-08   1.00000000e+00   3.99914510e+00   
200     2.79236149e-08   1.00000000e+00   3.99922909e+00   
201     2.80715759e-08   1.00000000e+00   3.99929591e+00   
202     2.83674980e-08   1.00000000e+00   3.99940050e+00   
203     2.86634201e-08   1.00000000e+00   3.99946511e+00   
204     2.89593422e-08   1.00000000e+00   3.99951542e+00   
205     2.92552643e-08   1.00000000e+00   3.99955535e+00   
206     2.98471085e-08   1.00000000e+00   3.99961828e+00   
207     3.04389528e-08   1.00000000e+00   3.99965846e+00   
208     3.10307970e-08   1.00000000e+00   3.99968985e+00   
209     3.16226412e-08   1.00000000e+00   3.99971496e+00   
210     3.28063296e-08   1.00000000e+00   3.99975481e+00   
211     3.39900180e-08   1.00000000e+00   3.99978076e+00   
212     3.51737064e-08   1.00000000e+00   3.99980112e+00   
213     3.63573948e-08   1.00000000e+00   3.99981758e+00   
214     3.87247716e-08   1.00000000e+00   3.99984391e+00   
215     4.10921484e-08   1.00000000e+00   3.99986149e+00   
216     4.34595252e-08   1.00000000e+00   3.99987547e+00   
217     4.58269020e-08   1.00000000e+00   3.99988689e+00   
218     5.00000000e-08   1.00000000e+00   3.99990339e+00   
219     5.00050000e-08   1.01500000e+00   4.00847530e+00   
220     5.00062826e-08   1.01884791e+00   4.01061540e+00   
221     5.00075653e-08   1.02269583e+00   4.01269393e+00   
222     5.00088479e-08   1.02654374e+00   4.01471061e+00   
223     5.00114132e-08   1.03423957e+00   4.01850616e+00   
224     5.00139785e-08   1.04193540e+00   4.02207689e+00   
225     5.00191090e-08   1.05732706e+00   4.02842290e+00   
226     5.00293701e-08   1.08811037e+00   4.03861013e+00   
227     5.00396312e-08   1.11889369e+00   4.04684023e+00   
228     5.00601534e-08   1.18046032e+00   4.05823322e+00   
229     5.00806756e-08   1.24202695e+00   4.06639371e+00   
230     5.00858062e-08   1.25741860e+00   4.06826403e+00   
231     5.00960673e-08   1.28820192e+00   4.07145206e+00   
232     5.01063284e-08   1.31898523e+00   4.07420984e+00   
233     5.01114590e-08   1.33437689e+00   4.07549622e+00   
234     5.01140242e-08   1.34207272e+00   4.07611791e+00   
235     5.01153069e-08   1.34592064e+00   4.07642355e+00   
236     5.01178722e-08   1.35361646e+00   4.07701489e+00   
237     5.01191548e-08   1.35746438e+00   4.07730587e+00   
238     5.01217201e-08   1.36516021e+00   4.07786979e+00   
239     5.01230027e-08   1.36900812e+00   4.07814752e+00   
240     5.01255680e-08   1.37670395e+00   4.07868666e+00   
241     5.01268506e-08   1.38055186e+00   4.07895242e+00   
242     5.01294159e-08   1.38824769e+00   4.07946917e+00   
243     5.01306985e-08   1.39209561e+00   4.07972410e+00   
244     5.01313399e-08   1.39401956e+00   4.07985072e+00   
245     5.01326225e-08   1.39786748e+00   4.08010058e+00   
246     5.01332638e-08   1.39979144e+00   4.08022471e+00   
247     5.01345465e-08   1.40363935e+00   4.08046976e+00   
248     5.01351878e-08   1.40556331e+00   4.08059152e+00   
249     5.01364704e-08   1.40941122e+00   4.08083200e+00   
250     5.01371117e-08   1.41133518e+00   4.08095152e+00   
251     5.01383944e-08   1.41518309e+00   4.08118766e+00   
252     5.01390357e-08   1.41710705e+00   4.08130505e+00   
253     5.01403183e-08   1.42095497e+00   4.08153707e+00   
254     5.01428836e-08   1.42865079e+00   4.08199080e+00   
255     5.01480142e-08   1.44404245e+00   4.08286201e+00   
256     5.01531447e-08   1.45943411e+00   4.08370231e+00   
257     5.01544273e-08   1.46328202e+00   4.08391075e+00   
258     5.01550687e-08   1.46520598e+00   4.08401453e+00   
259     5.01563513e-08   1.46905390e+00   4.08422034e+00   
260     5.01576339e-08   1.47290181e+00   4.08442446e+00   
261     5.01582753e-08   1.47482577e+00   4.08452613e+00   
262     5.01595579e-08   1.47867368e+00   4.08472785e+00   
263     5.01608405e-08   1.48252160e+00   4.08492805e+00   
264     5.01614819e-08   1.48444555e+00   4.08502780e+00   
265     5.01618025e-08   1.48540753e+00   4.08507759e+00   
266     5.01624438e-08   1.48733149e+00   4.08517679e+00   
267     5.01637265e-08   1.49117940e+00   4.08537376e+00   
268     5.01643678e-08   1.49310336e+00   4.08547192e+00   
269     5.01646884e-08   1.49406534e+00   4.08552092e+00   
270     5.01653298e-08   1.49598930e+00   4.08561859e+00   
271     5.01656504e-08   1.49695127e+00   4.08566734e+00   
272     5.01662917e-08   1.49887523e+00   4.08576452e+00   
273     5.01675744e-08   1.50272315e+00   4.08595761e+00   
274     5.01682157e-08   1.50464710e+00   4.08605387e+00   
275     5.01685364e-08   1.50560908e+00   4.08610193e+00   
276     5.01691777e-08   1.50753304e+00   4.08619775e+00   
277     5.01694983e-08   1.50849502e+00   4.08624560e+00   
278     5.01701397e-08   1.51041897e+00   4.08634099e+00   
279     5.01704603e-08   1.51138095e+00   4.08638862e+00   
280     5.01711016e-08   1.51330491e+00   4.08648360e+00   
281     5.01714223e-08   1.51426689e+00   4.08653102e+00   
282     5.01720636e-08   1.51619085e+00   4.08662560e+00   
283     5.01733463e-08   1.52003876e+00   4.08681369e+00   
284     5.01739876e-08   1.52196272e+00   4.08690751e+00   
285     5.01743082e-08   1.52292470e+00   4.08695436e+00   
286     5.01749496e-08   1.52484865e+00   4.08704781e+00   
287     5.01752702e-08   1.52581063e+00   4.08709448e+00   
288     5.01759115e-08   1.52773459e+00   4.08718758e+00   
289     5.01771942e-08   1.53158250e+00   4.08737284e+00   
290     5.01778355e-08   1.53350646e+00   4.08746527e+00   
291     5.01791181e-08   1.53735438e+00   4.08764927e+00   
292     5.01797594e-08   1.53927833e+00   4.08774107e+00   
293     5.01810421e-08   1.54312625e+00   4.08792388e+00   
294     5.01816834e-08   1.54505020e+00   4.08801511e+00   
295     5.01829660e-08   1.54889812e+00   4.08819680e+00   
296     5.01836074e-08   1.55082208e+00   4.08828749e+00   
297     5.01848900e-08   1.55466999e+00   4.08846816e+00   
298     5.01855313e-08   1.55659395e+00   4.08855835e+00   
299     5.01868140e-08   1.56044186e+00   4.08873806e+00   
300     5.01874553e-08   1.56236582e+00   4.08882778e+00   
301     5.01877759e-08   1.56332780e+00   4.08887261e+00   
302     5.01884173e-08   1.56525175e+00   4.08896211e+00   
303     5.01896999e-08   1.56909967e+00   4.08914053e+00   
304     5.01903412e-08   1.57102363e+00   4.08922962e+00   
305     5.01906619e-08   1.57198560e+00   4.08927413e+00   
306     5.01913032e-08   1.57390956e+00   4.08936303e+00   
307     5.01925858e-08   1.57775748e+00   4.08954029e+00   
308     5.01938685e-08   1.58160539e+00   4.08971709e+00   
309     5.01941891e-08   1.58256737e+00   4.08976128e+00   
310     5.01948304e-08   1.58449133e+00   4.08984953e+00   
311     5.01954718e-08   1.58641528e+00   4.08993768e+00   
312     5.01967544e-08   1.59026320e+00   4.09011353e+00   
313     5.01980370e-08   1.59411111e+00   4.09028901e+00   
314     5.02006023e-08   1.60180694e+00   4.09063849e+00   
315     5.02031676e-08   1.60950277e+00   4.09098681e+00   
316     5.02038089e-08   1.61142673e+00   4.09107388e+00   
317     5.02041296e-08   1.61238871e+00   4.09111740e+00   
318     5.02042899e-08   1.61286969e+00   4.09113916e+00   
319     5.02046106e-08   1.61383167e+00   4.09118266e+00   
320     5.02047709e-08   1.61431266e+00   4.09120441e+00   
321     5.02050915e-08   1.61527464e+00   4.09124788e+00   
322     5.02052519e-08   1.61575563e+00   4.09126962e+00   
323     5.02055725e-08   1.61671761e+00   4.09131307e+00   
324     5.02057329e-08   1.61719860e+00   4.09133480e+00   
325     5.02060535e-08   1.61816058e+00   4.09137823e+00   
326     5.02062139e-08   1.61864157e+00   4.09139994e+00   
327     5.02065345e-08   1.61960354e+00   4.09144336e+00   
328     5.02071758e-08   1.62152750e+00   4.09153012e+00   
329     5.02074965e-08   1.62248948e+00   4.09157350e+00   
330     5.02076568e-08   1.62297047e+00   4.09159519e+00   
331     5.02079775e-08   1.62393245e+00   4.09163854e+00   
