Index        TIME          {V(2)+1.0}       {V(5)+1.0}
0       0.00000000e+00   3.00000000e+00   1.00000000e+00   
1       1.00000000e-10   2.26726127e+00   1.07118451e+00   
2       1.12500000e-10   2.17660823e+00   1.07798821e+00   
3       1.25000000e-10   2.08626555e+00   1.08374253e+00   
4       1.50000000e-10   1.90783185e+00   1.08961248e+00   
5       1.75000000e-10   1.73708438e+00   1.08999084e+00   
6       2.00000000e-10   1.58312919e+00   1.08637435e+00   
7       2.25000000e-10   1.46308620e+00   1.07980729e+00   
8       2.50000000e-10   1.37468267e+00   1.07227940e+00   
9       2.75000000e-10   1.30613766e+00   1.06424931e+00   
10      3.00000000e-10   1.25126969e+00   1.05550074e+00   
11      3.25000000e-10   1.20809620e+00   1.04615682e+00   
12      3.50000000e-10   1.17410255e+00   1.03611565e+00   
13      3.75000000e-10   1.14746288e+00   1.02525261e+00   
14      4.00000000e-10   1.12638566e+00   1.01342858e+00   
15      4.25000000e-10   1.10967892e+00   1.00018972e+00   
16      4.50000000e-10   1.09726556e+00   9.84075672e-01   
17      4.75000000e-10   1.09012415e+00   9.62353566e-01   
18      5.00000000e-10   1.08619352e+00   9.36579760e-01   
19      5.25000000e-10   1.08223180e+00   9.11986662e-01   
20      5.50000000e-10   1.07760585e+00   8.90010498e-01   
21      5.75000000e-10   1.07244977e+00   8.73341736e-01   
22      6.00000000e-10   1.06698933e+00   8.65035242e-01   
23      6.25000000e-10   1.06153101e+00   8.67941371e-01   
24      6.50000000e-10   1.05514152e+00   8.89304585e-01   
25      6.75000000e-10   1.04854978e+00   9.33617170e-01   
26      7.00000000e-10   1.04314220e+00   1.01907031e+00   
27      7.25000000e-10   1.03916203e+00   1.14638534e+00   
28      7.50000000e-10   1.03643397e+00   1.28965228e+00   
29      7.75000000e-10   1.03427864e+00   1.45017853e+00   
30      8.00000000e-10   1.03235214e+00   1.62981015e+00   
31      8.25000000e-10   1.03047922e+00   1.81632561e+00   
32      8.50000000e-10   1.02853102e+00   2.00088233e+00   
33      8.75000000e-10   1.02656584e+00   2.18298613e+00   
34      9.00000000e-10   1.02457027e+00   2.35997644e+00   
35      9.25000000e-10   1.02261941e+00   2.53017057e+00   
36      9.50000000e-10   1.02071441e+00   2.69154612e+00   
37      9.75000000e-10   1.01893477e+00   2.84063498e+00   
38      1.00000000e-09   1.01731239e+00   2.97278078e+00   
39      1.02500000e-09   1.01587179e+00   3.09603786e+00   
40      1.05000000e-09   1.01451422e+00   3.21187333e+00   
41      1.07500000e-09   1.01318385e+00   3.30969352e+00   
42      1.10000000e-09   1.01191441e+00   3.39264446e+00   
43      1.12500000e-09   1.01076631e+00   3.46292324e+00   
44      1.15000000e-09   1.00973611e+00   3.52330554e+00   
45      1.17500000e-09   1.00883936e+00   3.57508024e+00   
46      1.20000000e-09   1.00801065e+00   3.61261126e+00   
47      1.22500000e-09   1.00729381e+00   3.64069376e+00   
48      1.25000000e-09   1.00672158e+00   3.66843054e+00   
49      1.27500000e-09   1.00625183e+00   3.69689517e+00   
50      1.30000000e-09   1.00584321e+00   3.72720632e+00   
51      1.32500000e-09   1.00546592e+00   3.75705779e+00   
52      1.35000000e-09   1.00510382e+00   3.78583216e+00   
53      1.37500000e-09   1.00476064e+00   3.81232195e+00   
54      1.42500000e-09   1.00413320e+00   3.85773314e+00   
55      1.47500000e-09   1.00360485e+00   3.89317134e+00   
56      1.52500000e-09   1.00317087e+00   3.92026786e+00   
57      1.57000000e-09   1.00285353e+00   3.93961939e+00   
58      1.60631832e-09   1.00263084e+00   3.95223907e+00   
59      1.63891456e-09   1.00244710e+00   3.96064508e+00   
60      1.67151081e-09   1.00228237e+00   3.96721215e+00   
61      1.70410706e-09   1.00213526e+00   3.97235951e+00   
62      1.73670330e-09   1.00200157e+00   3.97645080e+00   
63      1.76929955e-09   1.00187770e+00   3.97960756e+00   
64      1.79863617e-09   1.00177694e+00   3.98228672e+00   
65      1.82503913e-09   1.00169070e+00   3.98457206e+00   
66      1.85144209e-09   1.00160923e+00   3.98675862e+00   
67      1.87784505e-09   1.00152828e+00   3.98863213e+00   
68      1.90424801e-09   1.00145234e+00   3.99024251e+00   
69      1.93065097e-09   1.00137763e+00   3.99153857e+00   
70      1.95705393e-09   1.00130951e+00   3.99262197e+00   
71      1.98345689e-09   1.00124265e+00   3.99349107e+00   
72      2.00985985e-09   1.00118270e+00   3.99423479e+00   
73      2.03626281e-09   1.00112309e+00   3.99484379e+00   
74      2.06266577e-09   1.00107014e+00   3.99538585e+00   
75      2.08906873e-09   1.00101664e+00   3.99585389e+00   
76      2.11547169e-09   1.00096955e+00   3.99630047e+00   
77      2.14187465e-09   1.00092096e+00   3.99667384e+00   
78      2.16827761e-09   1.00087845e+00   3.99699802e+00   
79      2.19468057e-09   1.00083417e+00   3.99726288e+00   
80      2.22108353e-09   1.00079627e+00   3.99752252e+00   
81      2.24748649e-09   1.00075619e+00   3.99774663e+00   
82      2.27388945e-09   1.00072228e+00   3.99797480e+00   
83      2.30029241e-09   1.00068572e+00   3.99816037e+00   
84      2.32669537e-09   1.00065526e+00   3.99835100e+00   
85      2.35309833e-09   1.00062207e+00   3.99852521e+00   
86      2.37950129e-09   1.00059479e+00   3.99870442e+00   
87      2.40590424e-09   1.00056433e+00   3.99884265e+00   
88      2.43230720e-09   1.00053976e+00   3.99897659e+00   
89      2.45871016e-09   1.00051198e+00   3.99907260e+00   
90      2.48511312e-09   1.00049004e+00   3.99917116e+00   
91      2.51151608e-09   1.00046476e+00   3.99923991e+00   
92      2.53791904e-09   1.00044521e+00   3.99931814e+00   
93      2.56432200e-09   1.00042217e+00   3.99937095e+00   
94      2.59072496e-09   1.00040470e+00   3.99943584e+00   
95      2.61712792e-09   1.00038361e+00   3.99947704e+00   
96      2.64353088e-09   1.00036796e+00   3.99953170e+00   
97      2.66993384e-09   1.00034855e+00   3.99956360e+00   
98      2.69633680e-09   1.00033449e+00   3.99960815e+00   
99      2.72273976e-09   1.00031679e+00   3.99962953e+00   
100     2.74914272e-09   1.00030437e+00   3.99966521e+00   
101     2.77554568e-09   1.00028813e+00   3.99968026e+00   
102     2.80194864e-09   1.00027699e+00   3.99971044e+00   
103     2.82835160e-09   1.00026200e+00   3.99972034e+00   
104     2.85475456e-09   1.00025205e+00   3.99974522e+00   
105     2.88115752e-09   1.00023836e+00   3.99975050e+00   
106     2.90756048e-09   1.00022957e+00   3.99977199e+00   
107     2.93396344e-09   1.00021657e+00   3.99977402e+00   
108     2.96036640e-09   1.00020806e+00   3.99979142e+00   
109     2.98676936e-09   1.00019601e+00   3.99978992e+00   
110     3.01317232e-09   1.00018876e+00   3.99980464e+00   
111     3.03957528e-09   1.00017736e+00   3.99980136e+00   
112     3.06597824e-09   1.00017047e+00   3.99981464e+00   
113     3.09238120e-09   1.00016005e+00   3.99981040e+00   
114     3.11878416e-09   1.00015432e+00   3.99982267e+00   
115     3.14518712e-09   1.00014514e+00   3.99981767e+00   
116     3.17159008e-09   1.00014039e+00   3.99982903e+00   
117     3.19799304e-09   1.00013164e+00   3.99982337e+00   
118     3.22439600e-09   1.00012586e+00   3.99983391e+00   
119     3.25079896e-09   1.00011677e+00   3.99982769e+00   
120     3.27720192e-09   1.00011503e+00   3.99983755e+00   
121     3.30360488e-09   1.00011141e+00   3.99983100e+00   
122     3.33000784e-09   1.00011246e+00   3.99984038e+00   
123     3.35641080e-09   1.00011073e+00   3.99983362e+00   
124     3.38281376e-09   1.00011351e+00   3.99984254e+00   
125     3.40921672e-09   1.00011418e+00   3.99983563e+00   
126     3.43561968e-09   1.00012386e+00   3.99984422e+00   
127     3.46202264e-09   1.00013075e+00   3.99983726e+00   
128     3.48842559e-09   1.00012784e+00   3.99984539e+00   
129     3.51482855e-09   1.00011403e+00   3.99983826e+00   
130     3.54123151e-09   1.00010440e+00   3.99984618e+00   
131     3.56763447e-09   1.00008550e+00   3.99983916e+00   
132     3.62044039e-09   1.00001957e+00   3.99984713e+00   
133     3.66796572e-09   9.99936094e-01   3.99984033e+00   
134     3.71549105e-09   9.99853010e-01   3.99984817e+00   
135     3.75826384e-09   9.99724359e-01   3.99984109e+00   
136     3.79407041e-09   9.99572879e-01   3.99984827e+00   
137     3.82624994e-09   9.99507656e-01   3.99984182e+00   
138     3.85842948e-09   9.99548171e-01   3.99984999e+00   
139     3.89060901e-09   9.99690703e-01   3.99984399e+00   
140     3.92278854e-09   9.99972993e-01   3.99985196e+00   
141     3.95496807e-09   1.00043552e+00   3.99984615e+00   
142     3.98392965e-09   1.00119199e+00   3.99985496e+00   
143     4.00999507e-09   1.00205814e+00   3.99984960e+00   
144     4.03606049e-09   1.00277080e+00   3.99985482e+00   
145     4.06212591e-09   1.00332835e+00   3.99984545e+00   
146     4.08819133e-09   1.00383547e+00   3.99984982e+00   
147     4.11425675e-09   1.00411497e+00   3.99984060e+00   
148     4.16638759e-09   1.00302493e+00   3.99983694e+00   
149     4.21851844e-09   9.99407654e-01   3.99981999e+00   
150     4.27064928e-09   9.93308599e-01   3.99982083e+00   
151     4.32278012e-09   9.85237089e-01   3.99981605e+00   
152     4.36969788e-09   9.76616050e-01   3.99982759e+00   
153     4.41661563e-09   9.67477171e-01   3.99983072e+00   
154     4.46353339e-09   9.58976694e-01   3.99985133e+00   
155     4.51045115e-09   9.51326584e-01   3.99985767e+00   
156     4.55736890e-09   9.45204147e-01   3.99987475e+00   
157     4.60428666e-09   9.42246903e-01   3.99988401e+00   
158     4.69812218e-09   9.53314268e-01   3.99992869e+00   
159     4.79195769e-09   9.97298114e-01   3.99996359e+00   
160     4.88579320e-09   1.09765019e+00   4.00003780e+00   
161     4.90213402e-09   1.12457829e+00   4.00005396e+00   
162     4.91847483e-09   1.15411480e+00   4.00008105e+00   
163     4.95115645e-09   1.23305174e+00   4.00019333e+00   
164     4.98383808e-09   1.33694358e+00   4.00032237e+00   
165     5.01651970e-09   1.46148321e+00   4.00040022e+00   
166     5.04920133e-09   1.60903897e+00   4.00045069e+00   
167     5.08188295e-09   1.76874279e+00   4.00036361e+00   
168     5.14724620e-09   2.10282746e+00   3.99950162e+00   
169     5.21260945e-09   2.44557016e+00   3.99782685e+00   
170     5.27143638e-09   2.74382726e+00   3.99564539e+00   
171     5.28060854e-09   2.78831327e+00   3.99522083e+00   
172     5.28978070e-09   2.83255367e+00   3.99474458e+00   
173     5.30812503e-09   2.91945542e+00   3.99348375e+00   
174     5.32646935e-09   3.00666546e+00   3.99159603e+00   
175     5.34481367e-09   3.09113595e+00   3.98936117e+00   
176     5.36315800e-09   3.16754893e+00   3.98744954e+00   
177     5.38150232e-09   3.23679250e+00   3.98590170e+00   
178     5.39984664e-09   3.29914574e+00   3.98475679e+00   
179     5.41819097e-09   3.35539774e+00   3.98421353e+00   
180     5.45487962e-09   3.45253092e+00   3.98550120e+00   
181     5.49156826e-09   3.53310925e+00   3.99074277e+00   
182     5.52825691e-09   3.58882301e+00   4.00232265e+00   
183     5.55952892e-09   3.62674970e+00   4.02195409e+00   
184     5.58767373e-09   3.66171910e+00   4.04634457e+00   
185     5.61581854e-09   3.69889419e+00   4.07065513e+00   
186     5.64396335e-09   3.73523106e+00   4.09665734e+00   
187     5.67210817e-09   3.76962990e+00   4.12246660e+00   
188     5.70025298e-09   3.80066055e+00   4.13882250e+00   
189     5.72839779e-09   3.82840704e+00   4.14056435e+00   
190     5.75654260e-09   3.85267172e+00   4.12270868e+00   
191     5.78468741e-09   3.87377910e+00   4.08118766e+00   
192     5.81283222e-09   3.89189207e+00   4.01240941e+00   
193     5.84097703e-09   3.90766908e+00   3.91155878e+00   
194     5.86912184e-09   3.92160216e+00   3.75991953e+00   
195     5.89726665e-09   3.93378065e+00   3.53776709e+00   
196     5.92541146e-09   3.94384099e+00   3.26894487e+00   
197     5.95355627e-09   3.95197062e+00   2.97751582e+00   
198     5.98170108e-09   3.95860532e+00   2.66708846e+00   
199     6.00984590e-09   3.96409899e+00   2.34673379e+00   
200     6.03799071e-09   3.96873338e+00   2.02893237e+00   
201     6.06613552e-09   3.97238623e+00   1.75817350e+00   
202     6.09146585e-09   3.97521028e+00   1.56384725e+00   
203     6.11679618e-09   3.97800342e+00   1.41884769e+00   
204     6.14212651e-09   3.98072527e+00   1.31593143e+00   
205     6.16745684e-09   3.98314732e+00   1.24087750e+00   
206     6.19278717e-09   3.98529396e+00   1.18764754e+00   
207     6.21811750e-09   3.98710392e+00   1.15040768e+00   
208     6.24344783e-09   3.98864914e+00   1.12289244e+00   
209     6.26877816e-09   3.98992407e+00   1.10295382e+00   
210     6.29410849e-09   3.99103202e+00   1.08798723e+00   
211     6.31943882e-09   3.99195054e+00   1.07668157e+00   
212     6.34476914e-09   3.99277315e+00   1.06765146e+00   
213     6.37009947e-09   3.99346380e+00   1.06034950e+00   
214     6.39542980e-09   3.99411505e+00   1.05564351e+00   
215     6.42076013e-09   3.99468269e+00   1.05445672e+00   
216     6.44609046e-09   3.99521507e+00   1.05473829e+00   
217     6.47142079e-09   3.99564103e+00   1.05336746e+00   
218     6.49675112e-09   3.99604262e+00   1.05059390e+00   
219     6.52208145e-09   3.99638161e+00   1.04696757e+00   
220     6.54741178e-09   3.99672034e+00   1.04288356e+00   
221     6.57274211e-09   3.99701049e+00   1.03875434e+00   
222     6.59807244e-09   3.99729730e+00   1.03374204e+00   
223     6.62340277e-09   3.99753799e+00   1.02848589e+00   
224     6.64873310e-09   3.99779186e+00   1.02427056e+00   
225     6.67406343e-09   3.99800935e+00   1.02165235e+00   
226     6.69939376e-09   3.99822965e+00   1.02029824e+00   
227     6.72472409e-09   3.99840087e+00   1.01936870e+00   
228     6.75005442e-09   3.99856836e+00   1.01847491e+00   
229     6.77538475e-09   3.99869482e+00   1.01753779e+00   
230     6.82604541e-09   3.99893122e+00   1.01514593e+00   
231     6.87164000e-09   3.99908660e+00   1.01279862e+00   
232     6.91723460e-09   3.99923380e+00   1.01043333e+00   
233     6.96282919e-09   3.99934060e+00   1.00849962e+00   
234     7.00118656e-09   3.99943113e+00   1.00707673e+00   
235     7.03427369e-09   3.99948101e+00   1.00591864e+00   
236     7.06736081e-09   3.99954036e+00   1.00480926e+00   
237     7.10044793e-09   3.99957610e+00   1.00390811e+00   
238     7.13353506e-09   3.99962256e+00   1.00314136e+00   
239     7.16662218e-09   3.99964700e+00   1.00252044e+00   
240     7.19607925e-09   3.99967990e+00   1.00207325e+00   
241     7.22259062e-09   3.99969247e+00   1.00184157e+00   
242     7.24910198e-09   3.99971708e+00   1.00163844e+00   
243     7.27561334e-09   3.99972480e+00   1.00148052e+00   
244     7.30212471e-09   3.99974424e+00   1.00128847e+00   
245     7.32863607e-09   3.99974884e+00   1.00113435e+00   
246     7.35514744e-09   3.99976503e+00   1.00095722e+00   
247     7.38165880e-09   3.99976788e+00   1.00082790e+00   
248     7.40817017e-09   3.99978174e+00   1.00068760e+00   
249     7.43468153e-09   3.99978334e+00   1.00059525e+00   
250     7.46119289e-09   3.99979523e+00   1.00049336e+00   
251     7.48770426e-09   3.99979580e+00   1.00043544e+00   
252     7.51421562e-09   3.99980598e+00   1.00036745e+00   
253     7.54072699e-09   3.99980570e+00   1.00033172e+00   
254     7.56723835e-09   3.99981436e+00   1.00027530e+00   
255     7.59374971e-09   3.99981353e+00   1.00024768e+00   
256     7.62026108e-09   3.99982105e+00   1.00020640e+00   
257     7.64677244e-09   3.99981985e+00   1.00019225e+00   
258     7.67328381e-09   3.99982636e+00   1.00016305e+00   
259     7.69979517e-09   3.99982488e+00   1.00015490e+00   
260     7.72630654e-09   3.99983054e+00   1.00013084e+00   
261     7.75281790e-09   3.99982894e+00   1.00012972e+00   
262     7.77667813e-09   3.99983375e+00   1.00011279e+00   
263     7.80053836e-09   3.99983182e+00   1.00011184e+00   
264     7.82439858e-09   3.99983591e+00   1.00009369e+00   
265     7.84825881e-09   3.99983409e+00   1.00009126e+00   
266     7.87211904e-09   3.99983775e+00   1.00007386e+00   
267     7.91983949e-09   3.99983670e+00   1.00006440e+00   
268     7.96755995e-09   3.99984063e+00   1.00004437e+00   
269     8.01528041e-09   3.99983944e+00   1.00004217e+00   
270     8.05822882e-09   3.99984271e+00   1.00002860e+00   
271     8.09585648e-09   3.99984078e+00   1.00003070e+00   
272     8.12899463e-09   3.99984380e+00   1.00001986e+00   
273     8.16213279e-09   3.99984306e+00   1.00002313e+00   
274     8.19527094e-09   3.99984676e+00   1.00001370e+00   
275     8.22840910e-09   3.99984630e+00   1.00001771e+00   
276     8.26154725e-09   3.99984999e+00   1.00000920e+00   
277     8.29108628e-09   3.99985086e+00   1.00001370e+00   
278     8.31767141e-09   3.99985480e+00   1.00000641e+00   
279     8.34425654e-09   3.99985214e+00   1.00001106e+00   
280     8.37084167e-09   3.99985116e+00   1.00000414e+00   
281     8.39742680e-09   3.99984724e+00   1.00000869e+00   
282     8.42401193e-09   3.99984496e+00   1.00000235e+00   
283     8.45059706e-09   3.99983741e+00   1.00000695e+00   
284     8.47718219e-09   3.99983097e+00   1.00000116e+00   
285     8.50376731e-09   3.99982171e+00   1.00000577e+00   
286     8.53035244e-09   3.99981532e+00   1.00000043e+00   
287     8.55693757e-09   3.99980764e+00   1.00000495e+00   
288     8.58352270e-09   3.99980230e+00   9.99999925e-01   
289     8.61010783e-09   3.99978864e+00   1.00000424e+00   
290     8.63669296e-09   3.99976901e+00   9.99999427e-01   
291     8.66327809e-09   3.99975783e+00   1.00000368e+00   
292     8.68986322e-09   3.99976522e+00   9.99999320e-01   
293     8.71644835e-09   3.99978491e+00   1.00000349e+00   
294     8.74303347e-09   3.99982229e+00   9.99999329e-01   
295     8.76961860e-09   3.99987290e+00   1.00000328e+00   
296     8.79620373e-09   3.99994834e+00   9.99999311e-01   
297     8.82278886e-09   4.00004099e+00   1.00000309e+00   
298     8.84937399e-09   4.00018202e+00   9.99999422e-01   
299     8.87595912e-09   4.00035049e+00   1.00000311e+00   
300     8.90254425e-09   4.00046378e+00   9.99998904e-01   
301     8.92912938e-09   4.00054424e+00   1.00000183e+00   
302     8.95571451e-09   4.00059708e+00   9.99997989e-01   
303     8.98229964e-09   4.00054814e+00   1.00000062e+00   
304     9.00888476e-09   4.00037050e+00   9.99996455e-01   
305     9.03546989e-09   4.00005425e+00   9.99998912e-01   
306     9.06205502e-09   3.99960207e+00   9.99995245e-01   
307     9.08864015e-09   3.99902466e+00   9.99998146e-01   
308     9.11522528e-09   3.99832785e+00   9.99995197e-01   
309     9.14181041e-09   3.99747932e+00   9.99998165e-01   
310     9.16839554e-09   3.99628684e+00   9.99994109e-01   
311     9.19498067e-09   3.99473697e+00   9.99995474e-01   
312     9.22156580e-09   3.99328900e+00   9.99994502e-01   
313     9.24815092e-09   3.99218620e+00   1.00000165e+00   
314     9.27473605e-09   3.99161385e+00   1.00000453e+00   
315     9.30132118e-09   3.99182185e+00   1.00001356e+00   
316     9.30961776e-09   3.99211160e+00   1.00001423e+00   
317     9.32621091e-09   3.99290184e+00   1.00001804e+00   
318     9.34280407e-09   3.99423024e+00   1.00002250e+00   
319     9.35939722e-09   3.99613252e+00   1.00002707e+00   
320     9.37599037e-09   3.99860704e+00   1.00003110e+00   
321     9.40917668e-09   4.00547851e+00   1.00003768e+00   
322     9.44236298e-09   4.01312352e+00   1.00003111e+00   
323     9.47554929e-09   4.02019837e+00   1.00001305e+00   
324     9.50873560e-09   4.02658852e+00   9.99996240e-01   
325     9.54192190e-09   4.03220118e+00   9.99983724e-01   
326     9.60829451e-09   4.04137446e+00   9.99974077e-01   
327     9.67466713e-09   4.04827135e+00   9.99977574e-01   
328     9.74103974e-09   4.05347108e+00   9.99985687e-01   
329     9.87378496e-09   4.05169028e+00   9.99983113e-01   
330     1.00065302e-08   4.01361099e+00   9.99956334e-01   
331     1.01392754e-08   3.91365878e+00   9.99938890e-01   
