Index       TIME              V(1)              V(2)        DERIVCROSSCONTTEST2 DERIVCROSSCONTTEST2 DERIVCROSSCONTTEST3 DERIVCROSSCONTTEST4  DERIVCROSSNEG2   DERIVCROSSCONTNEG2  DERIVCROSSNEG5   DERIVCROSSCONTNEG5
0        0.00000000e+00    1.00000000e-01    5.00000000e-01   -1.00000000e+00   -1.00000000e+00   -1.00000000e+00   -1.00000000e+00   -1.00000000e+00   -1.00000000e+00   -1.00000000e+00   -1.00000000e+00
1        1.00000000e-10    1.00000016e-01    4.99999995e-01   -1.00000000e+00   -1.00000000e+00   -1.00000000e+00   -1.00000000e+00   -1.00000000e+00   -1.00000000e+00   -1.00000000e+00   -1.00000000e+00
2        3.00000000e-10    1.00000048e-01    4.99999985e-01   -1.00000000e+00   -1.00000000e+00   -1.00000000e+00   -1.00000000e+00   -1.00000000e+00   -1.00000000e+00   -1.00000000e+00   -1.00000000e+00
3        7.00000000e-10    1.00000112e-01    4.99999965e-01   -1.00000000e+00   -1.00000000e+00   -1.00000000e+00   -1.00000000e+00   -1.00000000e+00   -1.00000000e+00   -1.00000000e+00   -1.00000000e+00
4        1.50000000e-09    1.00000240e-01    4.99999925e-01   -1.00000000e+00   -1.00000000e+00   -1.00000000e+00   -1.00000000e+00   -1.00000000e+00   -1.00000000e+00   -1.00000000e+00   -1.00000000e+00
5        3.10000000e-09    1.00000496e-01    4.99999845e-01   -1.00000000e+00   -1.00000000e+00   -1.00000000e+00   -1.00000000e+00   -1.00000000e+00   -1.00000000e+00   -1.00000000e+00   -1.00000000e+00
6        6.30000000e-09    1.00001008e-01    4.99999685e-01   -1.00000000e+00   -1.00000000e+00   -1.00000000e+00   -1.00000000e+00   -1.00000000e+00   -1.00000000e+00   -1.00000000e+00   -1.00000000e+00
7        1.27000000e-08    1.00002032e-01    4.99999365e-01   -1.00000000e+00   -1.00000000e+00   -1.00000000e+00   -1.00000000e+00   -1.00000000e+00   -1.00000000e+00   -1.00000000e+00   -1.00000000e+00
8        2.55000000e-08    1.00004080e-01    4.99998725e-01   -1.00000000e+00   -1.00000000e+00   -1.00000000e+00   -1.00000000e+00   -1.00000000e+00   -1.00000000e+00   -1.00000000e+00   -1.00000000e+00
9        5.11000000e-08    1.00008176e-01    4.99997445e-01   -1.00000000e+00   -1.00000000e+00   -1.00000000e+00   -1.00000000e+00   -1.00000000e+00   -1.00000000e+00   -1.00000000e+00   -1.00000000e+00
10       1.02300000e-07    1.00016368e-01    4.99994885e-01   -1.00000000e+00   -1.00000000e+00   -1.00000000e+00   -1.00000000e+00   -1.00000000e+00   -1.00000000e+00   -1.00000000e+00   -1.00000000e+00
11       2.04700000e-07    1.00032752e-01    4.99989765e-01   -1.00000000e+00   -1.00000000e+00   -1.00000000e+00   -1.00000000e+00   -1.00000000e+00   -1.00000000e+00   -1.00000000e+00   -1.00000000e+00
12       4.09500000e-07    1.00065520e-01    4.99979525e-01   -1.00000000e+00   -1.00000000e+00   -1.00000000e+00   -1.00000000e+00   -1.00000000e+00   -1.00000000e+00   -1.00000000e+00   -1.00000000e+00
13       8.19100000e-07    1.00131056e-01    4.99959045e-01   -1.00000000e+00   -1.00000000e+00   -1.00000000e+00   -1.00000000e+00   -1.00000000e+00   -1.00000000e+00   -1.00000000e+00   -1.00000000e+00
14       1.63830000e-06    1.00262128e-01    4.99918085e-01   -1.00000000e+00   -1.00000000e+00   -1.00000000e+00   -1.00000000e+00   -1.00000000e+00   -1.00000000e+00   -1.00000000e+00   -1.00000000e+00
15       3.27670000e-06    1.00524272e-01    4.99836165e-01   -1.00000000e+00   -1.00000000e+00   -1.00000000e+00   -1.00000000e+00   -1.00000000e+00   -1.00000000e+00   -1.00000000e+00   -1.00000000e+00
16       6.55350000e-06    1.01048560e-01    4.99672325e-01   -1.00000000e+00   -1.00000000e+00   -1.00000000e+00   -1.00000000e+00   -1.00000000e+00   -1.00000000e+00   -1.00000000e+00   -1.00000000e+00
17       1.31071000e-05    1.02097136e-01    4.99344645e-01   -1.00000000e+00   -1.00000000e+00   -1.00000000e+00   -1.00000000e+00   -1.00000000e+00   -1.00000000e+00   -1.00000000e+00   -1.00000000e+00
18       2.62143000e-05    1.04194288e-01    4.98689285e-01   -1.00000000e+00   -1.00000000e+00   -1.00000000e+00   -1.00000000e+00   -1.00000000e+00   -1.00000000e+00   -1.00000000e+00   -1.00000000e+00
19       5.24287000e-05    1.08388592e-01    4.97378565e-01   -1.00000000e+00   -1.00000000e+00   -1.00000000e+00   -1.00000000e+00   -1.00000000e+00   -1.00000000e+00   -1.00000000e+00   -1.00000000e+00
20       1.04857500e-04    1.16777200e-01    4.94757125e-01   -1.00000000e+00   -1.00000000e+00   -1.00000000e+00   -1.00000000e+00   -1.00000000e+00   -1.00000000e+00   -1.00000000e+00   -1.00000000e+00
21       2.09715100e-04    1.33554416e-01    4.89514245e-01   -1.00000000e+00   -1.00000000e+00   -1.00000000e+00   -1.00000000e+00   -1.00000000e+00   -1.00000000e+00   -1.00000000e+00   -1.00000000e+00
22       4.19430300e-04    1.67108848e-01    4.79028485e-01   -1.00000000e+00   -1.00000000e+00   -1.00000000e+00   -1.00000000e+00   -1.00000000e+00   -1.00000000e+00   -1.00000000e+00   -1.00000000e+00
23       8.38860700e-04    2.34217712e-01    4.58056965e-01    1.60000000e+02    1.60000000e+02   -1.00000000e+00    1.60000000e+02   -1.00000000e+00   -1.00000000e+00   -1.00000000e+00   -1.00000000e+00
24       1.67772150e-03    3.68435440e-01    4.16113925e-01    1.60000000e+02    1.60000000e+02   -1.00000000e+00    1.60000000e+02   -1.00000000e+00   -1.00000000e+00   -1.00000000e+00   -1.00000000e+00
25       2.50000000e-03    5.00000000e-01    3.75000000e-01    1.60000000e+02    1.60000000e+02   -1.00000000e+00    1.60000000e+02   -1.00000000e+00   -1.00000000e+00   -1.00000000e+00   -1.00000000e+00
26       2.50625000e-03    4.98750000e-01    3.74687500e-01    1.60000000e+02    1.60000000e+02   -1.00000000e+00    1.60000000e+02   -1.00000000e+00   -1.00000000e+00   -1.00000000e+00   -1.00000000e+00
27       2.51875000e-03    4.96250000e-01    3.74062500e-01    1.60000000e+02    1.60000000e+02   -1.00000000e+00    1.60000000e+02   -1.00000000e+00   -1.00000000e+00   -1.00000000e+00   -1.00000000e+00
28       2.54375000e-03    4.91250000e-01    3.72812500e-01    1.60000000e+02    1.60000000e+02   -1.00000000e+00    1.60000000e+02   -1.00000000e+00   -1.00000000e+00   -1.00000000e+00   -1.00000000e+00
29       2.59375000e-03    4.81250000e-01    3.70312500e-01    1.60000000e+02    1.60000000e+02   -1.00000000e+00    1.60000000e+02   -1.00000000e+00   -1.00000000e+00   -1.00000000e+00   -1.00000000e+00
30       2.69375000e-03    4.61250000e-01    3.65312500e-01    1.60000000e+02    1.60000000e+02   -1.00000000e+00    1.60000000e+02   -1.00000000e+00   -1.00000000e+00   -1.00000000e+00   -1.00000000e+00
31       2.89375000e-03    4.21250000e-01    3.55312500e-01    1.60000000e+02    1.60000000e+02   -1.00000000e+00    1.60000000e+02   -1.00000000e+00   -1.00000000e+00   -1.00000000e+00   -1.00000000e+00
32       3.29375000e-03    3.41250000e-01    3.35312500e-01    1.60000000e+02    1.60000000e+02   -1.00000000e+00    1.60000000e+02   -1.00000000e+00   -1.00000000e+00   -1.00000000e+00   -1.00000000e+00
33       4.09375000e-03    1.81250000e-01    2.95312500e-01   -2.00000000e+02   -2.00000000e+02   -2.00000000e+02   -2.00000000e+02    1.60000000e+02    1.60000000e+02   -1.00000000e+00   -1.00000000e+00
34       5.00000000e-03    0.00000000e+00    2.50000000e-01   -2.00000000e+02   -2.00000000e+02   -2.00000000e+02   -2.00000000e+02    1.60000000e+02    1.60000000e+02   -1.00000000e+00   -1.00000000e+00
35       5.00625000e-03    1.04166667e-03    2.49687500e-01   -2.00000000e+02   -2.00000000e+02   -2.00000000e+02   -2.00000000e+02    1.60000000e+02    1.60000000e+02   -1.00000000e+00   -1.00000000e+00
36       5.01250000e-03    2.08333333e-03    2.49375000e-01   -2.00000000e+02   -2.00000000e+02   -2.00000000e+02   -2.00000000e+02    1.60000000e+02    1.60000000e+02   -1.00000000e+00   -1.00000000e+00
37       5.02500000e-03    4.16666667e-03    2.48750000e-01   -2.00000000e+02   -2.00000000e+02   -2.00000000e+02   -2.00000000e+02    1.60000000e+02    1.60000000e+02   -1.00000000e+00   -1.00000000e+00
38       5.05000000e-03    8.33333333e-03    2.47500000e-01   -2.00000000e+02   -2.00000000e+02   -2.00000000e+02   -2.00000000e+02    1.60000000e+02    1.60000000e+02   -1.00000000e+00   -1.00000000e+00
39       5.10000000e-03    1.66666667e-02    2.45000000e-01   -2.00000000e+02   -2.00000000e+02   -2.00000000e+02   -2.00000000e+02    1.60000000e+02    1.60000000e+02   -1.00000000e+00   -1.00000000e+00
40       5.20000000e-03    3.33333333e-02    2.40000000e-01   -2.00000000e+02   -2.00000000e+02   -2.00000000e+02   -2.00000000e+02    1.60000000e+02    1.60000000e+02   -1.00000000e+00   -1.00000000e+00
41       5.40000000e-03    6.66666667e-02    2.30000000e-01   -2.00000000e+02   -2.00000000e+02   -2.00000000e+02   -2.00000000e+02    1.60000000e+02    1.60000000e+02   -1.00000000e+00   -1.00000000e+00
42       5.80000000e-03    1.33333333e-01    2.10000000e-01   -2.00000000e+02   -2.00000000e+02   -2.00000000e+02   -2.00000000e+02    1.60000000e+02    1.60000000e+02   -1.00000000e+00   -1.00000000e+00
43       6.60000000e-03    2.66666667e-01    1.70000000e-01    1.66666667e+02    1.66666667e+02    1.66666667e+02    1.66666667e+02   -2.00000000e+02   -2.00000000e+02   -1.00000000e+00   -1.00000000e+00
44       7.40000000e-03    4.00000000e-01    1.30000000e-01    1.66666667e+02    1.66666667e+02    1.66666667e+02    1.66666667e+02   -2.00000000e+02   -2.00000000e+02   -1.00000000e+00   -1.00000000e+00
45       7.40625000e-03    3.99038462e-01    1.29687500e-01    1.66666667e+02    1.66666667e+02    1.66666667e+02    1.66666667e+02   -2.00000000e+02   -2.00000000e+02   -1.00000000e+00   -1.00000000e+00
46       7.41875000e-03    3.97115385e-01    1.29062500e-01    1.66666667e+02    1.66666667e+02    1.66666667e+02    1.66666667e+02   -2.00000000e+02   -2.00000000e+02   -1.00000000e+00   -1.00000000e+00
47       7.44375000e-03    3.93269231e-01    1.27812500e-01    1.66666667e+02    1.66666667e+02    1.66666667e+02    1.66666667e+02   -2.00000000e+02   -2.00000000e+02   -1.00000000e+00   -1.00000000e+00
48       7.49375000e-03    3.85576923e-01    1.25312500e-01    1.66666667e+02    1.66666667e+02    1.66666667e+02    1.66666667e+02   -2.00000000e+02   -2.00000000e+02   -1.00000000e+00   -1.00000000e+00
49       7.59375000e-03    3.70192308e-01    1.20312500e-01    1.66666667e+02    1.66666667e+02    1.66666667e+02    1.66666667e+02   -2.00000000e+02   -2.00000000e+02   -1.00000000e+00   -1.00000000e+00
50       7.79375000e-03    3.39423077e-01    1.10312500e-01    1.66666667e+02    1.66666667e+02    1.66666667e+02    1.66666667e+02   -2.00000000e+02   -2.00000000e+02   -1.00000000e+00   -1.00000000e+00
51       8.19375000e-03    2.77884615e-01    9.03125000e-02    1.66666667e+02    1.66666667e+02    1.66666667e+02    1.66666667e+02   -2.00000000e+02   -2.00000000e+02   -1.00000000e+00   -1.00000000e+00
52       8.99375000e-03    1.54807692e-01    5.03125000e-02   -1.53846154e+02   -1.53846154e+02   -1.53846154e+02   -1.53846154e+02    1.66666667e+02    1.66666667e+02   -1.00000000e+00   -1.00000000e+00
53       9.99375000e-03    9.61538462e-04    3.12500000e-04   -1.53846154e+02   -1.53846154e+02   -1.53846154e+02   -1.53846154e+02    1.66666667e+02    1.66666667e+02   -1.00000000e+00   -1.00000000e+00
54       1.00000000e-02    0.00000000e+00    0.00000000e+00   -1.53846154e+02   -1.53846154e+02   -1.53846154e+02   -1.53846154e+02    1.66666667e+02    1.66666667e+02   -1.00000000e+00   -1.00000000e+00
End of Xyce(TM) Simulation
