Index       TIME              V(1)              V(2)        WHENCROSSCONTTEST2 WHENCROSSCONTTEST2 WHENCROSSCONTTEST3 WHENCROSSCONTTEST4   WHENCROSSNEG2   WHENCROSSCONTNEG2   WHENCROSSNEG5   WHENCROSSCONTNEG5
0        0.00000000e+00    1.00000000e-01    5.00000000e-01   -1.00000000e+00   -1.00000000e+00   -1.00000000e+00   -1.00000000e+00   -1.00000000e+00   -1.00000000e+00   -1.00000000e+00   -1.00000000e+00
1        1.00000000e-10    1.00000016e-01    4.99999995e-01   -1.00000000e+00   -1.00000000e+00   -1.00000000e+00   -1.00000000e+00   -1.00000000e+00   -1.00000000e+00   -1.00000000e+00   -1.00000000e+00
2        3.00000000e-10    1.00000048e-01    4.99999985e-01   -1.00000000e+00   -1.00000000e+00   -1.00000000e+00   -1.00000000e+00   -1.00000000e+00   -1.00000000e+00   -1.00000000e+00   -1.00000000e+00
3        7.00000000e-10    1.00000112e-01    4.99999965e-01   -1.00000000e+00   -1.00000000e+00   -1.00000000e+00   -1.00000000e+00   -1.00000000e+00   -1.00000000e+00   -1.00000000e+00   -1.00000000e+00
4        1.50000000e-09    1.00000240e-01    4.99999925e-01   -1.00000000e+00   -1.00000000e+00   -1.00000000e+00   -1.00000000e+00   -1.00000000e+00   -1.00000000e+00   -1.00000000e+00   -1.00000000e+00
5        3.10000000e-09    1.00000496e-01    4.99999845e-01   -1.00000000e+00   -1.00000000e+00   -1.00000000e+00   -1.00000000e+00   -1.00000000e+00   -1.00000000e+00   -1.00000000e+00   -1.00000000e+00
6        6.30000000e-09    1.00001008e-01    4.99999685e-01   -1.00000000e+00   -1.00000000e+00   -1.00000000e+00   -1.00000000e+00   -1.00000000e+00   -1.00000000e+00   -1.00000000e+00   -1.00000000e+00
7        1.27000000e-08    1.00002032e-01    4.99999365e-01   -1.00000000e+00   -1.00000000e+00   -1.00000000e+00   -1.00000000e+00   -1.00000000e+00   -1.00000000e+00   -1.00000000e+00   -1.00000000e+00
8        2.55000000e-08    1.00004080e-01    4.99998725e-01   -1.00000000e+00   -1.00000000e+00   -1.00000000e+00   -1.00000000e+00   -1.00000000e+00   -1.00000000e+00   -1.00000000e+00   -1.00000000e+00
9        5.11000000e-08    1.00008176e-01    4.99997445e-01   -1.00000000e+00   -1.00000000e+00   -1.00000000e+00   -1.00000000e+00   -1.00000000e+00   -1.00000000e+00   -1.00000000e+00   -1.00000000e+00
10       1.02300000e-07    1.00016368e-01    4.99994885e-01   -1.00000000e+00   -1.00000000e+00   -1.00000000e+00   -1.00000000e+00   -1.00000000e+00   -1.00000000e+00   -1.00000000e+00   -1.00000000e+00
11       2.04700000e-07    1.00032752e-01    4.99989765e-01   -1.00000000e+00   -1.00000000e+00   -1.00000000e+00   -1.00000000e+00   -1.00000000e+00   -1.00000000e+00   -1.00000000e+00   -1.00000000e+00
12       4.09500000e-07    1.00065520e-01    4.99979525e-01   -1.00000000e+00   -1.00000000e+00   -1.00000000e+00   -1.00000000e+00   -1.00000000e+00   -1.00000000e+00   -1.00000000e+00   -1.00000000e+00
13       8.19100000e-07    1.00131056e-01    4.99959045e-01   -1.00000000e+00   -1.00000000e+00   -1.00000000e+00   -1.00000000e+00   -1.00000000e+00   -1.00000000e+00   -1.00000000e+00   -1.00000000e+00
14       1.63830000e-06    1.00262128e-01    4.99918085e-01   -1.00000000e+00   -1.00000000e+00   -1.00000000e+00   -1.00000000e+00   -1.00000000e+00   -1.00000000e+00   -1.00000000e+00   -1.00000000e+00
15       3.27670000e-06    1.00524272e-01    4.99836165e-01   -1.00000000e+00   -1.00000000e+00   -1.00000000e+00   -1.00000000e+00   -1.00000000e+00   -1.00000000e+00   -1.00000000e+00   -1.00000000e+00
16       6.55350000e-06    1.01048560e-01    4.99672325e-01   -1.00000000e+00   -1.00000000e+00   -1.00000000e+00   -1.00000000e+00   -1.00000000e+00   -1.00000000e+00   -1.00000000e+00   -1.00000000e+00
17       1.31071000e-05    1.02097136e-01    4.99344645e-01   -1.00000000e+00   -1.00000000e+00   -1.00000000e+00   -1.00000000e+00   -1.00000000e+00   -1.00000000e+00   -1.00000000e+00   -1.00000000e+00
18       2.62143000e-05    1.04194288e-01    4.98689285e-01   -1.00000000e+00   -1.00000000e+00   -1.00000000e+00   -1.00000000e+00   -1.00000000e+00   -1.00000000e+00   -1.00000000e+00   -1.00000000e+00
19       5.24287000e-05    1.08388592e-01    4.97378565e-01   -1.00000000e+00   -1.00000000e+00   -1.00000000e+00   -1.00000000e+00   -1.00000000e+00   -1.00000000e+00   -1.00000000e+00   -1.00000000e+00
20       1.04857500e-04    1.16777200e-01    4.94757125e-01   -1.00000000e+00   -1.00000000e+00   -1.00000000e+00   -1.00000000e+00   -1.00000000e+00   -1.00000000e+00   -1.00000000e+00   -1.00000000e+00
21       2.09715100e-04    1.33554416e-01    4.89514245e-01   -1.00000000e+00   -1.00000000e+00   -1.00000000e+00   -1.00000000e+00   -1.00000000e+00   -1.00000000e+00   -1.00000000e+00   -1.00000000e+00
22       4.19430300e-04    1.67108848e-01    4.79028485e-01   -1.00000000e+00   -1.00000000e+00   -1.00000000e+00   -1.00000000e+00   -1.00000000e+00   -1.00000000e+00   -1.00000000e+00   -1.00000000e+00
23       8.38860700e-04    2.34217712e-01    4.58056965e-01    6.25000000e-04    6.25000000e-04   -1.00000000e+00    6.25000000e-04   -1.00000000e+00   -1.00000000e+00   -1.00000000e+00   -1.00000000e+00
24       1.67772150e-03    3.68435440e-01    4.16113925e-01    6.25000000e-04    6.25000000e-04   -1.00000000e+00    6.25000000e-04   -1.00000000e+00   -1.00000000e+00   -1.00000000e+00   -1.00000000e+00
25       2.50000000e-03    5.00000000e-01    3.75000000e-01    6.25000000e-04    6.25000000e-04   -1.00000000e+00    6.25000000e-04   -1.00000000e+00   -1.00000000e+00   -1.00000000e+00   -1.00000000e+00
26       2.50625000e-03    4.98750000e-01    3.74687500e-01    6.25000000e-04    6.25000000e-04   -1.00000000e+00    6.25000000e-04   -1.00000000e+00   -1.00000000e+00   -1.00000000e+00   -1.00000000e+00
27       2.51875000e-03    4.96250000e-01    3.74062500e-01    6.25000000e-04    6.25000000e-04   -1.00000000e+00    6.25000000e-04   -1.00000000e+00   -1.00000000e+00   -1.00000000e+00   -1.00000000e+00
28       2.54375000e-03    4.91250000e-01    3.72812500e-01    6.25000000e-04    6.25000000e-04   -1.00000000e+00    6.25000000e-04   -1.00000000e+00   -1.00000000e+00   -1.00000000e+00   -1.00000000e+00
29       2.59375000e-03    4.81250000e-01    3.70312500e-01    6.25000000e-04    6.25000000e-04   -1.00000000e+00    6.25000000e-04   -1.00000000e+00   -1.00000000e+00   -1.00000000e+00   -1.00000000e+00
30       2.69375000e-03    4.61250000e-01    3.65312500e-01    6.25000000e-04    6.25000000e-04   -1.00000000e+00    6.25000000e-04   -1.00000000e+00   -1.00000000e+00   -1.00000000e+00   -1.00000000e+00
31       2.89375000e-03    4.21250000e-01    3.55312500e-01    6.25000000e-04    6.25000000e-04   -1.00000000e+00    6.25000000e-04   -1.00000000e+00   -1.00000000e+00   -1.00000000e+00   -1.00000000e+00
32       3.29375000e-03    3.41250000e-01    3.35312500e-01    6.25000000e-04    6.25000000e-04   -1.00000000e+00    6.25000000e-04   -1.00000000e+00   -1.00000000e+00   -1.00000000e+00   -1.00000000e+00
33       4.09375000e-03    1.81250000e-01    2.95312500e-01    4.00000000e-03    4.00000000e-03    4.00000000e-03    4.00000000e-03    6.25000000e-04    6.25000000e-04   -1.00000000e+00   -1.00000000e+00
34       5.00000000e-03    0.00000000e+00    2.50000000e-01    4.00000000e-03    4.00000000e-03    4.00000000e-03    4.00000000e-03    6.25000000e-04    6.25000000e-04   -1.00000000e+00   -1.00000000e+00
35       5.00625000e-03    1.00000000e-03    2.49687500e-01    4.00000000e-03    4.00000000e-03    4.00000000e-03    4.00000000e-03    6.25000000e-04    6.25000000e-04   -1.00000000e+00   -1.00000000e+00
36       5.01875000e-03    3.00000000e-03    2.49062500e-01    4.00000000e-03    4.00000000e-03    4.00000000e-03    4.00000000e-03    6.25000000e-04    6.25000000e-04   -1.00000000e+00   -1.00000000e+00
37       5.04375000e-03    7.00000000e-03    2.47812500e-01    4.00000000e-03    4.00000000e-03    4.00000000e-03    4.00000000e-03    6.25000000e-04    6.25000000e-04   -1.00000000e+00   -1.00000000e+00
38       5.09375000e-03    1.50000000e-02    2.45312500e-01    4.00000000e-03    4.00000000e-03    4.00000000e-03    4.00000000e-03    6.25000000e-04    6.25000000e-04   -1.00000000e+00   -1.00000000e+00
39       5.19375000e-03    3.10000000e-02    2.40312500e-01    4.00000000e-03    4.00000000e-03    4.00000000e-03    4.00000000e-03    6.25000000e-04    6.25000000e-04   -1.00000000e+00   -1.00000000e+00
40       5.39375000e-03    6.30000000e-02    2.30312500e-01    4.00000000e-03    4.00000000e-03    4.00000000e-03    4.00000000e-03    6.25000000e-04    6.25000000e-04   -1.00000000e+00   -1.00000000e+00
41       5.79375000e-03    1.27000000e-01    2.10312500e-01    4.00000000e-03    4.00000000e-03    4.00000000e-03    4.00000000e-03    6.25000000e-04    6.25000000e-04   -1.00000000e+00   -1.00000000e+00
42       6.59375000e-03    2.55000000e-01    1.70312500e-01    6.25000000e-03    6.25000000e-03    6.25000000e-03    6.25000000e-03    4.00000000e-03    4.00000000e-03   -1.00000000e+00   -1.00000000e+00
43       7.50000000e-03    4.00000000e-01    1.25000000e-01    6.25000000e-03    6.25000000e-03    6.25000000e-03    6.25000000e-03    4.00000000e-03    4.00000000e-03   -1.00000000e+00   -1.00000000e+00
44       7.50625000e-03    3.99000000e-01    1.24687500e-01    6.25000000e-03    6.25000000e-03    6.25000000e-03    6.25000000e-03    4.00000000e-03    4.00000000e-03   -1.00000000e+00   -1.00000000e+00
45       7.51875000e-03    3.97000000e-01    1.24062500e-01    6.25000000e-03    6.25000000e-03    6.25000000e-03    6.25000000e-03    4.00000000e-03    4.00000000e-03   -1.00000000e+00   -1.00000000e+00
46       7.54375000e-03    3.93000000e-01    1.22812500e-01    6.25000000e-03    6.25000000e-03    6.25000000e-03    6.25000000e-03    4.00000000e-03    4.00000000e-03   -1.00000000e+00   -1.00000000e+00
47       7.59375000e-03    3.85000000e-01    1.20312500e-01    6.25000000e-03    6.25000000e-03    6.25000000e-03    6.25000000e-03    4.00000000e-03    4.00000000e-03   -1.00000000e+00   -1.00000000e+00
48       7.69375000e-03    3.69000000e-01    1.15312500e-01    6.25000000e-03    6.25000000e-03    6.25000000e-03    6.25000000e-03    4.00000000e-03    4.00000000e-03   -1.00000000e+00   -1.00000000e+00
49       7.89375000e-03    3.37000000e-01    1.05312500e-01    6.25000000e-03    6.25000000e-03    6.25000000e-03    6.25000000e-03    4.00000000e-03    4.00000000e-03   -1.00000000e+00   -1.00000000e+00
50       8.29375000e-03    2.73000000e-01    8.53125000e-02    6.25000000e-03    6.25000000e-03    6.25000000e-03    6.25000000e-03    4.00000000e-03    4.00000000e-03   -1.00000000e+00   -1.00000000e+00
51       9.09375000e-03    1.45000000e-01    4.53125000e-02    8.75000000e-03    8.75000000e-03    8.75000000e-03    8.75000000e-03    6.25000000e-03    6.25000000e-03   -1.00000000e+00   -1.00000000e+00
52       1.00000000e-02    0.00000000e+00    0.00000000e+00    8.75000000e-03    8.75000000e-03    8.75000000e-03    8.75000000e-03    6.25000000e-03    6.25000000e-03   -1.00000000e+00   -1.00000000e+00
End of Xyce(TM) Simulation
