Index       FREQ              VM(3)             VM(B)             VM(C)             VM(D)             VM(E)       WHENCROSSCONTTEST2 WHENCROSSCONTTEST3 WHENCROSSCONTTEST4   WHENCROSSNEG2   WHENCROSSCONTNEG2   WHENCROSSNEG6   WHENCROSSCONTNEG6
0        1.00000000e+00    1.00000000e+00    4.99424245e-01    4.99573496e-01    4.99674208e-01    4.99717550e-01    0.00000000e+00    0.00000000e+00    0.00000000e+00    0.00000000e+00    0.00000000e+00    0.00000000e+00    0.00000000e+00
1        1.12201845e+00    1.00000000e+00    4.99275377e-01    4.99463231e-01    4.99589997e-01    4.99644553e-01    0.00000000e+00    0.00000000e+00    0.00000000e+00    0.00000000e+00    0.00000000e+00    0.00000000e+00    0.00000000e+00
2        1.25892541e+00    1.00000000e+00    4.99088087e-01    4.99324512e-01    4.99484065e-01    4.99552734e-01    0.00000000e+00    0.00000000e+00    0.00000000e+00    0.00000000e+00    0.00000000e+00    0.00000000e+00    0.00000000e+00
3        1.41253754e+00    1.00000000e+00    4.98852496e-01    4.99150030e-01    4.99350839e-01    4.99437267e-01    0.00000000e+00    0.00000000e+00    0.00000000e+00    0.00000000e+00    0.00000000e+00    0.00000000e+00    0.00000000e+00
4        1.58489319e+00    1.00000000e+00    4.98556212e-01    4.98930614e-01    4.99183327e-01    4.99292101e-01    0.00000000e+00    0.00000000e+00    0.00000000e+00    0.00000000e+00    0.00000000e+00    0.00000000e+00    0.00000000e+00
5        1.77827941e+00    1.00000000e+00    4.98183698e-01    4.98654771e-01    4.98972776e-01    4.99109663e-01    0.00000000e+00    0.00000000e+00    0.00000000e+00    0.00000000e+00    0.00000000e+00    0.00000000e+00    0.00000000e+00
6        1.99526231e+00    1.00000000e+00    4.97715499e-01    4.98308117e-01    4.98708234e-01    4.98880483e-01    0.00000000e+00    0.00000000e+00    0.00000000e+00    0.00000000e+00    0.00000000e+00    0.00000000e+00    0.00000000e+00
7        2.23872114e+00    1.00000000e+00    4.97127284e-01    4.97872668e-01    4.98376029e-01    4.98592749e-01    0.00000000e+00    0.00000000e+00    0.00000000e+00    0.00000000e+00    0.00000000e+00    0.00000000e+00    0.00000000e+00
8        2.51188643e+00    1.00000000e+00    4.96388680e-01    4.97325992e-01    4.97959122e-01    4.98231752e-01    0.00000000e+00    0.00000000e+00    0.00000000e+00    0.00000000e+00    0.00000000e+00    0.00000000e+00    0.00000000e+00
9        2.81838293e+00    1.00000000e+00    4.95461851e-01    4.96640166e-01    4.97436338e-01    4.97779237e-01    0.00000000e+00    0.00000000e+00    0.00000000e+00    0.00000000e+00    0.00000000e+00    0.00000000e+00    0.00000000e+00
10       3.16227766e+00    1.00000000e+00    4.94299798e-01    4.95780538e-01    4.96781453e-01    4.97212630e-01    0.00000000e+00    0.00000000e+00    0.00000000e+00    0.00000000e+00    0.00000000e+00    0.00000000e+00    0.00000000e+00
11       3.54813389e+00    1.00000000e+00    4.92844335e-01    4.94704264e-01    4.95962126e-01    4.96504147e-01    0.00000000e+00    0.00000000e+00    0.00000000e+00    0.00000000e+00    0.00000000e+00    0.00000000e+00    0.00000000e+00
12       3.98107171e+00    1.00000000e+00    4.91023743e-01    4.93358620e-01    4.94938691e-01    4.95619799e-01    0.00000000e+00    0.00000000e+00    0.00000000e+00    0.00000000e+00    0.00000000e+00    0.00000000e+00    0.00000000e+00
13       4.46683592e+00    1.00000000e+00    4.88750107e-01    4.91679110e-01    4.93662829e-01    4.94518324e-01    0.00000000e+00    0.00000000e+00    0.00000000e+00    0.00000000e+00    0.00000000e+00    0.00000000e+00    0.00000000e+00
14       5.01187234e+00    1.00000000e+00    4.85916403e-01    4.89587422e-01    4.92076203e-01    4.93150128e-01    0.00000000e+00    0.00000000e+00    0.00000000e+00    0.00000000e+00    0.00000000e+00    0.00000000e+00    0.00000000e+00
15       5.62341325e+00    1.00000000e+00    4.82393475e-01    4.86989367e-01    4.90109166e-01    4.91456356e-01    0.00000000e+00    0.00000000e+00    0.00000000e+00    0.00000000e+00    0.00000000e+00    0.00000000e+00    0.00000000e+00
16       6.30957344e+00    1.00000000e+00    4.78027182e-01    4.83773021e-01    4.87679771e-01    4.89368326e-01    0.00000000e+00    0.00000000e+00    0.00000000e+00    0.00000000e+00    0.00000000e+00    0.00000000e+00    0.00000000e+00
17       7.07945784e+00    1.00000000e+00    4.72636124e-01    4.79807398e-01    4.84693402e-01    4.86807648e-01    0.00000000e+00    0.00000000e+00    0.00000000e+00    0.00000000e+00    0.00000000e+00    0.00000000e+00    0.00000000e+00
18       7.94328235e+00    1.00000000e+00    4.66010628e-01    4.74942186e-01    4.81043507e-01    4.83687503e-01    0.00000000e+00    0.00000000e+00    0.00000000e+00    0.00000000e+00    0.00000000e+00    0.00000000e+00    0.00000000e+00
19       8.91250938e+00    1.00000000e+00    4.57913866e-01    4.69009209e-01    4.76614065e-01    4.79915719e-01    0.00000000e+00    0.00000000e+00    0.00000000e+00    0.00000000e+00    0.00000000e+00    0.00000000e+00    0.00000000e+00
20       1.00000000e+01    1.00000000e+00    4.48086291e-01    4.61826444e-01    4.71284531e-01    4.75400413e-01    0.00000000e+00    0.00000000e+00    0.00000000e+00    0.00000000e+00    0.00000000e+00    0.00000000e+00    0.00000000e+00
21       1.12201845e+01    1.00000000e+00    4.36254739e-01    4.53205466e-01    4.64938098e-01    4.70059032e-01    0.00000000e+00    0.00000000e+00    0.00000000e+00    0.00000000e+00    0.00000000e+00    0.00000000e+00    0.00000000e+00
22       1.25892541e+01    1.00000000e+00    4.22147583e-01    4.42963004e-01    4.57473900e-01    4.63831535e-01    0.00000000e+00    0.00000000e+00    0.00000000e+00    0.00000000e+00    0.00000000e+00    0.00000000e+00    0.00000000e+00
23       1.41253754e+01    1.00000000e+00    4.05517231e-01    4.30936815e-01    4.48823404e-01    4.56698085e-01    0.00000000e+00    0.00000000e+00    0.00000000e+00    0.00000000e+00    0.00000000e+00    0.00000000e+00    0.00000000e+00
24       1.58489319e+01    1.00000000e+00    3.86171058e-01    4.17005147e-01    4.38970410e-01    4.48701011e-01    1.55689695e+01    0.00000000e+00    1.55689695e+01    0.00000000e+00    0.00000000e+00    0.00000000e+00    0.00000000e+00
25       1.77827941e+01    1.00000000e+00    3.64012355e-01    4.01107920e-01    4.27973054e-01    4.39969964e-01    1.55689695e+01    0.00000000e+00    1.55689695e+01    0.00000000e+00    0.00000000e+00    0.00000000e+00    0.00000000e+00
26       1.99526231e+01    1.00000000e+00    3.39095573e-01    3.83266693e-01    4.15985131e-01    4.30748491e-01    1.55689695e+01    0.00000000e+00    1.55689695e+01    0.00000000e+00    0.00000000e+00    0.00000000e+00    0.00000000e+00
27       2.23872114e+01    1.00000000e+00    3.11708812e-01    3.63600374e-01    4.03273568e-01    4.21420315e-01    1.55689695e+01    0.00000000e+00    1.55689695e+01    0.00000000e+00    0.00000000e+00    0.00000000e+00    0.00000000e+00
28       2.51188643e+01    1.00000000e+00    2.82518597e-01    3.42335684e-01    3.90229372e-01    4.12534906e-01    1.55689695e+01    0.00000000e+00    1.55689695e+01    0.00000000e+00    0.00000000e+00    0.00000000e+00    0.00000000e+00
29       2.81838293e+01    1.00000000e+00    2.52861320e-01    3.19817357e-01    3.77371013e-01    4.04834970e-01    1.55689695e+01    0.00000000e+00    1.55689695e+01    0.00000000e+00    0.00000000e+00    0.00000000e+00    0.00000000e+00
30       3.16227766e+01    1.00000000e+00    2.25351561e-01    2.96536630e-01    3.65341058e-01    3.99292576e-01    1.55689695e+01    0.00000000e+00    1.55689695e+01    0.00000000e+00    0.00000000e+00    0.00000000e+00    0.00000000e+00
31       3.54813389e+01    1.00000000e+00    2.04987704e-01    2.73226921e-01    3.54895741e-01    3.97163076e-01    1.55689695e+01    0.00000000e+00    1.55689695e+01    0.00000000e+00    0.00000000e+00    0.00000000e+00    0.00000000e+00
32       3.98107171e+01    1.00000000e+00    2.00162620e-01    2.51146747e-01    3.46874548e-01    4.00056983e-01    1.55689695e+01    0.00000000e+00    1.55689695e+01    0.00000000e+00    0.00000000e+00    0.00000000e+00    0.00000000e+00
33       4.46683592e+01    1.00000000e+00    2.20694489e-01    2.32823051e-01    3.42087049e-01    4.09973466e-01    1.55689695e+01    0.00000000e+00    1.55689695e+01    0.00000000e+00    0.00000000e+00    0.00000000e+00    0.00000000e+00
34       5.01187234e+01    1.00000000e+00    2.71947454e-01    2.23668354e-01    3.40888889e-01    4.29002365e-01    1.55689695e+01    0.00000000e+00    1.55689695e+01    0.00000000e+00    0.00000000e+00    0.00000000e+00    0.00000000e+00
35       5.62341325e+01    1.00000000e+00    3.51574725e-01    2.33782268e-01    3.41766467e-01    4.57584877e-01    5.46113001e+01    5.46113001e+01    5.46113001e+01    1.55689695e+01    1.55689695e+01    0.00000000e+00    0.00000000e+00
36       6.30957344e+01    1.00000000e+00    4.44587510e-01    2.73670612e-01    3.37820841e-01    4.88597170e-01    5.46113001e+01    5.46113001e+01    5.46113001e+01    1.55689695e+01    1.55689695e+01    0.00000000e+00    0.00000000e+00
37       7.07945784e+01    1.00000000e+00    5.08018708e-01    3.35854206e-01    3.14719139e-01    4.98943883e-01    5.46113001e+01    5.46113001e+01    5.46113001e+01    1.55689695e+01    1.55689695e+01    0.00000000e+00    0.00000000e+00
38       7.94328235e+01    1.00000000e+00    4.87696498e-01    3.88141227e-01    2.68340828e-01    4.67768052e-01    5.46113001e+01    5.46113001e+01    5.46113001e+01    1.55689695e+01    1.55689695e+01    0.00000000e+00    0.00000000e+00
39       8.91250938e+01    1.00000000e+00    3.89279089e-01    4.16690215e-01    2.26955472e-01    4.18958934e-01    8.29611143e+01    8.29611143e+01    8.29611143e+01    5.46113001e+01    5.46113001e+01    0.00000000e+00    0.00000000e+00
40       1.00000000e+02    1.00000000e+00    2.66485417e-01    4.43316488e-01    2.27994153e-01    3.97276453e-01    8.29611143e+01    8.29611143e+01    8.29611143e+01    5.46113001e+01    5.46113001e+01    0.00000000e+00    0.00000000e+00
41       1.12201845e+02    1.00000000e+00    2.59070670e-01    4.88400695e-01    3.10290497e-01    4.37702871e-01    8.29611143e+01    8.29611143e+01    8.29611143e+01    5.46113001e+01    5.46113001e+01    0.00000000e+00    0.00000000e+00
42       1.25892541e+02    1.00000000e+00    5.23095446e-01    4.46937734e-01    4.78984472e-01    4.98440720e-01    1.14973696e+02    1.14973696e+02    1.14973696e+02    8.29611143e+01    8.29611143e+01    0.00000000e+00    0.00000000e+00
43       1.41253754e+02    1.00000000e+00    4.54319259e-01    2.85687899e-01    5.33469823e-01    4.00430391e-01    1.33484682e+02    1.33484682e+02    1.33484682e+02    1.14973696e+02    1.14973696e+02    0.00000000e+00    0.00000000e+00
44       1.58489319e+02    1.00000000e+00    7.04855599e-01    9.06341053e-01    7.80937714e-01    4.26270822e-01    1.33484682e+02    1.33484682e+02    1.33484682e+02    1.14973696e+02    1.14973696e+02    0.00000000e+00    0.00000000e+00
45       1.77827941e+02    1.00000000e+00    4.98334129e-01    2.46210362e-01    1.12255713e-01    4.52480492e-02    1.33484682e+02    1.33484682e+02    1.33484682e+02    1.14973696e+02    1.14973696e+02    0.00000000e+00    0.00000000e+00
46       1.99526231e+02    1.00000000e+00    3.77312861e-01    1.13440148e-01    3.26789664e-02    9.87194461e-03    1.33484682e+02    1.33484682e+02    1.33484682e+02    1.14973696e+02    1.14973696e+02    0.00000000e+00    0.00000000e+00
47       2.23872114e+02    1.00000000e+00    3.07919478e-01    6.34777573e-02    1.25890020e-02    2.88557472e-03    1.33484682e+02    1.33484682e+02    1.33484682e+02    1.14973696e+02    1.14973696e+02    0.00000000e+00    0.00000000e+00
48       2.51188643e+02    1.00000000e+00    2.59371535e-01    3.86243049e-02    5.52736092e-03    9.70832162e-04    1.33484682e+02    1.33484682e+02    1.33484682e+02    1.14973696e+02    1.14973696e+02    0.00000000e+00    0.00000000e+00
49       2.81838293e+02    1.00000000e+00    2.22307575e-01    2.46155211e-02    2.61532248e-03    3.54728560e-04    1.33484682e+02    1.33484682e+02    1.33484682e+02    1.14973696e+02    1.14973696e+02    0.00000000e+00    0.00000000e+00
50       3.16227766e+02    1.00000000e+00    1.92618306e-01    1.61495035e-02    1.29769521e-03    1.36745615e-04    1.33484682e+02    1.33484682e+02    1.33484682e+02    1.14973696e+02    1.14973696e+02    0.00000000e+00    0.00000000e+00
51       3.54813389e+02    1.00000000e+00    1.68114694e-01    1.08043810e-02    6.64964147e-04    5.46965524e-05    1.33484682e+02    1.33484682e+02    1.33484682e+02    1.14973696e+02    1.14973696e+02    0.00000000e+00    0.00000000e+00
52       3.98107171e+02    1.00000000e+00    1.47482479e-01    7.32874156e-03    3.48574549e-04    2.24638188e-05    1.33484682e+02    1.33484682e+02    1.33484682e+02    1.14973696e+02    1.14973696e+02    0.00000000e+00    0.00000000e+00
53       4.46683592e+02    1.00000000e+00    1.29864805e-01    5.02129058e-03    1.85768218e-04    9.40685017e-06    1.33484682e+02    1.33484682e+02    1.33484682e+02    1.14973696e+02    1.14973696e+02    0.00000000e+00    0.00000000e+00
54       5.01187234e+02    1.00000000e+00    1.14667904e-01    3.46608868e-03    1.00225359e-04    3.99691037e-06    1.33484682e+02    1.33484682e+02    1.33484682e+02    1.14973696e+02    1.14973696e+02    0.00000000e+00    0.00000000e+00
55       5.62341325e+02    1.00000000e+00    1.01460416e-01    2.40607572e-03    5.45762861e-05    1.71713098e-06    1.33484682e+02    1.33484682e+02    1.33484682e+02    1.14973696e+02    1.14973696e+02    0.00000000e+00    0.00000000e+00
56       6.30957344e+02    1.00000000e+00    8.99169324e-02    1.67743977e-03    2.99293852e-05    7.43984594e-07    1.33484682e+02    1.33484682e+02    1.33484682e+02    1.14973696e+02    1.14973696e+02    0.00000000e+00    0.00000000e+00
57       7.07945784e+02    1.00000000e+00    7.97843353e-02    1.17334071e-03    1.65026231e-05    3.24467133e-07    1.33484682e+02    1.33484682e+02    1.33484682e+02    1.14973696e+02    1.14973696e+02    0.00000000e+00    0.00000000e+00
58       7.94328235e+02    1.00000000e+00    7.08607358e-02    8.22845173e-04    9.13773153e-06    1.42229944e-07    1.33484682e+02    1.33484682e+02    1.33484682e+02    1.14973696e+02    1.14973696e+02    0.00000000e+00    0.00000000e+00
59       8.91250938e+02    1.00000000e+00    6.29817415e-02    5.78206457e-04    5.07633013e-06    6.25951591e-08    1.33484682e+02    1.33484682e+02    1.33484682e+02    1.14973696e+02    1.14973696e+02    0.00000000e+00    0.00000000e+00
60       1.00000000e+03    1.00000000e+00    5.60111954e-02    4.06939163e-04    2.82733336e-06    2.76341658e-08    1.33484682e+02    1.33484682e+02    1.33484682e+02    1.14973696e+02    1.14973696e+02    0.00000000e+00    0.00000000e+00
End of Xyce(TM) Simulation
