Index        TIME             R1:R            R1:TEMP           I(R1)            R2:R            R2:TEMP           I(R2)           R3:TEMP          R4:TEMP          R5:TEMP
0       0.00000000e+00   1.68000000e-04   2.70000087e+01   2.97619048e+04   3.36000000e-04   2.70000022e+01   1.48809524e+04   2.70000000e+01   2.70000001e+01   2.70000000e+01   
1       1.00000000e-10   1.68000000e-04   2.70000130e+01   2.97619048e+04   3.36000000e-04   2.70000032e+01   1.48809524e+04   2.70000000e+01   2.70000001e+01   2.70000000e+01   
2       3.00000000e-10   1.68000000e-04   2.70000217e+01   2.97619048e+04   3.36000000e-04   2.70000054e+01   1.48809524e+04   2.70000000e+01   2.70000001e+01   2.70000000e+01   
3       7.00000000e-10   1.68000000e-04   2.70000390e+01   2.97619048e+04   3.36000000e-04   2.70000097e+01   1.48809524e+04   2.70000001e+01   2.70000002e+01   2.70000001e+01   
4       1.50000000e-09   1.68000000e-04   2.70000737e+01   2.97619048e+04   3.36000000e-04   2.70000184e+01   1.48809524e+04   2.70000001e+01   2.70000005e+01   2.70000001e+01   
5       3.10000000e-09   1.68000000e-04   2.70001430e+01   2.97619048e+04   3.36000000e-04   2.70000357e+01   1.48809524e+04   2.70000002e+01   2.70000009e+01   2.70000002e+01   
6       6.30000000e-09   1.68000000e-04   2.70002817e+01   2.97619048e+04   3.36000000e-04   2.70000704e+01   1.48809524e+04   2.70000005e+01   2.70000018e+01   2.70000005e+01   
7       1.27000000e-08   1.68000000e-04   2.70005590e+01   2.97619048e+04   3.36000000e-04   2.70001397e+01   1.48809524e+04   2.70000009e+01   2.70000036e+01   2.70000009e+01   
8       2.55000000e-08   1.68000000e-04   2.70011136e+01   2.97619048e+04   3.36000000e-04   2.70002784e+01   1.48809524e+04   2.70000018e+01   2.70000071e+01   2.70000018e+01   
9       5.11000000e-08   1.68000000e-04   2.70022229e+01   2.97619048e+04   3.36000000e-04   2.70005557e+01   1.48809524e+04   2.70000036e+01   2.70000142e+01   2.70000036e+01   
10      1.02300000e-07   1.68000000e-04   2.70044415e+01   2.97619048e+04   3.36000000e-04   2.70011104e+01   1.48809524e+04   2.70000071e+01   2.70000284e+01   2.70000071e+01   
11      2.04700000e-07   1.68000000e-04   2.70088787e+01   2.97619048e+04   3.36000000e-04   2.70022197e+01   1.48809524e+04   2.70000142e+01   2.70000568e+01   2.70000142e+01   
12      4.09500000e-07   1.68000000e-04   2.70177530e+01   2.97619048e+04   3.36000000e-04   2.70044382e+01   1.48809524e+04   2.70000284e+01   2.70001136e+01   2.70000284e+01   
13      8.19100000e-07   1.68000000e-04   2.70355016e+01   2.97619048e+04   3.36000000e-04   2.70088754e+01   1.48809524e+04   2.70000568e+01   2.70002272e+01   2.70000568e+01   
14      1.63830000e-06   1.68000000e-04   2.70709989e+01   2.97619048e+04   3.36000000e-04   2.70177497e+01   1.48809524e+04   2.70001136e+01   2.70004544e+01   2.70001136e+01   
15      3.27670000e-06   1.68000000e-04   2.71419935e+01   2.97619048e+04   3.36000000e-04   2.70354984e+01   1.48809524e+04   2.70002272e+01   2.70009088e+01   2.70002272e+01   
16      6.55350000e-06   1.68000000e-04   2.72839826e+01   2.97619048e+04   3.36000000e-04   2.70709956e+01   1.48809524e+04   2.70004544e+01   2.70018175e+01   2.70004544e+01   
17      1.31071000e-05   1.68000000e-04   2.75679608e+01   2.97619048e+04   3.36000000e-04   2.71419902e+01   1.48809524e+04   2.70009087e+01   2.70036349e+01   2.70009087e+01   
18      2.62143000e-05   1.68000000e-04   2.81359173e+01   2.97619048e+04   3.36000000e-04   2.72839793e+01   1.48809524e+04   2.70018175e+01   2.70072699e+01   2.70018175e+01   
19      5.24287000e-05   1.68000000e-04   2.92718303e+01   2.97619048e+04   3.36000000e-04   2.75679576e+01   1.48809524e+04   2.70036349e+01   2.70145397e+01   2.70036349e+01   
20      1.04857500e-04   1.68000000e-04   3.15436563e+01   2.97619048e+04   3.36000000e-04   2.81359141e+01   1.48809524e+04   2.70072699e+01   2.70290794e+01   2.70072699e+01   
21      2.09715100e-04   1.68000000e-04   3.60873082e+01   2.97619048e+04   3.36000000e-04   2.92718271e+01   1.48809524e+04   2.70145397e+01   2.70581588e+01   2.70145397e+01   
22      4.19430300e-04   1.68000000e-04   4.51746121e+01   2.97619048e+04   3.36000000e-04   3.15436530e+01   1.48809524e+04   2.70290794e+01   2.71163175e+01   2.70290794e+01   
23      8.38860700e-04   1.68000000e-04   6.33492199e+01   2.97619048e+04   3.36000000e-04   3.60873050e+01   1.48809524e+04   2.70581588e+01   2.72326350e+01   2.70581588e+01   
24      1.67772150e-03   1.68000000e-04   9.96984355e+01   2.97619048e+04   3.36000000e-04   4.51746089e+01   1.48809524e+04   2.71163175e+01   2.74652700e+01   2.71163175e+01   
25      3.35544310e-03   1.68000000e-04   1.72396867e+02   2.97619048e+04   3.36000000e-04   6.33492167e+01   1.48809524e+04   2.72326350e+01   2.79305399e+01   2.72326350e+01   
26      6.71088630e-03   1.68000000e-04   3.17793729e+02   2.97619048e+04   3.36000000e-04   9.96984323e+01   1.48809524e+04   2.74652700e+01   2.88610799e+01   2.74652700e+01   
27      1.34217727e-02   1.68000000e-04   6.08587454e+02   2.97619048e+04   3.36000000e-04   1.72396863e+02   1.48809524e+04   2.79305399e+01   3.07221597e+01   2.79305399e+01   
28      2.68435455e-02   1.68000000e-04   1.19017490e+03   2.97619048e+04   3.36000000e-04   3.17793726e+02   1.48809524e+04   2.88610798e+01   3.44443194e+01   2.88610798e+01   
29      5.36870911e-02   1.68000000e-04   2.35334980e+03   2.97619048e+04   3.36000000e-04   6.08587451e+02   1.48809524e+04   3.07221597e+01   4.18886387e+01   3.07221597e+01   
30      1.07374182e-01   1.68000000e-04   4.67969960e+03   2.97619048e+04   3.36000000e-04   1.19017490e+03   1.48809524e+04   3.44443194e+01   5.67772774e+01   3.44443194e+01   
31      2.07374182e-01   1.68000000e-04   9.01286377e+03   2.97619048e+04   3.36000000e-04   2.27346594e+03   1.48809524e+04   4.13773820e+01   8.45095281e+01   4.13773820e+01   
32      3.07374182e-01   1.68000000e-04   1.33460279e+04   2.97619048e+04   3.36000000e-04   3.35675698e+03   1.48809524e+04   4.83104447e+01   1.12241779e+02   4.83104447e+01   
33      4.07374182e-01   1.68000000e-04   1.76791921e+04   2.97619048e+04   3.36000000e-04   4.44004803e+03   1.48809524e+04   5.52435074e+01   1.39974029e+02   5.52435074e+01   
34      5.07374182e-01   1.68000000e-04   2.20123563e+04   2.97619048e+04   3.36000000e-04   5.52333907e+03   1.48809524e+04   6.21765700e+01   1.67706280e+02   6.21765700e+01   
35      6.07374182e-01   1.68000000e-04   2.63455204e+04   2.97619048e+04   3.36000000e-04   6.60663011e+03   1.48809524e+04   6.91096327e+01   1.95438531e+02   6.91096327e+01   
36      7.07374182e-01   1.68000000e-04   3.06786846e+04   2.97619048e+04   3.36000000e-04   7.68992115e+03   1.48809524e+04   7.60426954e+01   2.23170781e+02   7.60426954e+01   
37      8.07374182e-01   1.68000000e-04   3.50118488e+04   2.97619048e+04   3.36000000e-04   8.77321219e+03   1.48809524e+04   8.29757580e+01   2.50903032e+02   8.29757580e+01   
38      9.07374182e-01   1.68000000e-04   3.93450129e+04   2.97619048e+04   3.36000000e-04   9.85650323e+03   1.48809524e+04   8.99088207e+01   2.78635283e+02   8.99088207e+01   
39      1.00000000e+00   1.68000000e-04   4.33586417e+04   2.97619048e+04   3.36000000e-04   1.08599104e+04   1.48809524e+04   9.63306267e+01   3.04322507e+02   9.63306267e+01   
End of PXyce(TM) Simulation
