Index        TIME             R1:R            R1:TEMP           I(R1)            R2:R            R2:TEMP           I(R2)           R3:TEMP          R4:TEMP          R5:TEMP
0       0.00000000e+00   1.70105000e-04   2.70000037e+01   2.93936098e+04   3.40210000e-04   2.70000009e+01   1.46968049e+04   2.70000000e+01   2.70000000e+01   2.70000000e+01   
1       1.00000000e-10   1.70105003e-04   2.70000073e+01   2.93936094e+04   3.40210001e-04   2.70000018e+01   1.46968049e+04   2.70000000e+01   2.70000000e+01   2.70000000e+01   
2       3.00000000e-10   1.70105005e-04   2.70000146e+01   2.93936089e+04   3.40210003e-04   2.70000037e+01   1.46968048e+04   2.70000000e+01   2.70000001e+01   2.70000000e+01   
3       7.00000000e-10   1.70105010e-04   2.70000292e+01   2.93936081e+04   3.40210005e-04   2.70000073e+01   1.46968047e+04   2.70000000e+01   2.70000002e+01   2.70000000e+01   
4       1.50000000e-09   1.70105020e-04   2.70000585e+01   2.93936063e+04   3.40210010e-04   2.70000146e+01   1.46968045e+04   2.70000001e+01   2.70000004e+01   2.70000001e+01   
5       3.10000000e-09   1.70105041e-04   2.70001169e+01   2.93936028e+04   3.40210020e-04   2.70000292e+01   1.46968040e+04   2.70000002e+01   2.70000007e+01   2.70000002e+01   
6       6.30000000e-09   1.70105082e-04   2.70002338e+01   2.93935957e+04   3.40210041e-04   2.70000585e+01   1.46968031e+04   2.70000004e+01   2.70000015e+01   2.70000004e+01   
7       1.27000000e-08   1.70105164e-04   2.70004677e+01   2.93935815e+04   3.40210082e-04   2.70001169e+01   1.46968014e+04   2.70000007e+01   2.70000030e+01   2.70000007e+01   
8       2.55000000e-08   1.70105327e-04   2.70009354e+01   2.93935533e+04   3.40210164e-04   2.70002338e+01   1.46967978e+04   2.70000015e+01   2.70000060e+01   2.70000015e+01   
9       5.11000000e-08   1.70105655e-04   2.70018708e+01   2.93934967e+04   3.40210327e-04   2.70004677e+01   1.46967908e+04   2.70000030e+01   2.70000120e+01   2.70000030e+01   
10      1.02300000e-07   1.70106310e-04   2.70037415e+01   2.93933835e+04   3.40210655e-04   2.70009354e+01   1.46967766e+04   2.70000060e+01   2.70000239e+01   2.70000060e+01   
11      2.04700000e-07   1.70107619e-04   2.70074830e+01   2.93931573e+04   3.40211310e-04   2.70018708e+01   1.46967483e+04   2.70000120e+01   2.70000479e+01   2.70000120e+01   
12      4.09500000e-07   1.70110238e-04   2.70149657e+01   2.93927047e+04   3.40212619e-04   2.70037415e+01   1.46966918e+04   2.70000239e+01   2.70000958e+01   2.70000239e+01   
13      8.19100000e-07   1.70115476e-04   2.70299303e+01   2.93917997e+04   3.40215238e-04   2.70074830e+01   1.46965786e+04   2.70000479e+01   2.70001916e+01   2.70000479e+01   
14      1.63830000e-06   1.70125951e-04   2.70598562e+01   2.93899900e+04   3.40220476e-04   2.70149657e+01   1.46963524e+04   2.70000958e+01   2.70003831e+01   2.70000958e+01   
15      3.27670000e-06   1.70146899e-04   2.71196947e+01   2.93863715e+04   3.40230952e-04   2.70299303e+01   1.46958999e+04   2.70001916e+01   2.70007663e+01   2.70001916e+01   
16      6.55350000e-06   1.70188786e-04   2.72393184e+01   2.93791389e+04   3.40251902e-04   2.70598562e+01   1.46949950e+04   2.70003831e+01   2.70015325e+01   2.70003831e+01   
17      1.31071000e-05   1.70272523e-04   2.74783531e+01   2.93646909e+04   3.40293799e-04   2.71196947e+01   1.46931858e+04   2.70007663e+01   2.70030651e+01   2.70007663e+01   
18      2.62143000e-05   1.70439847e-04   2.79555743e+01   2.93358630e+04   3.40377573e-04   2.72393184e+01   1.46895695e+04   2.70015325e+01   2.70061301e+01   2.70015325e+01   
19      5.24287000e-05   1.70773902e-04   2.89066433e+01   2.92784784e+04   3.40545046e-04   2.74783531e+01   1.46823454e+04   2.70030650e+01   2.70122602e+01   2.70030650e+01   
20      1.04857500e-04   1.71439650e-04   3.07954419e+01   2.91647818e+04   3.40879694e-04   2.79555743e+01   1.46679315e+04   2.70061300e+01   2.70245200e+01   2.70061300e+01   
21      2.09715100e-04   1.72761809e-04   3.45208847e+01   2.89415816e+04   3.41547804e-04   2.89066433e+01   1.46392392e+04   2.70122595e+01   2.70490385e+01   2.70122595e+01   
22      4.19430300e-04   1.75369619e-04   4.17722874e+01   2.85112098e+04   3.42879301e-04   3.07954419e+01   1.45823909e+04   2.70245173e+01   2.70980710e+01   2.70245173e+01   
23      8.38860700e-04   1.80445601e-04   5.55432634e+01   2.77091820e+04   3.45523619e-04   3.45208847e+01   1.44707908e+04   2.70490276e+01   2.71961181e+01   2.70490276e+01   
24      8.50142046e-04   1.90085284e-04   5.58801739e+01   2.63039825e+04   3.50739239e-04   3.46184045e+01   1.42556049e+04   2.70496866e+01   2.71987543e+01   2.70496866e+01   
25      8.51552215e-04   1.90321122e-04   5.59221926e+01   2.62713878e+04   3.50875766e-04   3.46305859e+01   1.42500579e+04   2.70497690e+01   2.71990838e+01   2.70497690e+01   
26      8.54372551e-04   1.90350535e-04   5.60062062e+01   2.62673284e+04   3.50892820e-04   3.46549466e+01   1.42493654e+04   2.70499337e+01   2.71997429e+01   2.70499337e+01   
27      8.57192888e-04   1.90409344e-04   5.60901725e+01   2.62592155e+04   3.50926925e-04   3.46793029e+01   1.42479805e+04   2.70500985e+01   2.72004019e+01   2.70500985e+01   
28      8.62833561e-04   1.90468121e-04   5.62580104e+01   2.62511122e+04   3.50961024e-04   3.47280070e+01   1.42465962e+04   2.70504279e+01   2.72017200e+01   2.70504279e+01   
29      8.74114908e-04   1.90585607e-04   5.65933089e+01   2.62349296e+04   3.51029210e-04   3.48253809e+01   1.42438289e+04   2.70510869e+01   2.72043561e+01   2.70510869e+01   
30      8.96677601e-04   1.90820316e-04   5.72624013e+01   2.62026607e+04   3.51165533e-04   3.50199916e+01   1.42382994e+04   2.70524048e+01   2.72096283e+01   2.70524048e+01   
31      9.41802987e-04   1.91288681e-04   5.85946119e+01   2.61385043e+04   3.51437988e-04   3.54086663e+01   1.42272610e+04   2.70550405e+01   2.72201726e+01   2.70550405e+01   
32      1.03205376e-03   1.92221228e-04   6.12354803e+01   2.60116952e+04   3.51982133e-04   3.61838385e+01   1.42052665e+04   2.70603117e+01   2.72412602e+01   2.70603117e+01   
33      1.21255530e-03   1.94069836e-04   6.64256723e+01   2.57639214e+04   3.53067374e-04   3.77255525e+01   1.41616031e+04   2.70708532e+01   2.72834321e+01   2.70708532e+01   
34      1.57355839e-03   1.97702971e-04   7.64598623e+01   2.52904647e+04   3.55225774e-04   4.07750793e+01   1.40755552e+04   2.70919323e+01   2.73677627e+01   2.70919323e+01   
35      1.61986451e-03   2.04726904e-04   7.76671907e+01   2.44227794e+04   3.59495111e-04   4.11578520e+01   1.39083950e+04   2.70946351e+01   2.73785764e+01   2.70946351e+01   
36      1.63686249e-03   2.05572034e-04   7.81070370e+01   2.43223746e+04   3.60030993e-04   4.12979800e+01   1.38876933e+04   2.70956273e+01   2.73825457e+01   2.70956273e+01   
37      1.65386047e-03   2.05879926e-04   7.85456765e+01   2.42860006e+04   3.60227172e-04   4.14379694e+01   1.38801301e+04   2.70966194e+01   2.73865150e+01   2.70966194e+01   
38      1.67085845e-03   2.06186974e-04   7.89831176e+01   2.42498346e+04   3.60423157e-04   4.15778206e+01   1.38725825e+04   2.70976114e+01   2.73904842e+01   2.70976114e+01   
39      1.70485442e-03   2.06493182e-04   7.98556193e+01   2.42138745e+04   3.60618949e-04   4.18572471e+01   1.38650507e+04   2.70995955e+01   2.73984225e+01   2.70995955e+01   
40      1.73885038e-03   2.07103934e-04   8.07234019e+01   2.41424676e+04   3.61010146e-04   4.21361237e+01   1.38500263e+04   2.71015796e+01   2.74063606e+01   2.71015796e+01   
41      1.77284634e-03   2.07711381e-04   8.15865289e+01   2.40718634e+04   3.61400573e-04   4.24144532e+01   1.38350638e+04   2.71035636e+01   2.74142984e+01   2.71035636e+01   
42      1.84083826e-03   2.08315570e-04   8.33035959e+01   2.40020465e+04   3.61790235e-04   4.29700232e+01   1.38201630e+04   2.71075314e+01   2.74301736e+01   2.71075314e+01   
43      1.90147437e-03   2.09517517e-04   8.48187942e+01   2.38643531e+04   3.62568033e-04   4.34635581e+01   1.37905153e+04   2.71110697e+01   2.74443305e+01   2.71110697e+01   
44      1.96211048e-03   2.10578156e-04   8.63199915e+01   2.37441532e+04   3.63258981e-04   4.39553879e+01   1.37642846e+04   2.71146078e+01   2.74584866e+01   2.71146078e+01   
45      2.08338270e-03   2.11628994e-04   8.92950246e+01   2.36262523e+04   3.63947543e-04   4.49356670e+01   1.37382436e+04   2.71216836e+01   2.74867974e+01   2.71216836e+01   
46      2.16549582e-03   2.13711517e-04   9.12734395e+01   2.33960250e+04   3.65319934e-04   4.55948845e+01   1.36866334e+04   2.71264740e+01   2.75059645e+01   2.71264740e+01   
47      2.24760893e-03   2.15096408e-04   9.32284644e+01   2.32453905e+04   3.66242838e-04   4.62510837e+01   1.36521441e+04   2.71312640e+01   2.75251303e+01   2.71312640e+01   
48      2.32972205e-03   2.16464925e-04   9.51607821e+01   2.30984304e+04   3.67161517e-04   4.69042990e+01   1.36179849e+04   2.71360536e+01   2.75442947e+01   2.71360536e+01   
49      2.42882269e-03   2.17817547e-04   9.74662379e+01   2.29549917e+04   3.68076019e-04   4.76890910e+01   1.35841504e+04   2.71418336e+01   2.75674221e+01   2.71418336e+01   
50      2.52792334e-03   2.19431367e-04   9.97405277e+01   2.27861681e+04   3.69174727e-04   4.84696373e+01   1.35437223e+04   2.71476130e+01   2.75905475e+01   2.71476130e+01   
51      2.62702398e-03   2.21023369e-04   1.01984690e+02   2.26220422e+04   3.70267492e-04   4.92459952e+01   1.35037510e+04   2.71533919e+01   2.76136710e+01   2.71533919e+01   
52      2.73895740e-03   2.22594283e-04   1.04486535e+02   2.24623918e+04   3.71354393e-04   5.01182178e+01   1.34642274e+04   2.71599184e+01   2.76397865e+01   2.71599184e+01   
53      2.85089082e-03   2.24345574e-04   1.06952434e+02   2.22870454e+04   3.72575505e-04   5.09852409e+01   1.34200986e+04   2.71664441e+01   2.76658995e+01   2.71664441e+01   
54      2.97224416e-03   2.26071703e-04   1.09588260e+02   2.21168767e+04   3.73789337e-04   5.19196762e+01   1.33765185e+04   2.71735183e+01   2.76942072e+01   2.71735183e+01   
55      3.11096711e-03   2.27916782e-04   1.12556420e+02   2.19378317e+04   3.75097547e-04   5.29810804e+01   1.33298659e+04   2.71816040e+01   2.77265633e+01   2.71816040e+01   
56      3.26969623e-03   2.29994494e-04   1.15896104e+02   2.17396508e+04   3.76583513e-04   5.41868357e+01   1.32772674e+04   2.71908545e+01   2.77635813e+01   2.71908545e+01   
57      3.44136224e-03   2.32332273e-04   1.19440997e+02   2.15209017e+04   3.78271570e-04   5.54802721e+01   1.32180169e+04   2.72008574e+01   2.78036108e+01   2.72008574e+01   
58      3.61126744e-03   2.34813698e-04   1.22881161e+02   2.12934767e+04   3.80082381e-04   5.67493380e+01   1.31550428e+04   2.72107559e+01   2.78432237e+01   2.72107559e+01   
59      3.76818034e-03   2.37221813e-04   1.25998738e+02   2.10773198e+04   3.81859073e-04   5.79114293e+01   1.30938358e+04   2.72198960e+01   2.78798022e+01   2.72198960e+01   
60      3.91187063e-03   2.39404117e-04   1.28805524e+02   2.08851881e+04   3.83486001e-04   5.89673678e+01   1.30382856e+04   2.72282645e+01   2.79132937e+01   2.72282645e+01   
61      4.05051461e-03   2.41368867e-04   1.31472967e+02   2.07151820e+04   3.84964315e-04   5.99790894e+01   1.29882168e+04   2.72363380e+01   2.79456050e+01   2.72363380e+01   
62      4.19546451e-03   2.43236077e-04   1.34222111e+02   2.05561612e+04   3.86380725e-04   6.10297552e+01   1.29406041e+04   2.72447775e+01   2.79793818e+01   2.72447775e+01   
63      4.35775336e-03   2.45160478e-04   1.37255372e+02   2.03948044e+04   3.87851657e-04   6.21979636e+01   1.28915267e+04   2.72542251e+01   2.80171942e+01   2.72542251e+01   
64      4.54433312e-03   2.47283761e-04   1.40687189e+02   2.02196860e+04   3.89487149e-04   6.35307365e+01   1.28373940e+04   2.72650851e+01   2.80606602e+01   2.72650851e+01   
65      4.75241904e-03   2.49686032e-04   1.44446367e+02   2.00251490e+04   3.91353031e-04   6.50042007e+01   1.27761883e+04   2.72771945e+01   2.81091284e+01   2.72771945e+01   
66      4.96716847e-03   2.52317457e-04   1.48250961e+02   1.98163063e+04   3.93415881e-04   6.65102977e+01   1.27091972e+04   2.72896892e+01   2.81591396e+01   2.72896892e+01   
67      5.17106940e-03   2.54980673e-04   1.51793405e+02   1.96093294e+04   3.95524417e-04   6.79263930e+01   1.26414446e+04   2.73015500e+01   2.82066156e+01   2.73015500e+01   
68      5.35734792e-03   2.57460383e-04   1.54971841e+02   1.94204636e+04   3.97506950e-04   6.92083141e+01   1.25783964e+04   2.73123836e+01   2.82499807e+01   2.73123836e+01   
69      5.53206233e-03   2.59685289e-04   1.57905511e+02   1.92540749e+04   3.99301640e-04   7.04007769e+01   1.25218619e+04   2.73225427e+01   2.82906472e+01   2.73225427e+01   
70      5.70798912e-03   2.61738858e-04   1.60816446e+02   1.91030099e+04   4.00971088e-04   7.15923729e+01   1.24697270e+04   2.73327706e+01   2.83315896e+01   2.73327706e+01   
71      5.89932437e-03   2.63776512e-04   1.63936838e+02   1.89554406e+04   4.02639322e-04   7.28785124e+01   1.24180618e+04   2.73438922e+01   2.83761112e+01   2.73438922e+01   
72      6.11762872e-03   2.65960787e-04   1.67442647e+02   1.87997639e+04   4.04439917e-04   7.43339833e+01   1.23627757e+04   2.73565791e+01   2.84268997e+01   2.73565791e+01   
73      6.36581985e-03   2.68414853e-04   1.71360597e+02   1.86278812e+04   4.06477577e-04   7.59735362e+01   1.23008015e+04   2.73709996e+01   2.84846305e+01   2.73709996e+01   
74      6.63208726e-03   2.71157418e-04   1.75484768e+02   1.84394734e+04   4.08772951e-04   7.77144257e+01   1.22317291e+04   2.73864666e+01   2.85465526e+01   2.73864666e+01   
75      6.89430826e-03   2.74044338e-04   1.79466591e+02   1.82452228e+04   4.11210196e-04   7.94102577e+01   1.21592316e+04   2.74016945e+01   2.86075196e+01   2.74016945e+01   
76      7.13678423e-03   2.76831613e-04   1.83079495e+02   1.80615210e+04   4.13584361e-04   8.09619077e+01   1.20894320e+04   2.74157720e+01   2.86638830e+01   2.74157720e+01   
77      7.36028036e-03   2.79360646e-04   1.86353357e+02   1.78980113e+04   4.15756671e-04   8.23784070e+01   1.20262652e+04   2.74287444e+01   2.87158237e+01   2.74287444e+01   
78      7.57762769e-03   2.81652350e-04   1.89488777e+02   1.77523816e+04   4.17739770e-04   8.37439443e+01   1.19691740e+04   2.74413572e+01   2.87663256e+01   2.74413572e+01   
79      7.80607461e-03   2.83847144e-04   1.92736705e+02   1.76151147e+04   4.19651522e-04   8.51672226e+01   1.19146476e+04   2.74546111e+01   2.88193965e+01   2.74546111e+01   
80      8.06200462e-03   2.86120694e-04   1.96321330e+02   1.74751429e+04   4.21644112e-04   8.67478999e+01   1.18583418e+04   2.74694562e+01   2.88788404e+01   2.74694562e+01   
81      8.35493858e-03   2.88629931e-04   2.00357562e+02   1.73232207e+04   4.23857060e-04   8.85397853e+01   1.17964297e+04   2.74864433e+01   2.89468639e+01   2.74864433e+01   
82      8.67912256e-03   2.91455294e-04   2.04743422e+02   1.71552897e+04   4.26365699e-04   9.05014116e+01   1.17270221e+04   2.75052371e+01   2.90221251e+01   2.75052371e+01   
83      9.01138475e-03   2.94525396e-04   2.09150948e+02   1.69764648e+04   4.29111976e-04   9.24882959e+01   1.16519703e+04   2.75244929e+01   2.90992400e+01   2.75244929e+01   
84      9.32634236e-03   2.97610663e-04   2.13247879e+02   1.68004733e+04   4.31893614e-04   9.43494208e+01   1.15769250e+04   2.75427398e+01   2.91723177e+01   2.75427398e+01   
85      9.61542654e-03   3.00478516e-04   2.16941034e+02   1.66401248e+04   4.34499189e-04   9.60388289e+01   1.15075013e+04   2.75594825e+01   2.92393739e+01   2.75594825e+01   
86      9.88875373e-03   3.03063724e-04   2.20377048e+02   1.64981804e+04   4.36864360e-04   9.76202486e+01   1.14452000e+04   2.75753080e+01   2.93027593e+01   2.75753080e+01   
87      1.01659558e-02   3.05468933e-04   2.23810297e+02   1.63682766e+04   4.39078348e-04   9.92092065e+01   1.13874893e+04   2.75913535e+01   2.93670281e+01   2.75913535e+01   
88      1.04683956e-02   3.07872208e-04   2.27501242e+02   1.62405046e+04   4.41302889e-04   1.00926744e+02   1.13300867e+04   2.76088550e+01   2.94371314e+01   2.76088550e+01   
89      1.08127606e-02   3.10455870e-04   2.31638181e+02   1.61053486e+04   4.43707441e-04   1.02862860e+02   1.12686864e+04   2.76287766e+01   2.95169319e+01   2.76287766e+01   
90      1.12017207e-02   3.13351727e-04   2.36229778e+02   1.59565101e+04   4.46418004e-04   1.05025251e+02   1.12002651e+04   2.76512704e+01   2.96070397e+01   2.76512704e+01   
91      1.16157267e-02   3.16565845e-04   2.41023866e+02   1.57945024e+04   4.49445352e-04   1.07298332e+02   1.11248230e+04   2.76752032e+01   2.97029175e+01   2.76752032e+01   
92      1.20216352e-02   3.19921706e-04   2.45631573e+02   1.56288239e+04   4.52627664e-04   1.09498085e+02   1.10466072e+04   2.76986583e+01   2.97968866e+01   2.76986583e+01   
93      1.23977579e-02   3.23147101e-04   2.49821053e+02   1.54728295e+04   4.55707319e-04   1.11511026e+02   1.09719546e+04   2.77203835e+01   2.98839296e+01   2.77203835e+01   
94      1.27469790e-02   3.26079737e-04   2.53645063e+02   1.53336728e+04   4.58525436e-04   1.13358804e+02   1.09045205e+04   2.77405472e+01   2.99647209e+01   2.77405472e+01   
95      1.30894644e-02   3.28756544e-04   2.57337812e+02   1.52088227e+04   4.61112326e-04   1.15152177e+02   1.08433449e+04   2.77603152e+01   3.00439301e+01   2.77603152e+01   
96      1.34514675e-02   3.31341469e-04   2.61183630e+02   1.50901728e+04   4.63623048e-04   1.17028793e+02   1.07846235e+04   2.77812026e+01   3.01276287e+01   2.77812026e+01   
97      1.38572687e-02   3.34033541e-04   2.65429263e+02   1.49685567e+04   4.66250310e-04   1.19110560e+02   1.07238535e+04   2.78046087e+01   3.02214245e+01   2.78046087e+01   
98      1.43195919e-02   3.37005484e-04   2.70185845e+02   1.48365538e+04   4.69164784e-04   1.21455065e+02   1.06572364e+04   2.78312642e+01   3.03282475e+01   2.78312642e+01   
99      1.48272168e-02   3.40335092e-04   2.75312197e+02   1.46914030e+04   4.72447091e-04   1.23996255e+02   1.05831956e+04   2.78605182e+01   3.04454911e+01   2.78605182e+01   
100     1.53440167e-02   3.43923538e-04   2.80428537e+02   1.45381151e+04   4.76004757e-04   1.26547635e+02   1.05040967e+04   2.78902859e+01   3.05648017e+01   2.78902859e+01   
101     1.58334083e-02   3.47504976e-04   2.85179337e+02   1.43882832e+04   4.79576689e-04   1.28930427e+02   1.04258612e+04   2.79184605e+01   3.06777347e+01   2.79184605e+01   
102     1.62850861e-02   3.50830536e-04   2.89485553e+02   1.42518951e+04   4.82912598e-04   1.31101482e+02   1.03538405e+04   2.79444512e+01   3.07819210e+01   2.79444512e+01   
103     1.67159324e-02   3.53844887e-04   2.93527040e+02   1.41304854e+04   4.85952075e-04   1.33148421e+02   1.02890805e+04   2.79692322e+01   3.08812638e+01   2.79692322e+01   
104     1.71562602e-02   3.56673928e-04   2.97595516e+02   1.40184062e+04   4.88817789e-04   1.35217681e+02   1.02287603e+04   2.79945477e+01   3.09827553e+01   2.79945477e+01   
105     1.76382861e-02   3.59521861e-04   3.01982526e+02   1.39073601e+04   4.91714753e-04   1.37458157e+02   1.01684970e+04   2.80222485e+01   3.10938159e+01   2.80222485e+01   
106     1.81859043e-02   3.62592768e-04   3.06886644e+02   1.37895745e+04   4.94851419e-04   1.39973597e+02   1.01040430e+04   2.80537038e+01   3.12199371e+01   2.80537038e+01   
107     1.88001759e-02   3.66025651e-04   3.12290053e+02   1.36602448e+04   4.98373036e-04   1.42758235e+02   1.00326455e+04   2.80889686e+01   3.13613430e+01   2.80889686e+01   
108     1.94487374e-02   3.69808037e-04   3.17884682e+02   1.35205282e+04   5.02271529e-04   1.45655996e+02   9.95477489e+03   2.81261793e+01   3.15105641e+01   2.81261793e+01   
109     2.00819919e-02   3.73724278e-04   3.23238919e+02   1.33788472e+04   5.06328394e-04   1.48443307e+02   9.87501404e+03   2.81624887e+01   3.16561826e+01   2.81624887e+01   
