Index        TIME             R1:R            R1:TEMP           I(R1)            R2:R            R2:TEMP           I(R2)           R3:TEMP          R4:TEMP          R5:TEMP
0       0.00000000e+00   1.70105000e-04   2.70000037e+01   2.93936098e+04   3.40210000e-04   2.70000009e+01   1.46968049e+04   2.70000000e+01   2.70000000e+01   2.70000000e+01   
1       1.00000000e-10   1.70105003e-04   2.70000073e+01   2.93936094e+04   3.40210001e-04   2.70000018e+01   1.46968049e+04   2.70000000e+01   2.70000000e+01   2.70000000e+01   
2       3.00000000e-10   1.70105005e-04   2.70000146e+01   2.93936089e+04   3.40210003e-04   2.70000037e+01   1.46968048e+04   2.70000000e+01   2.70000001e+01   2.70000000e+01   
3       7.00000000e-10   1.70105010e-04   2.70000292e+01   2.93936081e+04   3.40210005e-04   2.70000073e+01   1.46968047e+04   2.70000000e+01   2.70000002e+01   2.70000000e+01   
4       1.50000000e-09   1.70105020e-04   2.70000585e+01   2.93936063e+04   3.40210010e-04   2.70000146e+01   1.46968045e+04   2.70000001e+01   2.70000004e+01   2.70000001e+01   
5       3.10000000e-09   1.70105041e-04   2.70001169e+01   2.93936028e+04   3.40210020e-04   2.70000292e+01   1.46968040e+04   2.70000002e+01   2.70000007e+01   2.70000002e+01   
6       6.30000000e-09   1.70105082e-04   2.70002338e+01   2.93935957e+04   3.40210041e-04   2.70000585e+01   1.46968031e+04   2.70000004e+01   2.70000015e+01   2.70000004e+01   
7       1.27000000e-08   1.70105164e-04   2.70004677e+01   2.93935815e+04   3.40210082e-04   2.70001169e+01   1.46968014e+04   2.70000007e+01   2.70000030e+01   2.70000007e+01   
8       2.55000000e-08   1.70105327e-04   2.70009354e+01   2.93935533e+04   3.40210164e-04   2.70002338e+01   1.46967978e+04   2.70000015e+01   2.70000060e+01   2.70000015e+01   
9       5.11000000e-08   1.70105655e-04   2.70018708e+01   2.93934967e+04   3.40210327e-04   2.70004677e+01   1.46967908e+04   2.70000030e+01   2.70000120e+01   2.70000030e+01   
10      1.02300000e-07   1.70105000e-04   2.70037416e+01   2.93936098e+04   3.40210655e-04   2.70009354e+01   1.46967766e+04   2.70000060e+01   2.70000239e+01   2.70000060e+01   
11      2.04700000e-07   1.70107619e-04   2.70074830e+01   2.93931573e+04   3.40211310e-04   2.70018708e+01   1.46967483e+04   2.70000120e+01   2.70000479e+01   2.70000120e+01   
12      4.09500000e-07   1.70110238e-04   2.70149658e+01   2.93927047e+04   3.40210000e-04   2.70037416e+01   1.46968049e+04   2.70000239e+01   2.70000958e+01   2.70000239e+01   
13      8.19100000e-07   1.70115476e-04   2.70299304e+01   2.93917997e+04   3.40215238e-04   2.70074830e+01   1.46965786e+04   2.70000479e+01   2.70001916e+01   2.70000479e+01   
14      1.63830000e-06   1.70125951e-04   2.70598563e+01   2.93899900e+04   3.40220476e-04   2.70149657e+01   1.46963524e+04   2.70000958e+01   2.70003831e+01   2.70000958e+01   
15      3.27670000e-06   1.70146899e-04   2.71196947e+01   2.93863715e+04   3.40230952e-04   2.70299304e+01   1.46958999e+04   2.70001916e+01   2.70007663e+01   2.70001916e+01   
16      6.55350000e-06   1.70188786e-04   2.72393184e+01   2.93791389e+04   3.40251903e-04   2.70598563e+01   1.46949950e+04   2.70003831e+01   2.70015325e+01   2.70003831e+01   
17      1.31071000e-05   1.70272523e-04   2.74783531e+01   2.93646909e+04   3.40293799e-04   2.71196947e+01   1.46931858e+04   2.70007663e+01   2.70030651e+01   2.70007663e+01   
18      2.62143000e-05   1.70439847e-04   2.79555743e+01   2.93358630e+04   3.40377573e-04   2.72393184e+01   1.46895695e+04   2.70015325e+01   2.70061301e+01   2.70015325e+01   
19      5.24287000e-05   1.70773902e-04   2.89066433e+01   2.92784784e+04   3.40545046e-04   2.74783531e+01   1.46823454e+04   2.70030650e+01   2.70122602e+01   2.70030650e+01   
20      1.04857500e-04   1.71439650e-04   3.07954420e+01   2.91647818e+04   3.40879694e-04   2.79555743e+01   1.46679315e+04   2.70061300e+01   2.70245200e+01   2.70061300e+01   
21      2.09715100e-04   1.72761809e-04   3.45208847e+01   2.89415816e+04   3.41547804e-04   2.89066433e+01   1.46392392e+04   2.70122595e+01   2.70490385e+01   2.70122595e+01   
22      4.19430300e-04   1.75369619e-04   4.17722874e+01   2.85112098e+04   3.42879301e-04   3.07954420e+01   1.45823909e+04   2.70245173e+01   2.70980710e+01   2.70245173e+01   
23      8.38860700e-04   1.80445601e-04   5.55432634e+01   2.77091820e+04   3.45523619e-04   3.45208847e+01   1.44707908e+04   2.70490276e+01   2.71961181e+01   2.70490276e+01   
24      1.67772150e-03   1.90085284e-04   8.05953311e+01   2.63039825e+04   3.50739239e-04   4.17722874e+01   1.42556049e+04   2.70980275e+01   2.73921405e+01   2.70980275e+01   
25      3.35544310e-03   2.07621732e-04   1.23224969e+02   2.40822575e+04   3.60891202e-04   5.55432634e+01   1.38545910e+04   2.71959443e+01   2.77838983e+01   2.71959443e+01   
26      5.03316470e-03   2.37462479e-04   1.56495665e+02   2.10559581e+04   3.80170569e-04   6.80692972e+01   1.31519913e+04   2.72936953e+01   2.81750837e+01   2.72936953e+01   
27      6.71088630e-03   2.60751966e-04   1.84452087e+02   1.91753109e+04   3.97707016e-04   7.96043167e+01   1.25720689e+04   2.73912813e+01   2.85656986e+01   2.73912813e+01   
28      8.38860790e-03   2.80321461e-04   2.08870442e+02   1.78366650e+04   4.13856043e-04   9.03274386e+01   1.20814957e+04   2.74887030e+01   2.89557449e+01   2.74887030e+01   
29      1.00663295e-02   2.97414309e-04   2.30721147e+02   1.68115650e+04   4.28868414e-04   1.00370487e+02   1.16585877e+04   2.75859611e+01   2.93452246e+01   2.75859611e+01   
30      1.17440511e-02   3.12709803e-04   2.50603044e+02   1.59892653e+04   4.42928682e-04   1.09833735e+02   1.12884990e+04   2.76830561e+01   2.97341397e+01   2.76830561e+01   
31      1.50994943e-02   3.26627131e-04   2.87229237e+02   1.53079751e+04   4.56177229e-04   1.27757269e+02   1.09606523e+04   2.78769216e+01   3.05108444e+01   2.78769216e+01   
32      1.75747943e-02   3.52265466e-04   3.10646307e+02   1.41938410e+04   4.81270177e-04   1.39730640e+02   1.03891748e+04   2.80194590e+01   3.10821638e+01   2.80194590e+01   
33      2.00500943e-02   3.68657415e-04   3.32125653e+02   1.35627273e+04   4.98032896e-04   1.50966017e+02   1.00394975e+04   2.81616476e+01   3.16522715e+01   2.81616476e+01   
34      2.25253942e-02   3.83692957e-04   3.52031741e+02   1.30312530e+04   5.13762424e-04   1.61569335e+02   9.73212474e+03   2.83034893e+01   3.22211734e+01   2.83034893e+01   
35      2.74759942e-02   3.97627219e-04   3.89226846e+02   1.25745919e+04   5.28607069e-04   1.81678474e+02   9.45882168e+03   2.85864831e+01   3.33565777e+01   2.85864831e+01   
36      3.16351330e-02   4.23663792e-04   4.16909853e+02   1.18018110e+04   5.56759864e-04   1.97010334e+02   8.98053240e+03   2.88230846e+01   3.43064570e+01   2.88230846e+01   
37      3.57942718e-02   4.43041897e-04   4.42321085e+02   1.12856144e+04   5.78224468e-04   2.11292324e+02   8.64716088e+03   2.90587308e+01   3.52530027e+01   2.90587308e+01   
38      3.99534105e-02   4.60829760e-04   4.65884573e+02   1.08499937e+04   5.98219253e-04   2.24690535e+02   8.35813955e+03   2.92934311e+01   3.61962425e+01   2.92934311e+01   
39      4.82716881e-02   4.77324201e-04   5.09933656e+02   1.04750607e+04   6.16976749e-04   2.49973984e+02   8.10403311e+03   2.97609584e+01   3.80761650e+01   2.97609584e+01   
40      5.53715960e-02   5.08158559e-04   5.43264707e+02   9.83944855e+03   6.52373577e-04   2.69398122e+02   7.66432022e+03   3.01568499e+01   3.96696615e+01   3.01568499e+01   
41      6.24715040e-02   5.31490295e-04   5.73832590e+02   9.40750950e+03   6.79567371e-04   2.87378209e+02   7.35762223e+03   3.05500953e+01   4.12538526e+01   3.05500953e+01   
42      6.95714119e-02   5.52887813e-04   6.02157778e+02   9.04342596e+03   7.04739493e-04   3.04160591e+02   7.09482021e+03   3.09407372e+01   4.28288669e+01   3.09407372e+01   
43      8.37712279e-02   5.72715445e-04   6.55078491e+02   8.73033903e+03   7.28234827e-04   3.35699285e+02   6.86591716e+03   3.17168973e+01   4.59607941e+01   3.17168973e+01   
44      9.59330864e-02   6.09759944e-04   6.95224989e+02   8.19994828e+03   7.72388999e-04   3.59849556e+02   6.47342208e+03   3.23730679e+01   4.86127594e+01   3.23730679e+01   
45      1.08094945e-01   6.37862492e-04   7.32012784e+02   7.83868006e+03   8.06199378e-04   3.82105199e+02   6.20193979e+03   3.30220952e+01   5.12393020e+01   3.30220952e+01   
46      1.20256803e-01   6.60000000e-04   7.66443013e+02   7.57575758e+03   8.37357279e-04   4.02805672e+02   5.97116682e+03   3.36641662e+01   5.38409992e+01   3.36641662e+01   
47      1.44580520e-01   6.60000000e-04   8.35303470e+02   7.57575758e+03   8.66337941e-04   4.41597435e+02   5.77141986e+03   3.49347545e+01   5.89958177e+01   3.49347545e+01   
48      1.63140316e-01   6.60000000e-04   8.87846261e+02   7.57575758e+03   9.20646409e-04   4.67940486e+02   5.43096671e+03   3.58842560e+01   6.28570795e+01   3.58842560e+01   
49      1.81700111e-01   6.60000000e-04   9.40389052e+02   7.57575758e+03   9.57526680e-04   4.92369381e+02   5.22178661e+03   3.68191946e+01   6.66655960e+01   3.68191946e+01   
50      2.00259906e-01   6.60000000e-04   9.92931843e+02   7.57575758e+03   9.91727133e-04   5.15203802e+02   5.04170939e+03   3.77401062e+01   7.04230761e+01   3.77401062e+01   
51      2.37379496e-01   6.60000000e-04   1.09801742e+03   7.57575758e+03   1.02369532e-03   5.58166097e+02   4.88426574e+03   3.95548861e+01   7.78392125e+01   3.95548861e+01   
52      2.74499086e-01   6.60000000e-04   1.20310301e+03   7.57575758e+03   1.08384254e-03   5.96648833e+02   4.61321625e+03   4.13180574e+01   8.50655830e+01   4.13180574e+01   
53      3.11618676e-01   6.60000000e-04   1.30818859e+03   7.57575758e+03   1.13771837e-03   6.31688514e+02   4.39476073e+03   4.30330968e+01   9.21136098e+01   4.30330968e+01   
54      3.85857857e-01   6.60000000e-04   1.51835975e+03   7.57575758e+03   1.18677392e-03   6.96271415e+02   4.21310236e+03   4.63731533e+01   1.05873743e+02   4.63731533e+01   
55      4.51197177e-01   6.60000000e-04   1.70333541e+03   7.57575758e+03   1.27718998e-03   7.45571908e+02   3.91484437e+03   4.91670671e+01   1.17435264e+02   4.91670671e+01   
56      5.16536497e-01   6.60000000e-04   1.88831106e+03   7.57575758e+03   1.32000000e-03   7.91815822e+02   3.78787879e+03   5.18469964e+01   1.28562752e+02   5.18469964e+01   
57      5.81875818e-01   6.60000000e-04   2.07328671e+03   7.57575758e+03   1.32000000e-03   8.38059736e+02   3.78787879e+03   5.44238646e+01   1.39294360e+02   5.44238646e+01   
58      6.47215138e-01   6.60000000e-04   2.25826237e+03   7.57575758e+03   1.32000000e-03   8.84303649e+02   3.78787879e+03   5.69070194e+01   1.49663194e+02   5.69070194e+01   
59      7.47215138e-01   6.60000000e-04   2.54136243e+03   7.57575758e+03   1.32000000e-03   9.55078664e+02   3.78787879e+03   6.05763401e+01   1.65021452e+02   6.05763401e+01   
60      8.47215138e-01   6.60000000e-04   2.82446249e+03   7.57575758e+03   1.32000000e-03   1.02585368e+03   3.78787879e+03   6.40639089e+01   1.79665701e+02   6.40639089e+01   
61      9.47215138e-01   6.60000000e-04   3.10756254e+03   7.57575758e+03   1.32000000e-03   1.09662869e+03   3.78787879e+03   6.73907680e+01   1.93673354e+02   6.73907680e+01   
62      1.00000000e+00   6.60000000e-04   3.25699652e+03   7.57575758e+03   1.32000000e-03   1.13398719e+03   3.78787879e+03   6.90712008e+01   2.00765474e+02   6.90712008e+01   
End of PXyce(TM) Simulation
