Index        TIME            I(IN11)           V(A1)            V(A2)      N(YSYNAPSE!SYN12_W) N(YSYNAPSE!SYN12_VL1) N(YSYNAPSE!SYN12_VL2) N(YSYNAPSE!SYN12_VL3)
0       0.00000000e+00   0.00000000e+00   -7.26550000e-02  -7.26550000e-02  1.00000000e+00   -7.26550000e-02  -7.26550000e-02  0.00000000e+00   
1       1.00000000e-10   0.00000000e+00   -7.26550000e-02  -7.26550000e-02  1.00000000e+00   -7.26550000e-02  -7.26550000e-02  0.00000000e+00   
2       3.00000000e-10   0.00000000e+00   -7.26550000e-02  -7.26550000e-02  1.00000000e+00   -7.26550000e-02  -7.26550000e-02  0.00000000e+00   
3       7.00000000e-10   0.00000000e+00   -7.26550000e-02  -7.26550000e-02  1.00000000e+00   -7.26550000e-02  -7.26550000e-02  0.00000000e+00   
4       1.50000000e-09   0.00000000e+00   -7.26550000e-02  -7.26550000e-02  1.00000000e+00   -7.26550000e-02  -7.26550000e-02  0.00000000e+00   
5       3.10000000e-09   0.00000000e+00   -7.26550000e-02  -7.26550000e-02  1.00000000e+00   -7.26550000e-02  -7.26550000e-02  0.00000000e+00   
6       6.30000000e-09   0.00000000e+00   -7.26550000e-02  -7.26550000e-02  1.00000000e+00   -7.26550000e-02  -7.26550000e-02  0.00000000e+00   
7       1.27000000e-08   0.00000000e+00   -7.26550000e-02  -7.26550000e-02  1.00000000e+00   -7.26550000e-02  -7.26550000e-02  0.00000000e+00   
8       2.55000000e-08   0.00000000e+00   -7.26550001e-02  -7.26550001e-02  1.00000000e+00   -7.26550000e-02  -7.26550000e-02  0.00000000e+00   
9       5.11000000e-08   0.00000000e+00   -7.26550001e-02  -7.26550001e-02  1.00000000e+00   -7.26550000e-02  -7.26550000e-02  0.00000000e+00   
10      1.02300000e-07   0.00000000e+00   -7.26550002e-02  -7.26550002e-02  1.00000000e+00   -7.26550000e-02  -7.26550000e-02  0.00000000e+00   
11      2.04700000e-07   0.00000000e+00   -7.26550004e-02  -7.26550004e-02  1.00000000e+00   -7.26550000e-02  -7.26550000e-02  0.00000000e+00   
12      4.09500000e-07   0.00000000e+00   -7.26550008e-02  -7.26550008e-02  1.00000000e+00   -7.26550000e-02  -7.26550000e-02  0.00000000e+00   
13      8.19100000e-07   0.00000000e+00   -7.26550017e-02  -7.26550017e-02  1.00000000e+00   -7.26550000e-02  -7.26550000e-02  0.00000000e+00   
14      1.63830000e-06   0.00000000e+00   -7.26550034e-02  -7.26550034e-02  1.00000000e+00   -7.26550000e-02  -7.26550000e-02  0.00000000e+00   
15      3.27670000e-06   0.00000000e+00   -7.26550068e-02  -7.26550068e-02  1.00000000e+00   -7.26550000e-02  -7.26550000e-02  0.00000000e+00   
16      6.55350000e-06   0.00000000e+00   -7.26550136e-02  -7.26550136e-02  1.00000000e+00   -7.26550000e-02  -7.26550000e-02  0.00000000e+00   
17      1.31071000e-05   0.00000000e+00   -7.26550272e-02  -7.26550272e-02  1.00000000e+00   -7.26550000e-02  -7.26550000e-02  0.00000000e+00   
18      2.62143000e-05   0.00000000e+00   -7.26550543e-02  -7.26550543e-02  1.00000000e+00   -7.26550000e-02  -7.26550000e-02  0.00000000e+00   
19      5.24287000e-05   0.00000000e+00   -7.26551086e-02  -7.26551086e-02  1.00000000e+00   -7.26550000e-02  -7.26550001e-02  0.00000000e+00   
20      1.04857500e-04   0.00000000e+00   -7.26552166e-02  -7.26552166e-02  1.00000000e+00   -7.26550002e-02  -7.26550005e-02  0.00000000e+00   
21      2.09715100e-04   0.00000000e+00   -7.26554315e-02  -7.26554315e-02  1.00000000e+00   -7.26550007e-02  -7.26550022e-02  0.00000000e+00   
22      4.19430300e-04   0.00000000e+00   -7.26558567e-02  -7.26558567e-02  1.00000000e+00   -7.26550026e-02  -7.26550086e-02  0.00000000e+00   
23      8.38860700e-04   0.00000000e+00   -7.26566905e-02  -7.26566905e-02  1.00000000e+00   -7.26550104e-02  -7.26550339e-02  0.00000000e+00   
24      1.67772150e-03   0.00000000e+00   -7.26582896e-02  -7.26582896e-02  1.00000000e+00   -7.26550413e-02  -7.26551325e-02  0.00000000e+00   
25      3.35544310e-03   0.00000000e+00   -7.26611950e-02  -7.26611950e-02  1.00000000e+00   -7.26551616e-02  -7.26555059e-02  0.00000000e+00   
26      6.71088630e-03   0.00000000e+00   -7.26657945e-02  -7.26657945e-02  1.00000000e+00   -7.26556180e-02  -7.26568403e-02  0.00000000e+00   
27      1.34217727e-02   0.00000000e+00   -7.26708587e-02  -7.26708587e-02  1.00000000e+00   -7.26572452e-02  -7.26610151e-02  0.00000000e+00   
28      2.68435455e-02   0.00000000e+00   -7.26723860e-02  -7.26723860e-02  1.00000000e+00   -7.26622342e-02  -7.26701791e-02  0.00000000e+00   
29      4.02653183e-02   0.00000000e+00   -7.26710132e-02  -7.26710132e-02  1.00000000e+00   -7.26672671e-02  -7.26714821e-02  0.00000000e+00   
30      5.36870911e-02   0.00000000e+00   -7.26707974e-02  -7.26707974e-02  1.00000000e+00   -7.26702543e-02  -7.26732153e-02  0.00000000e+00   
31      8.05306367e-02   0.00000000e+00   -7.26710545e-02  -7.26710545e-02  1.00000000e+00   -7.26711400e-02  -7.26647708e-02  0.00000000e+00   
32      1.07374182e-01   0.00000000e+00   -7.26709831e-02  -7.26709831e-02  1.00000000e+00   -7.26707402e-02  -7.26878817e-02  0.00000000e+00   
33      1.61061274e-01   0.00000000e+00   -7.26709795e-02  -7.26709795e-02  1.00000000e+00   -7.26714737e-02  -7.25588240e-02  0.00000000e+00   
34      2.68435456e-01   0.00000000e+00   -7.26709975e-02  -7.26709975e-02  1.00000000e+00   -7.26691833e-02  -7.42792518e-02  0.00000000e+00   
35      4.00000000e-01   0.00000000e+00   -7.26709756e-02  -7.26709756e-02  1.00000000e+00   -7.26794580e-02  -4.40518784e-02  0.00000000e+00   
36      4.00000100e-01   5.73340175e-14   -7.26707931e-02  -7.26709756e-02  1.00000000e+00   -7.26794580e-02  -4.40522872e-02  0.00000000e+00   
37      4.00000300e-01   1.72002053e-13   -7.26696981e-02  -7.26709756e-02  1.00000000e+00   -7.26794579e-02  -4.40531049e-02  0.00000000e+00   
38      4.00000700e-01   4.01338123e-13   -7.26660482e-02  -7.26709756e-02  1.00000000e+00   -7.26794578e-02  -4.40547402e-02  0.00000000e+00   
39      4.00001000e-01   5.73340175e-13   -7.26613947e-02  -7.26709756e-02  1.00000000e+00   -7.26794576e-02  -4.40559666e-02  0.00000000e+00   
40      4.00001080e-01   5.73340175e-13   -7.26599348e-02  -7.26709756e-02  1.00000000e+00   -7.26794576e-02  -4.40562937e-02  0.00000000e+00   
41      4.00001240e-01   5.73340175e-13   -7.26570150e-02  -7.26709756e-02  1.00000000e+00   -7.26794576e-02  -4.40569477e-02  0.00000000e+00   
42      4.00001560e-01   5.73340175e-13   -7.26511755e-02  -7.26709756e-02  1.00000000e+00   -7.26794574e-02  -4.40582558e-02  0.00000000e+00   
43      4.00002200e-01   5.73340175e-13   -7.26394971e-02  -7.26709756e-02  1.00000000e+00   -7.26794572e-02  -4.40608718e-02  0.00000000e+00   
44      4.00003480e-01   5.73340175e-13   -7.26161423e-02  -7.26709756e-02  1.00000000e+00   -7.26794567e-02  -4.40661034e-02  0.00000000e+00   
45      4.00006040e-01   5.73340175e-13   -7.25694412e-02  -7.26709756e-02  1.00000000e+00   -7.26794558e-02  -4.40765646e-02  0.00000000e+00   
46      4.00011160e-01   5.73340175e-13   -7.24760724e-02  -7.26709756e-02  1.00000000e+00   -7.26794539e-02  -4.40974794e-02  0.00000000e+00   
47      4.00021400e-01   5.73340175e-13   -7.22894666e-02  -7.26709757e-02  1.00000000e+00   -7.26794501e-02  -4.41392783e-02  0.00000000e+00   
48      4.00041880e-01   5.73340175e-13   -7.19167657e-02  -7.26709757e-02  1.00000000e+00   -7.26794426e-02  -4.42227539e-02  0.00000000e+00   
49      4.00082840e-01   5.73340175e-13   -7.11732914e-02  -7.26709759e-02  1.00000000e+00   -7.26794275e-02  -4.43892166e-02  0.00000000e+00   
50      4.00123800e-01   5.73340175e-13   -7.04322085e-02  -7.26709760e-02  1.00000000e+00   -7.26794125e-02  -4.45547053e-02  0.00000000e+00   
51      4.00164760e-01   5.73340175e-13   -6.96932779e-02  -7.26709761e-02  1.00000000e+00   -7.26793974e-02  -4.47192257e-02  0.00000000e+00   
52      4.00205720e-01   5.73340175e-13   -6.89562416e-02  -7.26709762e-02  1.00000000e+00   -7.26793824e-02  -4.48827833e-02  0.00000000e+00   
53      4.00246680e-01   5.73340175e-13   -6.82208033e-02  -7.26709764e-02  1.00000000e+00   -7.26793675e-02  -4.50453840e-02  0.00000000e+00   
54      4.00287640e-01   5.73340175e-13   -6.74866095e-02  -7.26709765e-02  1.00000000e+00   -7.26793525e-02  -4.52070331e-02  0.00000000e+00   
55      4.00328600e-01   5.73340175e-13   -6.67532305e-02  -7.26709766e-02  1.00000000e+00   -7.26793376e-02  -4.53677364e-02  0.00000000e+00   
56      4.00369560e-01   5.73340175e-13   -6.60201374e-02  -7.26709767e-02  1.00000000e+00   -7.26793227e-02  -4.55274994e-02  0.00000000e+00   
57      4.00410520e-01   5.73340175e-13   -6.52866770e-02  -7.26709769e-02  1.00000000e+00   -7.26793078e-02  -4.56863275e-02  0.00000000e+00   
58      4.00451480e-01   5.73340175e-13   -6.45520410e-02  -7.26709770e-02  1.00000000e+00   -7.26792930e-02  -4.58442263e-02  0.00000000e+00   
59      4.00492440e-01   5.73340175e-13   -6.38152286e-02  -7.26709771e-02  1.00000000e+00   -7.26792782e-02  -4.60012011e-02  0.00000000e+00   
60      4.00533400e-01   5.73340175e-13   -6.30750018e-02  -7.26709772e-02  1.00000000e+00   -7.26792634e-02  -4.61572574e-02  0.00000000e+00   
61      4.00574360e-01   5.73340175e-13   -6.23298292e-02  -7.26709773e-02  1.00000000e+00   -7.26792487e-02  -4.63124005e-02  0.00000000e+00   
62      4.00615320e-01   5.73340175e-13   -6.15778183e-02  -7.26709775e-02  1.00000000e+00   -7.26792339e-02  -4.64666358e-02  0.00000000e+00   
63      4.00656280e-01   5.73340175e-13   -6.08166296e-02  -7.26709776e-02  1.00000000e+00   -7.26792192e-02  -4.66199687e-02  0.00000000e+00   
64      4.00697240e-01   5.73340175e-13   -6.00433696e-02  -7.26709777e-02  1.00000000e+00   -7.26792045e-02  -4.67724043e-02  0.00000000e+00   
65      4.00738200e-01   5.73340175e-13   -5.92544538e-02  -7.26709778e-02  1.00000000e+00   -7.26791899e-02  -4.69239479e-02  0.00000000e+00   
66      4.00779160e-01   5.73340175e-13   -5.84454310e-02  -7.26709779e-02  1.00000000e+00   -7.26791753e-02  -4.70746048e-02  0.00000000e+00   
67      4.00820120e-01   5.73340175e-13   -5.76107531e-02  -7.26709780e-02  1.00000000e+00   -7.26791607e-02  -4.72243802e-02  0.00000000e+00   
68      4.00861080e-01   5.73340175e-13   -5.67434703e-02  -7.26709781e-02  1.00000000e+00   -7.26791461e-02  -4.73732791e-02  0.00000000e+00   
69      4.00902040e-01   5.73340175e-13   -5.58348204e-02  -7.26709783e-02  1.00000000e+00   -7.26791316e-02  -4.75213068e-02  0.00000000e+00   
70      4.00943000e-01   5.73340175e-13   -5.48736609e-02  -7.26709784e-02  1.00000000e+00   -7.26791170e-02  -4.76684683e-02  0.00000000e+00   
71      4.00983960e-01   5.73340175e-13   -5.38456980e-02  -7.26709785e-02  1.00000000e+00   -7.26791025e-02  -4.78147687e-02  0.00000000e+00   
72      4.01001000e-01   5.73340175e-13   -5.33947933e-02  -7.26709785e-02  1.00000000e+00   -7.26790965e-02  -4.78752758e-02  0.00000000e+00   
73      4.01001100e-01   5.16006158e-13   -5.33922840e-02  -7.26709785e-02  1.00000000e+00   -7.26790965e-02  -4.78756301e-02  0.00000000e+00   
74      4.01001300e-01   4.01338123e-13   -5.33879931e-02  -7.26709785e-02  1.00000000e+00   -7.26790964e-02  -4.78763385e-02  0.00000000e+00   
75      4.01001700e-01   1.72002053e-13   -5.33808665e-02  -7.26709785e-02  1.00000000e+00   -7.26790963e-02  -4.78777553e-02  0.00000000e+00   
76      4.01002000e-01   3.01344361e-23   -5.33774317e-02  -7.26709785e-02  1.00000000e+00   -7.26790962e-02  -4.78788179e-02  0.00000000e+00   
77      4.01002080e-01   0.00000000e+00   -5.33767337e-02  -7.26709785e-02  1.00000000e+00   -7.26790961e-02  -4.78791012e-02  0.00000000e+00   
78      4.01002240e-01   0.00000000e+00   -5.33753360e-02  -7.26709785e-02  1.00000000e+00   -7.26790961e-02  -4.78796679e-02  0.00000000e+00   
79      4.01002560e-01   0.00000000e+00   -5.33725376e-02  -7.26709785e-02  1.00000000e+00   -7.26790960e-02  -4.78808012e-02  0.00000000e+00   
80      4.01003200e-01   0.00000000e+00   -5.33669223e-02  -7.26709785e-02  1.00000000e+00   -7.26790957e-02  -4.78830678e-02  0.00000000e+00   
81      4.01004480e-01   0.00000000e+00   -5.33556170e-02  -7.26709785e-02  1.00000000e+00   -7.26790953e-02  -4.78876004e-02  0.00000000e+00   
82      4.01007040e-01   0.00000000e+00   -5.33327074e-02  -7.26709785e-02  1.00000000e+00   -7.26790944e-02  -4.78966641e-02  0.00000000e+00   
83      4.01012160e-01   0.00000000e+00   -5.32856822e-02  -7.26709786e-02  1.00000000e+00   -7.26790926e-02  -4.79147847e-02  0.00000000e+00   
84      4.01022400e-01   0.00000000e+00   -5.31867321e-02  -7.26709786e-02  1.00000000e+00   -7.26790890e-02  -4.79509995e-02  0.00000000e+00   
85      4.01042880e-01   0.00000000e+00   -5.29685897e-02  -7.26709786e-02  1.00000000e+00   -7.26790817e-02  -4.80233231e-02  0.00000000e+00   
86      4.01083840e-01   0.00000000e+00   -5.24454691e-02  -7.26709788e-02  1.00000000e+00   -7.26790673e-02  -4.81675471e-02  0.00000000e+00   
87      4.01124800e-01   0.00000000e+00   -5.17954344e-02  -7.26709789e-02  1.00000000e+00   -7.26790529e-02  -4.83109271e-02  0.00000000e+00   
88      4.01165760e-01   0.00000000e+00   -5.09998573e-02  -7.26709790e-02  1.00000000e+00   -7.26790385e-02  -4.84534682e-02  0.00000000e+00   
89      4.01206720e-01   0.00000000e+00   -5.00332189e-02  -7.26709791e-02  1.00000000e+00   -7.26790242e-02  -4.85951753e-02  0.00000000e+00   
90      4.01247680e-01   0.00000000e+00   -4.88599731e-02  -7.26709792e-02  1.00000000e+00   -7.26790099e-02  -4.87360531e-02  0.00000000e+00   
91      4.01284544e-01   0.00000000e+00   -4.75874762e-02  -7.26709793e-02  1.00000000e+00   -7.26789970e-02  -4.88621013e-02  0.00000000e+00   
92      4.01317722e-01   0.00000000e+00   -4.62244483e-02  -7.26709794e-02  1.00000000e+00   -7.26789854e-02  -4.89749472e-02  0.00000000e+00   
93      4.01347581e-01   0.00000000e+00   -4.47791687e-02  -7.26709794e-02  1.00000000e+00   -7.26789750e-02  -4.90760272e-02  0.00000000e+00   
94      4.01374455e-01   0.00000000e+00   -4.32603010e-02  -7.26709795e-02  1.00000000e+00   -7.26789657e-02  -4.91666111e-02  0.00000000e+00   
95      4.01398642e-01   0.00000000e+00   -4.16774010e-02  -7.26709796e-02  1.00000000e+00   -7.26789573e-02  -4.92478236e-02  5.25792835e-04   
96      4.01420410e-01   0.00000000e+00   -4.00411595e-02  -7.26709796e-02  1.00000000e+00   -7.26789497e-02  -4.93206623e-02  9.98757574e-04   
97      4.01440001e-01   0.00000000e+00   -3.83634362e-02  -7.26709797e-02  1.00000000e+00   -7.26789429e-02  -4.93860133e-02  1.42422441e-03   
98      4.01457633e-01   0.00000000e+00   -3.66570629e-02  -7.26709797e-02  1.00000000e+00   -7.26789368e-02  -4.94446646e-02  1.80698147e-03   
99      4.01475265e-01   0.00000000e+00   -3.47316042e-02  -7.26709798e-02  1.00000000e+00   -7.26789307e-02  -4.95031682e-02  2.18959183e-03   
100     4.01491133e-01   0.00000000e+00   -3.27810981e-02  -7.26709798e-02  1.00000000e+00   -7.26789252e-02  -4.95556888e-02  2.53380916e-03   
101     4.01505415e-01   0.00000000e+00   -3.08221652e-02  -7.26709798e-02  1.00000000e+00   -7.26789203e-02  -4.96028501e-02  2.84349788e-03   
102     4.01519697e-01   0.00000000e+00   -2.86423205e-02  -7.26678482e-02  1.00000000e+00   -7.26789154e-02  -4.96499153e-02  3.15309046e-03   
103     4.01532551e-01   0.00000000e+00   -2.64672255e-02  -7.26600070e-02  1.00000000e+00   -7.26789110e-02  -4.96921875e-02  3.43163727e-03   
104     4.01545404e-01   0.00000000e+00   -2.40647735e-02  -7.26480326e-02  1.00000000e+00   -7.26789048e-02  -4.97343763e-02  3.71010624e-03   
105     4.01558258e-01   0.00000000e+00   -2.14092711e-02  -7.26324436e-02  1.00000000e+00   -7.26788942e-02  -4.97764733e-02  3.98849741e-03   
106     4.01569826e-01   0.00000000e+00   -1.87815631e-02  -7.26156956e-02  1.00000000e+00   -7.26788787e-02  -4.98142712e-02  4.23897944e-03   
107     4.01580238e-01   0.00000000e+00   -1.62079580e-02  -7.25986772e-02  1.00000000e+00   -7.26788577e-02  -4.98482099e-02  4.46435658e-03   
108     4.01590649e-01   0.00000000e+00   -1.34237254e-02  -7.25800201e-02  1.00000000e+00   -7.26788291e-02  -4.98820732e-02  4.68968271e-03   
109     4.01601061e-01   0.00000000e+00   -1.04193153e-02  -7.25598973e-02  1.00000000e+00   -7.26787928e-02  -4.99158609e-02  4.91495783e-03   
110     4.01611472e-01   0.00000000e+00   -7.18951804e-03  -7.25384648e-02  1.00000000e+00   -7.26787481e-02  -4.99495705e-02  5.14018197e-03   
111     4.01621884e-01   0.00000000e+00   -3.73558365e-03  -7.25158632e-02  1.00000000e+00   -7.26786943e-02  -4.99832001e-02  5.36535514e-03   
112     4.01632295e-01   0.00000000e+00   -6.76871127e-05  -7.24922193e-02  1.00000000e+00   -7.26786308e-02  -5.00167478e-02  5.59047734e-03   
113     4.01642707e-01   0.00000000e+00   3.79247856e-03   -7.24676471e-02  1.00000000e+00   -7.26785571e-02  -5.00502119e-02  5.81554858e-03   
114     4.01653118e-01   0.00000000e+00   7.80938003e-03   -7.24422496e-02  1.00000000e+00   -7.26784728e-02  -5.00835912e-02  6.04056888e-03   
115     4.01663530e-01   0.00000000e+00   1.19321715e-02   -7.24161192e-02  1.00000000e+00   -7.26783773e-02  -5.01168842e-02  6.26553826e-03   
116     4.01673941e-01   0.00000000e+00   1.60947578e-02   -7.23893392e-02  1.00000000e+00   -7.26782704e-02  -5.01500899e-02  6.49045671e-03   
117     4.01684353e-01   0.00000000e+00   2.02180485e-02   -7.23619848e-02  1.00000000e+00   -7.26781518e-02  -5.01832074e-02  6.71532426e-03   
118     4.01694764e-01   0.00000000e+00   2.42147125e-02   -7.23341235e-02  1.00000000e+00   -7.26780210e-02  -5.02162358e-02  6.94014091e-03   
119     4.01705176e-01   0.00000000e+00   2.79962314e-02   -7.23058160e-02  1.00000000e+00   -7.26778780e-02  -5.02491744e-02  7.16490668e-03   
120     4.01715587e-01   0.00000000e+00   3.14813567e-02   -7.22771171e-02  1.00000000e+00   -7.26777224e-02  -5.02820225e-02  7.38962157e-03   
121     4.01725999e-01   0.00000000e+00   3.46044472e-02   -7.22480759e-02  1.00000000e+00   -7.26775540e-02  -5.03147797e-02  7.61428560e-03   
122     4.01736410e-01   0.00000000e+00   3.73219907e-02   -7.22187369e-02  1.00000000e+00   -7.26773727e-02  -5.03474455e-02  7.83889879e-03   
123     4.01746822e-01   0.00000000e+00   3.96159210e-02   -7.21891397e-02  1.00000000e+00   -7.26771784e-02  -5.03800195e-02  8.06346113e-03   
124     4.01757233e-01   0.00000000e+00   4.14931452e-02   -7.21593204e-02  1.00000000e+00   -7.26769709e-02  -5.04125014e-02  8.28797265e-03   
125     4.01766603e-01   0.00000000e+00   4.28486206e-02   -7.21323198e-02  1.00000000e+00   -7.26767721e-02  -5.04416521e-02  8.48998728e-03   
126     4.01775974e-01   0.00000000e+00   4.39201505e-02   -7.21051878e-02  1.00000000e+00   -7.26765613e-02  -5.04707237e-02  8.69196077e-03   
127     4.01785344e-01   0.00000000e+00   4.47445287e-02   -7.20779430e-02  1.00000000e+00   -7.26763396e-02  -5.04997204e-02  8.89389311e-03   
128     4.01794714e-01   0.00000000e+00   4.53604724e-02   -7.20506025e-02  1.00000000e+00   -7.26761069e-02  -5.05286419e-02  9.09578431e-03   
129     4.01804085e-01   0.00000000e+00   4.58054929e-02   -7.20231822e-02  1.00000000e+00   -7.26758632e-02  -5.05574882e-02  9.29763439e-03   
130     4.01813455e-01   0.00000000e+00   4.61137329e-02   -7.19956964e-02  1.00000000e+00   -7.26756085e-02  -5.05862593e-02  9.49944335e-03   
131     4.01822825e-01   0.00000000e+00   4.63147470e-02   -7.19681583e-02  1.00000000e+00   -7.26753427e-02  -5.06149551e-02  9.70121120e-03   
132     4.01832196e-01   0.00000000e+00   4.64330721e-02   -7.19405799e-02  1.00000000e+00   -7.26750658e-02  -5.06435758e-02  9.90293796e-03   
133     4.01841566e-01   0.00000000e+00   4.64883709e-02   -7.19129718e-02  1.00000000e+00   -7.26747778e-02  -5.06721213e-02  1.01046236e-02   
134     4.01850936e-01   0.00000000e+00   4.64959301e-02   -7.18853440e-02  1.00000000e+00   -7.26744787e-02  -5.07005917e-02  1.03062682e-02   
135     4.01860307e-01   0.00000000e+00   4.64673291e-02   -7.18577053e-02  1.00000000e+00   -7.26741684e-02  -5.07289870e-02  1.05078717e-02   
