Index        TIME            I(IIN)            V(A)       N(YNEURON!NEURON1_V1) N(YNEURON!NEURON1_N1) N(YNEURON!NEURON1_M1) N(YNEURON!NEURON1_H1) N(YNEURON!NEURON1_A1) N(YNEURON!NEURON1_B1) N(YNEURON!NEURON1_M_1) N(YNEURON!NEURON1_H_1) N(YNEURON!NEURON1_C1) N(YNEURON!NEURON1_CA1)
0       0.00000000e+00   0.00000000e+00   0.00000000e+00   0.00000000e+00   0.00000000e+00   0.00000000e+00   0.00000000e+00   0.00000000e+00   0.00000000e+00   0.00000000e+00   0.00000000e+00   0.00000000e+00   0.00000000e+00   
1       1.00000000e-10   0.00000000e+00   -5.09999985e-10  -5.09999985e-10  9.23566156e-08   1.18963054e-06   2.41309683e-09   2.07907674e-07   2.84767005e-14   9.90747222e-08   5.70787581e-18   1.19193433e-55   9.46862602e-47   
2       3.00000000e-10   0.00000000e+00   -1.52999989e-09  -1.52999989e-09  2.77069804e-07   3.56888556e-06   7.23928755e-09   6.23722824e-07   8.54301084e-14   2.97224123e-07   1.71236303e-17   1.32304701e-53   5.20774405e-45   
3       7.00000000e-10   0.00000000e+00   -3.56999959e-09  -3.56999959e-09  6.46496096e-07   8.32738343e-06   1.68916632e-08   1.45535273e-06   1.99336938e-13   6.93522838e-07   3.99551448e-17   2.15859284e-52   7.52755737e-44   
4       1.50000000e-09   0.00000000e+00   -7.64999824e-09  -7.64999824e-09  1.38534817e-06   1.78443063e-05   3.61963793e-08   3.11861016e-06   4.27150680e-13   1.48611974e-06   8.56182078e-17   8.06450652e-51   1.48344951e-42   
5       3.10000000e-09   0.00000000e+00   -1.58099926e-08  -1.58099926e-08  2.86305026e-06   3.68778604e-05   7.48056711e-08   6.44511550e-06   8.82778494e-13   3.07131146e-06   1.76944469e-16   2.90945646e-49   2.66063600e-41   
6       6.30000000e-09   0.00000000e+00   -3.21299696e-08  -3.21299696e-08  5.81844627e-06   7.49438023e-05   1.52023693e-07   1.30980882e-05   1.79403544e-12   6.24168651e-06   3.59597535e-16   9.90154453e-48   4.50555170e-40   
7       1.27000000e-08   0.00000000e+00   -6.47698767e-08  -6.47698767e-08  1.17292055e-05   1.51071021e-04   3.06457491e-07   2.64038813e-05   3.61655463e-12   1.25824031e-05   7.24905836e-16   3.26732414e-46   7.41469960e-39   
8       2.55000000e-08   0.00000000e+00   -1.30049503e-07  -1.30049503e-07  2.35505930e-05   3.03306800e-04   6.15316103e-07   5.30148591e-05   7.26161413e-12   2.52637022e-05   1.45553112e-15   1.06167609e-44   1.20309312e-37   
9       5.11000000e-08   0.00000000e+00   -2.60608009e-07  -2.60608009e-07  4.71928440e-05   6.07703738e-04   1.23299739e-06   1.06234380e-04   1.45518177e-11   5.06257642e-05   2.91681639e-15   3.42341774e-43   1.93844974e-36   
10      1.02300000e-07   0.00000000e+00   -5.21722050e-07  -5.21722050e-07  9.44752498e-05   1.21619926e-03   2.46821624e-06   2.12663687e-04   2.91325631e-11   1.01347743e-04   5.83952580e-15   1.09967447e-41   3.11235462e-35   
11      2.04700000e-07   0.00000000e+00   -1.04393839e-06  -1.04393839e-06  1.89031678e-04   2.43199787e-03   4.93807916e-06   4.25483360e-04   5.82954069e-11   2.02783123e-04   1.16855001e-14   3.52561046e-40   4.98842110e-34   
12      4.09500000e-07   0.00000000e+00   -2.08832528e-06  -2.08832528e-06  3.78111005e-04   4.85883320e-03   9.87550689e-06   8.50966997e-04   1.16626508e-10   4.05619573e-04   2.33796709e-14   1.12922677e-38   7.98830097e-33   
13      8.19100000e-07   0.00000000e+00   -4.17692521e-06  -4.17692521e-06  7.56135584e-04   9.69351883e-03   1.97411780e-05   1.70131182e-03   2.33310375e-10   8.11155278e-04   4.67769036e-14   3.61495792e-37   1.27864171e-31   
14      1.22870000e-06   0.00000000e+00   -6.26528495e-06  -6.26528495e-06  1.13398146e-03   1.45029908e-02   2.95946161e-05   2.55082732e-03   3.50023141e-10   1.21650812e-03   7.01859947e-14   2.22249983e-36   5.94095596e-31   
15      1.63830000e-06   0.00000000e+00   -8.35337940e-06  -8.35337940e-06  1.51164874e-03   1.92873817e-02   3.94358386e-05   3.39951430e-03   4.66764826e-10   1.62167820e-03   9.36069489e-14   8.40985326e-36   1.80634091e-30   
16      2.45750000e-06   0.00000000e+00   -1.25288608e-05  -1.25288608e-05  2.26644786e-03   2.87815114e-02   5.90817136e-05   5.09440640e-03   7.00335041e-10   2.43147047e-03   1.40484468e-13   6.54859234e-35   9.26628448e-30   
17      3.27670000e-06   0.00000000e+00   -1.67035034e-05  -1.67035034e-05  3.02053364e-03   3.81768874e-02   7.86789314e-05   6.78599420e-03   9.34021169e-10   3.24053274e-03   1.87409497e-13   2.60974542e-34   2.86614727e-29   
18      4.09590000e-06   0.00000000e+00   -2.08770288e-05  -2.08770288e-05  3.77390678e-03   4.74745443e-02   9.82276288e-05   8.47428420e-03   1.16782337e-09   4.04886576e-03   2.34382075e-13   7.63997894e-34   6.89417530e-29   
19      4.91510000e-06   0.00000000e+00   -2.50494822e-05  -2.50494822e-05  4.52656800e-03   5.66755061e-02   1.17727942e-04   1.01592829e-02   1.40174178e-09   4.85647024e-03   2.81402238e-13   1.84904101e-33   1.41612487e-28   
20      6.55350000e-06   0.00000000e+00   -3.33915356e-05  -3.33915356e-05  6.02975794e-03   7.47918787e-02   1.56584026e-04   1.35194353e-02   1.86992796e-09   6.46949685e-03   3.75585490e-13   7.96462970e-33   4.51865202e-28   
21      8.19190000e-06   0.00000000e+00   -4.17303411e-05  -4.17303411e-05  7.53010882e-03   9.25334672e-02   1.95248198e-04   1.68664997e-02   2.33858091e-09   8.07961797e-03   4.69959547e-13   2.39134515e-32   1.09615088e-27   
22      9.83030000e-06   0.00000000e+00   -5.00631963e-05  -5.00631963e-05  9.02762638e-03   1.09908081e-01   2.33721534e-04   2.02005275e-02   2.80770179e-09   9.68683938e-03   5.64524699e-13   5.84683463e-32   2.25843162e-27   
23      1.14687000e-05   0.00000000e+00   -5.83897863e-05  -5.83897863e-05  1.05223164e-02   1.26923365e-01   2.72005099e-04   2.35215699e-02   3.27729158e-09   1.12911669e-02   6.59281199e-13   1.24606633e-31   4.16348428e-27   
24      1.31071000e-05   0.00000000e+00   -6.67090041e-05  -6.67090041e-05  1.20141847e-02   1.43586806e-01   3.10099952e-04   2.68296779e-02   3.74735115e-09   1.28926064e-02   7.54229284e-13   2.40347122e-31   7.07687562e-27   
25      1.47455000e-05   0.00000000e+00   -7.50194583e-05  -7.50194583e-05  1.35032370e-02   1.59905731e-01   3.48007142e-04   3.01249024e-02   4.21788123e-09   1.44911637e-02   8.49369161e-13   4.29585794e-31   1.13049370e-26   
26      1.80223000e-05   0.00000000e+00   -9.16099716e-05  -9.16099716e-05  1.64729201e-02   1.91541988e-01   4.23263205e-04   3.66769290e-02   5.16035522e-09   1.76796583e-02   1.04022504e-12   1.18379709e-30   2.53381300e-26   
27      2.12991000e-05   0.00000000e+00   -1.08132863e-04  -1.08132863e-04  1.94314104e-02   2.21884076e-01   4.97780955e-04   4.31780287e-02   6.10471365e-09   2.08566958e-02   1.23184939e-12   2.72079476e-30   4.93645741e-26   
28      2.45759000e-05   0.00000000e+00   -1.24590286e-04  -1.24590286e-04  2.23787560e-02   2.50985329e-01   5.71568439e-04   4.96286041e-02   7.05095348e-09   2.40223252e-02   1.42424218e-12   5.53157223e-30   8.72995794e-26   
29      2.78527000e-05   0.00000000e+00   -1.40939426e-04  -1.40939426e-04  2.53150060e-02   2.78896880e-01   6.44633527e-04   5.60290560e-02   7.99906637e-09   2.71765962e-02   1.61740239e-12   1.02809061e-29   1.43707820e-25   
30      3.11295000e-05   0.00000000e+00   -1.57149232e-04  -1.57149232e-04  2.82402117e-02   3.05667762e-01   7.16983847e-04   6.23797848e-02   8.94903438e-09   3.03195612e-02   1.81132718e-12   1.78337641e-29   2.23802028e-25   
31      3.44063000e-05   0.00000000e+00   -1.73184729e-04  -1.73184729e-04  3.11544259e-02   3.31344987e-01   7.88626801e-04   6.86811903e-02   9.90083080e-09   3.34512743e-02   2.00601202e-12   2.92816122e-29   3.33441437e-25   
32      3.76831000e-05   0.00000000e+00   -1.89007462e-04  -1.89007462e-04  3.40577035e-02   3.55973639e-01   8.59569550e-04   7.49336716e-02   1.08544191e-08   3.65717918e-02   2.20145053e-12   4.59686150e-29   4.79129852e-25   
33      4.09599000e-05   0.00000000e+00   -2.04576018e-04  -2.04576018e-04  3.69501015e-02   3.79596947e-01   9.29819004e-04   8.11376278e-02   1.18097520e-08   3.96811725e-02   2.39763426e-12   6.95177188e-29   6.68013292e-25   
34      4.42367000e-05   0.00000000e+00   -2.19846559e-04  -2.19846559e-04  3.98316791e-02   4.02256366e-01   9.99381807e-04   8.72934578e-02   1.27667705e-08   4.27794775e-02   2.59455254e-12   1.01856604e-28   9.07877092e-25   
35      4.75135000e-05   0.00000000e+00   -2.34773355e-04  -2.34773355e-04  4.27024980e-02   4.23991648e-01   1.06826433e-03   9.34015604e-02   1.37254033e-08   4.58667708e-02   2.79219236e-12   1.45243495e-28   1.20714240e-24   
36      5.40671000e-05   0.00000000e+00   -2.63411267e-04  -2.63411267e-04  4.84121509e-02   4.64857902e-01   1.20401549e-03   1.05476377e-01   1.56471113e-08   5.20086256e-02   3.18956267e-12   2.77801774e-28   2.02571019e-24   
37      6.06207000e-05   0.00000000e+00   -2.90040826e-04  -2.90040826e-04  5.40795728e-02   5.02462377e-01   1.33711449e-03   1.17365074e-01   1.75740647e-08   5.81072720e-02   3.58959455e-12   4.91903810e-28   3.19923588e-24   
38      6.71743000e-05   0.00000000e+00   -3.14453821e-04  -3.14453821e-04  5.97053393e-02   5.37068858e-01   1.46760246e-03   1.29070841e-01   1.95052238e-08   6.41633129e-02   3.99209372e-12   8.20202489e-28   4.81742649e-24   
39      7.37279000e-05   0.00000000e+00   -3.36045033e-04  -3.36045033e-04  6.52900655e-02   5.68919899e-01   1.59551585e-03   1.40596869e-01   2.14393144e-08   7.01773949e-02   4.39682079e-12   1.30304612e-27   6.97953152e-24   
40      8.02815000e-05   0.00000000e+00   -3.54580591e-04  -3.54580591e-04  7.08344064e-02   5.98238536e-01   1.72088639e-03   1.51946352e-01   2.33748195e-08   7.61502087e-02   4.80348950e-12   1.98924357e-27   9.79400471e-24   
41      8.68351000e-05   0.00000000e+00   -3.69738736e-04  -3.69738736e-04  7.63390393e-02   6.25229707e-01   1.84374233e-03   1.63122465e-01   2.53100550e-08   8.20824690e-02   5.21178085e-12   2.93680749e-27   1.33781122e-23   
42      9.33887000e-05   0.00000000e+00   -3.81231718e-04  -3.81231718e-04  8.18046656e-02   6.50081762e-01   1.96410824e-03   1.74128365e-01   2.72431568e-08   8.79749169e-02   5.62134059e-12   4.21366911e-27   1.78574503e-23   
43      9.99423000e-05   0.00000000e+00   -3.88809172e-04  -3.88809172e-04  8.72320065e-02   6.72967784e-01   2.08200538e-03   1.84967187e-01   2.91721040e-08   9.38283146e-02   6.03178336e-12   5.89835986e-27   2.33653962e-23   
44      1.06495900e-04   0.00000000e+00   -3.92259955e-04  -3.92259955e-04  9.26217974e-02   6.94046812e-01   2.19745211e-03   1.95642036e-01   3.10947442e-08   9.96434391e-02   6.44269738e-12   8.08065570e-27   3.00424922e-23   
45      1.13049500e-04   0.00000000e+00   -3.91412754e-04  -3.91412754e-04  9.79747830e-02   7.13464969e-01   2.31046427e-03   2.06155984e-01   3.30088215e-08   1.05421077e-01   6.85364963e-12   1.08621797e-26   3.80357669e-23   
46      1.26156700e-04   0.00000000e+00   -3.76288347e-04  -3.76288347e-04  1.08573711e-01   7.47899356e-01   2.52924337e-03   2.26714721e-01   3.68007076e-08   1.16867447e-01   7.67362616e-12   1.87651946e-26   5.86666459e-23   
47      1.39263900e-04   0.00000000e+00   -3.42892636e-04  -3.42892636e-04  1.19034371e-01   7.77147837e-01   2.73842787e-03   2.46665522e-01   4.05299547e-08   1.28173295e-01   8.48825742e-12   3.06309539e-26   8.64579082e-23   
48      1.52371100e-04   0.00000000e+00   -2.91163894e-04  -2.91163894e-04  1.29362582e-01   8.02014560e-01   2.93809607e-03   2.66031194e-01   4.41778154e-08   1.39344706e-01   9.29387373e-12   4.77499493e-26   1.22737657e-22   
49      1.65478300e-04   0.00000000e+00   -2.21517797e-04  -2.21517797e-04  1.39563916e-01   8.23178088e-01   3.12832234e-03   2.84833586e-01   4.77265385e-08   1.50387474e-01   1.00869588e-11   7.16418384e-26   1.68859942e-22   
50      1.78585500e-04   0.00000000e+00   -1.34764356e-04  -1.34764356e-04  1.49643617e-01   8.41211102e-01   3.30918646e-03   3.03093516e-01   5.11600466e-08   1.61307002e-01   1.08642785e-11   1.04061542e-25   2.26178250e-22   
51      1.91692700e-04   0.00000000e+00   -3.20313683e-05  -3.20313683e-05  1.59606537e-01   8.56597005e-01   3.48078130e-03   3.20830731e-01   5.44644466e-08   1.72108234e-01   1.16229792e-11   1.47001499e-25   2.96020812e-22   
52      2.04799900e-04   0.00000000e+00   8.53064330e-05   8.53064330e-05   1.69457089e-01   8.69743913e-01   3.64321858e-03   3.38063897e-01   5.76283648e-08   1.82795609e-01   1.23606550e-11   2.02690203e-25   3.79668836e-22   
53      2.31014300e-04   0.00000000e+00   3.56618410e-04   3.56618410e-04   1.88837858e-01   8.90758953e-01   3.94128275e-03   3.71095006e-01   6.35011587e-08   2.03845254e-01   1.37652887e-11   3.63861165e-25   5.93720048e-22   
54      2.57228700e-04   0.00000000e+00   6.66110345e-04   6.66110345e-04   2.07809581e-01   9.06237708e-01   4.20472346e-03   4.02305920e-01   6.87462265e-08   2.24478559e-01   1.50698234e-11   6.08745986e-25   8.76441942e-22   
55      2.83443100e-04   0.00000000e+00   9.98719670e-04   9.98719670e-04   2.26390740e-01   9.17748153e-01   4.43536969e-03   4.31809853e-01   7.33639187e-08   2.44712192e-01   1.62718308e-11   9.62775618e-25   1.23515944e-21   
56      3.09657500e-04   0.00000000e+00   1.33900220e-03   1.33900220e-03   2.44592746e-01   9.26402138e-01   4.63547043e-03   4.59706153e-01   7.73854993e-08   2.64555218e-01   1.73748027e-11   1.45412958e-24   1.67585732e-21   
57      3.35871900e-04   0.00000000e+00   1.67161386e-03   1.67161386e-03   2.62420583e-01   9.32985069e-01   4.80764413e-03   4.86081972e-01   8.08643290e-08   2.84010038e-01   1.83866283e-11   2.11328005e-24   2.20350776e-21   
58      3.88300700e-04   0.00000000e+00   2.24768783e-03   2.24768783e-03   2.96939936e-01   9.42086862e-01   5.08182900e-03   5.34596601e-01   8.65164741e-08   3.21730363e-01   2.01902406e-11   4.08436736e-24   3.54110636e-21   
59      4.40729500e-04   0.00000000e+00   2.62144463e-03   2.62144463e-03   3.29888385e-01   9.47490665e-01   5.28222796e-03   5.77823170e-01   9.08972976e-08   3.57798743e-01   2.17825558e-11   7.14045913e-24   5.29203498e-21   
60      4.93158300e-04   0.00000000e+00   2.69129969e-03   2.69129969e-03   3.61155389e-01   9.50535182e-01   5.43645327e-03   6.16167602e-01   9.46578371e-08   3.92098405e-01   2.32824708e-11   1.15921477e-23   7.53414379e-21   
61      5.45587100e-04   0.00000000e+00   2.37389389e-03   2.37389389e-03   3.90599591e-01   9.51755585e-01   5.57307461e-03   6.49954805e-01   9.85241089e-08   4.24491783e-01   2.48291286e-11   1.77972157e-23   1.04094457e-20   
62      5.98015900e-04   0.00000000e+00   1.61107458e-03   1.61107458e-03   4.18071578e-01   9.51277655e-01   5.72125091e-03   6.79452344e-01   1.03441725e-07   4.54840545e-01   2.66092731e-11   2.61929562e-23   1.41629546e-20   
63      6.50444700e-04   0.00000000e+00   3.77057747e-04   3.77057747e-04   4.43435057e-01   9.48997706e-01   5.91103838e-03   7.04890811e-01   1.10908482e-07   4.83021946e-01   2.89202251e-11   3.73453415e-23   1.91977002e-20   
64      7.02873500e-04   0.00000000e+00   -1.31639329e-03  -1.31639329e-03  4.66585483e-01   9.44656744e-01   6.17414654e-03   7.26483274e-01   1.23686595e-07   5.08943031e-01   3.23032576e-11   5.20229403e-23   2.61765683e-20   
65      7.55302300e-04   0.00000000e+00   -3.41889138e-03  -3.41889138e-03  4.87464694e-01   9.37871359e-01   6.54482306e-03   7.44444722e-01   1.47341553e-07   5.32553641e-01   3.78275969e-11   7.13284898e-23   3.62535741e-20   
66      8.07731100e-04   0.00000000e+00   -5.84592600e-03  -5.84592600e-03  5.06070140e-01   9.28160489e-01   7.06043532e-03   7.59010386e-01   1.93528293e-07   5.53857658e-01   4.76910201e-11   9.69808113e-23   5.16407699e-20   
67      8.60159900e-04   0.00000000e+00   -8.48864228e-03  -8.48864228e-03  5.22457749e-01   9.14994614e-01   7.76119149e-03   7.70449803e-01   2.86663753e-07   5.72920218e-01   6.64416554e-11   1.31958950e-22   7.69902945e-20   
68      9.12588700e-04   0.00000000e+00   -1.12287153e-02  -1.12287153e-02  5.36737985e-01   8.97879911e-01   8.68851257e-03   7.79072258e-01   4.76281127e-07   5.89867481e-01   1.03286938e-10   1.81924164e-22   1.22608159e-19   
69      9.65017500e-04   0.00000000e+00   -1.39548530e-02  -1.39548530e-02  5.49065518e-01   8.76469397e-01   9.88200718e-03   7.85220583e-01   8.57017616e-07   6.04876741e-01   1.76012437e-10   2.58127999e-22   2.11393616e-19   
70      1.00000000e-03   0.00000000e+00   -1.57226455e-02  -1.57226455e-02  5.56288636e-01   8.59726959e-01   1.08429064e-02   7.88113415e-01   1.28869121e-06   6.13909589e-01   2.58141828e-10   3.32389157e-22   3.14359913e-19   
71      1.00000625e-03   2.50000000e-10   2.38925574e-01   -1.57229561e-02  5.56289859e-01   8.59723792e-01   1.08430905e-02   7.88113853e-01   1.28878501e-06   6.13911137e-01   2.58159673e-10   3.32404597e-22   3.14382610e-19   
72      1.00001188e-03   4.75000000e-10   4.68108973e-01   -1.57232357e-02  5.56290959e-01   8.59720942e-01   1.08432561e-02   7.88114247e-01   1.28886944e-06   6.13912530e-01   2.58175736e-10   3.32418495e-22   3.14403039e-19   
73      1.00002312e-03   9.25000000e-10   9.26478790e-01   -1.57237947e-02  5.56293160e-01   8.59715241e-01   1.08435875e-02   7.88115034e-01   1.28903831e-06   6.13915316e-01   2.58207863e-10   3.32446290e-22   3.14443899e-19   
74      1.00004563e-03   1.82500000e-09   1.84321742e+00   -1.57249128e-02  5.56297561e-01   8.59703840e-01   1.08442503e-02   7.88116609e-01   1.28937611e-06   6.13920888e-01   2.58272130e-10   3.32501891e-22   3.14525639e-19   
75      1.00009063e-03   3.62500000e-09   3.67672589e+00   -1.57271483e-02  5.56306362e-01   8.59681034e-01   1.08455761e-02   7.88119757e-01   1.29005200e-06   6.13932032e-01   2.58400717e-10   3.32613128e-22   3.14689193e-19   
76      1.00018062e-03   7.22500000e-09   7.34381231e+00   -1.57316146e-02  5.56323960e-01   8.59635413e-01   1.08482283e-02   7.88126050e-01   1.29140489e-06   6.13954315e-01   2.58658107e-10   3.32835748e-22   3.15016602e-19   
77      1.00036062e-03   1.44250000e-08   1.46785196e+01   -1.57405118e-02  5.56359143e-01   8.59544133e-01   1.08535355e-02   7.88138619e-01   1.29411514e-06   6.13998869e-01   2.59173741e-10   3.33281566e-22   3.15672623e-19   
78      1.00072062e-03   2.88250000e-08   2.93492340e+01   -1.57580292e-02  5.56429452e-01   8.59361428e-01   1.08641612e-02   7.88163692e-01   1.29955334e-06   6.14087921e-01   2.60208397e-10   3.34175533e-22   3.16989486e-19   
79      1.00100000e-03   4.00000000e-08   4.07358827e+01   -1.57712418e-02  5.56483963e-01   8.59219518e-01   1.08724170e-02   7.88183091e-01   1.30378959e-06   6.14156978e-01   2.61014400e-10   3.34871443e-22   3.18015860e-19   
80      1.00107200e-03   4.00000000e-08   4.07369820e+01   -1.57745603e-02  5.56498002e-01   8.59182926e-01   1.08745463e-02   7.88188080e-01   1.30488402e-06   6.14174767e-01   2.61222634e-10   3.35051162e-22   3.18281132e-19   
81      1.00121600e-03   4.00000000e-08   4.07392622e+01   -1.57810680e-02  5.56526070e-01   8.59109721e-01   1.08788070e-02   7.88198046e-01   1.30707637e-06   6.14210334e-01   2.61639775e-10   3.35411109e-22   3.18812705e-19   
82      1.00150400e-03   4.00000000e-08   4.07438158e+01   -1.57938250e-02  5.56582183e-01   8.58963272e-01   1.08873325e-02   7.88217952e-01   1.31146794e-06   6.14281446e-01   2.62475379e-10   3.36132028e-22   3.19877910e-19   
83      1.00208000e-03   4.00000000e-08   4.07529252e+01   -1.58177909e-02  5.56694277e-01   8.58670195e-01   1.09044062e-02   7.88257615e-01   1.32029061e-06   6.14423543e-01   2.64154223e-10   3.37580073e-22   3.22020653e-19   
84      1.00323200e-03   4.00000000e-08   4.07710738e+01   -1.58595630e-02  5.56917976e-01   8.58083864e-01   1.09386282e-02   7.88336392e-01   1.33807735e-06   6.14707262e-01   2.67539426e-10   3.40501644e-22   3.26355315e-19   
