Index        TIME             V(A)       N(YNEURON!NEURON1_M) N(YNEURON!NEURON1_H) N(YNEURON!NEURON1_N)      I(IIN)
0       0.00000000e+00   -6.50000000e-02  9.73240452e-03   9.97561087e-01   2.70744790e-02   0.00000000e+00   
1       1.00000000e-10   -6.50000000e-02  9.73240452e-03   9.97561087e-01   2.70744790e-02   0.00000000e+00   
2       3.00000000e-10   -6.50000000e-02  9.73240452e-03   9.97561087e-01   2.70744790e-02   0.00000000e+00   
3       7.00000000e-10   -6.50000000e-02  9.73240452e-03   9.97561087e-01   2.70744790e-02   0.00000000e+00   
4       1.50000000e-09   -6.50000000e-02  9.73240452e-03   9.97561087e-01   2.70744790e-02   0.00000000e+00   
5       3.10000000e-09   -6.50000000e-02  9.73240452e-03   9.97561087e-01   2.70744790e-02   0.00000000e+00   
6       6.30000000e-09   -6.49999999e-02  9.73240452e-03   9.97561087e-01   2.70744790e-02   0.00000000e+00   
7       1.27000000e-08   -6.49999999e-02  9.73240452e-03   9.97561087e-01   2.70744790e-02   0.00000000e+00   
8       2.55000000e-08   -6.49999997e-02  9.73240452e-03   9.97561087e-01   2.70744790e-02   0.00000000e+00   
9       5.11000000e-08   -6.49999995e-02  9.73240452e-03   9.97561087e-01   2.70744790e-02   0.00000000e+00   
10      1.02300000e-07   -6.49999990e-02  9.73240452e-03   9.97561087e-01   2.70744790e-02   0.00000000e+00   
11      2.04700000e-07   -6.49999979e-02  9.73240452e-03   9.97561087e-01   2.70744790e-02   0.00000000e+00   
12      4.09500000e-07   -6.49999958e-02  9.73240454e-03   9.97561087e-01   2.70744790e-02   0.00000000e+00   
13      8.19100000e-07   -6.49999917e-02  9.73240460e-03   9.97561087e-01   2.70744790e-02   0.00000000e+00   
14      1.63830000e-06   -6.49999833e-02  9.73240485e-03   9.97561087e-01   2.70744790e-02   0.00000000e+00   
15      3.27670000e-06   -6.49999667e-02  9.73240583e-03   9.97561087e-01   2.70744791e-02   0.00000000e+00   
16      6.55350000e-06   -6.49999333e-02  9.73240970e-03   9.97561087e-01   2.70744796e-02   0.00000000e+00   
17      1.31071000e-05   -6.49998667e-02  9.73242470e-03   9.97561087e-01   2.70744817e-02   0.00000000e+00   
18      2.62143000e-05   -6.49997335e-02  9.73248109e-03   9.97561086e-01   2.70744899e-02   0.00000000e+00   
19      5.24287000e-05   -6.49994674e-02  9.73268159e-03   9.97561084e-01   2.70745226e-02   0.00000000e+00   
20      1.04857500e-04   -6.49989360e-02  9.73332875e-03   9.97561075e-01   2.70746510e-02   0.00000000e+00   
21      2.09715100e-04   -6.49978771e-02  9.73513180e-03   9.97561037e-01   2.70751489e-02   0.00000000e+00   
22      4.19430300e-04   -6.49957739e-02  9.73934198e-03   9.97560894e-01   2.70770213e-02   0.00000000e+00   
23      8.38860700e-04   -6.49916245e-02  9.74792316e-03   9.97560359e-01   2.70836755e-02   0.00000000e+00   
24      1.67772150e-03   -6.49835486e-02  9.76460072e-03   9.97558485e-01   2.71050638e-02   0.00000000e+00   
25      3.35544310e-03   -6.49682501e-02  9.79629075e-03   9.97552618e-01   2.71635472e-02   0.00000000e+00   
26      6.71088630e-03   -6.49407753e-02  9.85342824e-03   9.97537365e-01   2.72916133e-02   0.00000000e+00   
27      1.34217727e-02   -6.48963061e-02  9.94658158e-03   9.97507027e-01   2.75107738e-02   0.00000000e+00   
28      2.68435455e-02   -6.48373764e-02  1.00712790e-02   9.97464097e-01   2.78024934e-02   0.00000000e+00   
29      5.00000000e-02   -6.47891306e-02  1.01744874e-02   9.97428604e-01   2.80438772e-02   0.00000000e+00   
30      5.26843546e-02   -6.45456016e-02  1.06924463e-02   9.97346598e-01   2.88060245e-02   2.00000000e-11   
31      5.53687091e-02   -6.43262609e-02  1.11962656e-02   9.97228293e-01   2.97785384e-02   2.00000000e-11   
32      6.07374182e-02   -6.39294291e-02  1.21647504e-02   9.96958529e-01   3.17967547e-02   2.00000000e-11   
33      7.14748365e-02   -6.33333827e-02  1.37683537e-02   9.96408165e-01   3.53090782e-02   2.00000000e-11   
34      8.22122547e-02   -6.29194070e-02  1.49934061e-02   9.95966750e-01   3.78735068e-02   2.00000000e-11   
35      1.03687091e-01   -6.23711816e-02  1.67706432e-02   9.95314190e-01   4.15309542e-02   2.00000000e-11   
36      1.46636764e-01   -6.17493711e-02  1.90156212e-02   9.94469174e-01   4.59506789e-02   2.00000000e-11   
37      1.57374182e-01   -6.16474671e-02  1.94087142e-02   9.94320388e-01   4.67101919e-02   2.00000000e-11   
38      1.78849019e-01   -6.14481975e-02  2.01978396e-02   9.94023497e-01   4.82065579e-02   2.00000000e-11   
39      2.00323855e-01   -6.12455669e-02  2.10296722e-02   9.93711114e-01   4.97556639e-02   2.00000000e-11   
40      2.43273528e-01   -6.04925722e-02  2.43933128e-02   9.92472662e-01   5.57349950e-02   2.00000000e-11   
41      2.48642237e-01   -6.03193162e-02  2.52306047e-02   9.92175176e-01   5.71488471e-02   2.00000000e-11   
42      2.59379656e-01   -5.98109447e-02  2.78333222e-02   9.91279831e-01   6.13642963e-02   2.00000000e-11   
43      2.62064010e-01   -5.95956534e-02  2.90031142e-02   9.90892942e-01   6.31718389e-02   2.00000000e-11   
44      2.64748365e-01   -5.93469977e-02  3.04041794e-02   9.90444318e-01   6.52656353e-02   2.00000000e-11   
45      2.70117074e-01   -5.83574312e-02  3.65601837e-02   9.88666235e-01   7.35717753e-02   2.00000000e-11   
46      2.70721054e-01   -5.81725779e-02  3.78084430e-02   9.88337632e-01   7.51090129e-02   2.00000000e-11   
47      2.71929013e-01   -5.77280720e-02  4.09535205e-02   9.87559234e-01   7.87566869e-02   2.00000000e-11   
48      2.73136973e-01   -5.70521195e-02  4.61227156e-02   9.86424855e-01   8.41011568e-02   2.00000000e-11   
49      2.74344932e-01   -5.56781854e-02  5.80193879e-02   9.84364494e-01   9.39088357e-02   2.00000000e-11   
50      2.74480828e-01   -5.54319481e-02  6.03185040e-02   9.84019952e-01   9.55534575e-02   2.00000000e-11   
51      2.74752619e-01   -5.48534061e-02  6.59335028e-02   9.83239276e-01   9.92699327e-02   2.00000000e-11   
52      2.75024410e-01   -5.40255469e-02  7.44841992e-02   9.82210594e-01   1.04127060e-01   2.00000000e-11   
53      2.75296200e-01   -5.26276173e-02  8.99720536e-02   9.80683858e-01   1.11171407e-01   2.00000000e-11   
54      2.75330174e-01   -5.23789625e-02  9.28301083e-02   9.80432252e-01   1.12309882e-01   2.00000000e-11   
55      2.75398122e-01   -5.18242212e-02  9.92910529e-02   9.79885262e-01   1.14759525e-01   2.00000000e-11   
56      2.75466070e-01   -5.11267890e-02  1.07598392e-01   9.79231910e-01   1.17616187e-01   2.00000000e-11   
57      2.75534018e-01   -5.02078754e-02  1.18765045e-01   9.78418910e-01   1.21044478e-01   2.00000000e-11   
58      2.75601965e-01   -4.89101624e-02  1.34797952e-01   9.77337917e-01   1.25339948e-01   2.00000000e-11   
59      2.75669913e-01   -4.68558776e-02  1.60383861e-01   9.75709038e-01   1.31126349e-01   2.00000000e-11   
60      2.75679659e-01   -4.64529474e-02  1.65401113e-01   9.75394589e-01   1.32152979e-01   2.00000000e-11   
61      2.75689404e-01   -4.60308974e-02  1.70650115e-01   9.75064967e-01   1.33211201e-01   2.00000000e-11   
62      2.75708895e-01   -4.50519123e-02  1.82765677e-01   9.74294641e-01   1.35543717e-01   2.00000000e-11   
63      2.75728386e-01   -4.38415473e-02  1.97603586e-01   9.73320308e-01   1.38229812e-01   2.00000000e-11   
64      2.75747878e-01   -4.23009463e-02  2.16208462e-01   9.72018233e-01   1.41389671e-01   2.00000000e-11   
65      2.75767369e-01   -4.02676786e-02  2.40201654e-01   9.70132432e-01   1.45210551e-01   2.00000000e-11   
66      2.75786860e-01   -3.74606859e-02  2.72178449e-01   9.67044703e-01   1.49999486e-01   2.00000000e-11   
67      2.75806351e-01   -3.33716010e-02  3.16340638e-01   9.60932538e-01   1.56284925e-01   2.00000000e-11   
68      2.75823418e-01   -2.80592573e-02  3.69801834e-01   9.48679795e-01   1.63703291e-01   2.00000000e-11   
69      2.75837184e-01   -2.19651401e-02  4.26465567e-01   9.27662647e-01   1.71647929e-01   2.00000000e-11   
70      2.75848158e-01   -1.55545841e-02  4.81534500e-01   9.00334736e-01   1.79725688e-01   2.00000000e-11   
71      2.75857853e-01   -8.58559228e-03  5.36948763e-01   8.70135011e-01   1.88502166e-01   2.00000000e-11   
72      2.75867548e-01   -4.64905304e-04  5.96847143e-01   8.38102713e-01   1.99091048e-01   2.00000000e-11   
73      2.75877242e-01   8.45076834e-03   6.58528653e-01   8.06435910e-01   2.11659969e-01   2.00000000e-11   
74      2.75886937e-01   1.75201609e-02   7.18868852e-01   7.75800436e-01   2.26222791e-01   2.00000000e-11   
75      2.75896632e-01   2.59623915e-02   7.74830093e-01   7.46299895e-01   2.42600677e-01   2.00000000e-11   
76      2.75906327e-01   3.31107112e-02   8.24042382e-01   7.17915438e-01   2.60440029e-01   2.00000000e-11   
77      2.75915052e-01   3.81465554e-02   8.61500406e-01   6.93292763e-01   2.77377049e-01   2.00000000e-11   
78      2.75923777e-01   4.18548402e-02   8.92347899e-01   6.69514038e-01   2.94791913e-01   2.00000000e-11   
79      2.75932503e-01   4.44160115e-02   9.17081681e-01   6.46550650e-01   3.12389828e-01   2.00000000e-11   
80      2.75941228e-01   4.60817256e-02   9.36525099e-01   6.24374811e-01   3.29941793e-01   2.00000000e-11   
81      2.75949953e-01   4.70966550e-02   9.51599864e-01   6.02959613e-01   3.47285445e-01   2.00000000e-11   
82      2.75958678e-01   4.76594981e-02   9.63180352e-01   5.82279033e-01   3.64313947e-01   2.00000000e-11   
83      2.75967404e-01   4.79146754e-02   9.72024238e-01   5.62307914e-01   3.80961425e-01   2.00000000e-11   
84      2.75976129e-01   4.79597260e-02   9.78753841e-01   5.43021952e-01   3.97189861e-01   2.00000000e-11   
85      2.75984854e-01   4.78572026e-02   9.83863738e-01   5.24397666e-01   4.12979156e-01   2.00000000e-11   
86      2.76002305e-01   4.73550735e-02   9.90778878e-01   4.89033779e-01   4.43212222e-01   2.00000000e-11   
87      2.76019756e-01   4.65512156e-02   9.94710947e-01   4.56055773e-01   4.71656131e-01   2.00000000e-11   
88      2.76037206e-01   4.55036010e-02   9.96949828e-01   4.25302844e-01   4.98344925e-01   2.00000000e-11   
89      2.76054657e-01   4.42270323e-02   9.98228776e-01   3.96625057e-01   5.23330168e-01   2.00000000e-11   
90      2.76072107e-01   4.27240670e-02   9.98962771e-01   3.69882623e-01   5.46669391e-01   2.00000000e-11   
91      2.76089558e-01   4.09959822e-02   9.99386454e-01   3.44945232e-01   5.68422451e-01   2.00000000e-11   
92      2.76107009e-01   3.90466394e-02   9.99632632e-01   3.21691425e-01   5.88650405e-01   2.00000000e-11   
93      2.76124459e-01   3.68837162e-02   9.99776624e-01   3.00008012e-01   6.07415095e-01   2.00000000e-11   
94      2.76141910e-01   3.45188752e-02   9.99861225e-01   2.79789534e-01   6.24778857e-01   2.00000000e-11   
95      2.76159361e-01   3.19674483e-02   9.99910731e-01   2.60937773e-01   6.40804181e-01   2.00000000e-11   
96      2.76176811e-01   2.92478741e-02   9.99938759e-01   2.43361294e-01   6.55553299e-01   2.00000000e-11   
97      2.76194262e-01   2.63810118e-02   9.99952537e-01   2.26975039e-01   6.69087713e-01   2.00000000e-11   
98      2.76211712e-01   2.33894048e-02   9.99955073e-01   2.11699968e-01   6.81467700e-01   2.00000000e-11   
99      2.76229163e-01   2.02965494e-02   9.99945942e-01   1.97462754e-01   6.92751834e-01   2.00000000e-11   
100     2.76264064e-01   1.39069713e-02   9.99865940e-01   1.71808017e-01   7.12282098e-01   2.00000000e-11   
101     2.76298965e-01   7.37953566e-03   9.99590836e-01   1.49570628e-01   7.28067336e-01   2.00000000e-11   
102     2.76333867e-01   8.78466787e-04   9.98745673e-01   1.30371546e-01   7.40476900e-01   2.00000000e-11   
103     2.76368768e-01   -5.47262286e-03  9.96371331e-01   1.13975509e-01   7.49829194e-01   2.00000000e-11   
104     2.76403669e-01   -1.15946426e-02  9.90407692e-01   1.00398713e-01   7.56389304e-01   2.00000000e-11   
105     2.76438570e-01   -1.74396046e-02  9.77300739e-01   9.00245521e-02   7.60372372e-01   2.00000000e-11   
106     2.76473471e-01   -2.29781057e-02  9.52392870e-01   8.33655753e-02   7.61953552e-01   2.00000000e-11   
107     2.76504234e-01   -2.76324905e-02  9.17134184e-01   8.05446138e-02   7.61465353e-01   2.00000000e-11   
108     2.76531345e-01   -3.16615286e-02  8.73757337e-01   7.99491693e-02   7.59623146e-01   2.00000000e-11   
109     2.76555745e-01   -3.53666831e-02  8.23807740e-01   8.05005138e-02   7.56831816e-01   2.00000000e-11   
110     2.76577705e-01   -3.88767723e-02  7.69324015e-01   8.16664574e-02   7.53368231e-01   2.00000000e-11   
111     2.76599664e-01   -4.26298587e-02  7.05385322e-01   8.33888967e-02   7.48952005e-01   2.00000000e-11   
112     2.76619428e-01   -4.62364411e-02  6.39945600e-01   8.54266474e-02   7.44119507e-01   2.00000000e-11   
113     2.76639192e-01   -5.00279303e-02  5.68189973e-01   8.79940446e-02   7.38442907e-01   2.00000000e-11   
114     2.76658956e-01   -5.39177709e-02  4.92509822e-01   9.11986230e-02   7.31912014e-01   2.00000000e-11   
115     2.76678720e-01   -5.77766096e-02  4.16364554e-01   9.51739719e-02   7.24539522e-01   2.00000000e-11   
116     2.76698484e-01   -6.14620949e-02  3.43520776e-01   1.00057646e-01   7.16360222e-01   2.00000000e-11   
117     2.76718248e-01   -6.48542346e-02  2.77130352e-01   1.05965617e-01   7.07428907e-01   2.00000000e-11   
118     2.76736035e-01   -6.75940541e-02  2.24547149e-01   1.12219606e-01   6.98806160e-01   2.00000000e-11   
119     2.76752044e-01   -6.97867867e-02  1.83581072e-01   1.18623145e-01   6.90625723e-01   2.00000000e-11   
120     2.76768052e-01   -7.17242033e-02  1.48604850e-01   1.25747676e-01   6.82100216e-01   2.00000000e-11   
121     2.76784061e-01   -7.34219640e-02  1.19258532e-01   1.33559777e-01   6.73281139e-01   2.00000000e-11   
122     2.76800070e-01   -7.49021824e-02  9.49964133e-02   1.42011098e-01   6.64219062e-01   2.00000000e-11   
123     2.76816079e-01   -7.61894358e-02  7.51860952e-02   1.51043534e-01   6.54961914e-01   2.00000000e-11   
124     2.76832087e-01   -7.73081284e-02  5.91801622e-02   1.60593817e-01   6.45553878e-01   2.00000000e-11   
125     2.76848096e-01   -7.82809856e-02  4.63627217e-02   1.70597171e-01   6.36034840e-01   2.00000000e-11   
126     2.76864105e-01   -7.91283516e-02  3.61758550e-02   1.80989969e-01   6.26440243e-01   2.00000000e-11   
127     2.76880114e-01   -7.98679967e-02  2.81315239e-02   1.91711503e-01   6.16801215e-01   2.00000000e-11   
128     2.76896122e-01   -8.05152083e-02  2.18138142e-02   2.02705046e-01   6.07144857e-01   2.00000000e-11   
129     2.76912131e-01   -8.10830210e-02  1.68753262e-02   2.13918411e-01   5.97494608e-01   2.00000000e-11   
130     2.76928140e-01   -8.15824968e-02  1.30304444e-02   2.25304141e-01   5.87870638e-01   2.00000000e-11   
131     2.76960157e-01   -8.24159621e-02  7.67417095e-03   2.48410554e-01   5.68773960e-01   2.00000000e-11   
132     2.77024192e-01   -8.36045116e-02  2.43843457e-03   2.95039847e-01   5.31519049e-01   2.00000000e-11   
133     2.77088227e-01   -8.43554411e-02  8.10457590e-04   3.41119113e-01   4.95873602e-01   2.00000000e-11   
134     2.77152262e-01   -8.48401227e-02  3.14604275e-04   3.85644060e-01   4.62116250e-01   2.00000000e-11   
135     2.77216297e-01   -8.51553257e-02  1.63081399e-04   4.28065018e-01   4.30351072e-01   2.00000000e-11   
136     2.77280331e-01   -8.53584766e-02  1.15197302e-04   4.68112806e-01   4.00584244e-01   2.00000000e-11   
137     2.77344366e-01   -8.54852206e-02  9.89093320e-05   5.05689480e-01   3.72767103e-01   2.00000000e-11   
138     2.77408401e-01   -8.55585674e-02  9.27348048e-05   5.40800803e-01   3.46820853e-01   2.00000000e-11   
139     2.77472436e-01   -8.55938744e-02  9.01589648e-05   5.73514334e-01   3.22651080e-01   2.00000000e-11   
140     2.77536471e-01   -8.56016779e-02  8.91059208e-05   6.03933216e-01   3.00156422e-01   2.00000000e-11   
141     2.77600506e-01   -8.55893788e-02  8.88441013e-05   6.32179580e-01   2.79233830e-01   2.00000000e-11   
142     2.77664541e-01   -8.55622652e-02  8.90705304e-05   6.58384132e-01   2.59781716e-01   2.00000000e-11   
143     2.77728576e-01   -8.55241726e-02  8.96333085e-05   6.82679520e-01   2.41701844e-01   2.00000000e-11   
144     2.77792610e-01   -8.54779142e-02  9.04426275e-05   7.05196213e-01   2.24900411e-01   2.00000000e-11   
145     2.77856645e-01   -8.54255713e-02  9.14392806e-05   7.26060009e-01   2.09288606e-01   2.00000000e-11   
146     2.77920680e-01   -8.53686945e-02  9.25817470e-05   7.45390589e-01   1.94782851e-01   2.00000000e-11   
147     2.77984715e-01   -8.53084445e-02  9.38399089e-05   7.63300781e-01   1.81304822e-01   2.00000000e-11   
148     2.78048750e-01   -8.52456938e-02  9.51914958e-05   7.79896261e-01   1.68781343e-01   2.00000000e-11   
149     2.78112785e-01   -8.51811005e-02  9.66198477e-05   7.95275556e-01   1.57144202e-01   2.00000000e-11   
150     2.78176820e-01   -8.51151615e-02  9.81124088e-05   8.09530218e-01   1.46329912e-01   2.00000000e-11   
151     2.78240855e-01   -8.50482531e-02  9.96596710e-05   8.22745121e-01   1.36279459e-01   2.00000000e-11   
152     2.78368924e-01   -8.49126920e-02  1.02888831e-04   8.46396497e-01   1.18231849e-01   2.00000000e-11   
153     2.78496994e-01   -8.47758357e-02  1.06271277e-04   8.66747455e-01   1.02637562e-01   2.00000000e-11   
154     2.78625064e-01   -8.46385981e-02  1.09783838e-04   8.84276661e-01   8.91572418e-02   2.00000000e-11   
155     2.78753134e-01   -8.45015061e-02  1.13413448e-04   8.99391533e-01   7.74990848e-02   2.00000000e-11   
156     2.78881203e-01   -8.43648633e-02  1.17152964e-04   9.12438753e-01   6.74122249e-02   2.00000000e-11   
157     2.79009273e-01   -8.42288439e-02  1.20998779e-04   9.23713416e-01   5.86809624e-02   2.00000000e-11   
158     2.79137343e-01   -8.40935472e-02  1.24949405e-04   9.33466886e-01   5.11197806e-02   2.00000000e-11   
159     2.79265413e-01   -8.39590286e-02  1.29004626e-04   9.41913461e-01   4.45690588e-02   2.00000000e-11   
160     2.79521552e-01   -8.36924372e-02  1.37431596e-04   9.55654363e-01   3.39203400e-02   2.00000000e-11   
161     2.79777692e-01   -8.34291585e-02  1.46288384e-04   9.66007693e-01   2.59207260e-02   2.00000000e-11   
162     2.80033831e-01   -8.31692024e-02  1.55587344e-04   9.73840872e-01   1.99025933e-02   2.00000000e-11   
163     2.80289971e-01   -8.29125446e-02  1.65341432e-04   9.79791188e-01   1.53696327e-02   2.00000000e-11   
164     2.80546110e-01   -8.26591494e-02  1.75564274e-04   9.84328902e-01   1.19521359e-02   2.00000000e-11   
165     2.81058389e-01   -8.21619686e-02  1.97473090e-04   9.90560396e-01   7.35947132e-03   2.00000000e-11   
166     2.82082947e-01   -8.12048549e-02  2.47529412e-04   9.96681164e-01   3.13547515e-03   2.00000000e-11   
167     2.83107505e-01   -8.02955471e-02  3.06600289e-04   9.98736850e-01   2.02292220e-03   2.00000000e-11   
168     2.84132063e-01   -7.94316577e-02  3.75521445e-04   9.99469246e-01   1.86213155e-03   2.00000000e-11   
169     2.85156621e-01   -7.86109178e-02  4.55042506e-04   9.99740424e-01   2.01813528e-03   2.00000000e-11   
170     2.87205737e-01   -7.70894230e-02  6.48677096e-04   9.99888427e-01   2.63294076e-03   2.00000000e-11   
171     2.89254853e-01   -7.57162102e-02  8.91562737e-04   9.99869652e-01   3.44817036e-03   2.00000000e-11   
172     2.93353085e-01   -7.33525642e-02  1.53379728e-03   9.99765788e-01   5.46478391e-03   2.00000000e-11   
173     3.01549549e-01   -6.98296473e-02  3.39405150e-03   9.99404909e-01   1.07188580e-02   2.00000000e-11   
174     3.09746013e-01   -6.74979967e-02  5.67602077e-03   9.98880588e-01   1.66506706e-02   2.00000000e-11   
175     3.26138941e-01   -6.48041028e-02  1.01209321e-02   9.97650211e-01   2.71649584e-02   2.00000000e-11   
176     3.42531869e-01   -6.35440700e-02  1.31827394e-02   9.96609585e-01   3.40773816e-02   2.00000000e-11   
177     3.58924797e-01   -6.28657477e-02  1.51571448e-02   9.95910796e-01   3.81924522e-02   2.00000000e-11   
178     3.75317725e-01   -6.24466643e-02  1.65174003e-02   9.95406192e-01   4.10340426e-02   2.00000000e-11   
