Index       TIME             V(IN0)            V(OUT)      
0        0.00000000e+00   -6.50000000e-02   -6.50000000e-02
1        5.00000000e-05   -6.09535593e-02   -6.59766797e-02
2        1.00000000e-04   -5.92827404e-02   -6.63796943e-02
3        1.50000000e-04   -5.80129835e-02   -6.66851584e-02
4        2.00000000e-04   -5.69488333e-02   -6.69394704e-02
5        2.50000000e-04   -5.60078595e-02   -6.71615855e-02
6        3.00000000e-04   -5.51465593e-02   -6.73609469e-02
7        3.50000000e-04   -5.43375232e-02   -6.75430149e-02
8        4.00000000e-04   -5.35610293e-02   -6.77112937e-02
9        4.50000000e-04   -5.28014060e-02   -6.78681896e-02
10       5.00000000e-04   -5.20450951e-02   -6.80154423e-02
11       5.50000000e-04   -5.12794842e-02   -6.81543535e-02
12       6.00000000e-04   -5.04919782e-02   -6.82859357e-02
13       6.50000000e-04   -4.96692463e-02   -6.84109907e-02
14       7.00000000e-04   -4.87963727e-02   -6.85301729e-02
15       7.50000000e-04   -4.78559069e-02   -6.86440217e-02
16       8.00000000e-04   -4.68265981e-02   -6.87529928e-02
17       8.50000000e-04   -4.56817336e-02   -6.88574723e-02
18       9.00000000e-04   -4.43867168e-02   -6.89577948e-02
19       9.50000000e-04   -4.28956519e-02   -6.90542486e-02
20       1.00000000e-03   -4.11462677e-02   -6.91470889e-02
21       1.05000000e-03   -3.90524904e-02   -6.92365373e-02
22       1.10000000e-03   -3.64935361e-02   -6.93227929e-02
23       1.15000000e-03   -3.32987174e-02   -6.94060292e-02
24       1.20000000e-03   -2.92285716e-02   -6.94864042e-02
25       1.25000000e-03   -2.39598493e-02   -6.95640552e-02
26       1.30000000e-03   -1.71018160e-02   -6.96391084e-02
27       1.35000000e-03   -8.31396251e-03   -6.97116730e-02
28       1.40000000e-03    2.37887296e-03   -6.97818505e-02
29       1.45000000e-03    1.41393246e-02   -6.98497278e-02
30       1.50000000e-03    2.52355426e-02   -6.99153862e-02
31       1.55000000e-03    3.38442161e-02   -6.99788947e-02
32       1.60000000e-03    3.91781071e-02   -7.00403180e-02
33       1.65000000e-03    4.16926828e-02   -7.00997102e-02
34       1.70000000e-03    4.23362930e-02   -7.01571217e-02
35       1.75000000e-03    4.18818920e-02   -7.02125934e-02
36       1.80000000e-03    4.07822083e-02   -7.02661628e-02
37       1.85000000e-03    3.92736461e-02   -7.03178577e-02
38       1.90000000e-03    3.74820412e-02   -7.03677021e-02
39       1.95000000e-03    3.54808709e-02   -7.04157093e-02
40       2.00000000e-03    3.33185248e-02   -7.04618860e-02
41       2.05000000e-03    3.10306538e-02   -7.05062253e-02
42       2.10000000e-03    2.86458194e-02   -7.05487083e-02
43       2.15000000e-03    2.61880515e-02   -7.05892947e-02
44       2.20000000e-03    2.36780650e-02   -7.06279223e-02
45       2.25000000e-03    2.11338121e-02   -7.06644931e-02
46       2.30000000e-03    1.85708162e-02   -7.06988684e-02
47       2.35000000e-03    1.60023566e-02   -7.07308494e-02
48       2.40000000e-03    1.34396669e-02   -7.07601645e-02
49       2.45000000e-03    1.08920826e-02   -7.07864415e-02
50       2.50000000e-03    8.36723892e-03   -7.08091833e-02
51       2.55000000e-03    5.87122471e-03   -7.08277262e-02
52       2.60000000e-03    3.40878251e-03   -7.08411976e-02
53       2.65000000e-03    9.83456517e-04   -7.08484507e-02
54       2.70000000e-03   -1.40222205e-03   -7.08479944e-02
55       2.75000000e-03   -3.74661025e-03   -7.08378907e-02
56       2.80000000e-03   -6.04879882e-03   -7.08156377e-02
57       2.85000000e-03   -8.30852541e-03   -7.07780090e-02
58       2.90000000e-03   -1.05260645e-02   -7.07208626e-02
59       2.95000000e-03   -1.27021921e-02   -7.06388871e-02
60       3.00000000e-03   -1.48381334e-02   -7.05252954e-02
61       3.05000000e-03   -1.69355909e-02   -7.03714258e-02
62       3.10000000e-03   -1.89967583e-02   -7.01662557e-02
63       3.15000000e-03   -2.10244170e-02   -6.98957800e-02
64       3.20000000e-03   -2.30220131e-02   -6.95422486e-02
65       3.25000000e-03   -2.49938078e-02   -6.90832035e-02
66       3.30000000e-03   -2.69449922e-02   -6.84902932e-02
67       3.35000000e-03   -2.88818520e-02   -6.77277816e-02
68       3.40000000e-03   -3.08118637e-02   -6.67506969e-02
69       3.45000000e-03   -3.27438014e-02   -6.55024759e-02
70       3.50000000e-03   -3.46877182e-02   -6.39119401e-02
71       3.55000000e-03   -3.66548584e-02   -6.18892304e-02
72       3.60000000e-03   -3.86573277e-02   -5.93200432e-02
73       3.65000000e-03   -4.07075227e-02   -5.60566903e-02
74       3.70000000e-03   -4.28170699e-02   -5.19028612e-02
75       3.75000000e-03   -4.49952059e-02   -4.65854412e-02
76       3.80000000e-03   -4.72463209e-02   -3.97017600e-02
77       3.85000000e-03   -4.95667192e-02   -3.06361430e-02
78       3.90000000e-03   -5.19407494e-02   -1.85286914e-02
79       3.95000000e-03   -5.43372630e-02   -2.73438464e-03
80       4.00000000e-03   -5.67079135e-02    1.55502847e-02
81       4.05000000e-03   -5.89895143e-02    3.18960246e-02
82       4.10000000e-03   -6.11155811e-02    4.16738075e-02
83       4.15000000e-03   -6.30121824e-02    4.47200445e-02
84       4.20000000e-03   -6.46403636e-02    4.48947017e-02
85       4.25000000e-03   -6.59826674e-02    4.42568544e-02
86       4.30000000e-03   -6.70485166e-02    4.33048778e-02
87       4.35000000e-03   -6.78675292e-02    4.21203702e-02
88       4.40000000e-03   -6.84798207e-02    4.07296163e-02
89       4.45000000e-03   -6.89177214e-02    3.91379497e-02
90       4.50000000e-03   -6.92310563e-02    3.73752521e-02
91       4.55000000e-03   -6.94519898e-02    3.54620167e-02
92       4.60000000e-03   -6.96034227e-02    3.34163256e-02
93       4.65000000e-03   -6.97025830e-02    3.12562808e-02
94       4.70000000e-03   -6.97622457e-02    2.89997175e-02
95       4.75000000e-03   -6.97918303e-02    2.66637660e-02
96       4.80000000e-03   -6.97982794e-02    2.42645469e-02
97       4.85000000e-03   -6.97867599e-02    2.18169546e-02
98       4.90000000e-03   -6.97602843e-02    1.93327938e-02
99       4.95000000e-03   -6.97227645e-02    1.68270231e-02
100      5.00000000e-03   -6.96765167e-02    1.43103972e-02
101      5.05000000e-03   -6.96231776e-02    1.17916821e-02
102      5.10000000e-03   -6.95640165e-02    9.27825679e-03
103      5.15000000e-03   -6.95000372e-02    6.77620594e-03
104      5.20000000e-03   -6.94320390e-02    4.29041613e-03
105      5.25000000e-03   -6.93606523e-02    1.82467735e-03
106      5.30000000e-03   -6.92863985e-02   -6.18207213e-04
107      5.35000000e-03   -6.92095213e-02   -3.03440353e-03
108      5.40000000e-03   -6.91305351e-02   -5.42425852e-03
109      5.45000000e-03   -6.90497323e-02   -7.78797453e-03
110      5.50000000e-03   -6.89673375e-02   -1.01260229e-02
111      5.55000000e-03   -6.88835263e-02   -1.24395539e-02
112      5.60000000e-03   -6.87984490e-02   -1.47304300e-02
113      5.65000000e-03   -6.87122328e-02   -1.70013191e-02
114      5.70000000e-03   -6.86249765e-02   -1.92558557e-02
115      5.75000000e-03   -6.85367776e-02   -2.14988746e-02
116      5.80000000e-03   -6.84476388e-02   -2.37370031e-02
117      5.85000000e-03   -6.83576914e-02   -2.59800556e-02
118      5.90000000e-03   -6.82669922e-02   -2.82397387e-02
119      5.95000000e-03   -6.81755939e-02   -3.05311327e-02
120      6.00000000e-03   -6.80835325e-02   -3.28736029e-02
121      6.05000000e-03   -6.79908434e-02   -3.52916768e-02
122      6.10000000e-03   -6.78975600e-02   -3.78158246e-02
123      6.15000000e-03   -6.78037039e-02   -4.04827997e-02
124      6.20000000e-03   -6.77093085e-02   -4.33348321e-02
125      6.25000000e-03   -6.76143472e-02   -4.64364418e-02
126      6.30000000e-03   -6.75188839e-02   -4.98134835e-02
127      6.35000000e-03   -6.74229356e-02   -5.34696382e-02
128      6.40000000e-03   -6.73265260e-02   -5.73572784e-02
129      6.45000000e-03   -6.72296673e-02   -6.13444011e-02
130      6.50000000e-03   -6.71323750e-02   -6.52055662e-02
131      6.55000000e-03   -6.70346656e-02   -6.86625231e-02
132      6.60000000e-03   -6.69365473e-02   -7.14782720e-02
133      6.65000000e-03   -6.68380415e-02   -7.35518024e-02
134      6.70000000e-03   -6.67391224e-02   -7.49016459e-02
135      6.75000000e-03   -6.66398368e-02   -7.57409875e-02
136      6.80000000e-03   -6.65401930e-02   -7.62456352e-02
137      6.85000000e-03   -6.64402093e-02   -7.65421846e-02
138      6.90000000e-03   -6.63398935e-02   -7.67149254e-02
139      6.95000000e-03   -6.62392484e-02   -7.68146250e-02
140      7.00000000e-03   -6.61382993e-02   -7.68738479e-02
141      7.05000000e-03   -6.60370485e-02   -7.69086817e-02
142      7.10000000e-03   -6.59355091e-02   -7.69293540e-02
143      7.15000000e-03   -6.58336900e-02   -7.69416830e-02
144      7.20000000e-03   -6.57316044e-02   -7.69490161e-02
145      7.25000000e-03   -6.56292608e-02   -7.69533073e-02
146      7.30000000e-03   -6.55266722e-02   -7.69557131e-02
147      7.35000000e-03   -6.54238471e-02   -7.69569301e-02
148      7.40000000e-03   -6.53207983e-02   -7.69573824e-02
149      7.45000000e-03   -6.52175342e-02   -7.69573340e-02
150      7.50000000e-03   -6.51140675e-02   -7.69569494e-02
151      7.55000000e-03   -6.50104065e-02   -7.69563344e-02
152      7.60000000e-03   -6.49065637e-02   -7.69555562e-02
153      7.65000000e-03   -6.48025472e-02   -7.69546596e-02
154      7.70000000e-03   -6.46983696e-02   -7.69536732e-02
155      7.75000000e-03   -6.45940388e-02   -7.69526167e-02
156      7.80000000e-03   -6.44895671e-02   -7.69515027e-02
157      7.85000000e-03   -6.43849625e-02   -7.69503403e-02
158      7.90000000e-03   -6.42802369e-02   -7.69491349e-02
159      7.95000000e-03   -6.41753983e-02   -7.69478910e-02
160      8.00000000e-03   -6.40704584e-02   -7.69466106e-02
161      8.05000000e-03   -6.39654248e-02   -7.69452960e-02
162      8.10000000e-03   -6.38603093e-02   -7.69439479e-02
163      8.15000000e-03   -6.37551191e-02   -7.69425673e-02
164      8.20000000e-03   -6.36498659e-02   -7.69411540e-02
165      8.25000000e-03   -6.35445566e-02   -7.69397087e-02
166      8.30000000e-03   -6.34392024e-02   -7.69382307e-02
167      8.35000000e-03   -6.33338103e-02   -7.69367204e-02
168      8.40000000e-03   -6.32283911e-02   -7.69351770e-02
169      8.45000000e-03   -6.31229514e-02   -7.69336006e-02
170      8.50000000e-03   -6.30175018e-02   -7.69319902e-02
171      8.55000000e-03   -6.29120484e-02   -7.69303459e-02
172      8.60000000e-03   -6.28066016e-02   -7.69286666e-02
173      8.65000000e-03   -6.27011671e-02   -7.69269523e-02
174      8.70000000e-03   -6.25957549e-02   -7.69252020e-02
175      8.75000000e-03   -6.24903705e-02   -7.69234155e-02
176      8.80000000e-03   -6.23850233e-02   -7.69215918e-02
177      8.85000000e-03   -6.22797184e-02   -7.69197305e-02
178      8.90000000e-03   -6.21744648e-02   -7.69178307e-02
179      8.95000000e-03   -6.20692673e-02   -7.69158920e-02
180      9.00000000e-03   -6.19641343e-02   -7.69139133e-02
181      9.05000000e-03   -6.18590702e-02   -7.69118944e-02
182      9.10000000e-03   -6.17540829e-02   -7.69098340e-02
183      9.15000000e-03   -6.16491763e-02   -7.69077317e-02
184      9.20000000e-03   -6.15443580e-02   -7.69055864e-02
185      9.25000000e-03   -6.14396311e-02   -7.69033976e-02
186      9.30000000e-03   -6.13350029e-02   -7.69011641e-02
187      9.35000000e-03   -6.12304759e-02   -7.68988855e-02
188      9.40000000e-03   -6.11260568e-02   -7.68965603e-02
189      9.45000000e-03   -6.10217477e-02   -7.68941882e-02
190      9.50000000e-03   -6.09175547e-02   -7.68917677e-02
191      9.55000000e-03   -6.08134792e-02   -7.68892983e-02
192      9.60000000e-03   -6.07095269e-02   -7.68867785e-02
193      9.65000000e-03   -6.06056986e-02   -7.68842079e-02
194      9.70000000e-03   -6.05019993e-02   -7.68815848e-02
195      9.75000000e-03   -6.03984293e-02   -7.68789087e-02
196      9.80000000e-03   -6.02949929e-02   -7.68761780e-02
197      9.85000000e-03   -6.01916898e-02   -7.68733920e-02
198      9.90000000e-03   -6.00885238e-02   -7.68705490e-02
199      9.95000000e-03   -5.99854940e-02   -7.68676484e-02
200      1.00000000e-02   -5.98826033e-02   -7.68646884e-02
201      1.00500000e-02   -5.97798502e-02   -7.68616683e-02
202      1.01000000e-02   -5.96772372e-02   -7.68585862e-02
203      1.01500000e-02   -5.95747619e-02   -7.68554414e-02
204      1.02000000e-02   -5.94724261e-02   -7.68522320e-02
205      1.02500000e-02   -5.93702270e-02   -7.68489571e-02
206      1.03000000e-02   -5.92681655e-02   -7.68456148e-02
207      1.03500000e-02   -5.91662380e-02   -7.68422042e-02
208      1.04000000e-02   -5.90644448e-02   -7.68387232e-02
209      1.04500000e-02   -5.89627816e-02   -7.68351709e-02
210      1.05000000e-02   -5.88612481e-02   -7.68315452e-02
211      1.05500000e-02   -5.87598391e-02   -7.68278451e-02
212      1.06000000e-02   -5.86585535e-02   -7.68240685e-02
213      1.06500000e-02   -5.85573855e-02   -7.68202142e-02
214      1.07000000e-02   -5.84563332e-02   -7.68162801e-02
215      1.07500000e-02   -5.83553899e-02   -7.68122650e-02
216      1.08000000e-02   -5.82545529e-02   -7.68081666e-02
217      1.08500000e-02   -5.81538149e-02   -7.68039839e-02
218      1.09000000e-02   -5.80531722e-02   -7.67997144e-02
219      1.09500000e-02   -5.79526166e-02   -7.67953570e-02
220      1.10000000e-02   -5.78521438e-02   -7.67909092e-02
221      1.10500000e-02   -5.77517445e-02   -7.67863699e-02
222      1.11000000e-02   -5.76514136e-02   -7.67817365e-02
223      1.11500000e-02   -5.75511408e-02   -7.67770078e-02
224      1.12000000e-02   -5.74509201e-02   -7.67721813e-02
225      1.12500000e-02   -5.73507404e-02   -7.67672557e-02
226      1.13000000e-02   -5.72505944e-02   -7.67622284e-02
227      1.13500000e-02   -5.71504701e-02   -7.67570981e-02
228      1.14000000e-02   -5.70503592e-02   -7.67518623e-02
229      1.14500000e-02   -5.69502486e-02   -7.67465195e-02
230      1.15000000e-02   -5.68501289e-02   -7.67410673e-02
231      1.15500000e-02   -5.67499857e-02   -7.67355040e-02
232      1.16000000e-02   -5.66498086e-02   -7.67298273e-02
233      1.16500000e-02   -5.65495818e-02   -7.67240356e-02
234      1.17000000e-02   -5.64492936e-02   -7.67181264e-02
235      1.17500000e-02   -5.63489269e-02   -7.67120981e-02
236      1.18000000e-02   -5.62484685e-02   -7.67059483e-02
237      1.18500000e-02   -5.61478999e-02   -7.66996753e-02
238      1.19000000e-02   -5.60472063e-02   -7.66932768e-02
239      1.19500000e-02   -5.59463676e-02   -7.66867510e-02
240      1.20000000e-02   -5.58453672e-02   -7.66800956e-02
241      1.20500000e-02   -5.57441834e-02   -7.66733089e-02
242      1.21000000e-02   -5.56427976e-02   -7.66663886e-02
243      1.21500000e-02   -5.55411860e-02   -7.66593329e-02
244      1.22000000e-02   -5.54393281e-02   -7.66521396e-02
245      1.22500000e-02   -5.53371977e-02   -7.66448070e-02
246      1.23000000e-02   -5.52347720e-02   -7.66373327e-02
247      1.23500000e-02   -5.51320223e-02   -7.66297152e-02
248      1.24000000e-02   -5.50289232e-02   -7.66219521e-02
249      1.24500000e-02   -5.49254431e-02   -7.66140419e-02
250      1.25000000e-02   -5.48215535e-02   -7.66059823e-02
251      1.25500000e-02   -5.47172197e-02   -7.65977718e-02
252      1.26000000e-02   -5.46124096e-02   -7.65894080e-02
253      1.26500000e-02   -5.45070849e-02   -7.65808896e-02
254      1.27000000e-02   -5.44012097e-02   -7.65722143e-02
255      1.27500000e-02   -5.42947415e-02   -7.65633808e-02
256      1.28000000e-02   -5.41876398e-02   -7.65543866e-02
257      1.28500000e-02   -5.40798571e-02   -7.65452308e-02
258      1.29000000e-02   -5.39713477e-02   -7.65359108e-02
259      1.29500000e-02   -5.38620585e-02   -7.65264257e-02
260      1.30000000e-02   -5.37519375e-02   -7.65167731e-02
261      1.30500000e-02   -5.36409251e-02   -7.65069521e-02
262      1.31000000e-02   -5.35289621e-02   -7.64969603e-02
263      1.31500000e-02   -5.34159808e-02   -7.64867968e-02
264      1.32000000e-02   -5.33019137e-02   -7.64764595e-02
265      1.32500000e-02   -5.31866842e-02   -7.64659474e-02
266      1.33000000e-02   -5.30702148e-02   -7.64552584e-02
267      1.33500000e-02   -5.29524177e-02   -7.64443918e-02
268      1.34000000e-02   -5.28332032e-02   -7.64333454e-02
269      1.34500000e-02   -5.27124707e-02   -7.64221185e-02
270      1.35000000e-02   -5.25901165e-02   -7.64107092e-02
271      1.35500000e-02   -5.24660239e-02   -7.63991166e-02
272      1.36000000e-02   -5.23400719e-02   -7.63873391e-02
273      1.36500000e-02   -5.22121246e-02   -7.63753758e-02
274      1.37000000e-02   -5.20820399e-02   -7.63632250e-02
275      1.37500000e-02   -5.19496588e-02   -7.63508861e-02
276      1.38000000e-02   -5.18148135e-02   -7.63383573e-02
277      1.38500000e-02   -5.16773162e-02   -7.63256382e-02
278      1.39000000e-02   -5.15369671e-02   -7.63127271e-02
279      1.39500000e-02   -5.13935429e-02   -7.62996235e-02
280      1.40000000e-02   -5.12468040e-02   -7.62863258e-02
281      1.40500000e-02   -5.10964827e-02   -7.62728336e-02
282      1.41000000e-02   -5.09422896e-02   -7.62591455e-02
283      1.41500000e-02   -5.07839010e-02   -7.62452609e-02
284      1.42000000e-02   -5.06209638e-02   -7.62311785e-02
285      1.42500000e-02   -5.04530827e-02   -7.62168980e-02
286      1.43000000e-02   -5.02798234e-02   -7.62024179e-02
287      1.43500000e-02   -5.01006979e-02   -7.61877380e-02
288      1.44000000e-02   -4.99151665e-02   -7.61728570e-02
289      1.44500000e-02   -4.97226204e-02   -7.61577745e-02
290      1.45000000e-02   -4.95223812e-02   -7.61424894e-02
291      1.45500000e-02   -4.93136802e-02   -7.61270013e-02
292      1.46000000e-02   -4.90956539e-02   -7.61113091e-02
293      1.46500000e-02   -4.88673193e-02   -7.60954125e-02
294      1.47000000e-02   -4.86275626e-02   -7.60793103e-02
295      1.47500000e-02   -4.83751079e-02   -7.60630023e-02
296      1.48000000e-02   -4.81084976e-02   -7.60464872e-02
297      1.48500000e-02   -4.78260494e-02   -7.60297650e-02
298      1.49000000e-02   -4.75258237e-02   -7.60128342e-02
299      1.49500000e-02   -4.72055636e-02   -7.59956948e-02
300      1.50000000e-02   -4.68626410e-02   -7.59783454e-02
301      1.50500000e-02   -4.64939695e-02   -7.59607858e-02
302      1.51000000e-02   -4.60959157e-02   -7.59430147e-02
303      1.51500000e-02   -4.56641669e-02   -7.59250318e-02
304      1.52000000e-02   -4.51935893e-02   -7.59068357e-02
305      1.52500000e-02   -4.46780169e-02   -7.58884259e-02
306      1.53000000e-02   -4.41100135e-02   -7.58698010e-02
307      1.53500000e-02   -4.34805426e-02   -7.58509604e-02
308      1.54000000e-02   -4.27785614e-02   -7.58319025e-02
309      1.54500000e-02   -4.19904649e-02   -7.58126267e-02
310      1.55000000e-02   -4.10994186e-02   -7.57931310e-02
311      1.55500000e-02   -4.00844422e-02   -7.57734146e-02
312      1.56000000e-02   -3.89192697e-02   -7.57534753e-02
313      1.56500000e-02   -3.75709006e-02   -7.57333120e-02
314      1.57000000e-02   -3.59978929e-02   -7.57129222e-02
315      1.57500000e-02   -3.41483854e-02   -7.56923043e-02
316      1.58000000e-02   -3.19581923e-02   -7.56714556e-02
317      1.58500000e-02   -2.93497090e-02   -7.56503739e-02
318      1.59000000e-02   -2.62332031e-02   -7.56290558e-02
319      1.59500000e-02   -2.25134500e-02   -7.56074986e-02
320      1.60000000e-02   -1.81065900e-02   -7.55856981e-02
321      1.60500000e-02   -1.29730246e-02   -7.55636509e-02
322      1.61000000e-02   -7.16846826e-03   -7.55413517e-02
323      1.61500000e-02   -9.00722979e-04   -7.55187958e-02
324      1.62000000e-02    5.44391519e-03   -7.54959768e-02
325      1.62500000e-02    1.13501383e-02   -7.54728883e-02
326      1.63000000e-02    1.63067348e-02   -7.54495220e-02
327      1.63500000e-02    1.99604954e-02   -7.54258695e-02
328      1.64000000e-02    2.21992269e-02   -7.54019196e-02
329      1.64500000e-02    2.31266126e-02   -7.53776607e-02
330      1.65000000e-02    2.29700019e-02   -7.53530777e-02
331      1.65500000e-02    2.19873225e-02   -7.53281540e-02
