Index       TIME              V(A)              V(B)       
0        0.00000000e+00   -6.50000000e-02   -6.50000000e-02
1        5.00000000e-05   -5.99287887e-02   -6.50000000e-02
2        1.00000000e-04   -5.78213811e-02   -6.50000000e-02
3        1.50000000e-04   -5.62173133e-02   -6.50000000e-02
4        2.00000000e-04   -5.48850042e-02   -6.50000000e-02
5        2.50000000e-04   -5.36919800e-02   -6.50000000e-02
6        3.00000000e-04   -5.26514192e-02   -6.50000000e-02
7        3.50000000e-04   -5.16108584e-02   -6.50000000e-02
8        4.00000000e-04   -5.06876163e-02   -6.49999999e-02
9        4.50000000e-04   -4.98385473e-02   -6.49999997e-02
10       5.00000000e-04   -4.89894783e-02   -6.49999996e-02
11       5.50000000e-04   -4.82367218e-02   -6.49999986e-02
12       6.00000000e-04   -4.74991414e-02   -6.49999975e-02
13       6.50000000e-04   -4.67704629e-02   -6.49999958e-02
14       7.00000000e-04   -4.61102246e-02   -6.49999899e-02
15       7.50000000e-04   -4.54499863e-02   -6.49999839e-02
16       8.00000000e-04   -4.48109072e-02   -6.49999715e-02
17       8.50000000e-04   -4.42084307e-02   -6.49999481e-02
18       9.00000000e-04   -4.36059542e-02   -6.49999247e-02
19       9.50000000e-04   -4.30420360e-02   -6.49998155e-02
20       1.00000000e-03   -4.25019980e-02   -6.49996532e-02
21       1.05000000e-03   -4.19619600e-02   -6.49994909e-02
22       1.10000000e-03   -4.14219220e-02   -6.49993287e-02
23       1.15000000e-03   -4.08818841e-02   -6.49991664e-02
24       1.20000000e-03   -4.03494601e-02   -6.49989428e-02
25       1.25000000e-03   -3.98728820e-02   -6.49982695e-02
26       1.30000000e-03   -3.93963039e-02   -6.49975962e-02
27       1.35000000e-03   -3.89197257e-02   -6.49969229e-02
28       1.40000000e-03   -3.84431476e-02   -6.49962496e-02
29       1.45000000e-03   -3.79665695e-02   -6.49955763e-02
30       1.50000000e-03   -3.75186258e-02   -6.49941599e-02
31       1.55000000e-03   -3.70880525e-02   -6.49922927e-02
32       1.60000000e-03   -3.66574791e-02   -6.49904255e-02
33       1.65000000e-03   -3.62269057e-02   -6.49885583e-02
34       1.70000000e-03   -3.57963323e-02   -6.49866911e-02
35       1.75000000e-03   -3.53701977e-02   -6.49845583e-02
36       1.80000000e-03   -3.49751728e-02   -6.49805636e-02
37       1.85000000e-03   -3.45801478e-02   -6.49765689e-02
38       1.90000000e-03   -3.41851229e-02   -6.49725743e-02
39       1.95000000e-03   -3.37900979e-02   -6.49685796e-02
40       2.00000000e-03   -3.33950729e-02   -6.49645849e-02
41       2.05000000e-03   -3.30179965e-02   -6.49586224e-02
42       2.10000000e-03   -3.26515836e-02   -6.49514909e-02
43       2.15000000e-03   -3.22851707e-02   -6.49443593e-02
44       2.20000000e-03   -3.19187578e-02   -6.49372277e-02
45       2.25000000e-03   -3.15523449e-02   -6.49300962e-02
46       2.30000000e-03   -3.11890094e-02   -6.49224390e-02
47       2.35000000e-03   -3.08463149e-02   -6.49112563e-02
48       2.40000000e-03   -3.05036204e-02   -6.49000736e-02
49       2.45000000e-03   -3.01609260e-02   -6.48888910e-02
50       2.50000000e-03   -2.98182315e-02   -6.48777083e-02
51       2.55000000e-03   -2.94755370e-02   -6.48665257e-02
52       2.60000000e-03   -2.91455501e-02   -6.48523263e-02
53       2.65000000e-03   -2.88229566e-02   -6.48363718e-02
54       2.70000000e-03   -2.85003630e-02   -6.48204173e-02
55       2.75000000e-03   -2.81777694e-02   -6.48044628e-02
56       2.80000000e-03   -2.78551758e-02   -6.47885083e-02
57       2.85000000e-03   -2.75358836e-02   -6.47714674e-02
58       2.90000000e-03   -2.72378109e-02   -6.47474436e-02
59       2.95000000e-03   -2.69397383e-02   -6.47234199e-02
60       3.00000000e-03   -2.66416656e-02   -6.46993961e-02
61       3.05000000e-03   -2.63435930e-02   -6.46753724e-02
62       3.10000000e-03   -2.60455203e-02   -6.46513487e-02
63       3.15000000e-03   -2.57474477e-02   -6.46273249e-02
64       3.20000000e-03   -2.54493750e-02   -6.46033012e-02
65       3.25000000e-03   -2.51513024e-02   -6.45792774e-02
66       3.30000000e-03   -2.48532297e-02   -6.45552537e-02
67       3.35000000e-03   -2.45551571e-02   -6.45312299e-02
68       3.40000000e-03   -2.42608865e-02   -6.45056441e-02
69       3.45000000e-03   -2.39900653e-02   -6.44704236e-02
70       3.50000000e-03   -2.37192441e-02   -6.44352032e-02
71       3.55000000e-03   -2.34484229e-02   -6.43999827e-02
72       3.60000000e-03   -2.31776017e-02   -6.43647623e-02
73       3.65000000e-03   -2.29067806e-02   -6.43295419e-02
74       3.70000000e-03   -2.26359594e-02   -6.42943214e-02
75       3.75000000e-03   -2.23651382e-02   -6.42591010e-02
76       3.80000000e-03   -2.20943170e-02   -6.42238805e-02
77       3.85000000e-03   -2.18234958e-02   -6.41886601e-02
78       3.90000000e-03   -2.15526746e-02   -6.41534397e-02
79       3.95000000e-03   -2.12850011e-02   -6.41166255e-02
80       4.00000000e-03   -2.10359777e-02   -6.40703685e-02
81       4.05000000e-03   -2.07869543e-02   -6.40241115e-02
82       4.10000000e-03   -2.05379309e-02   -6.39778544e-02
83       4.15000000e-03   -2.02889076e-02   -6.39315974e-02
84       4.20000000e-03   -2.00398842e-02   -6.38853404e-02
85       4.25000000e-03   -1.97908608e-02   -6.38390833e-02
86       4.30000000e-03   -1.95418374e-02   -6.37928263e-02
87       4.35000000e-03   -1.92928141e-02   -6.37465693e-02
88       4.40000000e-03   -1.90437907e-02   -6.37003122e-02
89       4.45000000e-03   -1.87947673e-02   -6.36540552e-02
90       4.50000000e-03   -1.85484276e-02   -6.36062712e-02
91       4.55000000e-03   -1.83173809e-02   -6.35497855e-02
92       4.60000000e-03   -1.80863343e-02   -6.34932997e-02
93       4.65000000e-03   -1.78552876e-02   -6.34368140e-02
94       4.70000000e-03   -1.76242409e-02   -6.33803283e-02
95       4.75000000e-03   -1.73931943e-02   -6.33238426e-02
96       4.80000000e-03   -1.71621476e-02   -6.32673569e-02
97       4.85000000e-03   -1.69311009e-02   -6.32108711e-02
98       4.90000000e-03   -1.67000543e-02   -6.31543854e-02
99       4.95000000e-03   -1.64690076e-02   -6.30978997e-02
100      5.00000000e-03   -1.62379609e-02   -6.30414140e-02
101      5.05000000e-03   -1.60092495e-02   -6.29835218e-02
102      5.10000000e-03   -1.57933506e-02   -6.29179134e-02
103      5.15000000e-03   -1.55774516e-02   -6.28523050e-02
104      5.20000000e-03   -1.53615526e-02   -6.27866965e-02
105      5.25000000e-03   -1.51456536e-02   -6.27210881e-02
106      5.30000000e-03   -1.49297546e-02   -6.26554797e-02
107      5.35000000e-03   -1.47138556e-02   -6.25898712e-02
108      5.40000000e-03   -1.44979566e-02   -6.25242628e-02
109      5.45000000e-03   -1.42820576e-02   -6.24586544e-02
110      5.50000000e-03   -1.40661586e-02   -6.23930459e-02
111      5.55000000e-03   -1.38502596e-02   -6.23274375e-02
112      5.60000000e-03   -1.36364220e-02   -6.22605675e-02
113      5.65000000e-03   -1.34334830e-02   -6.21870269e-02
114      5.70000000e-03   -1.32305441e-02   -6.21134863e-02
115      5.75000000e-03   -1.30276051e-02   -6.20399458e-02
116      5.80000000e-03   -1.28246662e-02   -6.19664052e-02
117      5.85000000e-03   -1.26217272e-02   -6.18928646e-02
118      5.90000000e-03   -1.24187882e-02   -6.18193241e-02
119      5.95000000e-03   -1.22158493e-02   -6.17457835e-02
120      6.00000000e-03   -1.20129103e-02   -6.16722429e-02
121      6.05000000e-03   -1.18099714e-02   -6.15987023e-02
122      6.10000000e-03   -1.16070324e-02   -6.15251618e-02
123      6.15000000e-03   -1.14059322e-02   -6.14505110e-02
124      6.20000000e-03   -1.12142093e-02   -6.13701985e-02
125      6.25000000e-03   -1.10224864e-02   -6.12898860e-02
126      6.30000000e-03   -1.08307635e-02   -6.12095734e-02
127      6.35000000e-03   -1.06390406e-02   -6.11292609e-02
128      6.40000000e-03   -1.04473177e-02   -6.10489484e-02
129      6.45000000e-03   -1.02555948e-02   -6.09686358e-02
130      6.50000000e-03   -1.00638719e-02   -6.08883233e-02
131      6.55000000e-03   -9.87214902e-03   -6.08080107e-02
132      6.60000000e-03   -9.68042613e-03   -6.07276982e-02
133      6.65000000e-03   -9.48870323e-03   -6.06473857e-02
134      6.70000000e-03   -9.29863287e-03   -6.05661112e-02
135      6.75000000e-03   -9.11669873e-03   -6.04801010e-02
136      6.80000000e-03   -8.93476460e-03   -6.03940907e-02
137      6.85000000e-03   -8.75283047e-03   -6.03080804e-02
138      6.90000000e-03   -8.57089633e-03   -6.02220701e-02
139      6.95000000e-03   -8.38896220e-03   -6.01360599e-02
140      7.00000000e-03   -8.20702807e-03   -6.00500496e-02
141      7.05000000e-03   -8.02509393e-03   -5.99640393e-02
142      7.10000000e-03   -7.84315980e-03   -5.98780291e-02
143      7.15000000e-03   -7.66122567e-03   -5.97920188e-02
144      7.20000000e-03   -7.47929153e-03   -5.97060085e-02
145      7.25000000e-03   -7.29885177e-03   -5.96191764e-02
146      7.30000000e-03   -7.12552067e-03   -5.95284346e-02
147      7.35000000e-03   -6.95218958e-03   -5.94376928e-02
148      7.40000000e-03   -6.77885848e-03   -5.93469510e-02
149      7.45000000e-03   -6.60552738e-03   -5.92562092e-02
150      7.50000000e-03   -6.43219628e-03   -5.91654673e-02
151      7.55000000e-03   -6.25886518e-03   -5.90747255e-02
152      7.60000000e-03   -6.08553408e-03   -5.89839837e-02
153      7.65000000e-03   -5.91220299e-03   -5.88932419e-02
154      7.70000000e-03   -5.73887189e-03   -5.88025001e-02
155      7.75000000e-03   -5.56554079e-03   -5.87117583e-02
156      7.80000000e-03   -5.39356739e-03   -5.86203240e-02
157      7.85000000e-03   -5.22783873e-03   -5.85257045e-02
158      7.90000000e-03   -5.06211007e-03   -5.84310851e-02
159      7.95000000e-03   -4.89638141e-03   -5.83364656e-02
160      8.00000000e-03   -4.73065275e-03   -5.82418462e-02
161      8.05000000e-03   -4.56492409e-03   -5.81472267e-02
162      8.10000000e-03   -4.39919544e-03   -5.80526072e-02
163      8.15000000e-03   -4.23346678e-03   -5.79579878e-02
164      8.20000000e-03   -4.06773812e-03   -5.78633683e-02
165      8.25000000e-03   -3.90200946e-03   -5.77687488e-02
166      8.30000000e-03   -3.73628080e-03   -5.76741294e-02
167      8.35000000e-03   -3.57231731e-03   -5.75787315e-02
168      8.40000000e-03   -3.41620965e-03   -5.74798692e-02
169      8.45000000e-03   -3.26010199e-03   -5.73810070e-02
170      8.50000000e-03   -3.10399434e-03   -5.72821447e-02
171      8.55000000e-03   -2.94788668e-03   -5.71832824e-02
172      8.60000000e-03   -2.79177902e-03   -5.70844202e-02
173      8.65000000e-03   -2.63567136e-03   -5.69855579e-02
174      8.70000000e-03   -2.47956370e-03   -5.68866957e-02
175      8.75000000e-03   -2.32345605e-03   -5.67878334e-02
176      8.80000000e-03   -2.16734839e-03   -5.66889712e-02
177      8.85000000e-03   -2.01124073e-03   -5.65901089e-02
178      8.90000000e-03   -1.85513307e-03   -5.64912467e-02
179      8.95000000e-03   -1.69902541e-03   -5.63923844e-02
180      9.00000000e-03   -1.54291775e-03   -5.62935222e-02
181      9.05000000e-03   -1.38681010e-03   -5.61946599e-02
182      9.10000000e-03   -1.23070244e-03   -5.60957976e-02
183      9.15000000e-03   -1.07459478e-03   -5.59969354e-02
184      9.20000000e-03   -9.18487121e-04   -5.58980731e-02
185      9.25000000e-03   -7.62379463e-04   -5.57992109e-02
186      9.30000000e-03   -6.06271805e-04   -5.57003486e-02
187      9.35000000e-03   -4.50164147e-04   -5.56014864e-02
188      9.40000000e-03   -2.94056488e-04   -5.55026241e-02
189      9.45000000e-03   -1.40059513e-04   -5.54029970e-02
190      9.50000000e-03    5.12541566e-06   -5.53001769e-02
191      9.55000000e-03    1.50310344e-04   -5.51973568e-02
192      9.60000000e-03    2.95495273e-04   -5.50945367e-02
193      9.65000000e-03    4.40680201e-04   -5.49917165e-02
194      9.70000000e-03    5.85865130e-04   -5.48888964e-02
195      9.75000000e-03    7.31050058e-04   -5.47860763e-02
196      9.80000000e-03    8.76234987e-04   -5.46832562e-02
197      9.85000000e-03    1.02141992e-03   -5.45804360e-02
198      9.90000000e-03    1.16660484e-03   -5.44776159e-02
199      9.95000000e-03    1.31178977e-03   -5.43747958e-02
200      1.00000000e-02    1.45697470e-03   -5.42719757e-02
201      1.00500000e-02    1.60215963e-03   -5.41691555e-02
202      1.01000000e-02    1.74734456e-03   -5.40663354e-02
203      1.01500000e-02    1.89252949e-03   -5.39635153e-02
204      1.02000000e-02    2.03771441e-03   -5.38606951e-02
205      1.02500000e-02    2.18289934e-03   -5.37578750e-02
206      1.03000000e-02    2.32808427e-03   -5.36550549e-02
207      1.03500000e-02    2.47326920e-03   -5.35522348e-02
208      1.04000000e-02    2.61845413e-03   -5.34494146e-02
209      1.04500000e-02    2.76363906e-03   -5.33465945e-02
210      1.05000000e-02    2.90882399e-03   -5.32437744e-02
211      1.05500000e-02    3.05220700e-03   -5.31405205e-02
212      1.06000000e-02    3.18851571e-03   -5.30355638e-02
213      1.06500000e-02    3.32482443e-03   -5.29306070e-02
214      1.07000000e-02    3.46113315e-03   -5.28256503e-02
215      1.07500000e-02    3.59744187e-03   -5.27206936e-02
216      1.08000000e-02    3.73375058e-03   -5.26157368e-02
217      1.08500000e-02    3.87005930e-03   -5.25107801e-02
218      1.09000000e-02    4.00636802e-03   -5.24058234e-02
219      1.09500000e-02    4.14267673e-03   -5.23008666e-02
220      1.10000000e-02    4.27898545e-03   -5.21959099e-02
221      1.10500000e-02    4.41529417e-03   -5.20909532e-02
222      1.11000000e-02    4.55160288e-03   -5.19859964e-02
223      1.11500000e-02    4.68791160e-03   -5.18810397e-02
224      1.12000000e-02    4.82422032e-03   -5.17760830e-02
225      1.12500000e-02    4.96052903e-03   -5.16711262e-02
226      1.13000000e-02    5.09683775e-03   -5.15661695e-02
227      1.13500000e-02    5.23314647e-03   -5.14612128e-02
228      1.14000000e-02    5.36945519e-03   -5.13562560e-02
229      1.14500000e-02    5.50576390e-03   -5.12512993e-02
230      1.15000000e-02    5.64207262e-03   -5.11463426e-02
231      1.15500000e-02    5.77838134e-03   -5.10413858e-02
232      1.16000000e-02    5.91469005e-03   -5.09364291e-02
233      1.16500000e-02    6.04943536e-03   -5.08313017e-02
234      1.17000000e-02    6.17839629e-03   -5.07255431e-02
235      1.17500000e-02    6.30735721e-03   -5.06197845e-02
236      1.18000000e-02    6.43631814e-03   -5.05140259e-02
237      1.18500000e-02    6.56527906e-03   -5.04082673e-02
238      1.19000000e-02    6.69423999e-03   -5.03025086e-02
239      1.19500000e-02    6.82320092e-03   -5.01967500e-02
240      1.20000000e-02    6.95216184e-03   -5.00909914e-02
241      1.20500000e-02    7.08112277e-03   -4.99852328e-02
242      1.21000000e-02    7.21008369e-03   -4.98794742e-02
243      1.21500000e-02    7.33904462e-03   -4.97737156e-02
244      1.22000000e-02    7.46800554e-03   -4.96679569e-02
245      1.22500000e-02    7.59696647e-03   -4.95621983e-02
246      1.23000000e-02    7.72592740e-03   -4.94564397e-02
247      1.23500000e-02    7.85488832e-03   -4.93506811e-02
248      1.24000000e-02    7.98384925e-03   -4.92449225e-02
249      1.24500000e-02    8.11281017e-03   -4.91391639e-02
250      1.25000000e-02    8.24177110e-03   -4.90334052e-02
251      1.25500000e-02    8.37073202e-03   -4.89276466e-02
252      1.26000000e-02    8.49969295e-03   -4.88218880e-02
253      1.26500000e-02    8.62865388e-03   -4.87161294e-02
254      1.27000000e-02    8.75761480e-03   -4.86103708e-02
255      1.27500000e-02    8.88519626e-03   -4.85046494e-02
256      1.28000000e-02    9.00795847e-03   -4.83990579e-02
257      1.28500000e-02    9.13072067e-03   -4.82934664e-02
258      1.29000000e-02    9.25348288e-03   -4.81878749e-02
259      1.29500000e-02    9.37624508e-03   -4.80822835e-02
260      1.30000000e-02    9.49900729e-03   -4.79766920e-02
261      1.30500000e-02    9.62176950e-03   -4.78711005e-02
262      1.31000000e-02    9.74453170e-03   -4.77655090e-02
263      1.31500000e-02    9.86729391e-03   -4.76599176e-02
264      1.32000000e-02    9.99005611e-03   -4.75543261e-02
265      1.32500000e-02    1.01128183e-02   -4.74487346e-02
266      1.33000000e-02    1.02355805e-02   -4.73431432e-02
267      1.33500000e-02    1.03583427e-02   -4.72375517e-02
268      1.34000000e-02    1.04811049e-02   -4.71319602e-02
269      1.34500000e-02    1.06038671e-02   -4.70263687e-02
270      1.35000000e-02    1.07266293e-02   -4.69207773e-02
271      1.35500000e-02    1.08493915e-02   -4.68151858e-02
272      1.36000000e-02    1.09721538e-02   -4.67095943e-02
273      1.36500000e-02    1.10949160e-02   -4.66040028e-02
274      1.37000000e-02    1.12176782e-02   -4.64984114e-02
275      1.37500000e-02    1.13404404e-02   -4.63928199e-02
276      1.38000000e-02    1.14632026e-02   -4.62872284e-02
277      1.38500000e-02    1.15847271e-02   -4.61818377e-02
278      1.39000000e-02    1.17021617e-02   -4.60771106e-02
279      1.39500000e-02    1.18195963e-02   -4.59723835e-02
280      1.40000000e-02    1.19370309e-02   -4.58676563e-02
281      1.40500000e-02    1.20544654e-02   -4.57629292e-02
282      1.41000000e-02    1.21719000e-02   -4.56582020e-02
283      1.41500000e-02    1.22893346e-02   -4.55534749e-02
284      1.42000000e-02    1.24067692e-02   -4.54487478e-02
285      1.42500000e-02    1.25242038e-02   -4.53440206e-02
286      1.43000000e-02    1.26416383e-02   -4.52392935e-02
287      1.43500000e-02    1.27590729e-02   -4.51345663e-02
288      1.44000000e-02    1.28765075e-02   -4.50298392e-02
289      1.44500000e-02    1.29939421e-02   -4.49251121e-02
290      1.45000000e-02    1.31113767e-02   -4.48203849e-02
291      1.45500000e-02    1.32288112e-02   -4.47156578e-02
292      1.46000000e-02    1.33462458e-02   -4.46109306e-02
293      1.46500000e-02    1.34636804e-02   -4.45062035e-02
294      1.47000000e-02    1.35811150e-02   -4.44014763e-02
295      1.47500000e-02    1.36985495e-02   -4.42967492e-02
296      1.48000000e-02    1.38159841e-02   -4.41920221e-02
297      1.48500000e-02    1.39334187e-02   -4.40872949e-02
298      1.49000000e-02    1.40508533e-02   -4.39825678e-02
299      1.49500000e-02    1.41671589e-02   -4.38781700e-02
300      1.50000000e-02    1.42799296e-02   -4.37748032e-02
301      1.50500000e-02    1.43927003e-02   -4.36714365e-02
302      1.51000000e-02    1.45054710e-02   -4.35680697e-02
303      1.51500000e-02    1.46182417e-02   -4.34647030e-02
304      1.52000000e-02    1.47310125e-02   -4.33613363e-02
305      1.52500000e-02    1.48437832e-02   -4.32579695e-02
306      1.53000000e-02    1.49565539e-02   -4.31546028e-02
307      1.53500000e-02    1.50693246e-02   -4.30512360e-02
308      1.54000000e-02    1.51820953e-02   -4.29478693e-02
309      1.54500000e-02    1.52948661e-02   -4.28445025e-02
310      1.55000000e-02    1.54076368e-02   -4.27411358e-02
311      1.55500000e-02    1.55204075e-02   -4.26377691e-02
312      1.56000000e-02    1.56331782e-02   -4.25344023e-02
313      1.56500000e-02    1.57459489e-02   -4.24310356e-02
314      1.57000000e-02    1.58587197e-02   -4.23276688e-02
315      1.57500000e-02    1.59714904e-02   -4.22243021e-02
316      1.58000000e-02    1.60842611e-02   -4.21209354e-02
317      1.58500000e-02    1.61970318e-02   -4.20175686e-02
318      1.59000000e-02    1.63098025e-02   -4.19142019e-02
319      1.59500000e-02    1.64225733e-02   -4.18108351e-02
320      1.60000000e-02    1.65353440e-02   -4.17074684e-02
321      1.60500000e-02    1.66470690e-02   -4.16045318e-02
322      1.61000000e-02    1.67556873e-02   -4.15028731e-02
323      1.61500000e-02    1.68643056e-02   -4.14012144e-02
324      1.62000000e-02    1.69729240e-02   -4.12995557e-02
325      1.62500000e-02    1.70815423e-02   -4.11978969e-02
326      1.63000000e-02    1.71901607e-02   -4.10962382e-02
327      1.63500000e-02    1.72987790e-02   -4.09945795e-02
328      1.64000000e-02    1.74073974e-02   -4.08929208e-02
329      1.64500000e-02    1.75160157e-02   -4.07912621e-02
330      1.65000000e-02    1.76246340e-02   -4.06896034e-02
331      1.65500000e-02    1.77332524e-02   -4.05879447e-02
