Index       TIME             V(GATE)           V(OUT)      
0        0.00000000e+00    0.00000000e+00    1.49999995e+00
1        5.00000000e-13    0.00000000e+00    1.49999995e+00
2        1.50000000e-12    0.00000000e+00    1.49999995e+00
3        3.50000000e-12    0.00000000e+00    1.49999995e+00
4        7.50000000e-12    0.00000000e+00    1.49999995e+00
5        1.55000000e-11    0.00000000e+00    1.49999995e+00
6        2.55000000e-11    0.00000000e+00    1.49999995e+00
7        3.55000000e-11    0.00000000e+00    1.49999995e+00
8        4.55000000e-11    0.00000000e+00    1.49999995e+00
9        5.55000000e-11    0.00000000e+00    1.49999995e+00
10       6.55000000e-11    0.00000000e+00    1.49999995e+00
11       7.55000000e-11    0.00000000e+00    1.49999995e+00
12       8.55000000e-11    0.00000000e+00    1.49999995e+00
13       9.55000000e-11    0.00000000e+00    1.49999995e+00
14       1.00000000e-10    0.00000000e+00    1.49999995e+00
15       1.00346713e-10    1.04013916e-02    1.50433292e+00
16       1.00628080e-10    1.88423940e-02    1.50774630e+00
17       1.00909447e-10    2.72833964e-02    1.51111244e+00
18       1.01472180e-10    4.41654012e-02    1.51755046e+00
19       1.02597647e-10    7.79294109e-02    1.52935427e+00
20       1.04848581e-10    1.45457430e-01    1.54941243e+00
21       1.07099515e-10    2.12985449e-01    1.56575509e+00
22       1.09350449e-10    2.80513469e-01    1.57952636e+00
23       1.11601383e-10    3.48041488e-01    1.59157407e+00
24       1.13852317e-10    4.15569507e-01    1.60242719e+00
25       1.16103251e-10    4.83097527e-01    1.61226738e+00
26       1.18354185e-10    5.50625546e-01    1.62090597e+00
27       1.22856053e-10    6.85681585e-01    1.63321684e+00
28       1.27357921e-10    8.20737623e-01    1.64034889e+00
29       1.31859789e-10    9.55793662e-01    1.64300742e+00
30       1.34090514e-10    1.02271541e+00    1.63396706e+00
31       1.34837431e-10    1.04512292e+00    1.62676139e+00
32       1.35584348e-10    1.06753044e+00    1.61263332e+00
33       1.36331265e-10    1.08993796e+00    1.57446099e+00
34       1.36432821e-10    1.09298463e+00    1.56471978e+00
35       1.36534377e-10    1.09603131e+00    1.55339861e+00
36       1.36737489e-10    1.10212466e+00    1.52628117e+00
37       1.37143712e-10    1.11431137e+00    1.46171576e+00
38       1.37549936e-10    1.12649808e+00    1.39271496e+00
39       1.38362383e-10    1.15087149e+00    1.25049447e+00
40       1.39174830e-10    1.17524491e+00    1.10282194e+00
41       1.39987278e-10    1.19961833e+00    9.48340736e-01
42       1.40799725e-10    1.22399174e+00    7.88050902e-01
43       1.41612172e-10    1.24836516e+00    6.30045818e-01
44       1.42424619e-10    1.27273857e+00    4.96751548e-01
45       1.43121610e-10    1.29364829e+00    4.20492349e-01
46       1.43694783e-10    1.31084350e+00    3.79367565e-01
47       1.44267957e-10    1.32803870e+00    3.49315536e-01
48       1.45414304e-10    1.36242912e+00    3.06361137e-01
49       1.46560651e-10    1.39681953e+00    2.75494399e-01
50       1.47706998e-10    1.43120994e+00    2.51313305e-01
51       1.49999692e-10    1.49999077e+00    2.14685986e-01
52       1.50000000e-10    1.50000000e+00    2.14681860e-01
53       1.50000308e-10    1.50000000e+00    2.14672943e-01
54       1.50000923e-10    1.50000000e+00    2.14655112e-01
55       1.50001539e-10    1.50000000e+00    2.14637282e-01
56       1.50002770e-10    1.50000000e+00    2.14601628e-01
57       1.50005233e-10    1.50000000e+00    2.14530341e-01
58       1.50010158e-10    1.50000000e+00    2.14387857e-01
59       1.50020008e-10    1.50000000e+00    2.14103248e-01
60       1.50039709e-10    1.50000000e+00    2.13535458e-01
61       1.50079110e-10    1.50000000e+00    2.12405555e-01
62       1.50157912e-10    1.50000000e+00    2.10168197e-01
63       1.50315517e-10    1.50000000e+00    2.05781201e-01
64       1.50630726e-10    1.50000000e+00    1.97339695e-01
65       1.51261144e-10    1.50000000e+00    1.81668458e-01
66       1.52521981e-10    1.50000000e+00    1.54473598e-01
67       1.53782817e-10    1.50000000e+00    1.31855674e-01
68       1.55043654e-10    1.50000000e+00    1.12884076e-01
69       1.57565327e-10    1.50000000e+00    8.31278658e-02
70       1.60087000e-10    1.50000000e+00    6.16044953e-02
71       1.62608673e-10    1.50000000e+00    4.58504590e-02
72       1.65130346e-10    1.50000000e+00    3.42278671e-02
73       1.70173692e-10    1.50000000e+00    1.89424895e-02
74       1.80260384e-10    1.50000000e+00    5.20117920e-03
75       1.90347075e-10    1.50000000e+00    1.44238539e-03
76       2.00433767e-10    1.50000000e+00    4.01286619e-04
77       2.10520459e-10    1.50000000e+00    1.11950529e-04
78       2.30693843e-10    1.50000000e+00   -6.43842113e-06
79       2.50867227e-10    1.50000000e+00    9.56218153e-07
80       2.91213995e-10    1.50000000e+00    2.33737635e-07
81       3.41213995e-10    1.50000000e+00    5.30305797e-07
82       3.50000000e-10    1.50000000e+00    4.67461430e-07
83       3.50312500e-10    1.49062500e+00   -4.24876962e-03
84       3.50625000e-10    1.48125000e+00   -8.35931349e-03
85       3.50937500e-10    1.47187500e+00   -1.24064078e-02
86       3.51562500e-10    1.45312500e+00   -2.01091003e-02
87       3.52812500e-10    1.41562500e+00   -3.40986071e-02
88       3.55312500e-10    1.34062500e+00   -5.74624004e-02
89       3.57812500e-10    1.26562500e+00   -7.61015039e-02
90       3.60312500e-10    1.19062500e+00   -9.16068027e-02
91       3.65312500e-10    1.04062500e+00   -1.17942051e-01
92       3.66126018e-10    1.01621946e+00   -1.21741759e-01
93       3.66939536e-10    9.91813925e-01   -1.25498522e-01
94       3.68566572e-10    9.43002851e-01   -1.32347344e-01
95       3.70193607e-10    8.94191776e-01   -1.37650732e-01
96       3.71820643e-10    8.45380701e-01   -1.40128419e-01
97       3.73447679e-10    7.96569627e-01   -1.38205405e-01
98       3.75074715e-10    7.47758552e-01   -1.30345294e-01
99       3.76701751e-10    6.98947477e-01   -1.15169060e-01
100      3.78328787e-10    6.50136402e-01   -9.12721996e-02
101      3.79955822e-10    6.01325328e-01   -5.65706758e-02
102      3.81582858e-10    5.52514253e-01   -4.76714721e-03
103      3.82078827e-10    5.37635176e-01    2.34263634e-02
104      3.82246851e-10    5.32594482e-01    4.11447977e-02
105      3.82414874e-10    5.27553788e-01    6.56266414e-02
106      3.82582897e-10    5.22513094e-01    9.51290233e-02
107      3.82918943e-10    5.12431706e-01    1.60502441e-01
108      3.83254989e-10    5.02350317e-01    2.29070124e-01
109      3.83927082e-10    4.82187541e-01    3.70044694e-01
110      3.84599175e-10    4.62024764e-01    5.14386895e-01
111      3.85271267e-10    4.41861987e-01    6.62416836e-01
112      3.85943360e-10    4.21699211e-01    8.12860497e-01
113      3.86637022e-10    4.00889348e-01    9.62657886e-01
114      3.86924223e-10    3.92273322e-01    1.01835865e+00
115      3.87211424e-10    3.83657295e-01    1.06754268e+00
116      3.87498624e-10    3.75041268e-01    1.10787379e+00
117      3.87785825e-10    3.66425241e-01    1.13944028e+00
118      3.88073026e-10    3.57809214e-01    1.16382313e+00
119      3.88360227e-10    3.49193187e-01    1.18292179e+00
120      3.88934629e-10    3.31961134e-01    1.21098474e+00
121      3.90083432e-10    2.97497026e-01    1.24654962e+00
122      3.92381040e-10    2.28568812e-01    1.28726207e+00
123      3.94678647e-10    1.59640597e-01    1.31291918e+00
124      3.99273861e-10    2.17841682e-02    1.34689134e+00
125      4.00000000e-10    6.66133815e-16    1.35097938e+00
126      4.00284581e-10    0.00000000e+00    1.35627989e+00
127      4.00540148e-10    0.00000000e+00    1.36086086e+00
128      4.00795714e-10    0.00000000e+00    1.36534276e+00
129      4.01306848e-10    0.00000000e+00    1.37381871e+00
130      4.02329114e-10    0.00000000e+00    1.38902858e+00
131      4.04373647e-10    0.00000000e+00    1.41378852e+00
132      4.06418180e-10    0.00000000e+00    1.43265787e+00
133      4.08462714e-10    0.00000000e+00    1.44719325e+00
134      4.10507247e-10    0.00000000e+00    1.45847386e+00
135      4.14596313e-10    0.00000000e+00    1.47435062e+00
136      4.22774446e-10    0.00000000e+00    1.49066515e+00
137      4.30952578e-10    0.00000000e+00    1.49656674e+00
138      4.39130711e-10    0.00000000e+00    1.49873254e+00
139      4.47308844e-10    0.00000000e+00    1.49953142e+00
140      4.63665109e-10    0.00000000e+00    1.49998040e+00
141      4.80021374e-10    0.00000000e+00    1.49999911e+00
142      5.12733905e-10    0.00000000e+00    1.50000016e+00
143      5.62733905e-10    0.00000000e+00    1.49999981e+00
144      6.00000000e-10    0.00000000e+00    1.49999996e+00
End of Xyce(TM) Simulation
