Index      TIME           V(1)           V(11)           V(22)           V(33)           V(44)
0       0.00000000e+00   0.00000000e+00   0.00000000e+00   0.00000000e+00   0.00000000e+00   0.00000000e+00   
1       1.00000000e-04   0.00000000e+00   0.00000000e+00   0.00000000e+00   0.00000000e+00   0.00000000e+00   
2       3.00000000e-04   0.00000000e+00   0.00000000e+00   0.00000000e+00   0.00000000e+00   0.00000000e+00   
3       7.00000000e-04   0.00000000e+00   0.00000000e+00   0.00000000e+00   0.00000000e+00   0.00000000e+00   
4       1.50000000e-03   0.00000000e+00   0.00000000e+00   0.00000000e+00   0.00000000e+00   0.00000000e+00   
5       1.90000000e-03   0.00000000e+00   0.00000000e+00   0.00000000e+00   0.00000000e+00   0.00000000e+00   
6       2.70000000e-03   0.00000000e+00   0.00000000e+00   0.00000000e+00   0.00000000e+00   0.00000000e+00   
7       2.80000000e-03   0.00000000e+00   0.00000000e+00   0.00000000e+00   0.00000000e+00   0.00000000e+00   
8       2.90000000e-03   0.00000000e+00   0.00000000e+00   0.00000000e+00   0.00000000e+00   0.00000000e+00   
9       2.95000000e-03   0.00000000e+00   0.00000000e+00   0.00000000e+00   0.00000000e+00   0.00000000e+00   
10      2.97500000e-03   0.00000000e+00   0.00000000e+00   0.00000000e+00   0.00000000e+00   0.00000000e+00   
11      2.98750000e-03   0.00000000e+00   0.00000000e+00   0.00000000e+00   0.00000000e+00   0.00000000e+00   
12      2.99375000e-03   0.00000000e+00   0.00000000e+00   0.00000000e+00   0.00000000e+00   0.00000000e+00   
13      2.99687500e-03   0.00000000e+00   0.00000000e+00   0.00000000e+00   0.00000000e+00   0.00000000e+00   
14      2.99849446e-03   0.00000000e+00   0.00000000e+00   0.00000000e+00   0.00000000e+00   0.00000000e+00   
15      2.99962168e-03   0.00000000e+00   0.00000000e+00   0.00000000e+00   0.00000000e+00   0.00000000e+00   
16      3.00037609e-03   2.10924159e-04   1.65270141e-04   -1.65159264e-04  1.61468365e-04   -1.61565424e-04  
17      3.00113050e-03   6.32925322e-04   4.97805477e-04   -4.97515600e-04  4.86297711e-04   -4.86528005e-04  
18      3.00178424e-03   9.97641652e-04   7.86848093e-04   -7.86440512e-04  7.68602599e-04   -7.68894862e-04  
19      3.00309171e-03   1.72699008e-03   1.36489072e-03   -1.36424638e-03  1.33319686e-03   -1.33361362e-03  
20      3.00570666e-03   3.18540082e-03   2.52074950e-03   -2.51963158e-03  2.46216411e-03   -2.46283010e-03  
21      3.01093655e-03   6.10107845e-03   4.83156051e-03   -4.82949579e-03  4.71921315e-03   -4.72037741e-03  
22      3.02139634e-03   1.19278611e-02   9.44955852e-03   -9.44560168e-03  9.22977154e-03   -9.23193155e-03  
23      3.04231590e-03   2.35631582e-02   1.86710762e-02   -1.86633411e-02  1.82367468e-02   -1.82408952e-02  
24      3.08415504e-03   4.67608580e-02   3.70563392e-02   -3.70410712e-02  3.61942691e-02   -3.62023819e-02  
25      3.16783331e-03   9.28660988e-02   7.35969008e-02   -7.35666612e-02  7.18846996e-02   -7.19006913e-02  
26      3.25151159e-03   1.38587144e-01   1.09832977e-01   -1.09787891e-01  1.07277729e-01   -1.07301534e-01  
27      3.33518986e-03   1.83927200e-01   1.45767102e-01   -1.45707293e-01  1.42375831e-01   -1.42407384e-01  
28      3.50254641e-03   2.73477023e-01   2.16739530e-01   -2.16650641e-01  2.11697056e-01   -2.11743912e-01  
29      3.66990295e-03   3.61540635e-01   2.86534079e-01   -2.86416595e-01  2.79867807e-01   -2.79929712e-01  
30      3.83725950e-03   4.48142708e-01   3.55170292e-01   -3.55024685e-01  3.46907169e-01   -3.46983873e-01  
31      4.00461605e-03   5.33307499e-01   4.22667390e-01   -4.22494129e-01  4.12833920e-01   -4.12925178e-01  
32      4.17197259e-03   6.17058862e-01   4.89044281e-01   -4.88843824e-01  4.77666525e-01   -4.77772094e-01  
33      4.50668569e-03   7.80414761e-01   6.18511479e-01   -6.18257976e-01  6.04121615e-01   -6.04255101e-01  
34      4.84139878e-03   9.38393401e-01   7.43716976e-01   -7.43412174e-01  7.26414154e-01   -7.26574637e-01  
35      5.17611187e-03   1.09117181e+00   8.64801041e-01   -8.64446628e-01  8.44681148e-01   -8.44867739e-01  
36      5.51082497e-03   1.23892115e+00   9.81899340e-01   -9.81496949e-01  9.59055107e-01   -9.59266946e-01  
37      5.84553806e-03   1.38180698e+00   1.09514307e+00   -1.09469429e+00  1.06966418e+00   -1.06990043e+00  
38      6.18025115e-03   1.51998939e+00   1.20465913e+00   -1.20416547e+00  1.17663229e+00   -1.17689216e+00  
39      6.51496424e-03   1.65362320e+00   1.31057020e+00   -1.31003315e+00  1.28007930e+00   -1.28036201e+00  
40      7.18439043e-03   1.90783903e+00   1.51204815e+00   -1.51142855e+00  1.47686979e+00   -1.47719594e+00  
41      7.85381662e-03   2.14559407e+00   1.70048020e+00   -1.69978339e+00  1.66091789e+00   -1.66128466e+00  
42      8.52324280e-03   2.36795421e+00   1.87671106e+00   -1.87594205e+00  1.83304866e+00   -1.83345344e+00  
43      9.19266899e-03   2.57591627e+00   2.04153077e+00   -2.04069423e+00  1.99403377e+00   -1.99447409e+00  
44      9.86209517e-03   2.77041256e+00   2.19567822e+00   -2.19477852e+00  2.14459492e+00   -2.14506847e+00  
45      1.05315214e-02   2.95231499e+00   2.33984445e+00   -2.33888568e+00  2.28540706e+00   -2.28591169e+00  
46      1.12009475e-02   3.12243903e+00   2.47467575e+00   -2.47366173e+00  2.41710145e+00   -2.41763516e+00  
47      1.18703737e-02   3.28154735e+00   2.60077657e+00   -2.59971089e+00  2.54026848e+00   -2.54082938e+00  
48      1.25397999e-02   3.43035322e+00   2.71871222e+00   -2.71759822e+00  2.65546031e+00   -2.65604664e+00  
49      1.32092261e-02   3.56952374e+00   2.82901140e+00   -2.82785221e+00  2.76319334e+00   -2.76380345e+00  
50      1.45480785e-02   3.82141397e+00   3.02864620e+00   -3.02740521e+00  2.95818355e+00   -2.95883671e+00  
51      1.58869308e-02   4.04173992e+00   3.20326487e+00   -3.20195234e+00  3.12873965e+00   -3.12943046e+00  
52      1.72257832e-02   4.23445692e+00   3.35600216e+00   -3.35462705e+00  3.27792344e+00   -3.27864718e+00  
53      1.85646356e-02   4.40302463e+00   3.48960001e+00   -3.48817016e+00  3.40841308e+00   -3.40916562e+00  
54      1.99034880e-02   4.55046921e+00   3.60645676e+00   -3.60497904e+00  3.52255112e+00   -3.52332885e+00  
55      2.12423403e-02   4.67943756e+00   3.70867025e+00   -3.70715065e+00  3.62238656e+00   -3.62318634e+00  
56      2.25811927e-02   4.79224495e+00   3.79807541e+00   -3.79651918e+00  3.70971168e+00   -3.71053073e+00  
57      2.39200451e-02   4.89091650e+00   3.87627725e+00   -3.87468898e+00  3.78609412e+00   -3.78693004e+00  
58      2.52588974e-02   4.97722356e+00   3.94467966e+00   -3.94306335e+00  3.85290511e+00   -3.85375578e+00  
59      2.79366022e-02   5.11874762e+00   4.05684411e+00   -4.05518185e+00  3.96246001e+00   -3.96333486e+00  
60      3.06143069e-02   5.22702532e+00   4.14265928e+00   -4.14096186e+00  4.04627866e+00   -4.04717201e+00  
61      3.32920117e-02   5.30986678e+00   4.20831504e+00   -4.20659072e+00  4.11040691e+00   -4.11131442e+00  
62      3.59697164e-02   5.37324741e+00   4.25854717e+00   -4.25680227e+00  4.15947037e+00   -4.16038871e+00  
63      3.86474212e-02   5.42173887e+00   4.29697894e+00   -4.29521829e+00  4.19700801e+00   -4.19793463e+00  
64      4.40028307e-02   5.48722349e+00   4.34887857e+00   -4.34709666e+00  4.24770017e+00   -4.24863799e+00  
65      4.93582401e-02   5.52555507e+00   4.37925816e+00   -4.37746380e+00  4.27737297e+00   -4.27831734e+00  
66      5.47136496e-02   5.54799256e+00   4.39704093e+00   -4.39523929e+00  4.29474202e+00   -4.29569022e+00  
67      6.00690591e-02   5.56112640e+00   4.40745012e+00   -4.40564421e+00  4.30490903e+00   -4.30585948e+00  
68      7.07798781e-02   5.57331448e+00   4.41710975e+00   -4.41529988e+00  4.31434392e+00   -4.31529645e+00  
69      8.14906971e-02   5.57749057e+00   4.42041950e+00   -4.41860828e+00  4.31757667e+00   -4.31852991e+00  
70      1.02912335e-01   5.57941174e+00   4.42194211e+00   -4.42013027e+00  4.31906386e+00   -4.32001743e+00  
71      1.32912335e-01   5.57965456e+00   4.42213456e+00   -4.42032264e+00  4.31925183e+00   -4.32020544e+00  
72      1.62912335e-01   5.57966665e+00   4.42214414e+00   -4.42033221e+00  4.31926119e+00   -4.32021480e+00  
73      1.92912335e-01   5.57966725e+00   4.42214462e+00   -4.42033269e+00  4.31926165e+00   -4.32021527e+00  
74      2.00412335e-01   5.35427669e+00   4.24351237e+00   -4.24177364e+00  4.14478535e+00   -4.14570044e+00  
75      2.01187568e-01   4.95487482e+00   3.92697123e+00   -3.92536227e+00  3.83560861e+00   -3.83645533e+00  
76      2.01962802e-01   4.58526807e+00   3.63404050e+00   -3.63255156e+00  3.54949304e+00   -3.55027660e+00  
77      2.02738035e-01   4.24323197e+00   3.36296082e+00   -3.36158295e+00  3.28472014e+00   -3.28544525e+00  
78      2.03513268e-01   3.92670991e+00   3.11210220e+00   -3.11082711e+00  3.03969786e+00   -3.04036888e+00  
79      2.04288502e-01   3.63379868e+00   2.87995628e+00   -2.87877631e+00  2.81295290e+00   -2.81357387e+00  
80      2.05063735e-01   3.36273703e+00   2.66512718e+00   -2.66403523e+00  2.60312189e+00   -2.60369654e+00  
81      2.05838968e-01   3.11189511e+00   2.46632317e+00   -2.46531267e+00  2.40894314e+00   -2.40947492e+00  
82      2.06614202e-01   2.87976464e+00   2.28234886e+00   -2.28141373e+00  2.22924906e+00   -2.22974118e+00  
83      2.07389435e-01   2.66494984e+00   2.11209803e+00   -2.11123266e+00  2.06295919e+00   -2.06341459e+00  
84      2.08164668e-01   2.46615905e+00   1.95454698e+00   -1.95374617e+00  1.90907364e+00   -1.90949507e+00  
85      2.08939902e-01   2.28219698e+00   1.80874839e+00   -1.80800731e+00  1.76666711e+00   -1.76705711e+00  
86      2.09715135e-01   2.11195748e+00   1.67382559e+00   -1.67313979e+00  1.63488334e+00   -1.63524425e+00  
87      2.10490368e-01   1.95441692e+00   1.54896729e+00   -1.54833265e+00  1.51292992e+00   -1.51326391e+00  
88      2.11265602e-01   1.80862803e+00   1.43342274e+00   -1.43283544e+00  1.40007357e+00   -1.40038264e+00  
89      2.12040835e-01   1.67371421e+00   1.32649719e+00   -1.32595370e+00  1.29563568e+00   -1.29592170e+00  
90      2.12816068e-01   1.54886422e+00   1.22754770e+00   -1.22704475e+00  1.19898830e+00   -1.19925298e+00  
91      2.13591302e-01   1.43332736e+00   1.13597931e+00   -1.13551388e+00  1.10955028e+00   -1.10979522e+00  
92      2.14366535e-01   1.32640892e+00   1.05124142e+00   -1.05081071e+00  1.02678386e+00   -1.02701052e+00  
93      2.15141768e-01   1.22746602e+00   9.72824524e-01   -9.72425939e-01  9.50191358e-01   -9.50401115e-01  
94      2.15917002e-01   1.13590372e+00   9.00257098e-01   -8.99888245e-01  8.79312243e-01   -8.79506353e-01  
95      2.16692235e-01   1.05117147e+00   8.33102808e-01   -8.32761469e-01  8.13720325e-01   -8.13899956e-01  
96      2.17467468e-01   9.72759789e-01   7.70957863e-01   -7.70641986e-01  7.53021208e-01   -7.53187440e-01  
97      2.18242702e-01   9.00197191e-01   7.13448593e-01   -7.13156279e-01  6.96849916e-01   -6.97003747e-01  
98      2.19017935e-01   8.33047370e-01   6.60229203e-01   -6.59958694e-01  6.44868697e-01   -6.45011053e-01  
99      2.19793168e-01   7.70906560e-01   6.10979690e-01   -6.10729360e-01  5.96764994e-01   -5.96896731e-01  
100     2.20568402e-01   7.13401118e-01   5.65403923e-01   -5.65172266e-01  5.52249567e-01   -5.52371477e-01  
101     2.21343635e-01   6.60185269e-01   5.23227861e-01   -5.23013485e-01  5.11054748e-01   -5.11167565e-01  
102     2.22118868e-01   6.10939033e-01   4.84197905e-01   -4.83999519e-01  4.72932840e-01   -4.73037241e-01  
103     2.22894102e-01   5.65366299e-01   4.48079371e-01   -4.47895784e-01  4.37654618e-01   -4.37751231e-01  
104     2.23669335e-01   5.23193044e-01   4.14655083e-01   -4.14485191e-01  4.05007961e-01   -4.05097367e-01  
105     2.24444568e-01   4.84165684e-01   3.83724066e-01   -3.83566847e-01  3.74796566e-01   -3.74879304e-01  
106     2.25219802e-01   4.48049554e-01   3.55100335e-01   -3.54954843e-01  3.46838778e-01   -3.46915343e-01  
107     2.25995035e-01   4.14627490e-01   3.28611778e-01   -3.28477139e-01  3.20966489e-01   -3.21037343e-01  
108     2.26770268e-01   3.83698531e-01   3.04099124e-01   -3.03974529e-01  2.97024132e-01   -2.97089701e-01  
109     2.27545502e-01   3.55076705e-01   2.81414981e-01   -2.81299680e-01  2.74867745e-01   -2.74928423e-01  
110     2.28320735e-01   3.28589911e-01   2.60422952e-01   -2.60316251e-01  2.54364104e-01   -2.54420255e-01  
111     2.29095968e-01   3.04078888e-01   2.40996814e-01   -2.40898073e-01  2.35389923e-01   -2.35441886e-01  
112     2.29871202e-01   2.81396255e-01   2.23019760e-01   -2.22928385e-01  2.17831113e-01   -2.17879200e-01  
113     2.30646435e-01   2.60405622e-01   2.06383698e-01   -2.06299138e-01  2.01582095e-01   -2.01626595e-01  
114     2.31421668e-01   2.40980777e-01   1.90988595e-01   -1.90910343e-01  1.86545166e-01   -1.86586346e-01  
115     2.32196902e-01   2.23004920e-01   1.76741883e-01   -1.76669468e-01  1.72629910e-01   -1.72668018e-01  
116     2.32972135e-01   2.06369964e-01   1.63557898e-01   -1.63490885e-01  1.59752656e-01   -1.59787922e-01  
117     2.33747369e-01   1.90975886e-01   1.51357367e-01   -1.51295353e-01  1.47835975e-01   -1.47868610e-01  
118     2.34522602e-01   1.76730122e-01   1.40066930e-01   -1.40009541e-01  1.36808214e-01   -1.36838415e-01  
119     2.35297835e-01   1.63547014e-01   1.29618697e-01   -1.29565590e-01  1.26603065e-01   -1.26631013e-01  
120     2.36073069e-01   1.51347295e-01   1.19949847e-01   -1.19900701e-01  1.17159164e-01   -1.17185027e-01  
121     2.36848302e-01   1.40057609e-01   1.11002239e-01   -1.10956760e-01  1.08419726e-01   -1.08443660e-01  
122     2.37623535e-01   1.29610072e-01   1.02722075e-01   -1.02679988e-01  1.00332204e-01   -1.00354352e-01  
123     2.38398769e-01   1.19941865e-01   9.50595663e-02   -9.50206185e-02  9.28479660e-02   -9.28684624e-02  
124     2.39174002e-01   1.10994853e-01   8.79686389e-02   -8.79325964e-02  8.59220120e-02   -8.59409795e-02  
125     2.39949235e-01   1.02715240e-01   8.14066562e-02   -8.13733023e-02  7.95126966e-02   -7.95302492e-02  
126     2.40724469e-01   9.50532407e-02   7.53341618e-02   -7.53032959e-02  7.35814812e-02   -7.35977245e-02  
127     2.41499702e-01   8.79627851e-02   6.97146424e-02   -6.96860790e-02  6.80927024e-02   -6.81077340e-02  
128     2.42274935e-01   8.14012391e-02   6.45143087e-02   -6.44878759e-02  6.30133566e-02   -6.30272669e-02  
129     2.43050169e-01   7.53291487e-02   5.97018917e-02   -5.96774306e-02  5.83129024e-02   -5.83257751e-02  
130     2.43825402e-01   6.97100034e-02   5.52484548e-02   -5.52258184e-02  5.39630766e-02   -5.39749891e-02  
131     2.44600635e-01   6.45100157e-02   5.11272201e-02   -5.11062723e-02  4.99377241e-02   -4.99487480e-02  
132     2.45375869e-01   5.96979189e-02   4.73134072e-02   -4.72940219e-02  4.62126411e-02   -4.62228427e-02  
133     2.46151102e-01   5.52447784e-02   4.37840839e-02   -4.37661447e-02  4.27654291e-02   -4.27748696e-02  
134     2.46926335e-01   5.11238179e-02   4.05180291e-02   -4.05014280e-02  3.95753603e-02   -3.95840967e-02  
135     2.47701569e-01   4.73102588e-02   3.74956042e-02   -3.74802415e-02  3.66232534e-02   -3.66313380e-02  
136     2.48476802e-01   4.37811704e-02   3.46986357e-02   -3.46844190e-02  3.38913576e-02   -3.38988392e-02  
137     2.49252035e-01   4.05153329e-02   3.21103059e-02   -3.20971497e-02  3.13632464e-02   -3.13701699e-02  
138     2.50027269e-01   3.74931091e-02   2.97150515e-02   -2.97028767e-02  2.90237185e-02   -2.90301256e-02  
139     2.50802502e-01   3.46963268e-02   2.74984701e-02   -2.74872034e-02  2.68587067e-02   -2.68646359e-02  
140     2.51577735e-01   3.21081692e-02   2.54472335e-02   -2.54368073e-02  2.48551931e-02   -2.48606799e-02  
141     2.52352969e-01   2.97130742e-02   2.35490081e-02   -2.35393596e-02  2.30011307e-02   -2.30062082e-02  
142     2.53128202e-01   2.74966402e-02   2.17923800e-02   -2.17834512e-02  2.12853712e-02   -2.12900700e-02  
143     2.53903435e-01   2.54455402e-02   2.01667868e-02   -2.01585241e-02  1.96975982e-02   -1.97019464e-02  
144     2.54678669e-01   2.35474411e-02   1.86624540e-02   -1.86548077e-02  1.82282643e-02   -1.82322882e-02  
145     2.55453902e-01   2.17909299e-02   1.72703363e-02   -1.72632603e-02  1.68685348e-02   -1.68722586e-02  
146     2.56229135e-01   2.01654448e-02   1.59820630e-02   -1.59755149e-02  1.56102337e-02   -1.56136797e-02  
147     2.57004369e-01   1.86612122e-02   1.47898879e-02   -1.47838282e-02  1.44457950e-02   -1.44489840e-02  
148     2.57779602e-01   1.72691871e-02   1.36866426e-02   -1.36810349e-02  1.33682172e-02   -1.33711683e-02  
149     2.58554835e-01   1.59809995e-02   1.26656934e-02   -1.26605040e-02  1.23710208e-02   -1.23737517e-02  
150     2.59330069e-01   1.47889038e-02   1.17209015e-02   -1.17160992e-02  1.14482098e-02   -1.14507370e-02  
151     2.60105302e-01   1.36857318e-02   1.08465859e-02   -1.08421418e-02  1.05942356e-02   -1.05965743e-02  
152     2.60880535e-01   1.26648506e-02   1.00374895e-02   -1.00333769e-02  9.80396312e-03   -9.80612736e-03  
153     2.61655769e-01   1.17201215e-02   9.28874727e-03   -9.28494149e-03  9.07264071e-03   -9.07464352e-03  
154     2.63206235e-01   1.00368214e-02   7.95465307e-03   -7.95139390e-03  7.76958476e-03   -7.77129990e-03  
155     2.64756702e-01   8.59528503e-03   6.81216770e-03   -6.80937663e-03  6.65367979e-03   -6.65514860e-03  
156     2.66307169e-01   7.36078904e-03   5.83377156e-03   -5.83138135e-03  5.69804644e-03   -5.69930429e-03  
157     2.67857635e-01   6.30359727e-03   4.99589735e-03   -4.99385044e-03  4.87966573e-03   -4.88074292e-03  
158     2.69408102e-01   5.39824445e-03   4.27836265e-03   -4.27660973e-03  4.17882477e-03   -4.17974725e-03  
159     2.70958569e-01   4.62292273e-03   3.66388372e-03   -3.66238256e-03  3.57864195e-03   -3.57943194e-03  
160     2.72509035e-01   3.95895643e-03   3.13765920e-03   -3.13637364e-03  3.06466026e-03   -3.06533678e-03  
161     2.74059502e-01   3.39035215e-03   2.68701356e-03   -2.68591264e-03  2.62449908e-03   -2.62507844e-03  
162     2.75609969e-01   2.90341354e-03   2.30109181e-03   -2.30014901e-03  2.24755595e-03   -2.24805210e-03  
163     2.77160435e-01   2.48641139e-03   1.97059798e-03   -1.96979059e-03  1.92475120e-03   -1.92517609e-03  
164     2.78710902e-01   2.12930108e-03   1.68757127e-03   -1.68687984e-03  1.64830922e-03   -1.64867309e-03  
165     2.80261369e-01   1.82348066e-03   1.44519420e-03   -1.44460208e-03  1.41157116e-03   -1.41188276e-03  
166     2.81811835e-01   1.56158364e-03   1.23762849e-03   -1.23712141e-03  1.20883455e-03   -1.20910140e-03  
167     2.84912769e-01   1.14523183e-03   9.07650168e-04   -9.07278288e-04  8.86533308e-04   -8.86729009e-04  
168     2.88013702e-01   8.39888405e-04   6.65651121e-04   -6.65378393e-04  6.50164471e-04   -6.50307994e-04  
169     2.91114635e-01   6.15956101e-04   4.88174223e-04   -4.87974210e-04  4.76816646e-04   -4.76921903e-04  
170     2.94215569e-01   4.51728964e-04   3.58016481e-04   -3.57869795e-04  3.49687078e-04   -3.49764271e-04  
171     2.97316502e-01   3.31288311e-04   2.62561591e-04   -2.62454015e-04  2.56452986e-04   -2.56509598e-04  
172     3.00000000e-01   2.53316388e-04   2.00765165e-04   -2.00682908e-04  1.96094280e-04   -1.96137568e-04  
End of Xyce(TM) Simulation
