Index       FREQ        {SQRT(ABS(INOISE))} {SQRT(ABS(ONOISE))} {SQRT(ABS(DNO(R3)))} {SQRT(ABS(DNO(R1)))} {SQRT(ABS(DNO(R5)))} {SQRT(ABS(DNO(R4)))} {SQRT(ABS(DNO(Q1,RC)))} {SQRT(ABS(DNO(Q1,RB)))} {SQRT(ABS(DNO(Q1,RE)))} {SQRT(ABS(DNO(Q1,IC)))} {SQRT(ABS(DNO(Q1,IB)))} {SQRT(ABS(DNO(Q1,FN)))} {SQRT(ABS(DNO(Q1)))} {SQRT(ABS(DNO(R2)))} {SQRT(ABS(DNI(R3)))} {SQRT(ABS(DNI(R1)))} {SQRT(ABS(DNI(R5)))} {SQRT(ABS(DNI(R4)))} {SQRT(ABS(DNI(Q1,RC)))} {SQRT(ABS(DNI(Q1,RB)))} {SQRT(ABS(DNI(Q1,RE)))} {SQRT(ABS(DNI(Q1,IC)))} {SQRT(ABS(DNI(Q1,IB)))} {SQRT(ABS(DNI(Q1,FN)))} {SQRT(ABS(DNI(Q1)))} {SQRT(ABS(DNI(R2)))}
0        1.00000000e-02    1.28131055e-05    1.18918555e-07    2.62865149e-09    9.62985406e-09    1.08968381e-07    5.40648789e-09    5.95336583e-13    1.03859647e-09    0.00000000e+00    3.43237730e-09    3.99239701e-08    0.00000000e+00    4.00847013e-08    2.30620310e-08    2.83229048e-07    1.03758692e-06    1.17410052e-05    5.82532307e-07    6.41456709e-11    1.11905549e-07    0.00000000e+00    3.69828012e-07    4.30168398e-06    0.00000000e+00    4.31900228e-06    2.48486234e-06
1        1.07177346e-02    1.12866575e-05    1.17867837e-07    2.75972056e-09    1.01100070e-08    1.06740595e-07    5.67606570e-09    6.25020618e-13    1.09038287e-09    0.00000000e+00    3.60351882e-09    4.19146143e-08    0.00000000e+00    4.20833599e-08    2.42119242e-08    2.64262256e-07    9.68102824e-07    1.02211473e-05    5.43522395e-07    5.98500301e-11    1.04411672e-07    0.00000000e+00    3.45061753e-07    4.01361308e-06    0.00000000e+00    4.02977163e-06    2.31845854e-06
2        1.14869835e-02    9.95616557e-06    1.16750945e-07    2.89135109e-09    1.05922149e-08    1.04342771e-07    5.94679855e-09    6.54831694e-13    1.14239117e-09    0.00000000e+00    3.77539279e-09    4.39137777e-08    0.00000000e+00    4.40905718e-08    2.53667383e-08    2.46565629e-07    9.03271874e-07    8.89803424e-06    5.07124897e-07    5.58420557e-11    9.74196449e-08    0.00000000e+00    3.21954017e-07    3.74483343e-06    0.00000000e+00    3.75990989e-06    2.16319831e-06
3        1.23114441e-02    8.79609286e-06    1.15572962e-07    3.02270963e-09    1.10734239e-08    1.01778254e-07    6.21697230e-09    6.84581032e-13    1.19429205e-09    0.00000000e+00    3.94691081e-09    4.59088003e-08    0.00000000e+00    4.60936262e-08    2.65191605e-08    2.30054108e-07    8.42782459e-07    7.74619738e-06    4.73164873e-07    5.21024836e-11    9.08958607e-08    0.00000000e+00    3.00393739e-07    3.49405315e-06    0.00000000e+00    3.50811999e-06    2.01833539e-06
4        1.31950791e-02    7.78419958e-06    1.14340730e-07    3.15293135e-09    1.15504655e-08    9.90535661e-08    6.48480826e-09    7.14072742e-13    1.24574385e-09    0.00000000e+00    4.11694349e-09    4.78865452e-08    0.00000000e+00    4.80793336e-08    2.76616023e-08    2.14648332e-07    7.86343839e-07    6.74346516e-06    4.41479093e-07    4.86133397e-11    8.48089633e-08    0.00000000e+00    2.80277289e-07    3.26006687e-06    0.00000000e+00    3.27319171e-06    1.88317351e-06
5        1.41421356e-02    6.90111817e-06    1.13062776e-07    3.28114407e-09    1.20201439e-08    9.61784866e-08    6.74851261e-09    7.43109261e-13    1.29640196e-09    0.00000000e+00    4.28435180e-09    4.98337639e-08    0.00000000e+00    5.00343917e-08    2.87864106e-08    2.00274253e-07    7.33684745e-07    5.87053606e-06    4.11915263e-07    4.53578535e-11    7.91296964e-08    0.00000000e+00    2.61507979e-07    3.04174996e-06    0.00000000e+00    3.05399587e-06    1.75706301e-06
6        1.51571657e-02    6.12998370e-06    1.11749132e-07    3.40649419e-09    1.24793317e-08    9.31659758e-08    7.00632982e-09    7.71497240e-13    1.34592914e-09    0.00000000e+00    4.44802098e-09    5.17374897e-08    0.00000000e+00    5.19457819e-08    2.98860953e-08    1.86862783e-07    6.84552072e-07    5.11060714e-06    3.84331284e-07    4.23203778e-11    7.38307626e-08    0.00000000e+00    2.43995596e-07    2.83805308e-06    0.00000000e+00    2.84947892e-06    1.63939776e-06
7        1.62450479e-02    5.45611254e-06    1.10411063e-07    3.52817304e-09    1.29250657e-08    9.00319411e-08    7.25659670e-09    7.99053494e-13    1.39400588e-09    0.00000000e+00    4.60689491e-09    5.35854381e-08    0.00000000e+00    5.38011702e-08    3.09535602e-08    1.74349460e-07    6.38709668e-07    4.44905059e-06    3.58594577e-07    3.94863131e-11    6.88866931e-08    0.00000000e+00    2.27655966e-07    2.64799716e-06    0.00000000e+00    2.65865786e-06    1.52961219e-06
8        1.74110113e-02    4.86672309e-06    1.09060696e-07    3.64544164e-09    1.33546380e-08    8.67948478e-08    7.49779344e-09    8.25610618e-13    1.44034024e-09    0.00000000e+00    4.76000841e-09    5.53663824e-08    0.00000000e+00    5.55892846e-08    3.19823202e-08    1.62674140e-07    5.95937192e-07    3.87313216e-06    3.34581437e-07    3.68420375e-11    6.42737242e-08    0.00000000e+00    2.12410554e-07    2.47066873e-06    0.00000000e+00    2.48061551e-06    1.42717864e-06
9        1.86606598e-02    4.35069301e-06    1.07710604e-07    3.75765227e-09    1.37656749e-08    8.34751969e-08    7.72858795e-09    8.51021874e-13    1.48467632e-09    0.00000000e+00    4.90651548e-09    5.70704821e-08    0.00000000e+00    5.73002450e-08    3.29666910e-08    1.51780706e-07    5.56029061e-07    3.37176605e-06    3.12176448e-07    3.43748415e-11    5.99696841e-08    0.00000000e+00    1.98186083e-07    2.30521545e-06    0.00000000e+00    2.31449613e-06    1.33160476e-06
10       2.00000000e-02    3.89834800e-06    1.06373336e-07    3.86426539e-09    1.41561991e-08    8.00949046e-08    7.94787066e-09    8.75165017e-13    1.52680095e-09    0.00000000e+00    5.04571132e-09    5.86895389e-08    0.00000000e+00    5.89258203e-08    3.39019369e-08    1.41616799e-07    5.18793458e-07    2.93530150e-06    2.91271920e-07    3.20728665e-11    5.59538855e-08    0.00000000e+00    1.84914185e-07    2.15084208e-06    0.00000000e+00    2.15950128e-06    1.24243117e-06
11       2.14354693e-02    3.50127803e-06    1.05060967e-07    3.96486087e-09    1.45246704e-08    7.66766244e-08    8.15477757e-09    8.97944834e-13    1.56654818e-09    0.00000000e+00    5.17704699e-09    6.02171678e-08    0.00000000e+00    6.04595996e-08    3.47843694e-08    1.32133566e-07    4.84051412e-07    2.55533704e-06    2.71767378e-07    2.99250483e-11    5.22070267e-08    0.00000000e+00    1.72531068e-07    2.00680664e-06    0.00000000e+00    2.01488596e-06    1.15922927e-06
12       2.29739671e-02    3.15217721e-06    1.03784677e-07    4.05914305e-09    1.48700046e-08    7.32430621e-08    8.34870073e-09    9.19294301e-13    1.60380120e-09    0.00000000e+00    5.30013605e-09    6.16488734e-08    0.00000000e+00    6.18970695e-08    3.56113920e-08    1.23285428e-07    4.51635937e-07    2.22455876e-06    2.53569073e-07    2.79210635e-11    4.87110985e-08    0.00000000e+00    1.60977214e-07    1.87241682e-06    0.00000000e+00    1.87995510e-06    1.08159915e-06
13       2.46228883e-02    2.84470409e-06    1.02554391e-07    4.14693983e-09    1.51915699e-08    6.98163256e-08    8.52928635e-09    9.39174365e-13    1.63849206e-09    0.00000000e+00    5.41475336e-09    6.29820368e-08    0.00000000e+00    6.32356005e-08    3.63814917e-08    1.15029855e-07    4.21391230e-07    1.93659955e-06    2.36589536e-07    2.60512800e-11    4.54492980e-08    0.00000000e+00    1.50197090e-07    1.74702669e-06    0.00000000e+00    1.75406016e-06    1.00916769e-06
14       2.63901582e-02    2.57335951e-06    1.01378520e-07    4.22819639e-09    1.54891639e-08    6.64173497e-08    8.69642187e-09    9.57572526e-13    1.67059914e-09    0.00000000e+00    5.52082685e-09    6.42158193e-08    0.00000000e+00    6.44743506e-08    3.70941841e-08    1.07327168e-07    3.93171920e-07    1.68591649e-06    2.20747156e-07    2.43067108e-11    4.24059475e-08    0.00000000e+00    1.40138880e-07    1.63003356e-06    0.00000000e+00    1.63659603e-06    9.41586753e-07
15       2.82842712e-02    2.33337977e-06    1.00263790e-07    4.30296453e-09    1.57629748e-08    6.30654229e-08    8.85021404e-09    9.74500416e-13    1.70014294e-09    0.00000000e+00    5.61842358e-09    6.53510005e-08    0.00000000e+00    6.56141025e-08    3.77499195e-08    1.00140344e-07    3.66842372e-07    1.46768421e-06    2.05965787e-07    2.26789707e-11    3.95664192e-08    0.00000000e+00    1.30754243e-07    1.52087511e-06    0.00000000e+00    1.52699812e-06    8.78531505e-07
16       3.03143313e-02    2.12064275e-06    9.92151767e-08    4.37138887e-09    1.60135305e-08    5.97778331e-08    8.99096057e-09    9.89990678e-13    1.72718066e-09    0.00000000e+00    5.70773176e-09    6.63897691e-08    0.00000000e+00    6.66570536e-08    3.83499621e-08    9.34348394e-08    3.42276036e-07    1.27770198e-06    1.92174383e-07    2.11602360e-11    3.69170651e-08    0.00000000e+00    1.21998069e-07    1.41902668e-06    0.00000000e+00    1.42473966e-06    8.19698878e-07
17       3.24900959e-02    1.93158554e-06    9.82359310e-08    4.43369120e-09    1.62416413e-08    5.65696347e-08    9.11911793e-09    1.00409342e-12    1.75179998e-09    0.00000000e+00    5.78904024e-09    6.73354845e-08    0.00000000e+00    6.76065771e-08    3.88962526e-08    8.71784255e-08    3.19354834e-07    1.11231285e-06    1.79306656e-07    1.97432070e-11    3.44451512e-08    0.00000000e+00    1.13828273e-07    1.32399873e-06    0.00000000e+00    1.32932915e-06    7.64806097e-07
18       3.48220225e-02    1.76313190e-06    9.73276835e-08    4.49015421e-09    1.64483402e-08    5.34535342e-08    9.23526782e-09    1.01687250e-12    1.77411264e-09    0.00000000e+00    5.86271729e-09    6.81924295e-08    0.00000000e+00    6.84669728e-08    3.93912649e-08    8.13410308e-08    2.97968596e-07    9.68333240e-07    1.67300758e-07    1.84210728e-11    3.21387963e-08    0.00000000e+00    1.06205588e-07    1.23533452e-06    0.00000000e+00    1.24030799e-06    7.13589320e-07
19       3.73213197e-02    1.61262843e-06    9.64906067e-08    4.54110547e-09    1.66348243e-08    5.04398782e-08    9.34008442e-09    1.02840196e-12    1.79424817e-09    0.00000000e+00    5.92918969e-09    6.89655675e-08    0.00000000e+00    6.92432243e-08    3.98378660e-08    7.58945979e-08    2.78014530e-07    8.42991712e-07    1.56098984e-07    1.71874787e-11    2.99869150e-08    0.00000000e+00    9.90933751e-08    1.15260789e-06    0.00000000e+00    1.15724832e-06    6.65802378e-07
20       4.00000000e-02    1.47778839e-06    9.57236157e-08    4.58690269e-09    1.68024008e-08    4.75367273e-08    9.43430384e-09    1.03876261e-12    1.81234797e-09    0.00000000e+00    5.98892338e-09    6.96603174e-08    0.00000000e+00    6.99407723e-08    4.02391862e-08    7.08129490e-08    2.59396729e-07    7.33875574e-07    1.45647493e-07    1.60364954e-11    2.79791645e-08    0.00000000e+00    9.24574499e-08    1.07542122e-06    0.00000000e+00    1.07975091e-06    6.21215585e-07
21       4.28709385e-02    1.35664220e-06    9.50245887e-08    4.62792050e-09    1.69524383e-08    4.47499959e-08    9.51869711e-09    1.04803907e-12    1.82856017e-09    0.00000000e+00    6.04240625e-09    7.02823532e-08    0.00000000e+00    7.05653136e-08    4.05985029e-08    6.60716592e-08    2.42025706e-07    6.38884458e-07    1.35896049e-07    1.49625907e-11    2.61058945e-08    0.00000000e+00    8.62659172e-08    1.00340351e-06    0.00000000e+00    1.00744327e-06    5.79614635e-07
22       4.59479342e-02    1.24749415e-06    9.43905901e-08    4.66453924e-09    1.70863257e-08    4.20836377e-08    9.59404709e-09    1.05631723e-12    1.84303514e-09    0.00000000e+00    6.09013347e-09    7.08374336e-08    0.00000000e+00    7.11226300e-08    4.09191428e-08    6.16479398e-08    2.25817969e-07    5.56189889e-07    1.26797784e-07    1.39606031e-11    2.43581013e-08    0.00000000e+00    8.04890177e-08    9.36208619e-07    0.00000000e+00    9.39977860e-07    5.40799577e-07
23       4.92457765e-02    1.14888432e-06    9.38180831e-08    4.69713582e-09    1.72054386e-08    3.95398587e-08    9.66112963e-09    1.06368215e-12    1.85592193e-09    0.00000000e+00    6.13259548e-09    7.13312617e-08    0.00000000e+00    7.16184479e-08    4.12044001e-08    5.75205284e-08    2.10695615e-07    4.84200085e-07    1.18308966e-07    1.30257165e-11    2.27273842e-08    0.00000000e+00    7.50989850e-08    8.73513567e-07    0.00000000e+00    8.77030412e-07    5.04583847e-07
24       5.27803164e-02    1.05955545e-06    9.33031236e-08    4.72607649e-09    1.73111130e-08    3.71193432e-08    9.72069878e-09    1.07021645e-12    1.86736541e-09    0.00000000e+00    6.17026856e-09    7.17693763e-08    0.00000000e+00    7.20583281e-08    4.14574742e-08    5.36695867e-08    1.96585960e-07    4.21529321e-07    1.10388795e-07    1.21534374e-11    2.12059052e-08    0.00000000e+00    7.00699120e-08    8.15017018e-07    0.00000000e+00    8.18298371e-07    4.70793377e-07
25       5.65685425e-02    9.78424005e-07    9.28415286e-08    4.75171150e-09    1.74046254e-08    3.48214800e-08    9.77347582e-09    1.07599906e-12    1.87750413e-09    0.00000000e+00    6.20360783e-09    7.21570694e-08    0.00000000e+00    7.24475840e-08    4.16814221e-08    5.00766055e-08    1.83421186e-07    3.66971252e-07    1.02999202e-07    1.13395732e-11    1.97863514e-08    0.00000000e+00    6.53776269e-08    7.60437811e-07    0.00000000e+00    7.63499442e-07    4.39265753e-07
26       6.06286627e-02    9.04555211e-07    9.24290174e-08    4.77437140e-09    1.74871790e-08    3.26445794e-08    9.82014157e-09    1.08110439e-12    1.88646888e-09    0.00000000e+00    6.23304231e-09    7.24993293e-08    0.00000000e+00    7.27912243e-08    4.18791252e-08    4.67243151e-08    1.71138018e-07    3.19475693e-07    9.61046701e-08    1.05802121e-11    1.84618997e-08    0.00000000e+00    6.09995764e-08    7.09513613e-07    0.00000000e+00    7.12370239e-07    4.09849439e-07
27       6.49801917e-02    8.37141385e-07    9.20613253e-08    4.79436462e-09    1.75598948e-08    3.05860758e-08    9.86133156e-09    1.08560179e-12    1.89438175e-09    0.00000000e+00    6.25897180e-09    7.28008042e-08    0.00000000e+00    7.30939156e-08    4.20532685e-08    4.35966029e-08    1.59677417e-07    2.78128408e-07    8.96720608e-08    9.87170439e-12    1.72261844e-08    0.00000000e+00    5.69147175e-08    6.61999660e-07    0.00000000e+00    6.64665011e-07    3.82403048e-07
28       6.96440451e-02    7.75483349e-07    9.17342912e-08    4.81197626e-09    1.76238071e-08    2.86427111e-08    9.89763350e-09    1.08955524e-12    1.90135565e-09    0.00000000e+00    6.28176515e-09    7.30657821e-08    0.00000000e+00    7.33599635e-08    4.22063288e-08    4.06784358e-08    1.48984298e-07    2.42133506e-07    8.36704561e-08    9.21064454e-12    1.60732658e-08    0.00000000e+00    5.31034165e-08    6.17667578e-07    0.00000000e+00    6.20154464e-07    3.56794660e-07
29       7.46426393e-02    7.18974474e-07    9.14439215e-08    4.82746772e-09    1.76798620e-08    2.68106973e-08    9.92958653e-09    1.09302326e-12    1.90749415e-09    0.00000000e+00    6.30175977e-09    7.32981849e-08    0.00000000e+00    7.35933056e-08    4.23405716e-08    3.79557876e-08    1.39007265e-07    2.10798123e-07    7.80710094e-08    8.59385524e-12    1.49976027e-08    0.00000000e+00    4.95473547e-08    5.76304287e-07    0.00000000e+00    5.78624662e-07    3.32901189e-07
30       8.00000000e-02    6.67087047e-07    9.11864346e-08    4.84107699e-09    1.77289178e-08    2.50858584e-08    9.95768190e-09    1.09605897e-12    1.91289162e-09    0.00000000e+00    6.31926198e-09    7.35015721e-08    0.00000000e+00    7.37975157e-08    4.24580529e-08    3.54155721e-08    1.29698365e-07    1.83519087e-07    7.28468072e-08    8.01837190e-12    1.39940248e-08    0.00000000e+00    4.62294400e-08    5.37710975e-07    0.00000000e+00    5.39875992e-07    3.10607792e-07
31       8.57418770e-02    6.19360665e-07    9.09582880e-08    4.85301949e-09    1.77717485e-08    2.34637512e-08    9.98236468e-09    1.09871028e-12    1.91763357e-09    0.00000000e+00    6.33454788e-09    7.36791517e-08    0.00000000e+00    7.39758151e-08    4.25606258e-08    3.30455799e-08    1.21012853e-07    1.59771307e-07    6.79727396e-08    7.48142850e-12    1.30577084e-08    0.00000000e+00    4.31337250e-08    5.01702147e-07    0.00000000e+00    5.03722212e-07    2.89807318e-07
32       9.18958684e-02    5.75392354e-07    9.07561914e-08    4.86348919e-09    1.78090469e-08    2.19397670e-08    1.00040361e-08    1.10102008e-12    1.92179709e-09    0.00000000e+00    6.34786485e-09    7.38337970e-08    0.00000000e+00    7.41310884e-08    4.26499498e-08    3.08344196e-08    1.12908984e-07    1.39097663e-07    6.34253795e-08    6.98044424e-12    1.21841533e-08    0.00000000e+00    4.02453303e-08    4.68104727e-07    0.00000000e+00    4.69989549e-07    2.70399789e-07
33       9.84915531e-02    5.34828209e-07    9.05771100e-08    4.87265998e-09    1.78414298e-08    2.05092157e-08    1.00230565e-08    1.10302658e-12    1.92545140e-09    0.00000000e+00    6.35943317e-09    7.39680651e-08    0.00000000e+00    7.42659034e-08    4.27275019e-08    2.87714635e-08    1.05347807e-07    1.21100211e-07    5.91828702e-08    6.51301117e-12    1.13691607e-08    0.00000000e+00    3.75503728e-08    4.36757231e-07    0.00000000e+00    4.38515869e-07    2.52291924e-07
34       1.05560633e-01    4.97356306e-07    9.04182589e-08    4.88068717e-09    1.78694429e-08    1.91673949e-08    1.00397482e-08    1.10476360e-12    1.92865844e-09    0.00000000e+00    6.36944782e-09    7.40842186e-08    0.00000000e+00    7.43825318e-08    4.27945890e-08    2.68467959e-08    9.82929799e-08    1.05432518e-07    5.52248202e-08    6.07688258e-12    1.06088134e-08    0.00000000e+00    3.50358996e-08    4.07508989e-07    0.00000000e+00    4.09149896e-07    2.35396688e-07
35       1.13137085e-01    4.62700711e-07    9.02770921e-08    4.88770898e-09    1.78935659e-08    1.79096439e-08    1.00543992e-08    1.10626090e-12    1.93147351e-09    0.00000000e+00    6.37808036e-09    7.41842464e-08    0.00000000e+00    7.44829707e-08    4.28523599e-08    2.50511660e-08    9.17105931e-08    9.17929984e-08    5.15322052e-08    5.66996225e-12    9.89945672e-09    0.00000000e+00    3.26898247e-08    3.80219420e-07    0.00000000e+00    3.81750483e-07    2.19632876e-07
36       1.21257325e-01    4.30616420e-07    9.01512865e-08    4.89384810e-09    1.79142176e-08    1.67313877e-08    1.00672656e-08    1.10754448e-12    1.93394586e-09    0.00000000e+00    6.38548073e-09    7.42698855e-08    0.00000000e+00    7.45689640e-08    4.29018176e-08    2.33759432e-08    8.55690090e-08    7.99191065e-08    4.80872767e-08    5.29029434e-12    9.23768119e-09    0.00000000e+00    3.05008720e-08    3.54757358e-07    0.00000000e+00    3.56185936e-07    2.04924720e-07
37       1.29960383e-01    4.00885085e-07    9.00387243e-08    4.89921317e-09    1.79317608e-08    1.56281692e-08    1.00785755e-08    1.10863692e-12    1.93611931e-09    0.00000000e+00    6.39177901e-09    7.43426403e-08    0.00000000e+00    7.46420228e-08    4.29438310e-08    2.18130754e-08    7.98387085e-08    6.95822824e-08    4.48734766e-08    4.93605398e-12    8.62030598e-09    0.00000000e+00    2.84585204e-08    3.31000421e-07    0.00000000e+00    3.32333380e-07    1.91201524e-07
38       1.39288090e-01    3.73311398e-07    8.99374723e-08    4.90390018e-09    1.79465069e-08    1.45956746e-08    1.00885316e-08    1.10955759e-12    1.93803280e-09    0.00000000e+00    6.39708703e-09    7.44038019e-08    0.00000000e+00    7.47034433e-08    4.29791457e-08    2.03550509e-08    7.44921490e-08    6.05835536e-08    4.18753577e-08    4.60553854e-12    8.04436366e-09    0.00000000e+00    2.65529533e-08    3.08834422e-07    0.00000000e+00    3.10078170e-07    1.78397330e-07
