Index       FREQ        {SQRT(ABS(ONOISE))} {SQRT(ABS(INOISE))} {SQRT(ABS(DNO(RSOURCE)))} {SQRT(ABS(DNO(M1,RD)))} {SQRT(ABS(DNO(M1,RS)))} {SQRT(ABS(DNO(M1,ID)))} {SQRT(ABS(DNO(M1,FN)))} {SQRT(ABS(DNO(M1)))} {SQRT(ABS(DNO(RLOAD)))} {SQRT(ABS(DNI(RSOURCE)))} {SQRT(ABS(DNI(M1,RD)))} {SQRT(ABS(DNI(M1,RS)))} {SQRT(ABS(DNI(M1,ID)))} {SQRT(ABS(DNI(M1,FN)))} {SQRT(ABS(DNI(M1)))} {SQRT(ABS(DNI(RLOAD)))}
0        1.00000000e+02    1.26464691e-07    4.23878019e-07    1.21468886e-07    0.00000000e+00    0.00000000e+00    2.87094731e-08    0.00000000e+00    2.87094731e-08    2.03566659e-08    4.07133331e-07    0.00000000e+00    0.00000000e+00    9.62269743e-08    0.00000000e+00    9.62269743e-08    6.82304533e-08
1        1.25892541e+02    1.26464691e-07    4.23878019e-07    1.21468886e-07    0.00000000e+00    0.00000000e+00    2.87094731e-08    0.00000000e+00    2.87094731e-08    2.03566659e-08    4.07133331e-07    0.00000000e+00    0.00000000e+00    9.62269743e-08    0.00000000e+00    9.62269743e-08    6.82304533e-08
2        1.58489319e+02    1.26464691e-07    4.23878019e-07    1.21468886e-07    0.00000000e+00    0.00000000e+00    2.87094731e-08    0.00000000e+00    2.87094731e-08    2.03566659e-08    4.07133331e-07    0.00000000e+00    0.00000000e+00    9.62269743e-08    0.00000000e+00    9.62269743e-08    6.82304533e-08
3        1.99526231e+02    1.26464691e-07    4.23878019e-07    1.21468886e-07    0.00000000e+00    0.00000000e+00    2.87094731e-08    0.00000000e+00    2.87094731e-08    2.03566659e-08    4.07133331e-07    0.00000000e+00    0.00000000e+00    9.62269743e-08    0.00000000e+00    9.62269743e-08    6.82304533e-08
4        2.51188643e+02    1.26464691e-07    4.23878019e-07    1.21468886e-07    0.00000000e+00    0.00000000e+00    2.87094731e-08    0.00000000e+00    2.87094731e-08    2.03566659e-08    4.07133331e-07    0.00000000e+00    0.00000000e+00    9.62269743e-08    0.00000000e+00    9.62269743e-08    6.82304533e-08
5        3.16227766e+02    1.26464691e-07    4.23878019e-07    1.21468886e-07    0.00000000e+00    0.00000000e+00    2.87094731e-08    0.00000000e+00    2.87094731e-08    2.03566659e-08    4.07133331e-07    0.00000000e+00    0.00000000e+00    9.62269743e-08    0.00000000e+00    9.62269743e-08    6.82304533e-08
6        3.98107171e+02    1.26464691e-07    4.23878019e-07    1.21468886e-07    0.00000000e+00    0.00000000e+00    2.87094731e-08    0.00000000e+00    2.87094731e-08    2.03566659e-08    4.07133331e-07    0.00000000e+00    0.00000000e+00    9.62269743e-08    0.00000000e+00    9.62269743e-08    6.82304533e-08
7        5.01187234e+02    1.26464691e-07    4.23878019e-07    1.21468886e-07    0.00000000e+00    0.00000000e+00    2.87094731e-08    0.00000000e+00    2.87094731e-08    2.03566659e-08    4.07133331e-07    0.00000000e+00    0.00000000e+00    9.62269743e-08    0.00000000e+00    9.62269743e-08    6.82304533e-08
8        6.30957344e+02    1.26464691e-07    4.23878019e-07    1.21468886e-07    0.00000000e+00    0.00000000e+00    2.87094731e-08    0.00000000e+00    2.87094731e-08    2.03566659e-08    4.07133331e-07    0.00000000e+00    0.00000000e+00    9.62269743e-08    0.00000000e+00    9.62269743e-08    6.82304533e-08
9        7.94328235e+02    1.26464691e-07    4.23878019e-07    1.21468886e-07    0.00000000e+00    0.00000000e+00    2.87094731e-08    0.00000000e+00    2.87094731e-08    2.03566659e-08    4.07133331e-07    0.00000000e+00    0.00000000e+00    9.62269743e-08    0.00000000e+00    9.62269743e-08    6.82304533e-08
10       1.00000000e+03    1.26464691e-07    4.23878019e-07    1.21468886e-07    0.00000000e+00    0.00000000e+00    2.87094731e-08    0.00000000e+00    2.87094731e-08    2.03566659e-08    4.07133331e-07    0.00000000e+00    0.00000000e+00    9.62269743e-08    0.00000000e+00    9.62269743e-08    6.82304533e-08
11       1.25892541e+03    1.26464691e-07    4.23878019e-07    1.21468886e-07    0.00000000e+00    0.00000000e+00    2.87094731e-08    0.00000000e+00    2.87094731e-08    2.03566659e-08    4.07133331e-07    0.00000000e+00    0.00000000e+00    9.62269743e-08    0.00000000e+00    9.62269743e-08    6.82304533e-08
12       1.58489319e+03    1.26464691e-07    4.23878019e-07    1.21468886e-07    0.00000000e+00    0.00000000e+00    2.87094731e-08    0.00000000e+00    2.87094731e-08    2.03566659e-08    4.07133331e-07    0.00000000e+00    0.00000000e+00    9.62269743e-08    0.00000000e+00    9.62269743e-08    6.82304533e-08
13       1.99526231e+03    1.26464691e-07    4.23878019e-07    1.21468886e-07    0.00000000e+00    0.00000000e+00    2.87094731e-08    0.00000000e+00    2.87094731e-08    2.03566659e-08    4.07133331e-07    0.00000000e+00    0.00000000e+00    9.62269743e-08    0.00000000e+00    9.62269743e-08    6.82304533e-08
14       2.51188643e+03    1.26464691e-07    4.23878019e-07    1.21468886e-07    0.00000000e+00    0.00000000e+00    2.87094731e-08    0.00000000e+00    2.87094731e-08    2.03566659e-08    4.07133331e-07    0.00000000e+00    0.00000000e+00    9.62269743e-08    0.00000000e+00    9.62269743e-08    6.82304533e-08
15       3.16227766e+03    1.26464691e-07    4.23878019e-07    1.21468886e-07    0.00000000e+00    0.00000000e+00    2.87094731e-08    0.00000000e+00    2.87094731e-08    2.03566659e-08    4.07133331e-07    0.00000000e+00    0.00000000e+00    9.62269743e-08    0.00000000e+00    9.62269743e-08    6.82304533e-08
16       3.98107171e+03    1.26464691e-07    4.23878019e-07    1.21468886e-07    0.00000000e+00    0.00000000e+00    2.87094731e-08    0.00000000e+00    2.87094731e-08    2.03566659e-08    4.07133331e-07    0.00000000e+00    0.00000000e+00    9.62269743e-08    0.00000000e+00    9.62269743e-08    6.82304533e-08
17       5.01187234e+03    1.26464691e-07    4.23878019e-07    1.21468886e-07    0.00000000e+00    0.00000000e+00    2.87094731e-08    0.00000000e+00    2.87094731e-08    2.03566659e-08    4.07133331e-07    0.00000000e+00    0.00000000e+00    9.62269743e-08    0.00000000e+00    9.62269743e-08    6.82304533e-08
18       6.30957344e+03    1.26464691e-07    4.23878019e-07    1.21468886e-07    0.00000000e+00    0.00000000e+00    2.87094731e-08    0.00000000e+00    2.87094731e-08    2.03566659e-08    4.07133331e-07    0.00000000e+00    0.00000000e+00    9.62269743e-08    0.00000000e+00    9.62269743e-08    6.82304533e-08
19       7.94328235e+03    1.26464691e-07    4.23878019e-07    1.21468886e-07    0.00000000e+00    0.00000000e+00    2.87094731e-08    0.00000000e+00    2.87094731e-08    2.03566659e-08    4.07133331e-07    0.00000000e+00    0.00000000e+00    9.62269743e-08    0.00000000e+00    9.62269743e-08    6.82304533e-08
20       1.00000000e+04    1.26464691e-07    4.23878019e-07    1.21468886e-07    0.00000000e+00    0.00000000e+00    2.87094731e-08    0.00000000e+00    2.87094731e-08    2.03566659e-08    4.07133331e-07    0.00000000e+00    0.00000000e+00    9.62269743e-08    0.00000000e+00    9.62269743e-08    6.82304533e-08
21       1.25892541e+04    1.26464691e-07    4.23878019e-07    1.21468886e-07    0.00000000e+00    0.00000000e+00    2.87094731e-08    0.00000000e+00    2.87094731e-08    2.03566659e-08    4.07133331e-07    0.00000000e+00    0.00000000e+00    9.62269743e-08    0.00000000e+00    9.62269743e-08    6.82304533e-08
22       1.58489319e+04    1.26464691e-07    4.23878019e-07    1.21468886e-07    0.00000000e+00    0.00000000e+00    2.87094731e-08    0.00000000e+00    2.87094731e-08    2.03566659e-08    4.07133331e-07    0.00000000e+00    0.00000000e+00    9.62269743e-08    0.00000000e+00    9.62269743e-08    6.82304533e-08
23       1.99526231e+04    1.26464691e-07    4.23878019e-07    1.21468886e-07    0.00000000e+00    0.00000000e+00    2.87094731e-08    0.00000000e+00    2.87094731e-08    2.03566659e-08    4.07133331e-07    0.00000000e+00    0.00000000e+00    9.62269743e-08    0.00000000e+00    9.62269743e-08    6.82304533e-08
24       2.51188643e+04    1.26464691e-07    4.23878019e-07    1.21468886e-07    0.00000000e+00    0.00000000e+00    2.87094731e-08    0.00000000e+00    2.87094731e-08    2.03566659e-08    4.07133331e-07    0.00000000e+00    0.00000000e+00    9.62269743e-08    0.00000000e+00    9.62269743e-08    6.82304533e-08
25       3.16227766e+04    1.26464691e-07    4.23878019e-07    1.21468886e-07    0.00000000e+00    0.00000000e+00    2.87094731e-08    0.00000000e+00    2.87094731e-08    2.03566659e-08    4.07133331e-07    0.00000000e+00    0.00000000e+00    9.62269743e-08    0.00000000e+00    9.62269743e-08    6.82304533e-08
26       3.98107171e+04    1.26464691e-07    4.23878019e-07    1.21468886e-07    0.00000000e+00    0.00000000e+00    2.87094731e-08    0.00000000e+00    2.87094731e-08    2.03566659e-08    4.07133331e-07    0.00000000e+00    0.00000000e+00    9.62269743e-08    0.00000000e+00    9.62269743e-08    6.82304533e-08
27       5.01187234e+04    1.26464691e-07    4.23878019e-07    1.21468886e-07    0.00000000e+00    0.00000000e+00    2.87094731e-08    0.00000000e+00    2.87094731e-08    2.03566659e-08    4.07133331e-07    0.00000000e+00    0.00000000e+00    9.62269743e-08    0.00000000e+00    9.62269743e-08    6.82304533e-08
28       6.30957344e+04    1.26464691e-07    4.23878019e-07    1.21468886e-07    0.00000000e+00    0.00000000e+00    2.87094731e-08    0.00000000e+00    2.87094731e-08    2.03566659e-08    4.07133331e-07    0.00000000e+00    0.00000000e+00    9.62269743e-08    0.00000000e+00    9.62269743e-08    6.82304533e-08
29       7.94328235e+04    1.26464691e-07    4.23878019e-07    1.21468886e-07    0.00000000e+00    0.00000000e+00    2.87094731e-08    0.00000000e+00    2.87094731e-08    2.03566659e-08    4.07133331e-07    0.00000000e+00    0.00000000e+00    9.62269744e-08    0.00000000e+00    9.62269744e-08    6.82304533e-08
30       1.00000000e+05    1.26464691e-07    4.23878019e-07    1.21468886e-07    0.00000000e+00    0.00000000e+00    2.87094731e-08    0.00000000e+00    2.87094731e-08    2.03566659e-08    4.07133331e-07    0.00000000e+00    0.00000000e+00    9.62269744e-08    0.00000000e+00    9.62269744e-08    6.82304534e-08
31       1.25892541e+05    1.26464691e-07    4.23878019e-07    1.21468886e-07    0.00000000e+00    0.00000000e+00    2.87094731e-08    0.00000000e+00    2.87094731e-08    2.03566659e-08    4.07133331e-07    0.00000000e+00    0.00000000e+00    9.62269745e-08    0.00000000e+00    9.62269745e-08    6.82304534e-08
32       1.58489319e+05    1.26464690e-07    4.23878019e-07    1.21468886e-07    0.00000000e+00    0.00000000e+00    2.87094731e-08    0.00000000e+00    2.87094731e-08    2.03566659e-08    4.07133331e-07    0.00000000e+00    0.00000000e+00    9.62269747e-08    0.00000000e+00    9.62269747e-08    6.82304536e-08
33       1.99526231e+05    1.26464690e-07    4.23878019e-07    1.21468886e-07    0.00000000e+00    0.00000000e+00    2.87094731e-08    0.00000000e+00    2.87094731e-08    2.03566659e-08    4.07133331e-07    0.00000000e+00    0.00000000e+00    9.62269749e-08    0.00000000e+00    9.62269749e-08    6.82304537e-08
34       2.51188643e+05    1.26464690e-07    4.23878019e-07    1.21468885e-07    0.00000000e+00    0.00000000e+00    2.87094731e-08    0.00000000e+00    2.87094731e-08    2.03566659e-08    4.07133331e-07    0.00000000e+00    0.00000000e+00    9.62269753e-08    0.00000000e+00    9.62269753e-08    6.82304540e-08
35       3.16227766e+05    1.26464689e-07    4.23878019e-07    1.21468884e-07    0.00000000e+00    0.00000000e+00    2.87094731e-08    0.00000000e+00    2.87094731e-08    2.03566659e-08    4.07133331e-07    0.00000000e+00    0.00000000e+00    9.62269759e-08    0.00000000e+00    9.62269759e-08    6.82304544e-08
36       3.98107171e+05    1.26464688e-07    4.23878020e-07    1.21468883e-07    0.00000000e+00    0.00000000e+00    2.87094731e-08    0.00000000e+00    2.87094731e-08    2.03566659e-08    4.07133331e-07    0.00000000e+00    0.00000000e+00    9.62269768e-08    0.00000000e+00    9.62269768e-08    6.82304551e-08
37       5.01187234e+05    1.26464686e-07    4.23878020e-07    1.21468881e-07    0.00000000e+00    0.00000000e+00    2.87094731e-08    0.00000000e+00    2.87094731e-08    2.03566659e-08    4.07133331e-07    0.00000000e+00    0.00000000e+00    9.62269783e-08    0.00000000e+00    9.62269783e-08    6.82304561e-08
38       6.30957344e+05    1.26464683e-07    4.23878021e-07    1.21468878e-07    0.00000000e+00    0.00000000e+00    2.87094731e-08    0.00000000e+00    2.87094731e-08    2.03566659e-08    4.07133331e-07    0.00000000e+00    0.00000000e+00    9.62269807e-08    0.00000000e+00    9.62269807e-08    6.82304578e-08
39       7.94328235e+05    1.26464679e-07    4.23878022e-07    1.21468874e-07    0.00000000e+00    0.00000000e+00    2.87094731e-08    0.00000000e+00    2.87094731e-08    2.03566659e-08    4.07133331e-07    0.00000000e+00    0.00000000e+00    9.62269844e-08    0.00000000e+00    9.62269844e-08    6.82304605e-08
40       1.00000000e+06    1.26464671e-07    4.23878024e-07    1.21468866e-07    0.00000000e+00    0.00000000e+00    2.87094731e-08    0.00000000e+00    2.87094731e-08    2.03566659e-08    4.07133331e-07    0.00000000e+00    0.00000000e+00    9.62269904e-08    0.00000000e+00    9.62269904e-08    6.82304647e-08
41       1.25892541e+06    1.26464660e-07    4.23878027e-07    1.21468854e-07    0.00000000e+00    0.00000000e+00    2.87094731e-08    0.00000000e+00    2.87094731e-08    2.03566659e-08    4.07133331e-07    0.00000000e+00    0.00000000e+00    9.62269998e-08    0.00000000e+00    9.62269998e-08    6.82304714e-08
42       1.58489319e+06    1.26464642e-07    4.23878032e-07    1.21468835e-07    0.00000000e+00    0.00000000e+00    2.87094731e-08    0.00000000e+00    2.87094731e-08    2.03566659e-08    4.07133331e-07    0.00000000e+00    0.00000000e+00    9.62270147e-08    0.00000000e+00    9.62270147e-08    6.82304820e-08
43       1.99526231e+06    1.26464613e-07    4.23878041e-07    1.21468806e-07    0.00000000e+00    0.00000000e+00    2.87094731e-08    0.00000000e+00    2.87094731e-08    2.03566659e-08    4.07133331e-07    0.00000000e+00    0.00000000e+00    9.62270384e-08    0.00000000e+00    9.62270384e-08    6.82304987e-08
44       2.51188643e+06    1.26464568e-07    4.23878053e-07    1.21468758e-07    0.00000000e+00    0.00000000e+00    2.87094731e-08    0.00000000e+00    2.87094731e-08    2.03566659e-08    4.07133331e-07    0.00000000e+00    0.00000000e+00    9.62270759e-08    0.00000000e+00    9.62270759e-08    6.82305253e-08
45       3.16227766e+06    1.26464496e-07    4.23878074e-07    1.21468683e-07    0.00000000e+00    0.00000000e+00    2.87094731e-08    0.00000000e+00    2.87094731e-08    2.03566659e-08    4.07133331e-07    0.00000000e+00    0.00000000e+00    9.62271353e-08    0.00000000e+00    9.62271353e-08    6.82305675e-08
46       3.98107171e+06    1.26464381e-07    4.23878106e-07    1.21468564e-07    0.00000000e+00    0.00000000e+00    2.87094731e-08    0.00000000e+00    2.87094731e-08    2.03566659e-08    4.07133331e-07    0.00000000e+00    0.00000000e+00    9.62272295e-08    0.00000000e+00    9.62272295e-08    6.82306343e-08
47       5.01187234e+06    1.26464200e-07    4.23878157e-07    1.21468376e-07    0.00000000e+00    0.00000000e+00    2.87094731e-08    0.00000000e+00    2.87094731e-08    2.03566659e-08    4.07133331e-07    0.00000000e+00    0.00000000e+00    9.62273788e-08    0.00000000e+00    9.62273788e-08    6.82307401e-08
48       6.30957344e+06    1.26463914e-07    4.23878237e-07    1.21468077e-07    0.00000000e+00    0.00000000e+00    2.87094731e-08    0.00000000e+00    2.87094731e-08    2.03566659e-08    4.07133331e-07    0.00000000e+00    0.00000000e+00    9.62276155e-08    0.00000000e+00    9.62276155e-08    6.82309079e-08
49       7.94328235e+06    1.26463459e-07    4.23878365e-07    1.21467604e-07    0.00000000e+00    0.00000000e+00    2.87094731e-08    0.00000000e+00    2.87094731e-08    2.03566659e-08    4.07133331e-07    0.00000000e+00    0.00000000e+00    9.62279905e-08    0.00000000e+00    9.62279905e-08    6.82311738e-08
50       1.00000000e+07    1.26462738e-07    4.23878568e-07    1.21466853e-07    0.00000000e+00    0.00000000e+00    2.87094731e-08    0.00000000e+00    2.87094731e-08    2.03566659e-08    4.07133331e-07    0.00000000e+00    0.00000000e+00    9.62285849e-08    0.00000000e+00    9.62285849e-08    6.82315953e-08
51       1.25892541e+07    1.26461596e-07    4.23878889e-07    1.21465664e-07    0.00000000e+00    0.00000000e+00    2.87094731e-08    0.00000000e+00    2.87094731e-08    2.03566659e-08    4.07133331e-07    0.00000000e+00    0.00000000e+00    9.62295269e-08    0.00000000e+00    9.62295269e-08    6.82322632e-08
52       1.58489319e+07    1.26459786e-07    4.23879399e-07    1.21463780e-07    0.00000000e+00    0.00000000e+00    2.87094731e-08    0.00000000e+00    2.87094731e-08    2.03566659e-08    4.07133331e-07    0.00000000e+00    0.00000000e+00    9.62310199e-08    0.00000000e+00    9.62310199e-08    6.82333218e-08
53       1.99526231e+07    1.26456918e-07    4.23880206e-07    1.21460793e-07    0.00000000e+00    0.00000000e+00    2.87094731e-08    0.00000000e+00    2.87094731e-08    2.03566659e-08    4.07133331e-07    0.00000000e+00    0.00000000e+00    9.62333860e-08    0.00000000e+00    9.62333860e-08    6.82349996e-08
54       2.51188643e+07    1.26452372e-07    4.23881486e-07    1.21456060e-07    0.00000000e+00    0.00000000e+00    2.87094731e-08    0.00000000e+00    2.87094731e-08    2.03566659e-08    4.07133331e-07    0.00000000e+00    0.00000000e+00    9.62371361e-08    0.00000000e+00    9.62371361e-08    6.82376586e-08
55       3.16227766e+07    1.26445168e-07    4.23883513e-07    1.21448560e-07    0.00000000e+00    0.00000000e+00    2.87094731e-08    0.00000000e+00    2.87094731e-08    2.03566659e-08    4.07133331e-07    0.00000000e+00    0.00000000e+00    9.62430791e-08    0.00000000e+00    9.62430791e-08    6.82418725e-08
56       3.98107171e+07    1.26433754e-07    4.23886727e-07    1.21436677e-07    0.00000000e+00    0.00000000e+00    2.87094731e-08    0.00000000e+00    2.87094731e-08    2.03566659e-08    4.07133331e-07    0.00000000e+00    0.00000000e+00    9.62524975e-08    0.00000000e+00    9.62524975e-08    6.82485507e-08
57       5.01187234e+07    1.26415671e-07    4.23891820e-07    1.21417849e-07    0.00000000e+00    0.00000000e+00    2.87094731e-08    0.00000000e+00    2.87094731e-08    2.03566659e-08    4.07133331e-07    0.00000000e+00    0.00000000e+00    9.62674227e-08    0.00000000e+00    9.62674227e-08    6.82591336e-08
58       6.30957344e+07    1.26387028e-07    4.23899893e-07    1.21388028e-07    0.00000000e+00    0.00000000e+00    2.87094731e-08    0.00000000e+00    2.87094731e-08    2.03566659e-08    4.07133331e-07    0.00000000e+00    0.00000000e+00    9.62910729e-08    0.00000000e+00    9.62910729e-08    6.82759029e-08
59       7.94328235e+07    1.26341678e-07    4.23912686e-07    1.21340809e-07    0.00000000e+00    0.00000000e+00    2.87094731e-08    0.00000000e+00    2.87094731e-08    2.03566659e-08    4.07133331e-07    0.00000000e+00    0.00000000e+00    9.63285440e-08    0.00000000e+00    9.63285440e-08    6.83024720e-08
60       1.00000000e+08    1.26269913e-07    4.23932962e-07    1.21266084e-07    0.00000000e+00    0.00000000e+00    2.87094731e-08    0.00000000e+00    2.87094731e-08    2.03566659e-08    4.07133331e-07    0.00000000e+00    0.00000000e+00    9.63879018e-08    0.00000000e+00    9.63879018e-08    6.83445601e-08
61       1.25892541e+08    1.26156451e-07    4.23965094e-07    1.21147936e-07    0.00000000e+00    0.00000000e+00    2.87094731e-08    0.00000000e+00    2.87094731e-08    2.03566659e-08    4.07133331e-07    0.00000000e+00    0.00000000e+00    9.64819028e-08    0.00000000e+00    9.64819028e-08    6.84112123e-08
