Index       FREQ        {SQRT(ABS(ONOISE))} {SQRT(ABS(INOISE))} {SQRT(ABS(DNO(RSOURCE)))} {SQRT(ABS(DNO(M1,RD)))} {SQRT(ABS(DNO(M1,RS)))} {SQRT(ABS(DNO(M1,ID)))} {SQRT(ABS(DNO(M1,FN)))} {SQRT(ABS(DNO(M1)))} {SQRT(ABS(DNO(RLOAD)))} {SQRT(ABS(DNI(RSOURCE)))} {SQRT(ABS(DNI(M1,RD)))} {SQRT(ABS(DNI(M1,RS)))} {SQRT(ABS(DNI(M1,ID)))} {SQRT(ABS(DNI(M1,FN)))} {SQRT(ABS(DNI(M1)))} {SQRT(ABS(DNI(RLOAD)))}
0        1.00000000e+02    2.03567900e-08    1.95823903e-02    4.23233712e-13    0.00000000e+00    0.00000000e+00    7.14777901e-11    0.00000000e+00    7.14777901e-11    2.03566645e-08    4.07133331e-07    0.00000000e+00    0.00000000e+00    6.87586787e-05    0.00000000e+00    6.87586787e-05    1.95822696e-02
1        1.25892541e+02    2.03567900e-08    1.95823739e-02    4.23234067e-13    0.00000000e+00    0.00000000e+00    7.14777901e-11    0.00000000e+00    7.14777901e-11    2.03566645e-08    4.07133331e-07    0.00000000e+00    0.00000000e+00    6.87586210e-05    0.00000000e+00    6.87586210e-05    1.95822532e-02
2        1.58489319e+02    2.03567900e-08    1.95823478e-02    4.23234629e-13    0.00000000e+00    0.00000000e+00    7.14777901e-11    0.00000000e+00    7.14777901e-11    2.03566645e-08    4.07133331e-07    0.00000000e+00    0.00000000e+00    6.87585296e-05    0.00000000e+00    6.87585296e-05    1.95822271e-02
3        1.99526231e+02    2.03567900e-08    1.95823066e-02    4.23235521e-13    0.00000000e+00    0.00000000e+00    7.14777901e-11    0.00000000e+00    7.14777901e-11    2.03566645e-08    4.07133331e-07    0.00000000e+00    0.00000000e+00    6.87583848e-05    0.00000000e+00    6.87583848e-05    1.95821859e-02
4        2.51188643e+02    2.03567900e-08    1.95822412e-02    4.23236934e-13    0.00000000e+00    0.00000000e+00    7.14777901e-11    0.00000000e+00    7.14777901e-11    2.03566645e-08    4.07133331e-07    0.00000000e+00    0.00000000e+00    6.87581552e-05    0.00000000e+00    6.87581552e-05    1.95821205e-02
5        3.16227766e+02    2.03567900e-08    1.95821376e-02    4.23239174e-13    0.00000000e+00    0.00000000e+00    7.14777901e-11    0.00000000e+00    7.14777901e-11    2.03566645e-08    4.07133331e-07    0.00000000e+00    0.00000000e+00    6.87577913e-05    0.00000000e+00    6.87577913e-05    1.95820169e-02
6        3.98107171e+02    2.03567900e-08    1.95819733e-02    4.23242723e-13    0.00000000e+00    0.00000000e+00    7.14777901e-11    0.00000000e+00    7.14777901e-11    2.03566645e-08    4.07133331e-07    0.00000000e+00    0.00000000e+00    6.87572147e-05    0.00000000e+00    6.87572147e-05    1.95818526e-02
7        5.01187234e+02    2.03567900e-08    1.95817131e-02    4.23248349e-13    0.00000000e+00    0.00000000e+00    7.14777901e-11    0.00000000e+00    7.14777901e-11    2.03566645e-08    4.07133331e-07    0.00000000e+00    0.00000000e+00    6.87563008e-05    0.00000000e+00    6.87563008e-05    1.95815923e-02
8        6.30957344e+02    2.03567900e-08    1.95813006e-02    4.23257265e-13    0.00000000e+00    0.00000000e+00    7.14777901e-11    0.00000000e+00    7.14777901e-11    2.03566645e-08    4.07133331e-07    0.00000000e+00    0.00000000e+00    6.87548524e-05    0.00000000e+00    6.87548524e-05    1.95811799e-02
9        7.94328235e+02    2.03567900e-08    1.95806469e-02    4.23271396e-13    0.00000000e+00    0.00000000e+00    7.14777901e-11    0.00000000e+00    7.14777901e-11    2.03566645e-08    4.07133331e-07    0.00000000e+00    0.00000000e+00    6.87525571e-05    0.00000000e+00    6.87525571e-05    1.95805261e-02
10       1.00000000e+03    2.03567900e-08    1.95796109e-02    4.23293790e-13    0.00000000e+00    0.00000000e+00    7.14777901e-11    0.00000000e+00    7.14777901e-11    2.03566645e-08    4.07133331e-07    0.00000000e+00    0.00000000e+00    6.87489197e-05    0.00000000e+00    6.87489197e-05    1.95794902e-02
11       1.25892541e+03    2.03567900e-08    1.95779694e-02    4.23329281e-13    0.00000000e+00    0.00000000e+00    7.14777901e-11    0.00000000e+00    7.14777901e-11    2.03566645e-08    4.07133331e-07    0.00000000e+00    0.00000000e+00    6.87431560e-05    0.00000000e+00    6.87431560e-05    1.95778487e-02
12       1.58489319e+03    2.03567900e-08    1.95753687e-02    4.23385524e-13    0.00000000e+00    0.00000000e+00    7.14777901e-11    0.00000000e+00    7.14777901e-11    2.03566645e-08    4.07133331e-07    0.00000000e+00    0.00000000e+00    6.87340241e-05    0.00000000e+00    6.87340241e-05    1.95752480e-02
13       1.99526231e+03    2.03567900e-08    1.95712489e-02    4.23474647e-13    0.00000000e+00    0.00000000e+00    7.14777901e-11    0.00000000e+00    7.14777901e-11    2.03566645e-08    4.07133331e-07    0.00000000e+00    0.00000000e+00    6.87195585e-05    0.00000000e+00    6.87195585e-05    1.95711282e-02
14       2.51188643e+03    2.03567900e-08    1.95647248e-02    4.23615860e-13    0.00000000e+00    0.00000000e+00    7.14777901e-11    0.00000000e+00    7.14777901e-11    2.03566645e-08    4.07133331e-07    0.00000000e+00    0.00000000e+00    6.86966507e-05    0.00000000e+00    6.86966507e-05    1.95646042e-02
15       3.16227766e+03    2.03567900e-08    1.95543981e-02    4.23839571e-13    0.00000000e+00    0.00000000e+00    7.14777901e-11    0.00000000e+00    7.14777901e-11    2.03566645e-08    4.07133331e-07    0.00000000e+00    0.00000000e+00    6.86603913e-05    0.00000000e+00    6.86603913e-05    1.95542776e-02
16       3.98107171e+03    2.03567900e-08    1.95380650e-02    4.24193887e-13    0.00000000e+00    0.00000000e+00    7.14777901e-11    0.00000000e+00    7.14777901e-11    2.03566645e-08    4.07133331e-07    0.00000000e+00    0.00000000e+00    6.86030413e-05    0.00000000e+00    6.86030413e-05    1.95379445e-02
17       5.01187234e+03    2.03567900e-08    1.95122622e-02    4.24754835e-13    0.00000000e+00    0.00000000e+00    7.14777901e-11    0.00000000e+00    7.14777901e-11    2.03566645e-08    4.07133331e-07    0.00000000e+00    0.00000000e+00    6.85124415e-05    0.00000000e+00    6.85124415e-05    1.95121419e-02
18       6.30957344e+03    2.03567900e-08    1.94715762e-02    4.25642364e-13    0.00000000e+00    0.00000000e+00    7.14777901e-11    0.00000000e+00    7.14777901e-11    2.03566645e-08    4.07133331e-07    0.00000000e+00    0.00000000e+00    6.83695827e-05    0.00000000e+00    6.83695827e-05    1.94714562e-02
19       7.94328235e+03    2.03567900e-08    1.94076114e-02    4.27045223e-13    0.00000000e+00    0.00000000e+00    7.14777901e-11    0.00000000e+00    7.14777901e-11    2.03566645e-08    4.07133331e-07    0.00000000e+00    0.00000000e+00    6.81449861e-05    0.00000000e+00    6.81449861e-05    1.94074917e-02
20       1.00000000e+04    2.03567900e-08    1.93075127e-02    4.29259214e-13    0.00000000e+00    0.00000000e+00    7.14777901e-11    0.00000000e+00    7.14777901e-11    2.03566645e-08    4.07133331e-07    0.00000000e+00    0.00000000e+00    6.77935146e-05    0.00000000e+00    6.77935146e-05    1.93073937e-02
21       1.25892541e+04    2.03567900e-08    1.91519917e-02    4.32744951e-13    0.00000000e+00    0.00000000e+00    7.14777901e-11    0.00000000e+00    7.14777901e-11    2.03566645e-08    4.07133331e-07    0.00000000e+00    0.00000000e+00    6.72474415e-05    0.00000000e+00    6.72474415e-05    1.91518737e-02
22       1.58489319e+04    2.03567900e-08    1.89130258e-02    4.38212680e-13    0.00000000e+00    0.00000000e+00    7.14777901e-11    0.00000000e+00    7.14777901e-11    2.03566645e-08    4.07133331e-07    0.00000000e+00    0.00000000e+00    6.64083722e-05    0.00000000e+00    6.64083722e-05    1.89129092e-02
23       1.99526231e+04    2.03567900e-08    1.85519585e-02    4.46741389e-13    0.00000000e+00    0.00000000e+00    7.14777901e-11    0.00000000e+00    7.14777901e-11    2.03566645e-08    4.07133331e-07    0.00000000e+00    0.00000000e+00    6.51405746e-05    0.00000000e+00    6.51405746e-05    1.85518442e-02
24       2.51188643e+04    2.03567900e-08    1.80197945e-02    4.59934642e-13    0.00000000e+00    0.00000000e+00    7.14777901e-11    0.00000000e+00    7.14777901e-11    2.03566645e-08    4.07133331e-07    0.00000000e+00    0.00000000e+00    6.32720133e-05    0.00000000e+00    6.32720133e-05    1.80196834e-02
25       3.16227766e+04    2.03567900e-08    1.72628310e-02    4.80102465e-13    0.00000000e+00    0.00000000e+00    7.14777901e-11    0.00000000e+00    7.14777901e-11    2.03566645e-08    4.07133331e-07    0.00000000e+00    0.00000000e+00    6.06141249e-05    0.00000000e+00    6.06141249e-05    1.72627246e-02
26       3.98107171e+04    2.03567900e-08    1.62369369e-02    5.10436654e-13    0.00000000e+00    0.00000000e+00    7.14777901e-11    0.00000000e+00    7.14777901e-11    2.03566645e-08    4.07133331e-07    0.00000000e+00    0.00000000e+00    5.70119536e-05    0.00000000e+00    5.70119536e-05    1.62368368e-02
27       5.01187234e+04    2.03567900e-08    1.49297578e-02    5.55128074e-13    0.00000000e+00    0.00000000e+00    7.14777901e-11    0.00000000e+00    7.14777901e-11    2.03566645e-08    4.07133331e-07    0.00000000e+00    0.00000000e+00    5.24221205e-05    0.00000000e+00    5.24221205e-05    1.49296658e-02
28       6.30957344e+04    2.03567900e-08    1.33808190e-02    6.19388673e-13    0.00000000e+00    0.00000000e+00    7.14777901e-11    0.00000000e+00    7.14777901e-11    2.03566645e-08    4.07133331e-07    0.00000000e+00    0.00000000e+00    4.69834081e-05    0.00000000e+00    4.69834081e-05    1.33807365e-02
29       7.94328235e+04    2.03567900e-08    1.16828480e-02    7.09409873e-13    0.00000000e+00    0.00000000e+00    7.14777900e-11    0.00000000e+00    7.14777900e-11    2.03566645e-08    4.07133331e-07    0.00000000e+00    0.00000000e+00    4.10214065e-05    0.00000000e+00    4.10214065e-05    1.16827760e-02
30       1.00000000e+05    2.03567900e-08    9.95696956e-03    8.32374516e-13    0.00000000e+00    0.00000000e+00    7.14777900e-11    0.00000000e+00    7.14777900e-11    2.03566645e-08    4.07133331e-07    0.00000000e+00    0.00000000e+00    3.49614148e-05    0.00000000e+00    3.49614148e-05    9.95690818e-03
31       1.25892541e+05    2.03567900e-08    8.31575220e-03    9.96654003e-13    0.00000000e+00    0.00000000e+00    7.14777900e-11    0.00000000e+00    7.14777900e-11    2.03566645e-08    4.07133331e-07    0.00000000e+00    0.00000000e+00    2.91986895e-05    0.00000000e+00    2.91986895e-05    8.31570092e-03
32       1.58489319e+05    2.03567900e-08    6.83684927e-03    1.21224374e-12    0.00000000e+00    0.00000000e+00    7.14777899e-11    0.00000000e+00    7.14777899e-11    2.03566644e-08    4.07133331e-07    0.00000000e+00    0.00000000e+00    2.40058907e-05    0.00000000e+00    2.40058907e-05    6.83680711e-03
33       1.99526231e+05    2.03567899e-08    5.55713167e-03    1.49140387e-12    0.00000000e+00    0.00000000e+00    7.14777897e-11    0.00000000e+00    7.14777897e-11    2.03566644e-08    4.07133331e-07    0.00000000e+00    0.00000000e+00    1.95124816e-05    0.00000000e+00    1.95124816e-05    5.55709739e-03
34       2.51188643e+05    2.03567899e-08    4.48128108e-03    1.84945500e-12    0.00000000e+00    0.00000000e+00    7.14777895e-11    0.00000000e+00    7.14777895e-11    2.03566643e-08    4.07133331e-07    0.00000000e+00    0.00000000e+00    1.57349006e-05    0.00000000e+00    1.57349006e-05    4.48125343e-03
35       3.16227766e+05    2.03567898e-08    3.59451305e-03    2.30571640e-12    0.00000000e+00    0.00000000e+00    7.14777891e-11    0.00000000e+00    7.14777891e-11    2.03566642e-08    4.07133331e-07    0.00000000e+00    0.00000000e+00    1.26212358e-05    0.00000000e+00    1.26212358e-05    3.59449086e-03
36       3.98107171e+05    2.03567898e-08    2.87314351e-03    2.88462013e-12    0.00000000e+00    0.00000000e+00    7.14777885e-11    0.00000000e+00    7.14777885e-11    2.03566641e-08    4.07133331e-07    0.00000000e+00    0.00000000e+00    1.00883266e-05    0.00000000e+00    1.00883266e-05    2.87312577e-03
37       5.01187234e+05    2.03567896e-08    2.29134077e-03    3.61706459e-12    0.00000000e+00    0.00000000e+00    7.14777876e-11    0.00000000e+00    7.14777876e-11    2.03566638e-08    4.07133331e-07    0.00000000e+00    0.00000000e+00    8.04547141e-06    0.00000000e+00    8.04547141e-06    2.29132661e-03
38       6.30957344e+05    2.03567894e-08    1.82469485e-03    4.54208958e-12    0.00000000e+00    0.00000000e+00    7.14777861e-11    0.00000000e+00    7.14777861e-11    2.03566634e-08    4.07133331e-07    0.00000000e+00    0.00000000e+00    6.40696064e-06    0.00000000e+00    6.40696064e-06    1.82468356e-03
39       7.94328235e+05    2.03567890e-08    1.45173757e-03    5.70897076e-12    0.00000000e+00    0.00000000e+00    7.14777838e-11    0.00000000e+00    7.14777838e-11    2.03566627e-08    4.07133331e-07    0.00000000e+00    0.00000000e+00    5.09741413e-06    0.00000000e+00    5.09741413e-06    1.45172856e-03
40       1.00000000e+06    2.03567884e-08    1.15433141e-03    7.17985058e-12    0.00000000e+00    0.00000000e+00    7.14777801e-11    0.00000000e+00    7.14777801e-11    2.03566617e-08    4.07133331e-07    0.00000000e+00    0.00000000e+00    4.05314657e-06    0.00000000e+00    4.05314657e-06    1.15432423e-03
41       1.25892541e+06    2.03567875e-08    9.17511617e-04    9.03304825e-12    0.00000000e+00    0.00000000e+00    7.14777743e-11    0.00000000e+00    7.14777743e-11    2.03566600e-08    4.07133331e-07    0.00000000e+00    0.00000000e+00    3.22161286e-06    0.00000000e+00    3.22161286e-06    9.17505871e-04
42       1.58489319e+06    2.03567860e-08    7.29107230e-04    1.13672252e-11    0.00000000e+00    0.00000000e+00    7.14777651e-11    0.00000000e+00    7.14777651e-11    2.03566574e-08    4.07133331e-07    0.00000000e+00    0.00000000e+00    2.56007776e-06    0.00000000e+00    2.56007776e-06    7.29102622e-04
43       1.99526231e+06    2.03567837e-08    5.79306781e-04    1.43066255e-11    0.00000000e+00    0.00000000e+00    7.14777504e-11    0.00000000e+00    7.14777504e-11    2.03566532e-08    4.07133331e-07    0.00000000e+00    0.00000000e+00    2.03409075e-06    0.00000000e+00    2.03409075e-06    5.79303067e-04
44       2.51188643e+06    2.03567800e-08    4.60244287e-04    1.80076622e-11    0.00000000e+00    0.00000000e+00    7.14777272e-11    0.00000000e+00    7.14777272e-11    2.03566466e-08    4.07133331e-07    0.00000000e+00    0.00000000e+00    1.61603238e-06    0.00000000e+00    1.61603238e-06    4.60241270e-04
45       3.16227766e+06    2.03567742e-08    3.65635180e-04    2.26671878e-11    0.00000000e+00    0.00000000e+00    7.14776904e-11    0.00000000e+00    7.14776904e-11    2.03566361e-08    4.07133331e-07    0.00000000e+00    0.00000000e+00    1.28383593e-06    0.00000000e+00    1.28383593e-06    3.65632700e-04
46       3.98107171e+06    2.03567650e-08    2.90469249e-04    2.85328570e-11    0.00000000e+00    0.00000000e+00    7.14776321e-11    0.00000000e+00    7.14776321e-11    2.03566195e-08    4.07133331e-07    0.00000000e+00    0.00000000e+00    1.01990931e-06    0.00000000e+00    1.01990931e-06    2.90467173e-04
47       5.01187234e+06    2.03567504e-08    2.30757710e-04    3.59160766e-11    0.00000000e+00    0.00000000e+00    7.14775398e-11    0.00000000e+00    7.14775398e-11    2.03565932e-08    4.07133331e-07    0.00000000e+00    0.00000000e+00    8.10246875e-07    0.00000000e+00    8.10246875e-07    2.30755928e-04
48       6.30957344e+06    2.03567272e-08    1.83327763e-04    4.52081128e-11    0.00000000e+00    0.00000000e+00    7.14773934e-11    0.00000000e+00    7.14773934e-11    2.03565515e-08    4.07133331e-07    0.00000000e+00    0.00000000e+00    6.43708121e-07    0.00000000e+00    6.43708121e-07    1.83326181e-04
49       7.94328235e+06    2.03566906e-08    1.45657125e-04    5.68999781e-11    0.00000000e+00    0.00000000e+00    7.14771617e-11    0.00000000e+00    7.14771617e-11    2.03564855e-08    4.07133331e-07    0.00000000e+00    0.00000000e+00    5.11436664e-07    0.00000000e+00    5.11436664e-07    1.45655658e-04
50       1.00000000e+07    2.03566325e-08    1.15741467e-04    7.16066923e-11    0.00000000e+00    0.00000000e+00    7.14767948e-11    0.00000000e+00    7.14767948e-11    2.03563810e-08    4.07133331e-07    0.00000000e+00    0.00000000e+00    4.06394775e-07    0.00000000e+00    4.06394775e-07    1.15740037e-04
51       1.25892541e+07    2.03565406e-08    9.19885467e-05    9.00962835e-11    0.00000000e+00    0.00000000e+00    7.14762143e-11    0.00000000e+00    7.14762143e-11    2.03562157e-08    4.07133331e-07    0.00000000e+00    0.00000000e+00    3.22991672e-07    0.00000000e+00    3.22991672e-07    9.19870787e-05
52       1.58489319e+07    2.03563953e-08    7.31338580e-05    1.13323258e-10    0.00000000e+00    0.00000000e+00    7.14752967e-11    0.00000000e+00    7.14752967e-11    2.03559544e-08    4.07133331e-07    0.00000000e+00    0.00000000e+00    2.56787320e-07    0.00000000e+00    2.56787320e-07    7.31322740e-05
53       1.99526231e+07    2.03561660e-08    5.81734972e-05    1.42464766e-10    0.00000000e+00    0.00000000e+00    7.14738485e-11    0.00000000e+00    7.14738485e-11    2.03555419e-08    4.07133331e-07    0.00000000e+00    0.00000000e+00    2.04256722e-07    0.00000000e+00    2.04256722e-07    5.81717139e-05
54       2.51188643e+07    2.03558047e-08    4.63107915e-05    1.78954544e-10    0.00000000e+00    0.00000000e+00    7.14715685e-11    0.00000000e+00    7.14715685e-11    2.03548926e-08    4.07133331e-07    0.00000000e+00    0.00000000e+00    1.62602508e-07    0.00000000e+00    1.62602508e-07    4.63087163e-05
55       3.16227766e+07    2.03552378e-08    3.69138845e-05    2.24503486e-10    0.00000000e+00    0.00000000e+00    7.14679926e-11    0.00000000e+00    7.14679926e-11    2.03538742e-08    4.07133331e-07    0.00000000e+00    0.00000000e+00    1.29606014e-07    0.00000000e+00    1.29606014e-07    3.69114117e-05
56       3.98107171e+07    2.03543529e-08    2.94820314e-05    2.81084278e-10    0.00000000e+00    0.00000000e+00    7.14624179e-11    0.00000000e+00    7.14624179e-11    2.03522866e-08    4.07133331e-07    0.00000000e+00    0.00000000e+00    1.03508928e-07    0.00000000e+00    1.03508928e-07    2.94790384e-05
57       5.01187234e+07    2.03529838e-08    2.36187842e-05    3.50838469e-10    0.00000000e+00    0.00000000e+00    7.14538074e-11    0.00000000e+00    7.14538074e-11    2.03498343e-08    4.07133331e-07    0.00000000e+00    0.00000000e+00    8.29191471e-08    0.00000000e+00    8.29191471e-08    2.36151293e-05
58       6.30957344e+07    2.03508929e-08    1.90105871e-05    4.35837503e-10    0.00000000e+00    0.00000000e+00    7.14406953e-11    0.00000000e+00    7.14406953e-11    2.03461000e-08    4.07133331e-07    0.00000000e+00    0.00000000e+00    6.67356251e-08    0.00000000e+00    6.67356251e-08    1.90061099e-05
59       7.94328235e+07    2.03477617e-08    1.54095487e-05    5.37605101e-10    0.00000000e+00    0.00000000e+00    7.14211482e-11    0.00000000e+00    7.14211482e-11    2.03405331e-08    4.07133331e-07    0.00000000e+00    0.00000000e+00    5.40878983e-08    0.00000000e+00    5.40878983e-08    1.54040744e-05
60       1.00000000e+08    2.03432022e-08    1.26193543e-05    6.56324837e-10    0.00000000e+00    0.00000000e+00    7.13928954e-11    0.00000000e+00    7.13928954e-11    2.03324868e-08    4.07133331e-07    0.00000000e+00    0.00000000e+00    4.42866485e-08    0.00000000e+00    4.42866485e-08    1.26127073e-05
61       1.25892541e+08    2.03368119e-08    1.04834814e-05    7.89794313e-10    0.00000000e+00    0.00000000e+00    7.13537728e-11    0.00000000e+00    7.13537728e-11    2.03213448e-08    4.07133331e-07    0.00000000e+00    0.00000000e+00    3.67823606e-08    0.00000000e+00    3.67823606e-08    1.04755082e-05
