Index       V(2)              V(1)             I(VDS)           N(M1:GM)          N(M1:VTH)        N(M1:VDSAT)        N(M1:VDS)         N(M1:VGS)         N(M1:VBS)     {N(M1:VDS)-N(M1:VDSAT)}
0        0.00000000e+00    0.00000000e+00    0.00000000e+00    0.00000000e+00    3.04361422e-01    3.82737400e-02    0.00000000e+00    0.00000000e+00    0.00000000e+00   -3.82737400e-02
1        5.00000000e-02    0.00000000e+00   -3.05537186e-09    7.79198277e-08    3.03674771e-01    3.82726610e-02    5.00000000e-02    0.00000000e+00    0.00000000e+00    1.17273390e-02
2        1.00000000e-01    0.00000000e+00   -3.55018913e-09    9.05324274e-08    3.02988120e-01    3.82715853e-02    1.00000000e-01    0.00000000e+00    0.00000000e+00    6.17284147e-02
3        1.50000000e-01    0.00000000e+00   -3.81943855e-09    9.73878385e-08    3.02301469e-01    3.82705129e-02    1.50000000e-01    0.00000000e+00    0.00000000e+00    1.11729487e-01
4        2.00000000e-01    0.00000000e+00   -4.04386005e-09    1.03098380e-07    3.01614819e-01    3.82694438e-02    2.00000000e-01    0.00000000e+00    0.00000000e+00    1.61730556e-01
5        2.50000000e-01    0.00000000e+00   -4.24963716e-09    1.08332152e-07    3.00928168e-01    3.82683783e-02    2.50000000e-01    0.00000000e+00    0.00000000e+00    2.11731622e-01
6        3.00000000e-01    0.00000000e+00   -4.44576149e-09    1.13318552e-07    3.00241517e-01    3.82673163e-02    3.00000000e-01    0.00000000e+00    0.00000000e+00    2.61732684e-01
7        3.50000000e-01    0.00000000e+00   -4.63675053e-09    1.18172809e-07    2.99554867e-01    3.82662580e-02    3.50000000e-01    0.00000000e+00    0.00000000e+00    3.11733742e-01
8        4.00000000e-01    0.00000000e+00   -4.82530799e-09    1.22963871e-07    2.98868216e-01    3.82652034e-02    4.00000000e-01    0.00000000e+00    0.00000000e+00    3.61734797e-01
9        4.50000000e-01    0.00000000e+00   -5.01321665e-09    1.27737181e-07    2.98181565e-01    3.82641526e-02    4.50000000e-01    0.00000000e+00    0.00000000e+00    4.11735847e-01
10       5.00000000e-01    0.00000000e+00   -5.20173001e-09    1.32524672e-07    2.97494914e-01    3.82631058e-02    5.00000000e-01    0.00000000e+00    0.00000000e+00    4.61736894e-01
11       5.50000000e-01    0.00000000e+00   -5.39177323e-09    1.37349899e-07    2.96808264e-01    3.82620630e-02    5.50000000e-01    0.00000000e+00    0.00000000e+00    5.11737937e-01
12       6.00000000e-01    0.00000000e+00   -5.58405705e-09    1.42230941e-07    2.96121613e-01    3.82610242e-02    6.00000000e-01    0.00000000e+00    0.00000000e+00    5.61738976e-01
13       6.50000000e-01    0.00000000e+00   -5.77914669e-09    1.47182161e-07    2.95434962e-01    3.82599897e-02    6.50000000e-01    0.00000000e+00    0.00000000e+00    6.11740010e-01
14       7.00000000e-01    0.00000000e+00   -5.97750578e-09    1.52215328e-07    2.94748312e-01    3.82589595e-02    7.00000000e-01    0.00000000e+00    0.00000000e+00    6.61741040e-01
15       7.50000000e-01    0.00000000e+00   -6.17952544e-09    1.57340357e-07    2.94061661e-01    3.82579337e-02    7.50000000e-01    0.00000000e+00    0.00000000e+00    7.11742066e-01
16       8.00000000e-01    0.00000000e+00   -6.38554400e-09    1.62565813e-07    2.93375010e-01    3.82569124e-02    8.00000000e-01    0.00000000e+00    0.00000000e+00    7.61743088e-01
17       8.50000000e-01    0.00000000e+00   -6.59586098e-09    1.67899270e-07    2.92688359e-01    3.82558957e-02    8.50000000e-01    0.00000000e+00    0.00000000e+00    8.11744104e-01
18       9.00000000e-01    0.00000000e+00   -6.81074692e-09    1.73347557e-07    2.92001709e-01    3.82548838e-02    9.00000000e-01    0.00000000e+00    0.00000000e+00    8.61745116e-01
19       9.50000000e-01    0.00000000e+00   -7.03045073e-09    1.78916950e-07    2.91315058e-01    3.82538766e-02    9.50000000e-01    0.00000000e+00    0.00000000e+00    9.11746123e-01
20       1.00000000e+00    0.00000000e+00   -7.25520504e-09    1.84613305e-07    2.90628407e-01    3.82528744e-02    1.00000000e+00    0.00000000e+00    0.00000000e+00    9.61747126e-01
21       1.05000000e+00    0.00000000e+00   -7.48523028e-09    1.90442164e-07    2.89941757e-01    3.82518772e-02    1.05000000e+00    0.00000000e+00    0.00000000e+00    1.01174812e+00
22       1.10000000e+00    0.00000000e+00   -7.72073782e-09    1.96408836e-07    2.89255106e-01    3.82508852e-02    1.10000000e+00    0.00000000e+00    0.00000000e+00    1.06174911e+00
23       1.15000000e+00    0.00000000e+00   -7.96193240e-09    2.02518456e-07    2.88568455e-01    3.82498984e-02    1.15000000e+00    0.00000000e+00    0.00000000e+00    1.11175010e+00
24       1.20000000e+00    0.00000000e+00   -8.20901404e-09    2.08776036e-07    2.87881804e-01    3.82489171e-02    1.20000000e+00    0.00000000e+00    0.00000000e+00    1.16175108e+00
25       1.25000000e+00    0.00000000e+00   -8.46217956e-09    2.15186502e-07    2.87195154e-01    3.82479412e-02    1.25000000e+00    0.00000000e+00    0.00000000e+00    1.21175206e+00
26       1.30000000e+00    0.00000000e+00   -8.72162383e-09    2.21754726e-07    2.86508503e-01    3.82469710e-02    1.30000000e+00    0.00000000e+00    0.00000000e+00    1.26175303e+00
27       1.35000000e+00    0.00000000e+00   -8.98754077e-09    2.28485555e-07    2.85821852e-01    3.82460065e-02    1.35000000e+00    0.00000000e+00    0.00000000e+00    1.31175399e+00
28       1.40000000e+00    0.00000000e+00   -9.26012415e-09    2.35383825e-07    2.85135201e-01    3.82450479e-02    1.40000000e+00    0.00000000e+00    0.00000000e+00    1.36175495e+00
29       1.45000000e+00    0.00000000e+00   -9.53956835e-09    2.42454385e-07    2.84448551e-01    3.82440953e-02    1.45000000e+00    0.00000000e+00    0.00000000e+00    1.41175590e+00
30       1.50000000e+00    0.00000000e+00   -9.82606888e-09    2.49702109e-07    2.83761900e-01    3.82431489e-02    1.50000000e+00    0.00000000e+00    0.00000000e+00    1.46175685e+00
31       1.55000000e+00    0.00000000e+00   -1.01198229e-08    2.57131907e-07    2.83075249e-01    3.82422086e-02    1.55000000e+00    0.00000000e+00    0.00000000e+00    1.51175779e+00
32       1.60000000e+00    0.00000000e+00   -1.04210298e-08    2.64748742e-07    2.82388599e-01    3.82412748e-02    1.60000000e+00    0.00000000e+00    0.00000000e+00    1.56175873e+00
33       1.65000000e+00    0.00000000e+00   -1.07298911e-08    2.72557631e-07    2.81701948e-01    3.82403476e-02    1.65000000e+00    0.00000000e+00    0.00000000e+00    1.61175965e+00
34       1.70000000e+00    0.00000000e+00   -1.10466115e-08    2.80563661e-07    2.81015297e-01    3.82394270e-02    1.70000000e+00    0.00000000e+00    0.00000000e+00    1.66176057e+00
35       1.75000000e+00    0.00000000e+00   -1.13713987e-08    2.88771991e-07    2.80328646e-01    3.82385132e-02    1.75000000e+00    0.00000000e+00    0.00000000e+00    1.71176149e+00
36       1.80000000e+00    0.00000000e+00   -1.17044636e-08    2.97187864e-07    2.79641996e-01    3.82376063e-02    1.80000000e+00    0.00000000e+00    0.00000000e+00    1.76176239e+00
37       1.85000000e+00    0.00000000e+00   -1.20460210e-08    3.05816608e-07    2.78955345e-01    3.82367066e-02    1.85000000e+00    0.00000000e+00    0.00000000e+00    1.81176329e+00
38       1.90000000e+00    0.00000000e+00   -1.23962893e-08    3.14663643e-07    2.78268694e-01    3.82358141e-02    1.90000000e+00    0.00000000e+00    0.00000000e+00    1.86176419e+00
39       1.95000000e+00    0.00000000e+00   -1.27554911e-08    3.23734490e-07    2.77582044e-01    3.82349290e-02    1.95000000e+00    0.00000000e+00    0.00000000e+00    1.91176507e+00
40       2.00000000e+00    0.00000000e+00   -1.31238533e-08    3.33034771e-07    2.76895393e-01    3.82340515e-02    2.00000000e+00    0.00000000e+00    0.00000000e+00    1.96176595e+00
41       2.05000000e+00    0.00000000e+00   -1.35016072e-08    3.42570217e-07    2.76208742e-01    3.82331817e-02    2.05000000e+00    0.00000000e+00    0.00000000e+00    2.01176682e+00
42       2.10000000e+00    0.00000000e+00   -1.38889887e-08    3.52346669e-07    2.75522091e-01    3.82323197e-02    2.10000000e+00    0.00000000e+00    0.00000000e+00    2.06176768e+00
43       2.15000000e+00    0.00000000e+00   -1.42862386e-08    3.62370086e-07    2.74835441e-01    3.82314658e-02    2.15000000e+00    0.00000000e+00    0.00000000e+00    2.11176853e+00
44       2.20000000e+00    0.00000000e+00   -1.46936026e-08    3.72646548e-07    2.74148790e-01    3.82306201e-02    2.20000000e+00    0.00000000e+00    0.00000000e+00    2.16176938e+00
45       2.25000000e+00    0.00000000e+00   -1.51113317e-08    3.83182258e-07    2.73462139e-01    3.82297827e-02    2.25000000e+00    0.00000000e+00    0.00000000e+00    2.21177022e+00
46       2.30000000e+00    0.00000000e+00   -1.55396820e-08    3.93983549e-07    2.72775488e-01    3.82289539e-02    2.30000000e+00    0.00000000e+00    0.00000000e+00    2.26177105e+00
47       2.35000000e+00    0.00000000e+00   -1.59789152e-08    4.05056886e-07    2.72088838e-01    3.82281337e-02    2.35000000e+00    0.00000000e+00    0.00000000e+00    2.31177187e+00
48       2.40000000e+00    0.00000000e+00   -1.64292987e-08    4.16408868e-07    2.71402187e-01    3.82273225e-02    2.40000000e+00    0.00000000e+00    0.00000000e+00    2.36177268e+00
49       2.45000000e+00    0.00000000e+00   -1.68911055e-08    4.28046238e-07    2.70715536e-01    3.82265203e-02    2.45000000e+00    0.00000000e+00    0.00000000e+00    2.41177348e+00
50       2.50000000e+00    0.00000000e+00   -1.73646148e-08    4.39975879e-07    2.70028886e-01    3.82257273e-02    2.50000000e+00    0.00000000e+00    0.00000000e+00    2.46177427e+00
51       2.55000000e+00    0.00000000e+00   -1.78501117e-08    4.52204823e-07    2.69342235e-01    3.82249438e-02    2.55000000e+00    0.00000000e+00    0.00000000e+00    2.51177506e+00
52       2.60000000e+00    0.00000000e+00   -1.83478876e-08    4.64740253e-07    2.68655584e-01    3.82241698e-02    2.60000000e+00    0.00000000e+00    0.00000000e+00    2.56177583e+00
53       2.65000000e+00    0.00000000e+00   -1.88582405e-08    4.77589508e-07    2.67968933e-01    3.82234057e-02    2.65000000e+00    0.00000000e+00    0.00000000e+00    2.61177659e+00
54       2.70000000e+00    0.00000000e+00   -1.93814748e-08    4.90760085e-07    2.67282283e-01    3.82226516e-02    2.70000000e+00    0.00000000e+00    0.00000000e+00    2.66177735e+00
55       2.75000000e+00    0.00000000e+00   -1.99179017e-08    5.04259642e-07    2.66595632e-01    3.82219076e-02    2.75000000e+00    0.00000000e+00    0.00000000e+00    2.71177809e+00
56       2.80000000e+00    0.00000000e+00   -2.04678393e-08    5.18096006e-07    2.65908981e-01    3.82211740e-02    2.80000000e+00    0.00000000e+00    0.00000000e+00    2.76177883e+00
57       2.85000000e+00    0.00000000e+00   -2.10316129e-08    5.32277173e-07    2.65222331e-01    3.82204511e-02    2.85000000e+00    0.00000000e+00    0.00000000e+00    2.81177955e+00
58       2.90000000e+00    0.00000000e+00   -2.16095548e-08    5.46811314e-07    2.64535680e-01    3.82197389e-02    2.90000000e+00    0.00000000e+00    0.00000000e+00    2.86178026e+00
59       2.95000000e+00    0.00000000e+00   -2.22020050e-08    5.61706778e-07    2.63849029e-01    3.82190378e-02    2.95000000e+00    0.00000000e+00    0.00000000e+00    2.91178096e+00
60       3.00000000e+00    0.00000000e+00   -2.28093108e-08    5.76972096e-07    2.63162378e-01    3.82183479e-02    3.00000000e+00    0.00000000e+00    0.00000000e+00    2.96178165e+00
61       3.05000000e+00    0.00000000e+00   -2.34318276e-08    5.92615985e-07    2.62475728e-01    3.82176694e-02    3.05000000e+00    0.00000000e+00    0.00000000e+00    3.01178233e+00
62       3.10000000e+00    0.00000000e+00   -2.40699184e-08    6.08647354e-07    2.61789077e-01    3.82170026e-02    3.10000000e+00    0.00000000e+00    0.00000000e+00    3.06178300e+00
63       3.15000000e+00    0.00000000e+00   -2.47239545e-08    6.25075305e-07    2.61102426e-01    3.82163477e-02    3.15000000e+00    0.00000000e+00    0.00000000e+00    3.11178365e+00
64       3.20000000e+00    0.00000000e+00   -2.53943155e-08    6.41909140e-07    2.60415776e-01    3.82157049e-02    3.20000000e+00    0.00000000e+00    0.00000000e+00    3.16178430e+00
65       3.25000000e+00    0.00000000e+00   -2.60813894e-08    6.59158364e-07    2.59729125e-01    3.82150745e-02    3.25000000e+00    0.00000000e+00    0.00000000e+00    3.21178493e+00
66       3.30000000e+00    0.00000000e+00   -2.67855731e-08    6.76832691e-07    2.59042474e-01    3.82144567e-02    3.30000000e+00    0.00000000e+00    0.00000000e+00    3.26178554e+00
67       3.35000000e+00    0.00000000e+00   -2.75072720e-08    6.94942044e-07    2.58355823e-01    3.82138517e-02    3.35000000e+00    0.00000000e+00    0.00000000e+00    3.31178615e+00
68       3.40000000e+00    0.00000000e+00   -2.82469010e-08    7.13496567e-07    2.57669173e-01    3.82132597e-02    3.40000000e+00    0.00000000e+00    0.00000000e+00    3.36178674e+00
69       3.45000000e+00    0.00000000e+00   -2.90048839e-08    7.32506622e-07    2.56982522e-01    3.82126811e-02    3.45000000e+00    0.00000000e+00    0.00000000e+00    3.41178732e+00
70       3.50000000e+00    0.00000000e+00   -2.97816542e-08    7.51982798e-07    2.56295871e-01    3.82121161e-02    3.50000000e+00    0.00000000e+00    0.00000000e+00    3.46178788e+00
71       0.00000000e+00    5.00000000e-01    0.00000000e+00    0.00000000e+00    3.04361422e-01    1.51578589e-01    0.00000000e+00    5.00000000e-01    0.00000000e+00   -1.51578589e-01
72       5.00000000e-02    5.00000000e-01   -4.45812867e-05    2.62740270e-04    3.03674771e-01    1.51967728e-01    5.00000000e-02    5.00000000e-01    0.00000000e+00   -1.01967728e-01
73       1.00000000e-01    5.00000000e-01   -7.27489371e-05    4.96705771e-04    3.02988120e-01    1.52356565e-01    1.00000000e-01    5.00000000e-01    0.00000000e+00   -5.23565651e-02
74       1.50000000e-01    5.00000000e-01   -8.80062452e-05    6.75799033e-04    3.02301469e-01    1.52745096e-01    1.50000000e-01    5.00000000e-01    0.00000000e+00   -2.74509563e-03
75       2.00000000e-01    5.00000000e-01   -9.60418682e-05    7.76809189e-04    3.01614819e-01    1.53133317e-01    2.00000000e-01    5.00000000e-01    0.00000000e+00    4.68666831e-02
76       2.50000000e-01    5.00000000e-01   -1.01326382e-04    8.33448487e-04    3.00928168e-01    1.53521226e-01    2.50000000e-01    5.00000000e-01    0.00000000e+00    9.64787743e-02
77       3.00000000e-01    5.00000000e-01   -1.05464344e-04    8.72665384e-04    3.00241517e-01    1.53908819e-01    3.00000000e-01    5.00000000e-01    0.00000000e+00    1.46091181e-01
78       3.50000000e-01    5.00000000e-01   -1.08964816e-04    9.03260218e-04    2.99554867e-01    1.54296094e-01    3.50000000e-01    5.00000000e-01    0.00000000e+00    1.95703906e-01
79       4.00000000e-01    5.00000000e-01   -1.12048391e-04    9.28545485e-04    2.98868216e-01    1.54683047e-01    4.00000000e-01    5.00000000e-01    0.00000000e+00    2.45316953e-01
80       4.50000000e-01    5.00000000e-01   -1.14837182e-04    9.50179086e-04    2.98181565e-01    1.55069676e-01    4.50000000e-01    5.00000000e-01    0.00000000e+00    2.94930324e-01
81       5.00000000e-01    5.00000000e-01   -1.17408159e-04    9.69148181e-04    2.97494914e-01    1.55455977e-01    5.00000000e-01    5.00000000e-01    0.00000000e+00    3.44544023e-01
82       5.50000000e-01    5.00000000e-01   -1.19813460e-04    9.86098915e-04    2.96808264e-01    1.55841948e-01    5.50000000e-01    5.00000000e-01    0.00000000e+00    3.94158052e-01
83       6.00000000e-01    5.00000000e-01   -1.22090061e-04    1.00147893e-03    2.96121613e-01    1.56227587e-01    6.00000000e-01    5.00000000e-01    0.00000000e+00    4.43772413e-01
84       6.50000000e-01    5.00000000e-01   -1.24265058e-04    1.01561050e-03    2.95434962e-01    1.56612889e-01    6.50000000e-01    5.00000000e-01    0.00000000e+00    4.93387111e-01
85       7.00000000e-01    5.00000000e-01   -1.26358818e-04    1.02873246e-03    2.94748312e-01    1.56997854e-01    7.00000000e-01    5.00000000e-01    0.00000000e+00    5.43002146e-01
86       7.50000000e-01    5.00000000e-01   -1.28386971e-04    1.04102585e-03    2.94061661e-01    1.57382477e-01    7.50000000e-01    5.00000000e-01    0.00000000e+00    5.92617523e-01
87       8.00000000e-01    5.00000000e-01   -1.30361724e-04    1.05263057e-03    2.93375010e-01    1.57766757e-01    8.00000000e-01    5.00000000e-01    0.00000000e+00    6.42233243e-01
88       8.50000000e-01    5.00000000e-01   -1.32292756e-04    1.06365649e-03    2.92688359e-01    1.58150691e-01    8.50000000e-01    5.00000000e-01    0.00000000e+00    6.91849309e-01
89       9.00000000e-01    5.00000000e-01   -1.34187839e-04    1.07419114e-03    2.92001709e-01    1.58534276e-01    9.00000000e-01    5.00000000e-01    0.00000000e+00    7.41465724e-01
90       9.50000000e-01    5.00000000e-01   -1.36053295e-04    1.08430508e-03    2.91315058e-01    1.58917510e-01    9.50000000e-01    5.00000000e-01    0.00000000e+00    7.91082490e-01
91       1.00000000e+00    5.00000000e-01   -1.37894313e-04    1.09405588e-03    2.90628407e-01    1.59300390e-01    1.00000000e+00    5.00000000e-01    0.00000000e+00    8.40699610e-01
92       1.05000000e+00    5.00000000e-01   -1.39715200e-04    1.10349094e-03    2.89941757e-01    1.59682915e-01    1.05000000e+00    5.00000000e-01    0.00000000e+00    8.90317085e-01
93       1.10000000e+00    5.00000000e-01   -1.41519553e-04    1.11264964e-03    2.89255106e-01    1.60065081e-01    1.10000000e+00    5.00000000e-01    0.00000000e+00    9.39934919e-01
94       1.15000000e+00    5.00000000e-01   -1.43310409e-04    1.12156501e-03    2.88568455e-01    1.60446887e-01    1.15000000e+00    5.00000000e-01    0.00000000e+00    9.89553113e-01
95       1.20000000e+00    5.00000000e-01   -1.45090343e-04    1.13026490e-03    2.87881804e-01    1.60828331e-01    1.20000000e+00    5.00000000e-01    0.00000000e+00    1.03917167e+00
96       1.25000000e+00    5.00000000e-01   -1.46861558e-04    1.13877300e-03    2.87195154e-01    1.61209409e-01    1.25000000e+00    5.00000000e-01    0.00000000e+00    1.08879059e+00
97       1.30000000e+00    5.00000000e-01   -1.48625946e-04    1.14710955e-03    2.86508503e-01    1.61590120e-01    1.30000000e+00    5.00000000e-01    0.00000000e+00    1.13840988e+00
98       1.35000000e+00    5.00000000e-01   -1.50385145e-04    1.15529198e-03    2.85821852e-01    1.61970463e-01    1.35000000e+00    5.00000000e-01    0.00000000e+00    1.18802954e+00
99       1.40000000e+00    5.00000000e-01   -1.52140578e-04    1.16333537e-03    2.85135201e-01    1.62350434e-01    1.40000000e+00    5.00000000e-01    0.00000000e+00    1.23764957e+00
100      1.45000000e+00    5.00000000e-01   -1.53893489e-04    1.17125281e-03    2.84448551e-01    1.62730032e-01    1.45000000e+00    5.00000000e-01    0.00000000e+00    1.28726997e+00
101      1.50000000e+00    5.00000000e-01   -1.55644968e-04    1.17905575e-03    2.83761900e-01    1.63109254e-01    1.50000000e+00    5.00000000e-01    0.00000000e+00    1.33689075e+00
102      1.55000000e+00    5.00000000e-01   -1.57395979e-04    1.18675423e-03    2.83075249e-01    1.63488100e-01    1.55000000e+00    5.00000000e-01    0.00000000e+00    1.38651190e+00
103      1.60000000e+00    5.00000000e-01   -1.59147371e-04    1.19435708e-03    2.82388599e-01    1.63866566e-01    1.60000000e+00    5.00000000e-01    0.00000000e+00    1.43613343e+00
104      1.65000000e+00    5.00000000e-01   -1.60899902e-04    1.20187212e-03    2.81701948e-01    1.64244652e-01    1.65000000e+00    5.00000000e-01    0.00000000e+00    1.48575535e+00
105      1.70000000e+00    5.00000000e-01   -1.62654245e-04    1.20930629e-03    2.81015297e-01    1.64622354e-01    1.70000000e+00    5.00000000e-01    0.00000000e+00    1.53537765e+00
