Title: A netlist used to test a bad remeasure command line
Date: Wed Jul 12 05:22:02 2017
Plotname: Transient Analysis
Flags: real
No. Variables: 3
No. Points: 175               
Variables:
	0	time	time
	1	V(1)	voltage
	2	VS1#branch	current
Values:
0	0.00000000e+00
	0.00000000e+00
	0.00000000e+00

1	1.00000000e-10
	6.28318531e-07
	-6.28318531e-09

2	3.00000000e-10
	1.88495559e-06
	-1.88495559e-08

3	7.00000000e-10
	4.39822972e-06
	-4.39822972e-08

4	1.50000000e-09
	9.42477796e-06
	-9.42477796e-08

5	3.10000000e-09
	1.94778745e-05
	-1.94778745e-07

6	6.30000000e-09
	3.95840674e-05
	-3.95840674e-07

7	1.27000000e-08
	7.97964533e-05
	-7.97964533e-07

8	2.55000000e-08
	1.60221225e-04
	-1.60221225e-06

9	5.11000000e-08
	3.21070764e-04
	-3.21070764e-06

10	1.02300000e-07
	6.42769813e-04
	-6.42769813e-06

11	2.04700000e-07
	1.28616768e-03
	-1.28616768e-05

12	4.09500000e-07
	2.57296154e-03
	-2.57296154e-05

13	8.19100000e-07
	5.14653437e-03
	-5.14653437e-05

14	1.63830000e-06
	1.02935607e-02
	-1.02935607e-04

15	3.27670000e-06
	2.05866589e-02
	-2.05866589e-04

16	6.55350000e-06
	4.11652198e-02
	-4.11652198e-04

17	1.31071000e-05
	8.22612786e-02
	-8.22612786e-04

18	1.96607000e-05
	1.23217876e-01
	-1.23217876e-03

19	2.62143000e-05
	1.63965577e-01
	-1.63965577e-03

20	3.27679000e-05
	2.04435299e-01
	-2.04435299e-03

21	3.93215000e-05
	2.44558433e-01
	-2.44558433e-03

22	4.58751000e-05
	2.84266956e-01
	-2.84266956e-03

23	5.24287000e-05
	3.23493548e-01
	-3.23493548e-03

24	5.89823000e-05
	3.62171707e-01
	-3.62171707e-03

25	6.55359000e-05
	4.00235859e-01
	-4.00235859e-03

26	7.20895000e-05
	4.37621474e-01
	-4.37621474e-03

27	7.86431000e-05
	4.74265168e-01
	-4.74265168e-03

28	8.51967000e-05
	5.10104820e-01
	-5.10104820e-03

29	9.17503000e-05
	5.45079668e-01
	-5.45079668e-03

30	9.83039000e-05
	5.79130417e-01
	-5.79130417e-03

31	1.04857500e-04
	6.12199340e-01
	-6.12199340e-03

32	1.11411100e-04
	6.44230373e-01
	-6.44230373e-03

33	1.17964700e-04
	6.75169214e-01
	-6.75169214e-03

34	1.24518300e-04
	7.04963409e-01
	-7.04963409e-03

35	1.31071900e-04
	7.33562448e-01
	-7.33562448e-03

36	1.37625500e-04
	7.60917845e-01
	-7.60917845e-03

37	1.44179100e-04
	7.86983223e-01
	-7.86983223e-03

38	1.50732700e-04
	8.11714393e-01
	-8.11714393e-03

39	1.57286300e-04
	8.35069426e-01
	-8.35069426e-03

40	1.63839900e-04
	8.57008728e-01
	-8.57008728e-03

41	1.70393500e-04
	8.77495104e-01
	-8.77495104e-03

42	1.76947100e-04
	8.96493823e-01
	-8.96493823e-03

43	1.83500700e-04
	9.13972675e-01
	-9.13972675e-03

44	1.90054300e-04
	9.29902027e-01
	-9.29902027e-03

45	1.96607900e-04
	9.44254875e-01
	-9.44254875e-03

46	2.03161500e-04
	9.57006883e-01
	-9.57006883e-03

47	2.09715100e-04
	9.68136435e-01
	-9.68136435e-03

48	2.16268700e-04
	9.77624661e-01
	-9.77624661e-03

49	2.22822300e-04
	9.85455475e-01
	-9.85455475e-03

50	2.29375900e-04
	9.91615601e-01
	-9.91615601e-03

51	2.35929500e-04
	9.96094596e-01
	-9.96094596e-03

52	2.42483100e-04
	9.98884867e-01
	-9.98884867e-03

53	2.49036700e-04
	9.99981683e-01
	-9.99981683e-03

54	2.55590300e-04
	9.99383184e-01
	-9.99383184e-03

55	2.62143900e-04
	9.97090386e-01
	-9.97090386e-03

56	2.68697500e-04
	9.93107175e-01
	-9.93107175e-03

57	2.75251100e-04
	9.87440304e-01
	-9.87440304e-03

58	2.81804700e-04
	9.80099380e-01
	-9.80099380e-03

59	2.88358300e-04
	9.71096849e-01
	-9.71096849e-03

60	2.94911900e-04
	9.60447974e-01
	-9.60447974e-03

61	3.01465500e-04
	9.48170807e-01
	-9.48170807e-03

62	3.08019100e-04
	9.34286163e-01
	-9.34286163e-03

63	3.14572700e-04
	9.18817581e-01
	-9.18817581e-03

64	3.21126300e-04
	9.01791286e-01
	-9.01791286e-03

65	3.27679900e-04
	8.83236143e-01
	-8.83236143e-03

66	3.34233500e-04
	8.63183610e-01
	-8.63183610e-03

67	3.40787100e-04
	8.41667682e-01
	-8.41667682e-03

68	3.47340700e-04
	8.18724837e-01
	-8.18724837e-03

69	3.53894300e-04
	7.94393970e-01
	-7.94393970e-03

70	3.60447900e-04
	7.68716331e-01
	-7.68716331e-03

71	3.67001500e-04
	7.41735452e-01
	-7.41735452e-03

72	3.73555100e-04
	7.13497075e-01
	-7.13497075e-03

73	3.80108700e-04
	6.84049074e-01
	-6.84049074e-03

74	3.86662300e-04
	6.53441373e-01
	-6.53441373e-03

75	3.93215900e-04
	6.21725864e-01
	-6.21725864e-03

76	3.99769500e-04
	5.88956314e-01
	-5.88956314e-03

77	4.06323100e-04
	5.55188280e-01
	-5.55188280e-03

78	4.12876700e-04
	5.20479010e-01
	-5.20479010e-03

79	4.19430300e-04
	4.84887348e-01
	-4.84887348e-03

80	4.25983900e-04
	4.48473634e-01
	-4.48473634e-03

81	4.32537500e-04
	4.11299603e-01
	-4.11299603e-03

82	4.39091100e-04
	3.73428277e-01
	-3.73428277e-03

83	4.45644700e-04
	3.34923860e-01
	-3.34923860e-03

84	4.52198300e-04
	2.95851632e-01
	-2.95851632e-03

85	4.58751900e-04
	2.56277834e-01
	-2.56277834e-03

86	4.65305500e-04
	2.16269556e-01
	-2.16269556e-03

87	4.71859100e-04
	1.75894626e-01
	-1.75894626e-03

88	4.78412700e-04
	1.35221494e-01
	-1.35221494e-03

89	4.84966300e-04
	9.43191148e-02
	-9.43191148e-04

90	4.91519900e-04
	5.32568322e-02
	-5.32568322e-04

91	5.04627100e-04
	-2.90688313e-02
	2.90688313e-04

92	5.13208257e-04
	-8.28946986e-02
	8.28946986e-04

93	5.20931299e-04
	-1.31136439e-01
	1.31136439e-03

94	5.27521305e-04
	-1.72060969e-01
	1.72060969e-03

95	5.33452310e-04
	-2.08642851e-01
	2.08642851e-03

96	5.39383316e-04
	-2.44935019e-01
	2.44935019e-03

97	5.45314321e-04
	-2.80887080e-01
	2.80887080e-03

98	5.51245326e-04
	-3.16449110e-01
	3.16449110e-03

99	5.57176331e-04
	-3.51571730e-01
	3.51571730e-03

100	5.63107337e-04
	-3.86206170e-01
	3.86206170e-03

101	5.69038342e-04
	-4.20304338e-01
	4.20304338e-03

102	5.74969347e-04
	-4.53818887e-01
	4.53818887e-03

103	5.80900353e-04
	-4.86703278e-01
	4.86703278e-03

104	5.86831358e-04
	-5.18911851e-01
	5.18911851e-03

105	5.92762363e-04
	-5.50399880e-01
	5.50399880e-03

106	5.98693369e-04
	-5.81123644e-01
	5.81123644e-03

107	6.04624374e-04
	-6.11040481e-01
	6.11040481e-03

108	6.10555379e-04
	-6.40108848e-01
	6.40108848e-03

109	6.16486384e-04
	-6.68288382e-01
	6.68288382e-03

110	6.22417390e-04
	-6.95539955e-01
	6.95539955e-03

111	6.28348395e-04
	-7.21825726e-01
	7.21825726e-03

112	6.34279400e-04
	-7.47109195e-01
	7.47109195e-03

113	6.40210406e-04
	-7.71355255e-01
	7.71355255e-03

114	6.46141411e-04
	-7.94530238e-01
	7.94530238e-03

115	6.52072416e-04
	-8.16601964e-01
	8.16601964e-03

116	6.58003421e-04
	-8.37539786e-01
	8.37539786e-03

117	6.63934427e-04
	-8.57314630e-01
	8.57314630e-03

118	6.69865432e-04
	-8.75899037e-01
	8.75899037e-03

119	6.75796437e-04
	-8.93267201e-01
	8.93267201e-03

120	6.81727443e-04
	-9.09395006e-01
	9.09395006e-03

121	6.87658448e-04
	-9.24260058e-01
	9.24260058e-03

122	6.93589453e-04
	-9.37841715e-01
	9.37841715e-03

123	6.99520459e-04
	-9.50121118e-01
	9.50121118e-03

124	7.05451464e-04
	-9.61081216e-01
	9.61081216e-03

125	7.11382469e-04
	-9.70706791e-01
	9.70706791e-03

126	7.17313474e-04
	-9.78984477e-01
	9.78984477e-03

127	7.23244480e-04
	-9.85902779e-01
	9.85902779e-03

128	7.29175485e-04
	-9.91452092e-01
	9.91452092e-03

129	7.35106490e-04
	-9.95624709e-01
	9.95624709e-03

130	7.41037496e-04
	-9.98414838e-01
	9.98414838e-03

131	7.46968501e-04
	-9.99818602e-01
	9.99818602e-03

132	7.52899506e-04
	-9.99834054e-01
	9.99834054e-03

133	7.58830511e-04
	-9.98461172e-01
	9.98461172e-03

134	7.64761517e-04
	-9.95701862e-01
	9.95701862e-03

135	7.70692522e-04
	-9.91559956e-01
	9.91559956e-03

136	7.76623527e-04
	-9.86041204e-01
	9.86041204e-03

137	7.82554533e-04
	-9.79153270e-01
	9.79153270e-03

138	7.88485538e-04
	-9.70905719e-01
	9.70905719e-03

139	7.94416543e-04
	-9.61310003e-01
	9.61310003e-03

140	8.00347549e-04
	-9.50379445e-01
	9.50379445e-03

141	8.06278554e-04
	-9.38129224e-01
	9.38129224e-03

142	8.12209559e-04
	-9.24576350e-01
	9.24576350e-03

143	8.18140564e-04
	-9.09739643e-01
	9.09739643e-03

144	8.24071570e-04
	-8.93639702e-01
	8.93639702e-03

145	8.30002575e-04
	-8.76298886e-01
	8.76298886e-03

146	8.35933580e-04
	-8.57741271e-01
	8.57741271e-03

147	8.41864586e-04
	-8.37992628e-01
	8.37992628e-03

148	8.47795591e-04
	-8.17080377e-01
	8.17080377e-03

149	8.53726596e-04
	-7.95033558e-01
	7.95033558e-03

150	8.59657601e-04
	-7.71882783e-01
	7.71882783e-03

151	8.65588607e-04
	-7.47660199e-01
	7.47660199e-03

152	8.71519612e-04
	-7.22399440e-01
	7.22399440e-03

153	8.77450617e-04
	-6.96135584e-01
	6.96135584e-03

154	8.83381623e-04
	-6.68905098e-01
	6.68905098e-03

155	8.89312628e-04
	-6.40745794e-01
	6.40745794e-03

156	8.95243633e-04
	-6.11696773e-01
	6.11696773e-03

157	9.01174639e-04
	-5.81798371e-01
	5.81798371e-03

158	9.07105644e-04
	-5.51092105e-01
	5.51092105e-03

159	9.13036649e-04
	-5.19620612e-01
	5.19620612e-03

160	9.18967654e-04
	-4.87427592e-01
	4.87427592e-03

161	9.24898660e-04
	-4.54557747e-01
	4.54557747e-03

162	9.30829665e-04
	-4.21056720e-01
	4.21056720e-03

163	9.36760670e-04
	-3.86971028e-01
	3.86971028e-03

164	9.42691676e-04
	-3.52348002e-01
	3.52348002e-03

165	9.48622681e-04
	-3.17235717e-01
	3.17235717e-03

166	9.54553686e-04
	-2.81682931e-01
	2.81682931e-03

167	9.60484691e-04
	-2.45739009e-01
	2.45739009e-03

168	9.66415697e-04
	-2.09453863e-01
	2.09453863e-03

169	9.72346702e-04
	-1.72877877e-01
	1.72877877e-03

170	9.78277707e-04
	-1.36061839e-01
	1.36061839e-03

171	9.84208713e-04
	-9.90568700e-02
	9.90568700e-04

172	9.90139718e-04
	-6.19143542e-02
	6.19143542e-04

173	9.96070723e-04
	-2.46858663e-02
	2.46858663e-04

174	1.00000000e-03
	-2.44928047e-16
	2.44927518e-18

