Index       TIME              V(1)             V(4,5)            {V(6)}      
0        0.00000000e+00    0.00000000e+00    0.00000000e+00    0.00000000e+00
1        1.00000000e-10    6.28318531e-10    1.04719755e-10    1.04719755e-10
2        3.00000000e-10    1.88495559e-09    3.14159265e-10    3.14159265e-10
3        7.00000000e-10    4.39822972e-09    7.33038286e-10    7.33038286e-10
4        1.50000000e-09    9.42477796e-09    1.57079633e-09    1.57079633e-09
5        3.10000000e-09    1.94778745e-08    3.24631241e-09    3.24631241e-09
6        6.30000000e-09    3.95840674e-08    6.59734457e-09    6.59734457e-09
7        1.27000000e-08    7.97964534e-08    1.32994089e-08    1.32994089e-08
8        2.55000000e-08    1.60221225e-07    2.67035376e-08    2.67035376e-08
9        5.11000000e-08    3.21070769e-07    5.35117949e-08    5.35117949e-08
10       1.02300000e-07    6.42769857e-07    1.07128309e-07    1.07128309e-07
11       2.04700000e-07    1.28616803e-06    2.14361339e-07    2.14361339e-07
12       4.09500000e-07    2.57296438e-06    4.28827397e-07    4.28827397e-07
13       8.19100000e-07    5.14655709e-06    8.57759514e-07    8.57759514e-07
14       1.63830000e-06    1.02937425e-05    1.71562375e-06    1.71562375e-06
15       3.27670000e-06    2.05881133e-05    3.43135222e-06    3.43135222e-06
16       6.55350000e-06    4.11768549e-05    6.86280915e-06    6.86280915e-06
17       1.31071000e-05    8.23543380e-05    1.37257230e-05    1.37257230e-05
18       2.62143000e-05    1.64709304e-04    2.74515506e-05    2.74515506e-05
19       5.24287000e-05    3.29419232e-04    5.49032053e-05    5.49032053e-05
20       1.04857500e-04    6.58839056e-04    1.09806509e-04    1.09806509e-04
21       2.09715100e-04    1.31767845e-03    2.19613076e-04    2.19613076e-04
22       4.19430300e-04    2.63535525e-03    4.39225875e-04    4.39225875e-04
23       8.38860700e-04    5.27069282e-03    8.78448804e-04    8.78448804e-04
24       1.67772150e-03    1.05412398e-02    1.75687331e-03    1.75687331e-03
25       3.35544310e-03    2.10813090e-02    3.51355150e-03    3.51355150e-03
26       6.71088630e-03    4.21532485e-02    7.02554142e-03    7.02554142e-03
27       1.34217727e-02    8.42315625e-02    1.40385937e-02    1.40385937e-02
28       2.01326591e-02    1.26160139e-01    2.10266898e-02    2.10266898e-02
29       2.68435455e-02    1.67864443e-01    2.79774071e-02    2.79774071e-02
30       3.35544319e-02    2.09270336e-01    3.48783893e-02    3.48783893e-02
31       4.02653183e-02    2.50304212e-01    4.17173686e-02    4.17173686e-02
32       4.69762047e-02    2.90893125e-01    4.84821875e-02    4.84821875e-02
33       5.36870911e-02    3.30964922e-01    5.51608204e-02    5.51608204e-02
34       6.03979775e-02    3.70448367e-01    6.17413945e-02    6.17413945e-02
35       6.71088639e-02    4.09273271e-01    6.82122119e-02    6.82122119e-02
36       7.38197503e-02    4.47370616e-01    7.45617693e-02    7.45617693e-02
37       8.05306367e-02    4.84672675e-01    8.07787792e-02    8.07787792e-02
38       8.72415231e-02    5.21113139e-01    8.68521898e-02    8.68521898e-02
39       9.39524095e-02    5.56627227e-01    9.27712045e-02    9.27712045e-02
40       1.00663296e-01    5.91151806e-01    9.85253010e-02    9.85253010e-02
41       1.07374182e-01    6.24625503e-01    1.04104250e-01    1.04104250e-01
42       1.14085069e-01    6.56988811e-01    1.09498135e-01    1.09498135e-01
43       1.20795955e-01    6.88184199e-01    1.14697367e-01    1.14697367e-01
44       1.27506842e-01    7.18156212e-01    1.19692702e-01    1.19692702e-01
45       1.34217728e-01    7.46851568e-01    1.24475261e-01    1.24475261e-01
46       1.40928614e-01    7.74219256e-01    1.29036543e-01    1.29036543e-01
47       1.47639501e-01    8.00210625e-01    1.33368437e-01    1.33368437e-01
48       1.54350387e-01    8.24779470e-01    1.37463245e-01    1.37463245e-01
49       1.61061274e-01    8.47882116e-01    1.41313686e-01    1.41313686e-01
50       1.67772160e-01    8.69477494e-01    1.44912916e-01    1.44912916e-01
51       1.74483046e-01    8.89527213e-01    1.48254535e-01    1.48254535e-01
52       1.81193933e-01    9.07995632e-01    1.51332605e-01    1.51332605e-01
53       1.87904819e-01    9.24849919e-01    1.54141653e-01    1.54141653e-01
54       1.94615706e-01    9.40060113e-01    1.56676685e-01    1.56676685e-01
55       2.01326592e-01    9.53599174e-01    1.58933196e-01    1.58933196e-01
56       2.08037478e-01    9.65443036e-01    1.60907173e-01    1.60907173e-01
57       2.14748365e-01    9.75570642e-01    1.62595107e-01    1.62595107e-01
58       2.21459251e-01    9.83963990e-01    1.63993998e-01    1.63993998e-01
59       2.28170138e-01    9.90608158e-01    1.65101360e-01    1.65101360e-01
60       2.34881024e-01    9.95491336e-01    1.65915223e-01    1.65915223e-01
61       2.41591910e-01    9.98604842e-01    1.66434140e-01    1.66434140e-01
62       2.48302797e-01    9.99943142e-01    1.66657190e-01    1.66657190e-01
63       2.55013683e-01    9.99503856e-01    1.66583976e-01    1.66583976e-01
64       2.61724570e-01    9.97287766e-01    1.66214628e-01    1.66214628e-01
65       2.68435456e-01    9.93298811e-01    1.65549802e-01    1.65549802e-01
66       2.75146342e-01    9.87544082e-01    1.64590680e-01    1.64590680e-01
67       2.81857229e-01    9.80033810e-01    1.63338968e-01    1.63338968e-01
68       2.88568115e-01    9.70781344e-01    1.61796891e-01    1.61796891e-01
69       2.95279002e-01    9.59803134e-01    1.59967189e-01    1.59967189e-01
70       3.01989888e-01    9.47118695e-01    1.57853116e-01    1.57853116e-01
71       3.08700774e-01    9.32750575e-01    1.55458429e-01    1.55458429e-01
72       3.15411661e-01    9.16724318e-01    1.52787386e-01    1.52787386e-01
73       3.22122547e-01    8.99068412e-01    1.49844735e-01    1.49844735e-01
74       3.28833434e-01    8.79814244e-01    1.46635707e-01    1.46635707e-01
75       3.35544320e-01    8.58996043e-01    1.43166007e-01    1.43166007e-01
76       3.42255206e-01    8.36650816e-01    1.39441803e-01    1.39441803e-01
77       3.48966093e-01    8.12818286e-01    1.35469714e-01    1.35469714e-01
78       3.55676979e-01    7.87540820e-01    1.31256803e-01    1.31256803e-01
79       3.62387866e-01    7.60863353e-01    1.26810559e-01    1.26810559e-01
80       3.69098752e-01    7.32833310e-01    1.22138885e-01    1.22138885e-01
81       3.75809638e-01    7.03500519e-01    1.17250087e-01    1.17250087e-01
82       3.82520525e-01    6.72917125e-01    1.12152854e-01    1.12152854e-01
83       3.89231411e-01    6.41137495e-01    1.06856249e-01    1.06856249e-01
84       3.95942298e-01    6.08218123e-01    1.01369687e-01    1.01369687e-01
85       4.02653184e-01    5.74217531e-01    9.57029218e-02    9.57029218e-02
86       4.09364070e-01    5.39196160e-01    8.98660266e-02    8.98660266e-02
87       4.16074957e-01    5.03216267e-01    8.38693778e-02    8.38693778e-02
88       4.22785843e-01    4.66341813e-01    7.77236355e-02    7.77236355e-02
89       4.29496730e-01    4.28638350e-01    7.14397249e-02    7.14397249e-02
90       4.36207616e-01    3.90172902e-01    6.50288169e-02    6.50288169e-02
91       4.42918502e-01    3.51013849e-01    5.85023081e-02    5.85023081e-02
92       4.49629389e-01    3.11230803e-01    5.18718005e-02    5.18718005e-02
93       4.56340275e-01    2.70894487e-01    4.51490812e-02    4.51490812e-02
94       4.63051162e-01    2.30076605e-01    3.83461009e-02    3.83461009e-02
95       4.69762048e-01    1.88849719e-01    3.14749532e-02    3.14749532e-02
96       4.76472934e-01    1.47287118e-01    2.45478530e-02    2.45478530e-02
97       4.83183821e-01    1.05462686e-01    1.75771144e-02    1.75771144e-02
98       4.89894707e-01    6.34507751e-02    1.05751292e-02    1.05751292e-02
99       5.03316480e-01   -2.08365497e-02   -3.47275829e-03   -3.47275829e-03
100      5.11670341e-01   -7.32612209e-02   -1.22102035e-02   -1.22102035e-02
101      5.20024202e-01   -1.25484098e-01   -2.09140163e-02   -2.09140163e-02
102      5.28378063e-01   -1.77361336e-01   -2.95602226e-02   -2.95602226e-02
103      5.36731924e-01   -2.28750041e-01   -3.81250068e-02   -3.81250068e-02
104      5.45085785e-01   -2.79508666e-01   -4.65847776e-02   -4.65847776e-02
105      5.53439646e-01   -3.29497399e-01   -5.49162331e-02   -5.49162331e-02
106      5.61793507e-01   -3.78578549e-01   -6.30964248e-02   -6.30964248e-02
107      5.70147368e-01   -4.26616924e-01   -7.11028206e-02   -7.11028206e-02
108      5.78501229e-01   -4.73480205e-01   -7.89133675e-02   -7.89133675e-02
109      5.86855090e-01   -5.19039310e-01   -8.65065516e-02   -8.65065516e-02
110      5.95208951e-01   -5.63168748e-01   -9.38614579e-02   -9.38614579e-02
111      6.03562812e-01   -6.05746967e-01   -1.00957828e-01   -1.00957828e-01
112      6.11916673e-01   -6.46656688e-01   -1.07776115e-01   -1.07776115e-01
113      6.20270534e-01   -6.85785227e-01   -1.14297538e-01   -1.14297538e-01
114      6.28624395e-01   -7.23024807e-01   -1.20504134e-01   -1.20504134e-01
115      6.36978256e-01   -7.58272852e-01   -1.26378809e-01   -1.26378809e-01
116      6.45332117e-01   -7.91432275e-01   -1.31905379e-01   -1.31905379e-01
117      6.53685978e-01   -8.22411739e-01   -1.37068623e-01   -1.37068623e-01
118      6.62039839e-01   -8.51125914e-01   -1.41854319e-01   -1.41854319e-01
119      6.70393700e-01   -8.77495706e-01   -1.46249284e-01   -1.46249284e-01
120      6.78747561e-01   -9.01448482e-01   -1.50241414e-01   -1.50241414e-01
121      6.87101422e-01   -9.22918266e-01   -1.53819711e-01   -1.53819711e-01
122      6.95455283e-01   -9.41845920e-01   -1.56974320e-01   -1.56974320e-01
123      7.03809144e-01   -9.58179309e-01   -1.59696551e-01   -1.59696551e-01
124      7.12163005e-01   -9.71873443e-01   -1.61978907e-01   -1.61978907e-01
125      7.20516866e-01   -9.82890602e-01   -1.63815100e-01   -1.63815100e-01
126      7.28870727e-01   -9.91200441e-01   -1.65200074e-01   -1.65200074e-01
127      7.37224588e-01   -9.96780070e-01   -1.66130012e-01   -1.66130012e-01
128      7.45578449e-01   -9.99614121e-01   -1.66602353e-01   -1.66602353e-01
129      7.53932310e-01   -9.99694787e-01   -1.66615798e-01   -1.66615798e-01
130      7.62286171e-01   -9.97021846e-01   -1.66170308e-01   -1.66170308e-01
131      7.70640031e-01   -9.91602661e-01   -1.65267110e-01   -1.65267110e-01
132      7.78993892e-01   -9.83452158e-01   -1.63908693e-01   -1.63908693e-01
133      7.87347753e-01   -9.72592788e-01   -1.62098798e-01   -1.62098798e-01
134      7.95701614e-01   -9.59054462e-01   -1.59842410e-01   -1.59842410e-01
135      8.04055475e-01   -9.42874470e-01   -1.57145745e-01   -1.57145745e-01
136      8.12409336e-01   -9.24097381e-01   -1.54016230e-01   -1.54016230e-01
137      8.20763197e-01   -9.02774913e-01   -1.50462486e-01   -1.50462486e-01
138      8.29117058e-01   -8.78965799e-01   -1.46494300e-01   -1.46494300e-01
139      8.37470919e-01   -8.52735620e-01   -1.42122603e-01   -1.42122603e-01
140      8.45824780e-01   -8.24156626e-01   -1.37359438e-01   -1.37359438e-01
141      8.54178641e-01   -7.93307535e-01   -1.32217923e-01   -1.32217923e-01
142      8.62532502e-01   -7.60273321e-01   -1.26712220e-01   -1.26712220e-01
143      8.70886363e-01   -7.25144973e-01   -1.20857495e-01   -1.20857495e-01
144      8.79240224e-01   -6.88019251e-01   -1.14669875e-01   -1.14669875e-01
145      8.87594085e-01   -6.48998417e-01   -1.08166403e-01   -1.08166403e-01
146      8.95947946e-01   -6.08189950e-01   -1.01364992e-01   -1.01364992e-01
147      9.04301807e-01   -5.65706256e-01   -9.42843760e-02   -9.42843760e-02
148      9.12655668e-01   -5.21664354e-01   -8.69440590e-02   -8.69440590e-02
149      9.21009529e-01   -4.76185555e-01   -7.93642591e-02   -7.93642591e-02
150      9.29363390e-01   -4.29395127e-01   -7.15658545e-02   -7.15658545e-02
151      9.37717251e-01   -3.81421953e-01   -6.35703255e-02   -6.35703255e-02
152      9.46071112e-01   -3.32398173e-01   -5.53996954e-02   -5.53996954e-02
153      9.54424973e-01   -2.82458819e-01   -4.70764698e-02   -4.70764698e-02
154      9.62778834e-01   -2.31741447e-01   -3.86235744e-02   -3.86235744e-02
155      9.71132695e-01   -1.80385755e-01   -3.00642925e-02   -3.00642925e-02
156      9.79486556e-01   -1.28533200e-01   -2.14222000e-02   -2.14222000e-02
157      9.87840417e-01   -7.63266074e-02   -1.27211012e-02   -1.27211012e-02
158      9.96194278e-01   -2.39097770e-02   -3.98496283e-03   -3.98496283e-03
159      1.00000000e+00   -2.44929741e-16   -2.26437741e-16   -2.09090295e-16
End of Xyce(TM) Simulation
