Index       TIME              V(IN)          V(OUT_RC1)    
0        0.00000000e+00   -1.89000000e-05   -1.86290323e-05
1        1.00000000e-04   -1.89000000e-05   -1.58509831e-05
2        2.00000000e-04    1.37388000e-04   -1.40615409e-05
3        3.00000000e-04    1.37388000e-04   -1.21435829e-05
4        4.00000000e-04   -1.75120000e-04   -1.03562538e-05
5        5.00000000e-04   -1.89000000e-05   -8.81364296e-06
6        6.00000000e-04   -1.89000000e-05   -6.73498136e-06
7        7.00000000e-04    1.37388000e-04   -5.32718350e-06
8        8.00000000e-04   -1.89000000e-05   -3.59263368e-06
9        9.00000000e-04   -1.89000000e-05   -1.64892124e-06
10       1.00000000e-03   -1.89000000e-05   -1.25314401e-06
11       1.10000000e-03    1.37388000e-04   -1.72626956e-07
12       1.20000000e-03    1.37388000e-04    1.35762411e-06
13       1.30000000e-03   -1.89000000e-05    2.67136281e-06
14       1.40000000e-03    1.37388000e-04    4.82675252e-06
15       1.50000000e-03    1.37388000e-04    5.30097151e-06
16       1.60000000e-03   -1.89000000e-05    6.90013882e-06
17       1.70000000e-03   -1.89000000e-05    8.17854748e-06
18       1.80000000e-03    1.37388000e-04    1.07582424e-05
19       1.90000000e-03   -1.89000000e-05    1.14691848e-05
20       2.00000000e-03    1.37388000e-04    1.30679199e-05
21       2.10000000e-03    1.37388000e-04    1.34784255e-05
22       2.20000000e-03    1.37388000e-04    1.34347885e-05
23       2.30000000e-03   -1.89000000e-05    1.44530005e-05
24       2.40000000e-03   -1.89000000e-05    1.42048130e-05
25       2.50000000e-03   -1.89000000e-05    1.55062806e-05
26       2.60000000e-03   -1.89000000e-05    1.59793515e-05
27       2.70000000e-03   -1.89000000e-05    1.75749564e-05
28       2.80000000e-03   -1.89000000e-05    1.91463032e-05
29       2.90000000e-03    1.37388000e-04    2.28726151e-05
30       3.00000000e-03   -1.89000000e-05    2.60930828e-05
31       3.10000000e-03    2.93641000e-04    3.58053587e-05
32       3.20000000e-03    7.62403000e-04    6.36006528e-05
33       3.30000000e-03    6.06149000e-04    1.00858114e-04
34       3.40000000e-03    6.06149000e-04    1.27057757e-04
35       3.50000000e-03    6.06149000e-04    1.73066281e-04
36       3.60000000e-03    4.49895000e-04    1.99020768e-04
37       3.70000000e-03    7.62403000e-04    2.19978787e-04
38       3.80000000e-03    4.49895000e-04    2.49982440e-04
39       3.90000000e-03    9.18656000e-04    2.75460116e-04
40       4.00000000e-03    7.62403000e-04    3.07494391e-04
41       4.10000000e-03    4.49895000e-04    3.27669077e-04
42       4.20000000e-03    6.06149000e-04    3.51841046e-04
43       4.30000000e-03    4.49895000e-04    3.63637951e-04
44       4.40000000e-03    2.93641000e-04    3.66283388e-04
45       4.50000000e-03    1.37388000e-04    3.61711241e-04
46       4.60000000e-03    2.93641000e-04    3.50244725e-04
47       4.70000000e-03    1.37388000e-04    3.33975106e-04
48       4.80000000e-03   -1.75120000e-04    3.16770469e-04
49       4.90000000e-03   -1.89000000e-05    3.00307669e-04
50       5.00000000e-03   -1.89000000e-05    2.84143749e-04
51       5.10000000e-03    1.37388000e-04    2.67029313e-04
52       5.20000000e-03    2.93641000e-04    2.51951131e-04
53       5.30000000e-03    1.37388000e-04    2.37880030e-04
54       5.40000000e-03   -1.75120000e-04    2.25227875e-04
55       5.50000000e-03   -1.89000000e-05    2.13011549e-04
56       5.60000000e-03    1.37388000e-04    2.01561316e-04
57       5.70000000e-03   -1.89000000e-05    1.90719797e-04
58       5.80000000e-03    2.93641000e-04    1.78976237e-04
59       5.90000000e-03   -1.89000000e-05    1.68622925e-04
60       6.00000000e-03    1.37388000e-04    1.59627587e-04
61       6.10000000e-03   -1.89000000e-05    1.50911208e-04
62       6.20000000e-03   -1.89000000e-05    1.42511148e-04
63       6.30000000e-03   -1.89000000e-05    1.34433509e-04
64       6.40000000e-03   -1.89000000e-05    1.26069980e-04
65       6.50000000e-03   -1.75120000e-04    1.21064284e-04
66       6.60000000e-03    2.93641000e-04    1.14444763e-04
67       6.70000000e-03    1.37388000e-04    1.09179699e-04
68       6.80000000e-03    1.37388000e-04    1.04105176e-04
69       6.90000000e-03   -1.89000000e-05    9.78679369e-05
70       7.00000000e-03    4.49895000e-04    9.31818654e-05
71       7.10000000e-03   -1.89000000e-05    8.81161842e-05
72       7.20000000e-03    2.93641000e-04    8.45587485e-05
73       7.30000000e-03   -1.89000000e-05    8.11742234e-05
74       7.40000000e-03    1.37388000e-04    7.69416717e-05
75       7.50000000e-03   -1.75120000e-04    7.27131324e-05
76       7.60000000e-03    1.37388000e-04    6.99175580e-05
77       7.70000000e-03    2.93641000e-04    6.83964236e-05
78       7.80000000e-03    1.37388000e-04    6.63778494e-05
79       7.90000000e-03   -1.89000000e-05    6.42032091e-05
80       8.00000000e-03    1.37388000e-04    5.93084002e-05
81       8.10000000e-03   -1.89000000e-05    5.64290417e-05
82       8.20000000e-03   -1.89000000e-05    5.36894412e-05
83       8.30000000e-03    1.37388000e-04    4.96325324e-05
84       8.40000000e-03    2.93641000e-04    4.91696601e-05
85       8.50000000e-03   -1.89000000e-05    4.84170629e-05
86       8.60000000e-03   -1.89000000e-05    4.64370233e-05
87       8.70000000e-03    1.37388000e-04    4.47459848e-05
88       8.80000000e-03    1.37388000e-04    4.31119043e-05
89       8.90000000e-03   -1.89000000e-05    4.20793852e-05
90       9.00000000e-03    1.37388000e-04    4.09323346e-05
91       9.10000000e-03   -1.89000000e-05    3.81511264e-05
92       9.20000000e-03   -1.89000000e-05    3.70965046e-05
93       9.30000000e-03   -1.89000000e-05    3.61098457e-05
94       9.40000000e-03   -1.89000000e-05    3.46090004e-05
95       9.50000000e-03   -1.89000000e-05    3.38061903e-05
96       9.60000000e-03   -1.89000000e-05    3.49379748e-05
97       9.70000000e-03   -1.89000000e-05    3.40996356e-05
98       9.80000000e-03    1.37388000e-04    3.24885755e-05
99       9.90000000e-03   -1.89000000e-05    3.06061987e-05
100      1.00000000e-02    1.37388000e-04    2.99929709e-05
101      1.01000000e-02   -1.89000000e-05    2.88480255e-05
102      1.02000000e-02    1.37388000e-04    2.84135274e-05
103      1.03000000e-02    1.37388000e-04    2.66224381e-05
104      1.04000000e-02   -1.89000000e-05    2.50148381e-05
105      1.05000000e-02   -1.89000000e-05    2.59311991e-05
106      1.06000000e-02    1.37388000e-04    2.50329207e-05
107      1.07000000e-02   -1.89000000e-05    2.47790501e-05
108      1.08000000e-02    1.37388000e-04    2.54708207e-05
109      1.09000000e-02   -1.75120000e-04    2.50349488e-05
110      1.10000000e-02    1.37388000e-04    2.39471792e-05
111      1.11000000e-02   -1.89000000e-05    2.21932387e-05
112      1.12000000e-02   -1.89000000e-05    2.30908556e-05
113      1.13000000e-02    1.37388000e-04    2.29387285e-05
114      1.14000000e-02    1.37388000e-04    2.31271674e-05
115      1.15000000e-02   -1.89000000e-05    2.30829215e-05
116      1.16000000e-02    1.37388000e-04    2.33439907e-05
117      1.17000000e-02    1.37388000e-04    2.31361017e-05
118      1.18000000e-02    1.37388000e-04    2.19856474e-05
119      1.19000000e-02    4.49895000e-04    2.22703495e-05
120      1.20000000e-02   -1.89000000e-05    2.14107860e-05
121      1.21000000e-02   -1.75120000e-04    2.15237094e-05
122      1.22000000e-02   -1.89000000e-05    2.19478008e-05
123      1.23000000e-02   -1.89000000e-05    2.22106711e-05
124      1.24000000e-02    2.93641000e-04    2.31302793e-05
125      1.25000000e-02    1.37388000e-04    2.36466614e-05
126      1.26000000e-02    1.37388000e-04    2.53406338e-05
127      1.27000000e-02   -1.89000000e-05    2.43731178e-05
128      1.28000000e-02    1.37388000e-04    2.46409765e-05
129      1.29000000e-02   -1.89000000e-05    2.68955995e-05
130      1.30000000e-02    9.18656000e-04    4.05679147e-05
131      1.31000000e-02    4.49895000e-04    9.37259611e-05
132      1.32000000e-02    4.49895000e-04    1.18339451e-04
133      1.33000000e-02    6.06149000e-04    1.46968251e-04
134      1.34000000e-02    4.49895000e-04    1.70935323e-04
135      1.35000000e-02    4.49895000e-04    1.87615685e-04
136      1.36000000e-02    6.06149000e-04    2.03726240e-04
137      1.37000000e-02    2.93641000e-04    2.21757082e-04
138      1.38000000e-02    6.06149000e-04    2.42607547e-04
139      1.39000000e-02    4.49895000e-04    2.54371966e-04
140      1.40000000e-02   -1.89000000e-05    2.54252328e-04
141      1.41000000e-02    1.37388000e-04    2.50804870e-04
142      1.42000000e-02    2.93641000e-04    2.44460140e-04
143      1.43000000e-02    1.37388000e-04    2.38610441e-04
144      1.44000000e-02    2.93641000e-04    2.32914485e-04
145      1.45000000e-02   -1.89000000e-05    2.27597547e-04
146      1.46000000e-02   -1.89000000e-05    2.21309138e-04
147      1.47000000e-02    1.37388000e-04    2.14967808e-04
148      1.48000000e-02    1.37388000e-04    2.05744135e-04
149      1.49000000e-02   -1.89000000e-05    1.95617497e-04
150      1.50000000e-02   -1.75120000e-04    1.85343902e-04
151      1.51000000e-02   -1.89000000e-05    1.75497908e-04
152      1.52000000e-02    1.37388000e-04    1.65621043e-04
153      1.53000000e-02   -1.89000000e-05    1.56725962e-04
154      1.54000000e-02    1.37388000e-04    1.48860141e-04
155      1.55000000e-02   -1.75120000e-04    1.40647693e-04
156      1.56000000e-02    1.37388000e-04    1.33660090e-04
157      1.57000000e-02    2.93641000e-04    1.28473224e-04
158      1.58000000e-02    1.29063936e+00    6.22220442e-02
159      1.59000000e-02    1.25829471e+00    1.36329661e-01
160      1.60000000e-02    1.21407473e+00    2.03488462e-01
161      1.61000000e-02    1.16454212e+00    2.63609540e-01
162      1.62000000e-02    1.11407199e+00    3.16925168e-01
163      1.63000000e-02    1.06360186e+00    3.63830240e-01
164      1.64000000e-02    1.01438178e+00    4.04761461e-01
165      1.65000000e-02    9.66255491e-01    4.40173050e-01
166      1.66000000e-02    9.20316765e-01    4.70531437e-01
167      1.67000000e-02    8.76409350e-01    4.96255211e-01
168      1.68000000e-02    8.34533245e-01    5.17751485e-01
169      1.69000000e-02    7.94532195e-01    5.35412404e-01
170      1.70000000e-02    7.56093691e-01    5.49588315e-01
171      1.71000000e-02    7.19373987e-01    5.60593739e-01
172      1.72000000e-02    6.84685589e-01    5.68727685e-01
173      1.73000000e-02    6.51247228e-01    5.74272028e-01
174      1.74000000e-02    6.19996426e-01    5.77495309e-01
175      1.75000000e-02    5.89995659e-01    5.78639133e-01
176      1.76000000e-02    5.61557435e-01    5.77924736e-01
177      1.77000000e-02    5.33587975e-01    5.75534179e-01
178      1.78000000e-02    5.07806073e-01    5.71664285e-01
179      1.79000000e-02    4.83274204e-01    5.66489863e-01
180      1.80000000e-02    4.59836115e-01    5.60163170e-01
181      1.81000000e-02    4.37335551e-01    5.52833876e-01
182      1.82000000e-02    4.16241273e-01    5.44624080e-01
183      1.83000000e-02    3.96397028e-01    5.35666275e-01
184      1.84000000e-02    3.77334054e-01    5.26059212e-01
185      1.85000000e-02    3.58896096e-01    5.15911259e-01
186      1.86000000e-02    3.41708171e-01    5.05311061e-01
187      1.87000000e-02    3.24676499e-01    4.94332536e-01
188      1.88000000e-02    3.09051114e-01    4.83039634e-01
189      1.89000000e-02    2.94206998e-01    4.71513805e-01
190      1.90000000e-02    2.80144153e-01    4.59808489e-01
191      1.91000000e-02    2.66550069e-01    4.47984072e-01
192      1.92000000e-02    2.53424747e-01    4.36080102e-01
193      1.93000000e-02    2.40924442e-01    4.24144762e-01
194      1.94000000e-02    2.29674167e-01    4.12214066e-01
195      1.95000000e-02    2.18423892e-01    4.00334321e-01
196      1.96000000e-02    2.07486126e-01    3.88522248e-01
197      1.97000000e-02    1.97642136e-01    3.76814056e-01
198      1.98000000e-02    1.88735670e-01    3.65239428e-01
199      1.99000000e-02    1.79360442e-01    3.53820174e-01
200      2.00000000e-02    1.71235245e-01    3.42579625e-01
201      2.01000000e-02    1.62797540e-01    3.31524995e-01
202      2.02000000e-02    1.55141105e-01    3.20667211e-01
203      2.03000000e-02    1.47328416e-01    3.10007636e-01
204      2.04000000e-02    1.40296996e-01    2.99573163e-01
205      2.05000000e-02    1.34046845e-01    2.89372686e-01
206      2.06000000e-02    1.27796694e-01    2.79411721e-01
207      2.07000000e-02    1.21702797e-01    2.69685957e-01
208      2.08000000e-02    1.15765154e-01    2.60216949e-01
209      2.09000000e-02    1.10296273e-01    2.50993095e-01
210      2.10000000e-02    1.05452406e-01    2.42026128e-01
211      2.11000000e-02    1.00764793e-01    2.33314310e-01
212      2.12000000e-02    9.59209270e-02    2.24862191e-01
213      2.13000000e-02    9.17020750e-02    2.16653392e-01
214      2.14000000e-02    8.76394780e-02    2.08692652e-01
215      2.15000000e-02    8.40456420e-02    2.00983804e-01
216      2.16000000e-02    7.96705370e-02    1.93519187e-01
217      2.17000000e-02    7.59204470e-02    1.86284846e-01
218      2.18000000e-02    7.27953720e-02    1.79284157e-01
219      2.19000000e-02    6.98265510e-02    1.72528386e-01
220      2.20000000e-02    6.67014760e-02    1.66002078e-01
221      2.21000000e-02    6.40451620e-02    1.59703004e-01
222      2.22000000e-02    6.12325950e-02    1.53617595e-01
223      2.23000000e-02    5.84200280e-02    1.47742938e-01
224      2.24000000e-02    5.59199680e-02    1.42074622e-01
225      2.25000000e-02    5.37324150e-02    1.36609433e-01
226      2.26000000e-02    5.09198480e-02    1.31341629e-01
227      2.27000000e-02    4.88885500e-02    1.26249031e-01
228      2.28000000e-02    4.70135050e-02    1.21342101e-01
229      2.29000000e-02    4.46696990e-02    1.16619016e-01
230      2.30000000e-02    4.26384000e-02    1.12060115e-01
231      2.31000000e-02    4.09196090e-02    1.07672858e-01
232      2.32000000e-02    3.92008180e-02    1.03455150e-01
233      2.33000000e-02    3.81070420e-02    9.94080523e-02
234      2.34000000e-02    3.65445050e-02    9.55241345e-02
235      2.35000000e-02    3.56069820e-02    9.18032311e-02
236      2.36000000e-02    3.38881910e-02    8.82221890e-02
237      2.37000000e-02    3.24819080e-02    8.47753265e-02
238      2.38000000e-02    3.12318780e-02    8.14705235e-02
239      2.39000000e-02    2.98255950e-02    7.82925697e-02
240      2.40000000e-02    2.92005800e-02    7.52488115e-02
241      2.41000000e-02    2.79505500e-02    7.23314074e-02
242      2.42000000e-02    2.70130270e-02    6.95213302e-02
243      2.43000000e-02    2.52942360e-02    6.68081467e-02
244      2.44000000e-02    2.45129680e-02    6.41955475e-02
245      2.45000000e-02    2.38879530e-02    6.16945563e-02
246      2.46000000e-02    2.27941770e-02    5.93016347e-02
247      2.47000000e-02    2.17004010e-02    5.69879687e-02
248      2.48000000e-02    2.13878930e-02    5.47754185e-02
249      2.49000000e-02    2.02941170e-02    5.26525268e-02
250      2.50000000e-02    1.98253560e-02    5.06195703e-02
251      2.51000000e-02    1.95128490e-02    4.86802988e-02
252      2.52000000e-02    1.85753260e-02    4.68197210e-02
253      2.53000000e-02    1.81065650e-02    4.50344476e-02
254      2.54000000e-02    1.74815500e-02    4.33161389e-02
255      2.55000000e-02    1.63877740e-02    4.16565706e-02
256      2.56000000e-02    1.62315210e-02    4.00570173e-02
257      2.57000000e-02    1.54502520e-02    3.85236031e-02
258      2.58000000e-02    1.46689830e-02    3.70409083e-02
259      2.59000000e-02    1.35752070e-02    3.56060587e-02
260      2.60000000e-02    1.31064460e-02    3.42126281e-02
261      2.61000000e-02    1.26376850e-02    3.28777441e-02
262      2.62000000e-02    1.18564160e-02    3.15944808e-02
263      2.63000000e-02    1.15439090e-02    3.03537311e-02
264      2.64000000e-02    1.09188940e-02    2.91526767e-02
265      2.65000000e-02    1.01376260e-02    2.79874924e-02
266      2.66000000e-02    9.98137200e-03    2.68721579e-02
267      2.67000000e-02    9.51261100e-03    2.57980392e-02
268      2.68000000e-02    9.20010300e-03    2.47684246e-02
269      2.69000000e-02    8.57508800e-03    2.37723733e-02
270      2.70000000e-02    8.10632700e-03    2.28112483e-02
271      2.71000000e-02    7.95007400e-03    2.18761699e-02
272      2.72000000e-02    7.48131200e-03    2.09765313e-02
273      2.73000000e-02    6.85629700e-03    2.01034948e-02
274      2.74000000e-02    6.70004400e-03    1.92604256e-02
275      2.75000000e-02    6.38753600e-03    1.84558618e-02
276      2.76000000e-02    5.91877500e-03    1.76860757e-02
277      2.77000000e-02    5.91877500e-03    1.69566324e-02
278      2.78000000e-02    5.60626800e-03    1.62626939e-02
279      2.79000000e-02    5.76252100e-03    1.56035887e-02
280      2.80000000e-02    5.13750700e-03    1.49658635e-02
281      2.81000000e-02    4.98125300e-03    1.43485667e-02
282      2.82000000e-02    4.51249200e-03    1.37467782e-02
283      2.83000000e-02    4.35623800e-03    1.31663350e-02
284      2.84000000e-02    4.19998400e-03    1.26156997e-02
285      2.85000000e-02    4.04373100e-03    1.20813754e-02
286      2.86000000e-02    3.73122300e-03    1.15742943e-02
287      2.87000000e-02    3.57496900e-03    1.10846211e-02
288      2.88000000e-02    3.57496900e-03    1.06167208e-02
289      2.89000000e-02    3.41871600e-03    1.01672437e-02
290      2.90000000e-02    3.26246200e-03    9.73449689e-03
291      2.91000000e-02    3.10620800e-03    9.32127568e-03
292      2.92000000e-02    2.63744700e-03    8.92309282e-03
293      2.93000000e-02    2.94995500e-03    8.53991122e-03
294      2.94000000e-02    2.63744700e-03    8.17323457e-03
295      2.95000000e-02    2.16868600e-03    7.82637280e-03
296      2.96000000e-02    2.16868600e-03    7.48336002e-03
297      2.97000000e-02    2.01243200e-03    7.14736290e-03
298      2.98000000e-02    1.69992500e-03    6.82503995e-03
299      2.99000000e-02    1.85617900e-03    6.51892671e-03
300      3.00000000e-02    1.69992500e-03    6.23251412e-03
End of Xyce(TM) Simulation
