Index   V(1)                   V(3)          V(2)           I(vds)           
0       0.00000000e+00   0.00000000e+00 -1.00000000e-01 1.10536878e-13  
1       -5.00000000e-02  0.00000000e+00 -1.00000000e-01 1.13348016e-13  
2       -1.00000000e-01  0.00000000e+00 -1.00000000e-01 1.28381409e-13  
3       -1.50000000e-01  0.00000000e+00 -1.00000000e-01 2.13316301e-13  
4       -2.00000000e-01  0.00000000e+00 -1.00000000e-01 6.89528819e-13  
5       -2.50000000e-01  0.00000000e+00 -1.00000000e-01 3.35785865e-12  
6       -3.00000000e-01  0.00000000e+00 -1.00000000e-01 1.82867356e-11  
7       -3.50000000e-01  0.00000000e+00 -1.00000000e-01 1.01518059e-10  
8       -4.00000000e-01  0.00000000e+00 -1.00000000e-01 5.61779943e-10  
9       -4.50000000e-01  0.00000000e+00 -1.00000000e-01 3.06069982e-09  
10      -5.00000000e-01  0.00000000e+00 -1.00000000e-01 1.61145942e-08  
11      -5.50000000e-01  0.00000000e+00 -1.00000000e-01 7.97130728e-08  
12      -6.00000000e-01  0.00000000e+00 -1.00000000e-01 3.61540874e-07  
13      -6.50000000e-01  0.00000000e+00 -1.00000000e-01 1.48164838e-06  
14      -7.00000000e-01  0.00000000e+00 -1.00000000e-01 5.11410491e-06  
15      -7.50000000e-01  0.00000000e+00 -1.00000000e-01 1.33658102e-05  
16      -8.00000000e-01  0.00000000e+00 -1.00000000e-01 2.60339338e-05  
17      -8.50000000e-01  0.00000000e+00 -1.00000000e-01 4.09099139e-05  
18      -9.00000000e-01  0.00000000e+00 -1.00000000e-01 5.64618580e-05  
19      -9.50000000e-01  0.00000000e+00 -1.00000000e-01 7.20845487e-05  
20      -1.00000000e+00  0.00000000e+00 -1.00000000e-01 8.75784161e-05  
21      -1.05000000e+00  0.00000000e+00 -1.00000000e-01 1.02883036e-04  
22      -1.10000000e+00  0.00000000e+00 -1.00000000e-01 1.17981147e-04  
23      -1.15000000e+00  0.00000000e+00 -1.00000000e-01 1.32867681e-04  
24      -1.20000000e+00  0.00000000e+00 -1.00000000e-01 1.47536965e-04  
25      -1.25000000e+00  0.00000000e+00 -1.00000000e-01 1.61989386e-04  
26      -1.30000000e+00  0.00000000e+00 -1.00000000e-01 1.76229532e-04  
27      -1.35000000e+00  0.00000000e+00 -1.00000000e-01 1.90259802e-04  
28      -1.40000000e+00  0.00000000e+00 -1.00000000e-01 2.04082887e-04  
29      -1.45000000e+00  0.00000000e+00 -1.00000000e-01 2.17701848e-04  
30      -1.50000000e+00  0.00000000e+00 -1.00000000e-01 2.31120037e-04  
31      -1.55000000e+00  0.00000000e+00 -1.00000000e-01 2.44341007e-04  
32      -1.60000000e+00  0.00000000e+00 -1.00000000e-01 2.57368441e-04  
33      -1.65000000e+00  0.00000000e+00 -1.00000000e-01 2.70206094e-04  
34      -1.70000000e+00  0.00000000e+00 -1.00000000e-01 2.82857747e-04  
35      -1.75000000e+00  0.00000000e+00 -1.00000000e-01 2.95327179e-04  
36      -1.80000000e+00  0.00000000e+00 -1.00000000e-01 3.07618142e-04  
37      -1.85000000e+00  0.00000000e+00 -1.00000000e-01 3.19734345e-04  
38      -1.90000000e+00  0.00000000e+00 -1.00000000e-01 3.31679439e-04  
39      -1.95000000e+00  0.00000000e+00 -1.00000000e-01 3.43457013e-04  
40      -2.00000000e+00  0.00000000e+00 -1.00000000e-01 3.55070583e-04  
41      -2.05000000e+00  0.00000000e+00 -1.00000000e-01 3.66523595e-04  
42      -2.10000000e+00  0.00000000e+00 -1.00000000e-01 3.77819417e-04  
43      -2.15000000e+00  0.00000000e+00 -1.00000000e-01 3.88961337e-04  
44      -2.20000000e+00  0.00000000e+00 -1.00000000e-01 3.99952569e-04  
45      -2.25000000e+00  0.00000000e+00 -1.00000000e-01 4.10796248e-04  
46      -2.30000000e+00  0.00000000e+00 -1.00000000e-01 4.21495431e-04  
47      -2.35000000e+00  0.00000000e+00 -1.00000000e-01 4.32053099e-04  
48      -2.40000000e+00  0.00000000e+00 -1.00000000e-01 4.42472160e-04  
49      -2.45000000e+00  0.00000000e+00 -1.00000000e-01 4.52755446e-04  
50      -2.50000000e+00  0.00000000e+00 -1.00000000e-01 4.62905719e-04  
51      -2.55000000e+00  0.00000000e+00 -1.00000000e-01 4.72925670e-04  
52      -2.60000000e+00  0.00000000e+00 -1.00000000e-01 4.82817923e-04  
53      -2.65000000e+00  0.00000000e+00 -1.00000000e-01 4.92585032e-04  
54      -2.70000000e+00  0.00000000e+00 -1.00000000e-01 5.02229489e-04  
55      -2.75000000e+00  0.00000000e+00 -1.00000000e-01 5.11753721e-04  
56      -2.80000000e+00  0.00000000e+00 -1.00000000e-01 5.21160096e-04  
57      -2.85000000e+00  0.00000000e+00 -1.00000000e-01 5.30450918e-04  
58      -2.90000000e+00  0.00000000e+00 -1.00000000e-01 5.39628436e-04  
59      -2.95000000e+00  0.00000000e+00 -1.00000000e-01 5.48694842e-04  
60      -3.00000000e+00  0.00000000e+00 -1.00000000e-01 5.57652272e-04  
61      -3.05000000e+00  0.00000000e+00 -1.00000000e-01 5.66502811e-04  
62      -3.10000000e+00  0.00000000e+00 -1.00000000e-01 5.75248490e-04  
63      -3.15000000e+00  0.00000000e+00 -1.00000000e-01 5.83891290e-04  
64      -3.20000000e+00  0.00000000e+00 -1.00000000e-01 5.92433145e-04  
65      -3.25000000e+00  0.00000000e+00 -1.00000000e-01 6.00875941e-04  
66      -3.30000000e+00  0.00000000e+00 -1.00000000e-01 6.09221516e-04  
67      -3.35000000e+00  0.00000000e+00 -1.00000000e-01 6.17471667e-04  
68      -3.40000000e+00  0.00000000e+00 -1.00000000e-01 6.25628144e-04  
69      -3.45000000e+00  0.00000000e+00 -1.00000000e-01 6.33692658e-04  
70      -3.50000000e+00  0.00000000e+00 -1.00000000e-01 6.41666876e-04  
71      0.00000000e+00   5.00000000e-01 -1.00000000e-01 6.10001511e-13  
72      -5.00000000e-02  5.00000000e-01 -1.00000000e-01 6.10004273e-13  
73      -1.00000000e-01  5.00000000e-01 -1.00000000e-01 6.10028214e-13  
74      -1.50000000e-01  5.00000000e-01 -1.00000000e-01 6.10432383e-13  
75      -2.00000000e-01  5.00000000e-01 -1.00000000e-01 6.12818486e-13  
76      -2.50000000e-01  5.00000000e-01 -1.00000000e-01 6.27719981e-13  
77      -3.00000000e-01  5.00000000e-01 -1.00000000e-01 7.25485955e-13  
78      -3.50000000e-01  5.00000000e-01 -1.00000000e-01 1.36239476e-12  
79      -4.00000000e-01  5.00000000e-01 -1.00000000e-01 5.50758401e-12  
80      -4.50000000e-01  5.00000000e-01 -1.00000000e-01 3.24191235e-11  
81      -5.00000000e-01  5.00000000e-01 -1.00000000e-01 2.06050887e-10  
82      -5.50000000e-01  5.00000000e-01 -1.00000000e-01 1.30922464e-09  
83      -6.00000000e-01  5.00000000e-01 -1.00000000e-01 8.06981360e-09  
84      -6.50000000e-01  5.00000000e-01 -1.00000000e-01 4.65029194e-08  
85      -7.00000000e-01  5.00000000e-01 -1.00000000e-01 2.40028036e-07  
86      -7.50000000e-01  5.00000000e-01 -1.00000000e-01 1.08409731e-06  
87      -8.00000000e-01  5.00000000e-01 -1.00000000e-01 4.06935805e-06  
88      -8.50000000e-01  5.00000000e-01 -1.00000000e-01 1.14380139e-05  
89      -9.00000000e-01  5.00000000e-01 -1.00000000e-01 2.34410748e-05  
90      -9.50000000e-01  5.00000000e-01 -1.00000000e-01 3.79478732e-05  
91      -1.00000000e+00  5.00000000e-01 -1.00000000e-01 5.32996862e-05  
92      -1.05000000e+00  5.00000000e-01 -1.00000000e-01 6.88210309e-05  
93      -1.10000000e+00  5.00000000e-01 -1.00000000e-01 8.42785505e-05  
94      -1.15000000e+00  5.00000000e-01 -1.00000000e-01 9.95918961e-05  
95      -1.20000000e+00  5.00000000e-01 -1.00000000e-01 1.14731106e-04  
96      -1.25000000e+00  5.00000000e-01 -1.00000000e-01 1.29683261e-04  
97      -1.30000000e+00  5.00000000e-01 -1.00000000e-01 1.44439031e-04  
98      -1.35000000e+00  5.00000000e-01 -1.00000000e-01 1.58992970e-04  
99      -1.40000000e+00  5.00000000e-01 -1.00000000e-01 1.73348568e-04  
100     -1.45000000e+00  5.00000000e-01 -1.00000000e-01 1.87507120e-04  
101     -1.50000000e+00  5.00000000e-01 -1.00000000e-01 2.01470370e-04  
102     -1.55000000e+00  5.00000000e-01 -1.00000000e-01 2.15240630e-04  
103     -1.60000000e+00  5.00000000e-01 -1.00000000e-01 2.28820614e-04  
104     -1.65000000e+00  5.00000000e-01 -1.00000000e-01 2.42213316e-04  
105     -1.70000000e+00  5.00000000e-01 -1.00000000e-01 2.55421904e-04  
106     -1.75000000e+00  5.00000000e-01 -1.00000000e-01 2.68449656e-04  
107     -1.80000000e+00  5.00000000e-01 -1.00000000e-01 2.81299906e-04  
108     -1.85000000e+00  5.00000000e-01 -1.00000000e-01 2.93976009e-04  
109     -1.90000000e+00  5.00000000e-01 -1.00000000e-01 3.06481316e-04  
110     -1.95000000e+00  5.00000000e-01 -1.00000000e-01 3.18819152e-04  
111     -2.00000000e+00  5.00000000e-01 -1.00000000e-01 3.30992805e-04  
112     -2.05000000e+00  5.00000000e-01 -1.00000000e-01 3.43005516e-04  
113     -2.10000000e+00  5.00000000e-01 -1.00000000e-01 3.54860472e-04  
114     -2.15000000e+00  5.00000000e-01 -1.00000000e-01 3.66560802e-04  
115     -2.20000000e+00  5.00000000e-01 -1.00000000e-01 3.78109571e-04  
116     -2.25000000e+00  5.00000000e-01 -1.00000000e-01 3.89509782e-04  
117     -2.30000000e+00  5.00000000e-01 -1.00000000e-01 4.00764372e-04  
118     -2.35000000e+00  5.00000000e-01 -1.00000000e-01 4.11876213e-04  
119     -2.40000000e+00  5.00000000e-01 -1.00000000e-01 4.22848112e-04  
120     -2.45000000e+00  5.00000000e-01 -1.00000000e-01 4.33682809e-04  
121     -2.50000000e+00  5.00000000e-01 -1.00000000e-01 4.44382981e-04  
122     -2.55000000e+00  5.00000000e-01 -1.00000000e-01 4.54951244e-04  
123     -2.60000000e+00  5.00000000e-01 -1.00000000e-01 4.65390147e-04  
124     -2.65000000e+00  5.00000000e-01 -1.00000000e-01 4.75702182e-04  
125     -2.70000000e+00  5.00000000e-01 -1.00000000e-01 4.85889778e-04  
126     -2.75000000e+00  5.00000000e-01 -1.00000000e-01 4.95955310e-04  
127     -2.80000000e+00  5.00000000e-01 -1.00000000e-01 5.05901090e-04  
128     -2.85000000e+00  5.00000000e-01 -1.00000000e-01 5.15729380e-04  
129     -2.90000000e+00  5.00000000e-01 -1.00000000e-01 5.25442383e-04  
130     -2.95000000e+00  5.00000000e-01 -1.00000000e-01 5.35042253e-04  
131     -3.00000000e+00  5.00000000e-01 -1.00000000e-01 5.44531089e-04  
132     -3.05000000e+00  5.00000000e-01 -1.00000000e-01 5.53910943e-04  
133     -3.10000000e+00  5.00000000e-01 -1.00000000e-01 5.63183817e-04  
134     -3.15000000e+00  5.00000000e-01 -1.00000000e-01 5.72351663e-04  
135     -3.20000000e+00  5.00000000e-01 -1.00000000e-01 5.81416392e-04  
136     -3.25000000e+00  5.00000000e-01 -1.00000000e-01 5.90379865e-04  
137     -3.30000000e+00  5.00000000e-01 -1.00000000e-01 5.99243902e-04  
138     -3.35000000e+00  5.00000000e-01 -1.00000000e-01 6.08010280e-04  
139     -3.40000000e+00  5.00000000e-01 -1.00000000e-01 6.16680735e-04  
140     -3.45000000e+00  5.00000000e-01 -1.00000000e-01 6.25256962e-04  
141     -3.50000000e+00  5.00000000e-01 -1.00000000e-01 6.33740617e-04  
142     0.00000000e+00   1.00000000e+00 -1.00000000e-01 1.11000002e-12  
143     -5.00000000e-02  1.00000000e+00 -1.00000000e-01 1.11000005e-12  
144     -1.00000000e-01  1.00000000e+00 -1.00000000e-01 1.11000037e-12  
145     -1.50000000e-01  1.00000000e+00 -1.00000000e-01 1.11000262e-12  
146     -2.00000000e-01  1.00000000e+00 -1.00000000e-01 1.11001870e-12  
147     -2.50000000e-01  1.00000000e+00 -1.00000000e-01 1.11013373e-12  
148     -3.00000000e-01  1.00000000e+00 -1.00000000e-01 1.11239307e-12  
149     -3.50000000e-01  1.00000000e+00 -1.00000000e-01 1.12647404e-12  
150     -4.00000000e-01  1.00000000e+00 -1.00000000e-01 1.22776382e-12  
151     -4.50000000e-01  1.00000000e+00 -1.00000000e-01 1.95147551e-12  
152     -5.00000000e-01  1.00000000e+00 -1.00000000e-01 7.11599654e-12  
153     -5.50000000e-01  1.00000000e+00 -1.00000000e-01 4.38502646e-11  
154     -6.00000000e-01  1.00000000e+00 -1.00000000e-01 3.02891460e-10  
155     -6.50000000e-01  1.00000000e+00 -1.00000000e-01 2.08969844e-09  
156     -7.00000000e-01  1.00000000e+00 -1.00000000e-01 1.37809974e-08  
157     -7.50000000e-01  1.00000000e+00 -1.00000000e-01 8.25151983e-08  
158     -8.00000000e-01  1.00000000e+00 -1.00000000e-01 4.27647557e-07  
159     -8.50000000e-01  1.00000000e+00 -1.00000000e-01 1.87247502e-06  
160     -9.00000000e-01  1.00000000e+00 -1.00000000e-01 6.42178216e-06  
161     -9.50000000e-01  1.00000000e+00 -1.00000000e-01 1.58751406e-05  
162     -1.00000000e+00  1.00000000e+00 -1.00000000e-01 2.91516757e-05  
163     -1.05000000e+00  1.00000000e+00 -1.00000000e-01 4.40658885e-05  
164     -1.10000000e+00  1.00000000e+00 -1.00000000e-01 5.94650118e-05  
165     -1.15000000e+00  1.00000000e+00 -1.00000000e-01 7.49268168e-05  
166     -1.20000000e+00  1.00000000e+00 -1.00000000e-01 9.03035478e-05  
167     -1.25000000e+00  1.00000000e+00 -1.00000000e-01 1.05539750e-04  
168     -1.30000000e+00  1.00000000e+00 -1.00000000e-01 1.20611723e-04  
169     -1.35000000e+00  1.00000000e+00 -1.00000000e-01 1.35507353e-04  
170     -1.40000000e+00  1.00000000e+00 -1.00000000e-01 1.50215373e-04  
171     -1.45000000e+00  1.00000000e+00 -1.00000000e-01 1.64734841e-04  
172     -1.50000000e+00  1.00000000e+00 -1.00000000e-01 1.79067530e-04  
173     -1.55000000e+00  1.00000000e+00 -1.00000000e-01 1.93214278e-04  
174     -1.60000000e+00  1.00000000e+00 -1.00000000e-01 2.07176605e-04  
175     -1.65000000e+00  1.00000000e+00 -1.00000000e-01 2.20956572e-04  
176     -1.70000000e+00  1.00000000e+00 -1.00000000e-01 2.34556615e-04  
177     -1.75000000e+00  1.00000000e+00 -1.00000000e-01 2.47979419e-04  
178     -1.80000000e+00  1.00000000e+00 -1.00000000e-01 2.61227834e-04  
179     -1.85000000e+00  1.00000000e+00 -1.00000000e-01 2.74304806e-04  
180     -1.90000000e+00  1.00000000e+00 -1.00000000e-01 2.87213337e-04  
181     -1.95000000e+00  1.00000000e+00 -1.00000000e-01 2.99956450e-04  
182     -2.00000000e+00  1.00000000e+00 -1.00000000e-01 3.12537169e-04  
183     -2.05000000e+00  1.00000000e+00 -1.00000000e-01 3.24958499e-04  
184     -2.10000000e+00  1.00000000e+00 -1.00000000e-01 3.37223413e-04  
185     -2.15000000e+00  1.00000000e+00 -1.00000000e-01 3.49334849e-04  
186     -2.20000000e+00  1.00000000e+00 -1.00000000e-01 3.61295699e-04  
187     -2.25000000e+00  1.00000000e+00 -1.00000000e-01 3.73108804e-04  
188     -2.30000000e+00  1.00000000e+00 -1.00000000e-01 3.84776954e-04  
189     -2.35000000e+00  1.00000000e+00 -1.00000000e-01 3.96302884e-04  
190     -2.40000000e+00  1.00000000e+00 -1.00000000e-01 4.07689275e-04  
191     -2.45000000e+00  1.00000000e+00 -1.00000000e-01 4.18938750e-04  
192     -2.50000000e+00  1.00000000e+00 -1.00000000e-01 4.30053876e-04  
193     -2.55000000e+00  1.00000000e+00 -1.00000000e-01 4.41037163e-04  
194     -2.60000000e+00  1.00000000e+00 -1.00000000e-01 4.51891069e-04  
195     -2.65000000e+00  1.00000000e+00 -1.00000000e-01 4.62617991e-04  
196     -2.70000000e+00  1.00000000e+00 -1.00000000e-01 4.73220278e-04  
197     -2.75000000e+00  1.00000000e+00 -1.00000000e-01 4.83700221e-04  
198     -2.80000000e+00  1.00000000e+00 -1.00000000e-01 4.94060060e-04  
199     -2.85000000e+00  1.00000000e+00 -1.00000000e-01 5.04301985e-04  
200     -2.90000000e+00  1.00000000e+00 -1.00000000e-01 5.14428135e-04  
201     -2.95000000e+00  1.00000000e+00 -1.00000000e-01 5.24440599e-04  
202     -3.00000000e+00  1.00000000e+00 -1.00000000e-01 5.34341420e-04  
203     -3.05000000e+00  1.00000000e+00 -1.00000000e-01 5.44132593e-04  
204     -3.10000000e+00  1.00000000e+00 -1.00000000e-01 5.53816067e-04  
205     -3.15000000e+00  1.00000000e+00 -1.00000000e-01 5.63393748e-04  
206     -3.20000000e+00  1.00000000e+00 -1.00000000e-01 5.72867498e-04  
207     -3.25000000e+00  1.00000000e+00 -1.00000000e-01 5.82239136e-04  
208     -3.30000000e+00  1.00000000e+00 -1.00000000e-01 5.91510441e-04  
209     -3.35000000e+00  1.00000000e+00 -1.00000000e-01 6.00683151e-04  
210     -3.40000000e+00  1.00000000e+00 -1.00000000e-01 6.09758966e-04  
211     -3.45000000e+00  1.00000000e+00 -1.00000000e-01 6.18739548e-04  
212     -3.50000000e+00  1.00000000e+00 -1.00000000e-01 6.27626520e-04  
213     0.00000000e+00   1.50000000e+00 -1.00000000e-01 1.61000000e-12  
214     -5.00000000e-02  1.50000000e+00 -1.00000000e-01 1.61000000e-12  
215     -1.00000000e-01  1.50000000e+00 -1.00000000e-01 1.61000001e-12  
216     -1.50000000e-01  1.50000000e+00 -1.00000000e-01 1.61000008e-12  
217     -2.00000000e-01  1.50000000e+00 -1.00000000e-01 1.61000065e-12  
218     -2.50000000e-01  1.50000000e+00 -1.00000000e-01 1.61000496e-12  
219     -3.00000000e-01  1.50000000e+00 -1.00000000e-01 1.61003796e-12  
220     -3.50000000e-01  1.50000000e+00 -1.00000000e-01 1.61076135e-12  
221     -4.00000000e-01  1.50000000e+00 -1.00000000e-01 1.61560105e-12  
222     -4.50000000e-01  1.50000000e+00 -1.00000000e-01 1.65284486e-12  
223     -5.00000000e-01  1.50000000e+00 -1.00000000e-01 1.93764390e-12  
224     -5.50000000e-01  1.50000000e+00 -1.00000000e-01 4.11355360e-12  
225     -6.00000000e-01  1.50000000e+00 -1.00000000e-01 2.06976193e-11  
226     -6.50000000e-01  1.50000000e+00 -1.00000000e-01 1.46261320e-10  
227     -7.00000000e-01  1.50000000e+00 -1.00000000e-01 1.08021838e-09  
228     -7.50000000e-01  1.50000000e+00 -1.00000000e-01 7.72079727e-09  
229     -8.00000000e-01  1.50000000e+00 -1.00000000e-01 5.04408238e-08  
230     -8.50000000e-01  1.50000000e+00 -1.00000000e-01 2.83162911e-07  
231     -9.00000000e-01  1.50000000e+00 -1.00000000e-01 1.32754717e-06  
232     -9.50000000e-01  1.50000000e+00 -1.00000000e-01 4.93217099e-06  
233     -1.00000000e+00  1.50000000e+00 -1.00000000e-01 1.32467310e-05  
234     -1.05000000e+00  1.50000000e+00 -1.00000000e-01 2.58420429e-05  
235     -1.10000000e+00  1.50000000e+00 -1.00000000e-01 4.04724021e-05  
236     -1.15000000e+00  1.50000000e+00 -1.00000000e-01 5.57600468e-05  
237     -1.20000000e+00  1.50000000e+00 -1.00000000e-01 7.11834719e-05  
238     -1.25000000e+00  1.50000000e+00 -1.00000000e-01 8.65588653e-05  
239     -1.30000000e+00  1.50000000e+00 -1.00000000e-01 1.01816748e-04  
240     -1.35000000e+00  1.50000000e+00 -1.00000000e-01 1.16927195e-04  
241     -1.40000000e+00  1.50000000e+00 -1.00000000e-01 1.31875238e-04  
242     -1.45000000e+00  1.50000000e+00 -1.00000000e-01 1.46648888e-04  
243     -1.50000000e+00  1.50000000e+00 -1.00000000e-01 1.61243185e-04  
244     -1.55000000e+00  1.50000000e+00 -1.00000000e-01 1.75660137e-04  
245     -1.60000000e+00  1.50000000e+00 -1.00000000e-01 1.89900068e-04  
246     -1.65000000e+00  1.50000000e+00 -1.00000000e-01 2.03963975e-04  
247     -1.70000000e+00  1.50000000e+00 -1.00000000e-01 2.17853461e-04  
248     -1.75000000e+00  1.50000000e+00 -1.00000000e-01 2.31570555e-04  
249     -1.80000000e+00  1.50000000e+00 -1.00000000e-01 2.45117571e-04  
250     -1.85000000e+00  1.50000000e+00 -1.00000000e-01 2.58497017e-04  
251     -1.90000000e+00  1.50000000e+00 -1.00000000e-01 2.71711519e-04  
252     -1.95000000e+00  1.50000000e+00 -1.00000000e-01 2.84763781e-04  
253     -2.00000000e+00  1.50000000e+00 -1.00000000e-01 2.97656544e-04  
254     -2.05000000e+00  1.50000000e+00 -1.00000000e-01 3.10392562e-04  
255     -2.10000000e+00  1.50000000e+00 -1.00000000e-01 3.22974585e-04  
256     -2.15000000e+00  1.50000000e+00 -1.00000000e-01 3.35405347e-04  
257     -2.20000000e+00  1.50000000e+00 -1.00000000e-01 3.47687553e-04  
258     -2.25000000e+00  1.50000000e+00 -1.00000000e-01 3.59823873e-04  
259     -2.30000000e+00  1.50000000e+00 -1.00000000e-01 3.71816939e-04  
260     -2.35000000e+00  1.50000000e+00 -1.00000000e-01 3.83669338e-04  
261     -2.40000000e+00  1.50000000e+00 -1.00000000e-01 3.95383612e-04  
262     -2.45000000e+00  1.50000000e+00 -1.00000000e-01 4.06962255e-04  
263     -2.50000000e+00  1.50000000e+00 -1.00000000e-01 4.18407715e-04  
264     -2.55000000e+00  1.50000000e+00 -1.00000000e-01 4.29722388e-04  
265     -2.60000000e+00  1.50000000e+00 -1.00000000e-01 4.40908621e-04  
266     -2.65000000e+00  1.50000000e+00 -1.00000000e-01 4.51968713e-04  
267     -2.70000000e+00  1.50000000e+00 -1.00000000e-01 4.62904914e-04  
268     -2.75000000e+00  1.50000000e+00 -1.00000000e-01 4.73719427e-04  
269     -2.80000000e+00  1.50000000e+00 -1.00000000e-01 4.84414404e-04  
270     -2.85000000e+00  1.50000000e+00 -1.00000000e-01 4.94991954e-04  
271     -2.90000000e+00  1.50000000e+00 -1.00000000e-01 5.05454137e-04  
