Index       TIME           {V(1)}_mean     {V(1)}_meanPlus  {V(1)}_meanMinus    {V(1)}_stddev    {V(1)}_variance 
0          0.000000e+00      1.000000e+00      1.000000e+00      1.000000e+00      0.000000e+00      0.000000e+00
1          1.000000e-10      1.000000e+00      1.000000e+00      1.000000e+00      1.473224e-08      2.170388e-16
2          3.000000e-10      9.999999e-01      9.999999e-01      9.999999e-01      4.419671e-08      1.953349e-15
3          7.000000e-10      9.999998e-01      9.999999e-01      9.999997e-01      1.031256e-07      1.063490e-14
4          1.500000e-09      9.999995e-01      9.999997e-01      9.999993e-01      2.209834e-07      4.883367e-14
5          3.100000e-09      9.999989e-01      9.999994e-01      9.999985e-01      4.566987e-07      2.085737e-13
6          6.300000e-09      9.999978e-01      9.999988e-01      9.999969e-01      9.281283e-07      8.614221e-13
7          1.270000e-08      9.999956e-01      9.999975e-01      9.999938e-01      1.870983e-06      3.500578e-12
8          2.550000e-08      9.999913e-01      9.999950e-01      9.999875e-01      3.756676e-06      1.411261e-11
9          5.110000e-08      9.999825e-01      9.999900e-01      9.999749e-01      7.527993e-06      5.667068e-11
10         1.023000e-07      9.999649e-01      9.999800e-01      9.999498e-01      1.507035e-05      2.271156e-10
11         2.047000e-07      9.999298e-01      9.999599e-01      9.998996e-01      3.015398e-05      9.092628e-10
12         4.095000e-07      9.998595e-01      9.999199e-01      9.997992e-01      6.031688e-05      3.638126e-09
13         8.191000e-07      9.997191e-01      9.998397e-01      9.995984e-01      1.206252e-04      1.455044e-08
14         1.638300e-06      9.994382e-01      9.996794e-01      9.991970e-01      2.411720e-04      5.816395e-08
15         3.276700e-06      9.988767e-01      9.993587e-01      9.983947e-01      4.819866e-04      2.323111e-07
16         6.553500e-06      9.977549e-01      9.987174e-01      9.967924e-01      9.625012e-04      9.264086e-07
17         1.310710e-05      9.955157e-01      9.974348e-01      9.935966e-01      1.919087e-03      3.682894e-06
18         1.966070e-05      9.932825e-01      9.961523e-01      9.904127e-01      2.869770e-03      8.235580e-06
19         2.621430e-05      9.910552e-01      9.948698e-01      9.872406e-01      3.814582e-03      1.455103e-05
20         3.276790e-05      9.888338e-01      9.935874e-01      9.840803e-01      4.753552e-03      2.259625e-05
21         3.932150e-05      9.866183e-01      9.923050e-01      9.809316e-01      5.686710e-03      3.233867e-05
22         4.587510e-05      9.844087e-01      9.910228e-01      9.777946e-01      6.614088e-03      4.374615e-05
23         5.242870e-05      9.822049e-01      9.897406e-01      9.746692e-01      7.535713e-03      5.678697e-05
24         5.898230e-05      9.800070e-01      9.884586e-01      9.715554e-01      8.451616e-03      7.142982e-05
25         6.553590e-05      9.778149e-01      9.871767e-01      9.684530e-01      9.361827e-03      8.764381e-05
26         7.208950e-05      9.756285e-01      9.858949e-01      9.653622e-01      1.026637e-02      1.053984e-04
27         7.864310e-05      9.734480e-01      9.846133e-01      9.622827e-01      1.116529e-02      1.246637e-04
28         8.519670e-05      9.712732e-01      9.833318e-01      9.592146e-01      1.205860e-02      1.454097e-04
29         9.175030e-05      9.691042e-01      9.820505e-01      9.561578e-01      1.294633e-02      1.676074e-04
30         9.830390e-05      9.669409e-01      9.807694e-01      9.531123e-01      1.382851e-02      1.912278e-04
31         1.048575e-04      9.647832e-01      9.794884e-01      9.500781e-01      1.470518e-02      2.162423e-04
32         1.114111e-04      9.626313e-01      9.782077e-01      9.470550e-01      1.557636e-02      2.426229e-04
33         1.179647e-04      9.604851e-01      9.769271e-01      9.440430e-01      1.644207e-02      2.703417e-04
34         1.245183e-04      9.583445e-01      9.756468e-01      9.410421e-01      1.730235e-02      2.993713e-04
35         1.310719e-04      9.562095e-01      9.743667e-01      9.380523e-01      1.815723e-02      3.296848e-04
36         1.376255e-04      9.540802e-01      9.730869e-01      9.350734e-01      1.900672e-02      3.612555e-04
37         1.441791e-04      9.519564e-01      9.718073e-01      9.321055e-01      1.985087e-02      3.940570e-04
38         1.507327e-04      9.498382e-01      9.705279e-01      9.291485e-01      2.068969e-02      4.280635e-04
39         1.572863e-04      9.477256e-01      9.692489e-01      9.262024e-01      2.152323e-02      4.632492e-04
40         1.638399e-04      9.456186e-01      9.679701e-01      9.232671e-01      2.235149e-02      4.995890e-04
41         1.703935e-04      9.435170e-01      9.666915e-01      9.203425e-01      2.317451e-02      5.370580e-04
42         1.769471e-04      9.414210e-01      9.654133e-01      9.174287e-01      2.399232e-02      5.756315e-04
43         1.835007e-04      9.393305e-01      9.641354e-01      9.145255e-01      2.480494e-02      6.152853e-04
44         1.900543e-04      9.372454e-01      9.628578e-01      9.116330e-01      2.561241e-02      6.559955e-04
45         1.966079e-04      9.351658e-01      9.615806e-01      9.087511e-01      2.641474e-02      6.977385e-04
46         2.031615e-04      9.330917e-01      9.603036e-01      9.058797e-01      2.721197e-02      7.404912e-04
47         2.097151e-04      9.310229e-01      9.590270e-01      9.030188e-01      2.800411e-02      7.842304e-04
48         2.162687e-04      9.289596e-01      9.577508e-01      9.001684e-01      2.879121e-02      8.289336e-04
49         2.228223e-04      9.269017e-01      9.564749e-01      8.973284e-01      2.957327e-02      8.745785e-04
50         2.293759e-04      9.248491e-01      9.551994e-01      8.944988e-01      3.035034e-02      9.211431e-04
51         2.359295e-04      9.228019e-01      9.539243e-01      8.916795e-01      3.112243e-02      9.686057e-04
52         2.424831e-04      9.207600e-01      9.526496e-01      8.888704e-01      3.188957e-02      1.016945e-03
53         2.490367e-04      9.187235e-01      9.513753e-01      8.860717e-01      3.265179e-02      1.066139e-03
54         2.555903e-04      9.166922e-01      9.501013e-01      8.832831e-01      3.340911e-02      1.116169e-03
55         2.621439e-04      9.146663e-01      9.488278e-01      8.805047e-01      3.416156e-02      1.167012e-03
56         2.686975e-04      9.126456e-01      9.475548e-01      8.777364e-01      3.490916e-02      1.218649e-03
57         2.752511e-04      9.106302e-01      9.462821e-01      8.749782e-01      3.565194e-02      1.271060e-03
58         2.818047e-04      9.086200e-01      9.450099e-01      8.722301e-01      3.638992e-02      1.324226e-03
59         2.883583e-04      9.066150e-01      9.437381e-01      8.694919e-01      3.712312e-02      1.378126e-03
60         2.949119e-04      9.046153e-01      9.424669e-01      8.667637e-01      3.785159e-02      1.432743e-03
61         3.014655e-04      9.026207e-01      9.411960e-01      8.640454e-01      3.857532e-02      1.488056e-03
62         3.080191e-04      9.006313e-01      9.399257e-01      8.613369e-01      3.929437e-02      1.544047e-03
63         3.145727e-04      8.986471e-01      9.386558e-01      8.586383e-01      4.000873e-02      1.600699e-03
64         3.211263e-04      8.966680e-01      9.373864e-01      8.559495e-01      4.071845e-02      1.657992e-03
65         3.276799e-04      8.946940e-01      9.361176e-01      8.532705e-01      4.142354e-02      1.715910e-03
66         3.342335e-04      8.927252e-01      9.348492e-01      8.506011e-01      4.212403e-02      1.774434e-03
67         3.407871e-04      8.907614e-01      9.335814e-01      8.479415e-01      4.281995e-02      1.833548e-03
68         3.473407e-04      8.888027e-01      9.323140e-01      8.452914e-01      4.351131e-02      1.893234e-03
69         3.538943e-04      8.868491e-01      9.310472e-01      8.426510e-01      4.419814e-02      1.953475e-03
70         3.604479e-04      8.849005e-01      9.297810e-01      8.400201e-01      4.488046e-02      2.014256e-03
71         3.670015e-04      8.829570e-01      9.285153e-01      8.373987e-01      4.555831e-02      2.075559e-03
72         3.735551e-04      8.810185e-01      9.272501e-01      8.347868e-01      4.623169e-02      2.137369e-03
73         3.801087e-04      8.790849e-01      9.259856e-01      8.321843e-01      4.690064e-02      2.199670e-03
74         3.866623e-04      8.771564e-01      9.247216e-01      8.295912e-01      4.756517e-02      2.262445e-03
75         3.932159e-04      8.752328e-01      9.234581e-01      8.270075e-01      4.822531e-02      2.325681e-03
76         3.997695e-04      8.733142e-01      9.221953e-01      8.244331e-01      4.888109e-02      2.389361e-03
77         4.063231e-04      8.714005e-01      9.209330e-01      8.218680e-01      4.953252e-02      2.453471e-03
78         4.128767e-04      8.694917e-01      9.196714e-01      8.193121e-01      5.017964e-02      2.517996e-03
79         4.194303e-04      8.675879e-01      9.184103e-01      8.167654e-01      5.082245e-02      2.582921e-03
80         4.259839e-04      8.656889e-01      9.171499e-01      8.142279e-01      5.146099e-02      2.648233e-03
81         4.325375e-04      8.637948e-01      9.158901e-01      8.116996e-01      5.209527e-02      2.713917e-03
82         4.390911e-04      8.619056e-01      9.146309e-01      8.091803e-01      5.272532e-02      2.779959e-03
83         4.456447e-04      8.600212e-01      9.133724e-01      8.066701e-01      5.335116e-02      2.846346e-03
84         4.521983e-04      8.581417e-01      9.121145e-01      8.041689e-01      5.397281e-02      2.913064e-03
85         4.587519e-04      8.562670e-01      9.108573e-01      8.016767e-01      5.459030e-02      2.980101e-03
86         4.653055e-04      8.543970e-01      9.096007e-01      7.991934e-01      5.520364e-02      3.047442e-03
87         4.718591e-04      8.525319e-01      9.083448e-01      7.967190e-01      5.581286e-02      3.115076e-03
88         4.784127e-04      8.506715e-01      9.070895e-01      7.942535e-01      5.641798e-02      3.182989e-03
89         4.849663e-04      8.488159e-01      9.058349e-01      7.917969e-01      5.701902e-02      3.251169e-03
90         4.915199e-04      8.469651e-01      9.045811e-01      7.893491e-01      5.761600e-02      3.319604e-03
91         4.980735e-04      8.451189e-01      9.033279e-01      7.869100e-01      5.820895e-02      3.388282e-03
92         5.046271e-04      8.432775e-01      9.020754e-01      7.844796e-01      5.879788e-02      3.457191e-03
93         5.111807e-04      8.414408e-01      9.008236e-01      7.820580e-01      5.938281e-02      3.526319e-03
94         5.177343e-04      8.396087e-01      8.995725e-01      7.796450e-01      5.996378e-02      3.595654e-03
95         5.242879e-04      8.377814e-01      8.983222e-01      7.772406e-01      6.054079e-02      3.665187e-03
96         5.308415e-04      8.359587e-01      8.970725e-01      7.748448e-01      6.111386e-02      3.734904e-03
97         5.373951e-04      8.341406e-01      8.958236e-01      7.724576e-01      6.168303e-02      3.804796e-03
98         5.439487e-04      8.323272e-01      8.945755e-01      7.700789e-01      6.224830e-02      3.874851e-03
99         5.505023e-04      8.305183e-01      8.933280e-01      7.677086e-01      6.280971e-02      3.945059e-03
100        5.570559e-04      8.287141e-01      8.920814e-01      7.653469e-01      6.336726e-02      4.015410e-03
101        5.636095e-04      8.269145e-01      8.908355e-01      7.629935e-01      6.392099e-02      4.085892e-03
102        5.701631e-04      8.251194e-01      8.895903e-01      7.606485e-01      6.447090e-02      4.156497e-03
103        5.767167e-04      8.233289e-01      8.883459e-01      7.583119e-01      6.501703e-02      4.227214e-03
104        5.832703e-04      8.215429e-01      8.871023e-01      7.559836e-01      6.555938e-02      4.298032e-03
105        5.898239e-04      8.197615e-01      8.858595e-01      7.536635e-01      6.609799e-02      4.368944e-03
106        5.963775e-04      8.179846e-01      8.846174e-01      7.513517e-01      6.663286e-02      4.439938e-03
107        6.029311e-04      8.162122e-01      8.833762e-01      7.490481e-01      6.716402e-02      4.511006e-03
108        6.094847e-04      8.144442e-01      8.821357e-01      7.467527e-01      6.769150e-02      4.582139e-03
109        6.160383e-04      8.126808e-01      8.808961e-01      7.444655e-01      6.821530e-02      4.653327e-03
110        6.225919e-04      8.109218e-01      8.796572e-01      7.421863e-01      6.873545e-02      4.724562e-03
111        6.291455e-04      8.091672e-01      8.784192e-01      7.399153e-01      6.925196e-02      4.795834e-03
112        6.356991e-04      8.074171e-01      8.771820e-01      7.376523e-01      6.976487e-02      4.867136e-03
113        6.422527e-04      8.056714e-01      8.759456e-01      7.353973e-01      7.027417e-02      4.938459e-03
114        6.488063e-04      8.039302e-01      8.747101e-01      7.331503e-01      7.077990e-02      5.009795e-03
115        6.553599e-04      8.021933e-01      8.734754e-01      7.309112e-01      7.128208e-02      5.081135e-03
116        6.619135e-04      8.004608e-01      8.722415e-01      7.286801e-01      7.178071e-02      5.152471e-03
117        6.684671e-04      7.987326e-01      8.710085e-01      7.264568e-01      7.227583e-02      5.223796e-03
118        6.750207e-04      7.970089e-01      8.697763e-01      7.242414e-01      7.276745e-02      5.295101e-03
119        6.815743e-04      7.952894e-01      8.685450e-01      7.220338e-01      7.325558e-02      5.366380e-03
120        6.881279e-04      7.935743e-01      8.673145e-01      7.198340e-01      7.374025e-02      5.437624e-03
121        6.946815e-04      7.918635e-01      8.660850e-01      7.176420e-01      7.422147e-02      5.508827e-03
122        7.012351e-04      7.901570e-01      8.648563e-01      7.154577e-01      7.469926e-02      5.579980e-03
123        7.077887e-04      7.884548e-01      8.636284e-01      7.132811e-01      7.517365e-02      5.651078e-03
124        7.143423e-04      7.867568e-01      8.624015e-01      7.111122e-01      7.564464e-02      5.722112e-03
125        7.208959e-04      7.850632e-01      8.611754e-01      7.089509e-01      7.611226e-02      5.793077e-03
126        7.274495e-04      7.833738e-01      8.599503e-01      7.067972e-01      7.657653e-02      5.863965e-03
127        7.340031e-04      7.816886e-01      8.587260e-01      7.046511e-01      7.703746e-02      5.934770e-03
128        7.405567e-04      7.800076e-01      8.575027e-01      7.025125e-01      7.749506e-02      6.005485e-03
129        7.471103e-04      7.783309e-01      8.562802e-01      7.003815e-01      7.794937e-02      6.076104e-03
130        7.536639e-04      7.766583e-01      8.550587e-01      6.982579e-01      7.840039e-02      6.146621e-03
131        7.602175e-04      7.749900e-01      8.538381e-01      6.961418e-01      7.884814e-02      6.217029e-03
132        7.667711e-04      7.733258e-01      8.526184e-01      6.940331e-01      7.929264e-02      6.287323e-03
133        7.733247e-04      7.716657e-01      8.513996e-01      6.919318e-01      7.973391e-02      6.357496e-03
134        7.798783e-04      7.700099e-01      8.501818e-01      6.898379e-01      8.017196e-02      6.427543e-03
135        7.864319e-04      7.683581e-01      8.489649e-01      6.877513e-01      8.060681e-02      6.497458e-03
136        7.929855e-04      7.667105e-01      8.477490e-01      6.856720e-01      8.103848e-02      6.567236e-03
137        7.995391e-04      7.650670e-01      8.465340e-01      6.836000e-01      8.146699e-02      6.636870e-03
138        8.060927e-04      7.634276e-01      8.453199e-01      6.815353e-01      8.189235e-02      6.706356e-03
139        8.126463e-04      7.617923e-01      8.441068e-01      6.794777e-01      8.231457e-02      6.775689e-03
140        8.191999e-04      7.601610e-01      8.428947e-01      6.774274e-01      8.273368e-02      6.844862e-03
141        8.257535e-04      7.585339e-01      8.416835e-01      6.753842e-01      8.314970e-02      6.913872e-03
142        8.323071e-04      7.569107e-01      8.404734e-01      6.733481e-01      8.356263e-02      6.982713e-03
143        8.388607e-04      7.552916e-01      8.392641e-01      6.713191e-01      8.397249e-02      7.051380e-03
144        8.454143e-04      7.536766e-01      8.380559e-01      6.692973e-01      8.437931e-02      7.119868e-03
145        8.519679e-04      7.520655e-01      8.368486e-01      6.672824e-01      8.478310e-02      7.188173e-03
146        8.585215e-04      7.504585e-01      8.356423e-01      6.652746e-01      8.518386e-02      7.256290e-03
147        8.650751e-04      7.488554e-01      8.344370e-01      6.632738e-01      8.558163e-02      7.324215e-03
148        8.716287e-04      7.472563e-01      8.332327e-01      6.612799e-01      8.597641e-02      7.391943e-03
149        8.781823e-04      7.456612e-01      8.320294e-01      6.592930e-01      8.636823e-02      7.459470e-03
150        8.847359e-04      7.440701e-01      8.308271e-01      6.573130e-01      8.675709e-02      7.526792e-03
151        8.912895e-04      7.424828e-01      8.296259e-01      6.553398e-01      8.714301e-02      7.593904e-03
152        8.978431e-04      7.408996e-01      8.284256e-01      6.533735e-01      8.752601e-02      7.660803e-03
153        9.043967e-04      7.393202e-01      8.272263e-01      6.514141e-01      8.790611e-02      7.727484e-03
154        9.109503e-04      7.377447e-01      8.260281e-01      6.494614e-01      8.828332e-02      7.793944e-03
155        9.175039e-04      7.361732e-01      8.248308e-01      6.475155e-01      8.865765e-02      7.860179e-03
156        9.240575e-04      7.346055e-01      8.236346e-01      6.455764e-01      8.902912e-02      7.926184e-03
157        9.306111e-04      7.330417e-01      8.224395e-01      6.436440e-01      8.939775e-02      7.991958e-03
158        9.371647e-04      7.314818e-01      8.212453e-01      6.417182e-01      8.976355e-02      8.057495e-03
159        9.437183e-04      7.299257e-01      8.200522e-01      6.397992e-01      9.012653e-02      8.122792e-03
160        9.502719e-04      7.283734e-01      8.188602e-01      6.378867e-01      9.048672e-02      8.187847e-03
161        9.568255e-04      7.268250e-01      8.176691e-01      6.359809e-01      9.084413e-02      8.252655e-03
162        9.633791e-04      7.252804e-01      8.164792e-01      6.340817e-01      9.119876e-02      8.317214e-03
163        9.699327e-04      7.237396e-01      8.152903e-01      6.321890e-01      9.155064e-02      8.381520e-03
164        9.764863e-04      7.222026e-01      8.141024e-01      6.303028e-01      9.189978e-02      8.445570e-03
165        9.830399e-04      7.206694e-01      8.129156e-01      6.284232e-01      9.224620e-02      8.509361e-03
166        9.895935e-04      7.191399e-01      8.117298e-01      6.265500e-01      9.258991e-02      8.572891e-03
167        9.961471e-04      7.176143e-01      8.105452e-01      6.246833e-01      9.293092e-02      8.636155e-03
168        1.002701e-03      7.160923e-01      8.093616e-01      6.228231e-01      9.326925e-02      8.699153e-03
169        1.009254e-03      7.145741e-01      8.081790e-01      6.209692e-01      9.360491e-02      8.761880e-03
170        1.015808e-03      7.130596e-01      8.069976e-01      6.191217e-01      9.393792e-02      8.824334e-03
171        1.022361e-03      7.115489e-01      8.058172e-01      6.172806e-01      9.426830e-02      8.886512e-03
172        1.028915e-03      7.100418e-01      8.046379e-01      6.154458e-01      9.459605e-02      8.948413e-03
173        1.035469e-03      7.085385e-01      8.034597e-01      6.136173e-01      9.492119e-02      9.010033e-03
