Index       TIME         {v(drain)}_mean  {v(drain)}_meanPlus {v(drain)}_meanMinus {v(drain)}_stddev {v(drain)}_variance {v(drain)}_quad_pce_mean {v(drain)}_quad_pce_meanPlus {v(drain)}_quad_pce_meanMinus {v(drain)}_quad_pce_stddev {v(drain)}_quad_pce_variance  {V(gate)}_mean   {V(gate)}_meanPlus {V(gate)}_meanMinus {V(gate)}_stddev  {V(gate)}_variance {V(gate)}_quad_pce_mean {V(gate)}_quad_pce_meanPlus {V(gate)}_quad_pce_meanMinus {V(gate)}_quad_pce_stddev {V(gate)}_quad_pce_variance
0          0.000000e+00      1.000000e+00      1.000000e+00      1.000000e+00      4.085682e-09      1.669280e-17      1.000000e+00      1.000000e+00      1.000000e+00      3.387174e-09      1.147295e-17      0.000000e+00      0.000000e+00      0.000000e+00      0.000000e+00      0.000000e+00      0.000000e+00      0.000000e+00      0.000000e+00      0.000000e+00      0.000000e+00
1          1.000000e-09      1.000000e+00      1.000000e+00      1.000000e+00      4.296141e-09      1.845683e-17      1.000000e+00      1.000000e+00      1.000000e+00      3.542118e-09      1.254660e-17      0.000000e+00      0.000000e+00      0.000000e+00      0.000000e+00      0.000000e+00      0.000000e+00      0.000000e+00      0.000000e+00      0.000000e+00      0.000000e+00
2          3.000000e-09      1.000000e+00      1.000000e+00      1.000000e+00      4.298912e-09      1.848065e-17      1.000000e+00      1.000000e+00      1.000000e+00      3.544168e-09      1.256113e-17      0.000000e+00      0.000000e+00      0.000000e+00      0.000000e+00      0.000000e+00      0.000000e+00      0.000000e+00      0.000000e+00      0.000000e+00      0.000000e+00
3          7.000000e-09      1.000000e+00      1.000000e+00      1.000000e+00      4.298948e-09      1.848095e-17      1.000000e+00      1.000000e+00      1.000000e+00      3.544195e-09      1.256132e-17      0.000000e+00      0.000000e+00      0.000000e+00      0.000000e+00      0.000000e+00      0.000000e+00      0.000000e+00      0.000000e+00      0.000000e+00      0.000000e+00
4          1.500000e-08      1.000000e+00      1.000000e+00      1.000000e+00      4.298913e-09      1.848065e-17      1.000000e+00      1.000000e+00      1.000000e+00      3.544169e-09      1.256113e-17      0.000000e+00      0.000000e+00      0.000000e+00      0.000000e+00      0.000000e+00      0.000000e+00      0.000000e+00      0.000000e+00      0.000000e+00      0.000000e+00
5          3.100000e-08      1.000000e+00      1.000000e+00      1.000000e+00      4.298948e-09      1.848095e-17      1.000000e+00      1.000000e+00      1.000000e+00      3.544195e-09      1.256132e-17      0.000000e+00      0.000000e+00      0.000000e+00      0.000000e+00      0.000000e+00      0.000000e+00      0.000000e+00      0.000000e+00      0.000000e+00      0.000000e+00
6          6.300000e-08      1.000000e+00      1.000000e+00      1.000000e+00      4.298913e-09      1.848065e-17      1.000000e+00      1.000000e+00      1.000000e+00      3.544169e-09      1.256113e-17      0.000000e+00      0.000000e+00      0.000000e+00      0.000000e+00      0.000000e+00      0.000000e+00      0.000000e+00      0.000000e+00      0.000000e+00      0.000000e+00
7          1.030000e-07      1.000000e+00      1.000000e+00      1.000000e+00      4.298948e-09      1.848095e-17      1.000000e+00      1.000000e+00      1.000000e+00      3.544195e-09      1.256132e-17      0.000000e+00      0.000000e+00      0.000000e+00      0.000000e+00      0.000000e+00      0.000000e+00      0.000000e+00      0.000000e+00      0.000000e+00      0.000000e+00
8          1.430000e-07      1.000000e+00      1.000000e+00      1.000000e+00      4.298913e-09      1.848065e-17      1.000000e+00      1.000000e+00      1.000000e+00      3.544169e-09      1.256113e-17      0.000000e+00      0.000000e+00      0.000000e+00      0.000000e+00      0.000000e+00      0.000000e+00      0.000000e+00      0.000000e+00      0.000000e+00      0.000000e+00
9          1.830000e-07      1.000000e+00      1.000000e+00      1.000000e+00      4.298948e-09      1.848095e-17      1.000000e+00      1.000000e+00      1.000000e+00      3.544195e-09      1.256132e-17      0.000000e+00      0.000000e+00      0.000000e+00      0.000000e+00      0.000000e+00      0.000000e+00      0.000000e+00      0.000000e+00      0.000000e+00      0.000000e+00
10         2.230000e-07      1.000000e+00      1.000000e+00      1.000000e+00      4.298913e-09      1.848065e-17      1.000000e+00      1.000000e+00      1.000000e+00      3.544169e-09      1.256113e-17      0.000000e+00      0.000000e+00      0.000000e+00      0.000000e+00      0.000000e+00      0.000000e+00      0.000000e+00      0.000000e+00      0.000000e+00      0.000000e+00
11         2.630000e-07      1.000000e+00      1.000000e+00      1.000000e+00      4.298948e-09      1.848095e-17      1.000000e+00      1.000000e+00      1.000000e+00      3.544195e-09      1.256131e-17      0.000000e+00      0.000000e+00      0.000000e+00      0.000000e+00      0.000000e+00      0.000000e+00      0.000000e+00      0.000000e+00      0.000000e+00      0.000000e+00
12         3.030000e-07      1.000000e+00      1.000000e+00      1.000000e+00      4.298913e-09      1.848065e-17      1.000000e+00      1.000000e+00      1.000000e+00      3.544169e-09      1.256113e-17      0.000000e+00      0.000000e+00      0.000000e+00      0.000000e+00      0.000000e+00      0.000000e+00      0.000000e+00      0.000000e+00      0.000000e+00      0.000000e+00
13         3.430000e-07      1.000000e+00      1.000000e+00      1.000000e+00      4.298948e-09      1.848095e-17      1.000000e+00      1.000000e+00      1.000000e+00      3.544194e-09      1.256131e-17      0.000000e+00      0.000000e+00      0.000000e+00      0.000000e+00      0.000000e+00      0.000000e+00      0.000000e+00      0.000000e+00      0.000000e+00      0.000000e+00
14         3.830000e-07      1.000000e+00      1.000000e+00      1.000000e+00      4.298913e-09      1.848065e-17      1.000000e+00      1.000000e+00      1.000000e+00      3.544169e-09      1.256113e-17      0.000000e+00      0.000000e+00      0.000000e+00      0.000000e+00      0.000000e+00      0.000000e+00      0.000000e+00      0.000000e+00      0.000000e+00      0.000000e+00
15         4.000000e-07      1.000000e+00      1.000000e+00      1.000000e+00      4.298948e-09      1.848095e-17      1.000000e+00      1.000000e+00      1.000000e+00      3.544194e-09      1.256131e-17      0.000000e+00      0.000000e+00      0.000000e+00      0.000000e+00      0.000000e+00      0.000000e+00      0.000000e+00      0.000000e+00      0.000000e+00      0.000000e+00
16         4.010960e-07      1.000088e+00      1.000117e+00      1.000059e+00      2.862791e-05      8.195572e-10      1.000086e+00      1.000110e+00      1.000061e+00      2.438751e-05      5.947508e-10      1.095979e-02      1.095979e-02      1.095979e-02      3.469447e-18      1.203706e-35      1.095979e-02      1.095979e-02      1.095979e-02      1.705613e-17      2.909114e-34
17         4.019706e-07      1.000092e+00      1.000123e+00      1.000061e+00      3.106163e-05      9.648246e-10      1.000089e+00      1.000115e+00      1.000063e+00      2.643390e-05      6.987510e-10      1.970611e-02      1.970611e-02      1.970611e-02      3.469447e-18      1.203706e-35      1.970611e-02      1.970611e-02      1.970611e-02      3.100984e-17      9.616104e-34
18         4.037199e-07      1.000098e+00      1.000134e+00      1.000062e+00      3.573133e-05      1.276728e-09      1.000095e+00      1.000125e+00      1.000064e+00      3.035516e-05      9.214355e-10      3.719876e-02      3.719876e-02      3.719876e-02      0.000000e+00      0.000000e+00      3.719876e-02      3.719876e-02      3.719876e-02      5.615444e-17      3.153321e-33
19         4.072184e-07      1.000116e+00      1.000165e+00      1.000066e+00      4.975680e-05      2.475739e-09      1.000111e+00      1.000153e+00      1.000069e+00      4.210218e-05      1.772594e-09      7.218405e-02      7.218405e-02      7.218405e-02      1.387779e-17      1.925930e-34      7.218405e-02      7.218405e-02      7.218405e-02      1.141560e-16      1.303159e-32
20         4.142155e-07      1.000180e+00      1.000290e+00      1.000069e+00      1.104043e-04      1.218912e-08      1.000166e+00      1.000259e+00      1.000073e+00      9.263936e-05      8.582051e-09      1.421546e-01      1.421546e-01      1.421546e-01      2.775558e-17      7.703720e-34      1.421546e-01      1.421546e-01      1.421546e-01      2.201569e-16      4.846905e-32
21         4.282096e-07      1.000892e+00      1.001839e+00      9.999437e-01      9.478756e-04      8.984681e-07      1.000757e+00      1.001554e+00      9.999595e-01      7.972576e-04      6.356197e-07      2.820958e-01      2.820958e-01      2.820958e-01      0.000000e+00      0.000000e+00      2.820958e-01      2.820958e-01      2.820958e-01      4.350199e-16      1.892423e-31
22         4.319998e-07      1.001545e+00      1.003385e+00      9.997057e-01      1.839499e-03      3.383755e-06      1.001301e+00      1.002857e+00      9.997444e-01      1.556398e-03      2.422376e-06      3.199981e-01      3.199981e-01      3.199981e-01      5.551115e-17      3.081488e-33      3.199981e-01      3.199981e-01      3.199981e-01      4.993234e-16      2.493238e-31
23         4.357900e-07      1.002183e+00      1.005517e+00      9.988487e-01      3.334154e-03      1.111658e-05      1.001939e+00      1.004710e+00      9.991671e-01      2.771640e-03      7.681988e-06      3.579004e-01      3.579004e-01      3.579004e-01      5.551115e-17      3.081488e-33      3.579004e-01      3.579004e-01      3.579004e-01      5.854005e-16      3.426937e-31
24         4.395803e-07      1.001469e+00      1.012518e+00      9.904202e-01      1.104909e-02      1.220824e-04      1.002224e+00      1.010052e+00      9.943968e-01      7.827436e-03      6.126875e-05      3.958027e-01      3.958027e-01      3.958027e-01      5.551115e-17      3.081488e-33      3.958027e-01      3.958027e-01      3.958027e-01      6.210985e-16      3.857633e-31
25         4.399956e-07      1.001035e+00      1.013976e+00      9.880930e-01      1.294170e-02      1.674876e-04      1.002050e+00      1.011103e+00      9.929963e-01      9.053341e-03      8.196299e-05      3.999558e-01      3.999558e-01      3.999558e-01      5.551115e-17      3.081488e-33      3.999558e-01      3.999558e-01      3.999558e-01      5.974309e-16      3.569237e-31
26         4.404109e-07      1.000522e+00      1.015588e+00      9.854564e-01      1.506575e-02      2.269768e-04      1.001830e+00      1.012281e+00      9.913787e-01      1.045101e-02      1.092236e-04      4.041090e-01      4.041090e-01      4.041090e-01      1.110223e-16      1.232595e-32      4.041090e-01      4.041090e-01      4.041090e-01      6.228644e-16      3.879601e-31
27         4.412415e-07      9.989896e-01      1.019733e+00      9.782464e-01      2.074316e-02      4.302786e-04      1.001098e+00      1.015395e+00      9.868009e-01      1.429722e-02      2.044106e-04      4.124152e-01      4.124152e-01      4.124152e-01      0.000000e+00      0.000000e+00      4.124152e-01      4.124152e-01      4.124152e-01      6.439750e-16      4.147037e-31
28         4.420722e-07      9.965997e-01      1.025279e+00      9.679204e-01      2.867930e-02      8.225022e-04      9.998331e-01      1.019689e+00      9.799769e-01      1.985621e-02      3.942690e-04      4.207215e-01      4.207215e-01      4.207215e-01      0.000000e+00      0.000000e+00      4.207215e-01      4.207215e-01      4.207215e-01      6.466794e-16      4.181943e-31
29         4.429028e-07      9.931032e-01      1.032414e+00      9.537920e-01      3.931122e-02      1.545372e-03      9.978399e-01      1.025359e+00      9.703203e-01      2.751958e-02      7.573274e-04      4.290278e-01      4.290278e-01      4.290278e-01      0.000000e+00      0.000000e+00      4.290278e-01      4.290278e-01      4.290278e-01      6.852137e-16      4.695178e-31
30         4.437334e-07      9.881790e-01      1.041219e+00      9.351388e-01      5.304019e-02      2.813261e-03      9.948512e-01      1.032545e+00      9.571572e-01      3.769395e-02      1.420834e-03      4.373341e-01      4.373341e-01      4.373341e-01      5.551115e-17      3.081488e-33      4.373341e-01      4.373341e-01      4.373341e-01      6.689181e-16      4.474514e-31
31         4.445640e-07      9.813845e-01      1.051714e+00      9.110546e-01      7.032987e-02      4.946291e-03      9.904837e-01      1.041400e+00      9.395678e-01      5.091593e-02      2.592432e-03      4.456404e-01      4.456404e-01      4.456404e-01      5.551115e-17      3.081488e-33      4.456404e-01      4.456404e-01      4.456404e-01      6.830367e-16      4.665391e-31
32         4.453947e-07      9.722600e-01      1.064004e+00      8.805166e-01      9.174347e-02      8.416865e-03      9.843194e-01      1.052102e+00      9.165364e-01      6.778305e-02      4.594542e-03      4.539467e-01      4.539467e-01      4.539467e-01      5.551115e-17      3.081488e-33      4.539467e-01      4.539467e-01      4.539467e-01      6.876168e-16      4.728168e-31
33         4.462253e-07      9.604508e-01      1.078207e+00      8.426944e-01      1.177564e-01      1.386657e-02      9.760051e-01      1.064724e+00      8.872859e-01      8.871915e-02      7.871087e-03      4.622529e-01      4.622529e-01      4.622529e-01      1.110223e-16      1.232595e-32      4.622529e-01      4.622529e-01      4.622529e-01      7.170708e-16      5.141906e-31
34         4.470559e-07      9.455641e-01      1.094127e+00      7.970011e-01      1.485630e-01      2.207096e-02      9.651331e-01      1.079066e+00      8.512002e-01      1.139329e-01      1.298071e-02      4.705592e-01      4.705592e-01      4.705592e-01      5.551115e-17      3.081488e-33      4.705592e-01      4.705592e-01      4.705592e-01      7.249460e-16      5.255467e-31
35         4.478866e-07      9.268618e-01      1.110975e+00      7.427490e-01      1.841128e-01      3.389752e-02      9.510069e-01      1.094623e+00      8.073905e-01      1.436164e-01      2.062568e-02      4.788655e-01      4.788655e-01      4.788655e-01      5.551115e-17      3.081488e-33      4.788655e-01      4.788655e-01      4.788655e-01      7.398395e-16      5.473626e-31
36         4.487172e-07      9.035507e-01      1.127972e+00      6.791297e-01      2.244210e-01      5.036479e-02      9.328756e-01      1.110925e+00      7.548267e-01      1.780489e-01      3.170142e-02      4.871718e-01      4.871718e-01      4.871718e-01      5.551115e-17      3.081488e-33      4.871718e-01      4.871718e-01      4.871718e-01      7.481798e-16      5.597730e-31
37         4.494647e-07      8.784076e-01      1.143122e+00      6.136926e-01      2.647149e-01      7.007400e-02      9.128553e-01      1.125952e+00      6.997586e-01      2.130967e-01      4.541022e-02      4.946474e-01      4.946474e-01      4.946474e-01      0.000000e+00      0.000000e+00      4.946474e-01      4.946474e-01      4.946474e-01      7.810829e-16      6.100904e-31
38         4.502123e-07      8.504041e-01      1.154986e+00      5.458223e-01      3.045818e-01      9.277008e-02      8.897544e-01      1.139181e+00      6.403273e-01      2.494270e-01      6.221384e-02      5.021231e-01      5.021231e-01      5.021231e-01      1.110223e-16      1.232595e-32      5.021231e-01      5.021231e-01      5.021231e-01      7.856699e-16      6.172771e-31
39         4.503100e-07      8.467272e-01      1.155794e+00      5.376601e-01      3.090671e-01      9.552250e-02      8.865890e-01      1.140427e+00      6.327508e-01      2.538382e-01      6.443384e-02      5.030997e-01      5.030997e-01      5.030997e-01      1.110223e-16      1.232595e-32      5.030997e-01      5.030997e-01      5.030997e-01      7.850828e-16      6.163551e-31
40         4.504076e-07      8.431210e-01      1.156416e+00      5.298261e-01      3.132949e-01      9.815372e-02      8.834499e-01      1.141527e+00      6.253725e-01      2.580774e-01      6.660396e-02      5.040762e-01      5.040762e-01      5.040762e-01      0.000000e+00      0.000000e+00      5.040762e-01      5.040762e-01      5.040762e-01      7.769473e-16      6.036471e-31
41         4.506029e-07      8.362317e-01      1.156632e+00      5.158316e-01      3.204001e-01      1.026562e-01      8.772897e-01      1.142896e+00      6.116830e-01      2.656067e-01      7.054693e-02      5.060293e-01      5.060293e-01      5.060293e-01      0.000000e+00      0.000000e+00      5.060293e-01      5.060293e-01      5.060293e-01      7.960046e-16      6.336233e-31
42         4.507982e-07      8.295028e-01      1.156008e+00      5.029971e-01      3.265056e-01      1.066059e-01      8.711445e-01      1.143551e+00      5.987384e-01      2.724061e-01      7.420510e-02      5.079824e-01      5.079824e-01      5.079824e-01      1.110223e-16      1.232595e-32      5.079824e-01      5.079824e-01      5.079824e-01      8.190798e-16      6.708917e-31
43         4.509936e-07      8.226757e-01      1.155046e+00      4.903059e-01      3.323698e-01      1.104697e-01      8.648721e-01      1.143879e+00      5.858650e-01      2.790071e-01      7.784496e-02      5.099355e-01      5.099355e-01      5.099355e-01      1.110223e-16      1.232595e-32      5.099355e-01      5.099355e-01      5.099355e-01      7.761682e-16      6.024370e-31
44         4.513842e-07      8.092317e-01      1.151663e+00      4.668004e-01      3.424313e-01      1.172592e-01      8.524250e-01      1.142869e+00      5.619815e-01      2.904435e-01      8.435744e-02      5.138417e-01      5.138417e-01      5.138417e-01      1.110223e-16      1.232595e-32      5.138417e-01      5.138417e-01      5.138417e-01      7.944849e-16      6.312063e-31
45         4.517357e-07      7.973349e-01      1.147236e+00      4.474339e-01      3.499010e-01      1.224307e-01      8.412804e-01      1.140234e+00      5.423271e-01      2.989533e-01      8.937308e-02      5.173573e-01      5.173573e-01      5.173573e-01      0.000000e+00      0.000000e+00      5.173573e-01      5.173573e-01      5.173573e-01      8.108945e-16      6.575499e-31
46         4.520873e-07      7.848154e-01      1.142925e+00      4.267062e-01      3.581092e-01      1.282422e-01      8.294621e-01      1.137375e+00      5.215495e-01      3.079126e-01      9.481018e-02      5.208729e-01      5.208729e-01      5.208729e-01      0.000000e+00      0.000000e+00      5.208729e-01      5.208729e-01      5.208729e-01      8.085782e-16      6.537986e-31
47         4.524389e-07      7.714055e-01      1.139266e+00      4.035448e-01      3.678606e-01      1.353215e-01      8.167081e-01      1.134831e+00      4.985848e-01      3.181233e-01      1.012024e-01      5.243885e-01      5.243885e-01      5.243885e-01      0.000000e+00      0.000000e+00      5.243885e-01      5.243885e-01      5.243885e-01      8.214822e-16      6.748331e-31
48         4.527904e-07      7.574227e-01      1.135998e+00      3.788475e-01      3.785752e-01      1.433192e-01      8.032290e-01      1.132366e+00      4.740919e-01      3.291372e-01      1.083313e-01      5.279041e-01      5.279041e-01      5.279041e-01      0.000000e+00      0.000000e+00      5.279041e-01      5.279041e-01      5.279041e-01      8.124063e-16      6.600040e-31
49         4.531420e-07      7.439855e-01      1.131960e+00      3.560114e-01      3.879742e-01      1.505239e-01      7.897992e-01      1.129091e+00      4.505072e-01      3.392920e-01      1.151191e-01      5.314197e-01      5.314197e-01      5.314197e-01      0.000000e+00      0.000000e+00      5.314197e-01      5.314197e-01      5.314197e-01      8.122467e-16      6.597447e-31
