Index       TIME         {v(drain)}_mean  {v(drain)}_meanPlus {v(drain)}_meanMinus {v(drain)}_stddev {v(drain)}_variance {v(drain)}_quad_pce_mean {v(drain)}_quad_pce_meanPlus {v(drain)}_quad_pce_meanMinus {v(drain)}_quad_pce_stddev {v(drain)}_quad_pce_variance {v(drain)}_coef(0,0) {v(drain)}_coef(1,0) {v(drain)}_coef(0,1) {v(drain)}_coef(2,0) {v(drain)}_coef(1,1) {v(drain)}_coef(0,2) {v(drain)}_coef(3,0) {v(drain)}_coef(2,1) {v(drain)}_coef(1,2) {v(drain)}_coef(0,3) {v(drain)}_coef(4,0) {v(drain)}_coef(3,1) {v(drain)}_coef(2,2) {v(drain)}_coef(1,3) {v(drain)}_coef(0,4)  {V(gate)}_mean   {V(gate)}_meanPlus {V(gate)}_meanMinus {V(gate)}_stddev  {V(gate)}_variance {V(gate)}_quad_pce_mean {V(gate)}_quad_pce_meanPlus {V(gate)}_quad_pce_meanMinus {V(gate)}_quad_pce_stddev {V(gate)}_quad_pce_variance {V(gate)}_coef(0,0) {V(gate)}_coef(1,0) {V(gate)}_coef(0,1) {V(gate)}_coef(2,0) {V(gate)}_coef(1,1) {V(gate)}_coef(0,2) {V(gate)}_coef(3,0) {V(gate)}_coef(2,1) {V(gate)}_coef(1,2) {V(gate)}_coef(0,3) {V(gate)}_coef(4,0) {V(gate)}_coef(3,1) {V(gate)}_coef(2,2) {V(gate)}_coef(1,3) {V(gate)}_coef(0,4)
0          0.000000e+00      1.000000e+00      1.000000e+00      1.000000e+00      4.085682e-09      1.669280e-17      1.000000e+00      1.000000e+00      1.000000e+00      3.387174e-09      1.147295e-17      1.000000e+00      1.695586e-09      5.240001e-09     -1.679049e-09     -7.858840e-10     -1.505519e-09      1.117492e-09      7.713326e-10      2.702949e-10      2.405788e-10     -5.136386e-10     -5.130347e-10     -2.571301e-10     -8.775711e-11      4.548159e-11      0.000000e+00      0.000000e+00      0.000000e+00      0.000000e+00      0.000000e+00      0.000000e+00      0.000000e+00      0.000000e+00      0.000000e+00      0.000000e+00      0.000000e+00      0.000000e+00      0.000000e+00      0.000000e+00      0.000000e+00      0.000000e+00      0.000000e+00      0.000000e+00      0.000000e+00      0.000000e+00      0.000000e+00      0.000000e+00      0.000000e+00      0.000000e+00      0.000000e+00
1          1.000000e-09      1.000000e+00      1.000000e+00      1.000000e+00      4.296141e-09      1.845683e-17      1.000000e+00      1.000000e+00      1.000000e+00      3.542118e-09      1.254660e-17      1.000000e+00      1.692267e-09      5.474635e-09     -1.678804e-09     -7.769420e-10     -1.817255e-09      1.117474e-09      7.706717e-10      2.584451e-10      5.351984e-10     -5.136367e-10     -5.129845e-10     -2.562534e-10     -7.659015e-11     -1.382801e-10      0.000000e+00      0.000000e+00      0.000000e+00      0.000000e+00      0.000000e+00      0.000000e+00      0.000000e+00      0.000000e+00      0.000000e+00      0.000000e+00      0.000000e+00      0.000000e+00      0.000000e+00      0.000000e+00      0.000000e+00      0.000000e+00      0.000000e+00      0.000000e+00      0.000000e+00      0.000000e+00      0.000000e+00      0.000000e+00      0.000000e+00      0.000000e+00      0.000000e+00
2          3.000000e-09      1.000000e+00      1.000000e+00      1.000000e+00      4.298912e-09      1.848065e-17      1.000000e+00      1.000000e+00      1.000000e+00      3.544168e-09      1.256113e-17      1.000000e+00      1.692224e-09      5.477654e-09     -1.678801e-09     -7.768270e-10     -1.821277e-09      1.117474e-09      7.706633e-10      2.582922e-10      5.390111e-10     -5.136367e-10     -5.129838e-10     -2.562421e-10     -7.644560e-11     -1.406637e-10      0.000000e+00      0.000000e+00      0.000000e+00      0.000000e+00      0.000000e+00      0.000000e+00      0.000000e+00      0.000000e+00      0.000000e+00      0.000000e+00      0.000000e+00      0.000000e+00      0.000000e+00      0.000000e+00      0.000000e+00      0.000000e+00      0.000000e+00      0.000000e+00      0.000000e+00      0.000000e+00      0.000000e+00      0.000000e+00      0.000000e+00      0.000000e+00      0.000000e+00
3          7.000000e-09      1.000000e+00      1.000000e+00      1.000000e+00      4.298948e-09      1.848095e-17      1.000000e+00      1.000000e+00      1.000000e+00      3.544195e-09      1.256132e-17      1.000000e+00      1.692224e-09      5.477693e-09     -1.678801e-09     -7.768256e-10     -1.821329e-09      1.117474e-09      7.706633e-10      2.582901e-10      5.390603e-10     -5.136369e-10     -5.129838e-10     -2.562419e-10     -7.644360e-11     -1.406943e-10      0.000000e+00      0.000000e+00      0.000000e+00      0.000000e+00      0.000000e+00      0.000000e+00      0.000000e+00      0.000000e+00      0.000000e+00      0.000000e+00      0.000000e+00      0.000000e+00      0.000000e+00      0.000000e+00      0.000000e+00      0.000000e+00      0.000000e+00      0.000000e+00      0.000000e+00      0.000000e+00      0.000000e+00      0.000000e+00      0.000000e+00      0.000000e+00      0.000000e+00
4          1.500000e-08      1.000000e+00      1.000000e+00      1.000000e+00      4.298913e-09      1.848065e-17      1.000000e+00      1.000000e+00      1.000000e+00      3.544169e-09      1.256113e-17      1.000000e+00      1.692224e-09      5.477655e-09     -1.678801e-09     -7.768270e-10     -1.821278e-09      1.117474e-09      7.706633e-10      2.582921e-10      5.390114e-10     -5.136366e-10     -5.129840e-10     -2.562422e-10     -7.644563e-11     -1.406639e-10      0.000000e+00      0.000000e+00      0.000000e+00      0.000000e+00      0.000000e+00      0.000000e+00      0.000000e+00      0.000000e+00      0.000000e+00      0.000000e+00      0.000000e+00      0.000000e+00      0.000000e+00      0.000000e+00      0.000000e+00      0.000000e+00      0.000000e+00      0.000000e+00      0.000000e+00      0.000000e+00      0.000000e+00      0.000000e+00      0.000000e+00      0.000000e+00      0.000000e+00
5          3.100000e-08      1.000000e+00      1.000000e+00      1.000000e+00      4.298948e-09      1.848095e-17      1.000000e+00      1.000000e+00      1.000000e+00      3.544195e-09      1.256132e-17      1.000000e+00      1.692224e-09      5.477693e-09     -1.678801e-09     -7.768256e-10     -1.821329e-09      1.117474e-09      7.706633e-10      2.582903e-10      5.390601e-10     -5.136369e-10     -5.129837e-10     -2.562419e-10     -7.644338e-11     -1.406942e-10      0.000000e+00      0.000000e+00      0.000000e+00      0.000000e+00      0.000000e+00      0.000000e+00      0.000000e+00      0.000000e+00      0.000000e+00      0.000000e+00      0.000000e+00      0.000000e+00      0.000000e+00      0.000000e+00      0.000000e+00      0.000000e+00      0.000000e+00      0.000000e+00      0.000000e+00      0.000000e+00      0.000000e+00      0.000000e+00      0.000000e+00      0.000000e+00      0.000000e+00
6          6.300000e-08      1.000000e+00      1.000000e+00      1.000000e+00      4.298913e-09      1.848065e-17      1.000000e+00      1.000000e+00      1.000000e+00      3.544169e-09      1.256113e-17      1.000000e+00      1.692224e-09      5.477655e-09     -1.678801e-09     -7.768270e-10     -1.821278e-09      1.117473e-09      7.706632e-10      2.582921e-10      5.390115e-10     -5.136366e-10     -5.129840e-10     -2.562422e-10     -7.644554e-11     -1.406640e-10      0.000000e+00      0.000000e+00      0.000000e+00      0.000000e+00      0.000000e+00      0.000000e+00      0.000000e+00      0.000000e+00      0.000000e+00      0.000000e+00      0.000000e+00      0.000000e+00      0.000000e+00      0.000000e+00      0.000000e+00      0.000000e+00      0.000000e+00      0.000000e+00      0.000000e+00      0.000000e+00      0.000000e+00      0.000000e+00      0.000000e+00      0.000000e+00      0.000000e+00
7          1.030000e-07      1.000000e+00      1.000000e+00      1.000000e+00      4.298948e-09      1.848095e-17      1.000000e+00      1.000000e+00      1.000000e+00      3.544195e-09      1.256132e-17      1.000000e+00      1.692224e-09      5.477693e-09     -1.678801e-09     -7.768256e-10     -1.821329e-09      1.117474e-09      7.706633e-10      2.582902e-10      5.390601e-10     -5.136368e-10     -5.129836e-10     -2.562419e-10     -7.644335e-11     -1.406941e-10      0.000000e+00      0.000000e+00      0.000000e+00      0.000000e+00      0.000000e+00      0.000000e+00      0.000000e+00      0.000000e+00      0.000000e+00      0.000000e+00      0.000000e+00      0.000000e+00      0.000000e+00      0.000000e+00      0.000000e+00      0.000000e+00      0.000000e+00      0.000000e+00      0.000000e+00      0.000000e+00      0.000000e+00      0.000000e+00      0.000000e+00      0.000000e+00      0.000000e+00
8          1.430000e-07      1.000000e+00      1.000000e+00      1.000000e+00      4.298913e-09      1.848065e-17      1.000000e+00      1.000000e+00      1.000000e+00      3.544169e-09      1.256113e-17      1.000000e+00      1.692224e-09      5.477655e-09     -1.678801e-09     -7.768270e-10     -1.821278e-09      1.117473e-09      7.706632e-10      2.582921e-10      5.390116e-10     -5.136366e-10     -5.129840e-10     -2.562421e-10     -7.644571e-11     -1.406640e-10      0.000000e+00      0.000000e+00      0.000000e+00      0.000000e+00      0.000000e+00      0.000000e+00      0.000000e+00      0.000000e+00      0.000000e+00      0.000000e+00      0.000000e+00      0.000000e+00      0.000000e+00      0.000000e+00      0.000000e+00      0.000000e+00      0.000000e+00      0.000000e+00      0.000000e+00      0.000000e+00      0.000000e+00      0.000000e+00      0.000000e+00      0.000000e+00      0.000000e+00
9          1.830000e-07      1.000000e+00      1.000000e+00      1.000000e+00      4.298948e-09      1.848095e-17      1.000000e+00      1.000000e+00      1.000000e+00      3.544195e-09      1.256132e-17      1.000000e+00      1.692224e-09      5.477693e-09     -1.678800e-09     -7.768256e-10     -1.821329e-09      1.117474e-09      7.706633e-10      2.582904e-10      5.390599e-10     -5.136368e-10     -5.129836e-10     -2.562419e-10     -7.644343e-11     -1.406941e-10      0.000000e+00      0.000000e+00      0.000000e+00      0.000000e+00      0.000000e+00      0.000000e+00      0.000000e+00      0.000000e+00      0.000000e+00      0.000000e+00      0.000000e+00      0.000000e+00      0.000000e+00      0.000000e+00      0.000000e+00      0.000000e+00      0.000000e+00      0.000000e+00      0.000000e+00      0.000000e+00      0.000000e+00      0.000000e+00      0.000000e+00      0.000000e+00      0.000000e+00
10         2.230000e-07      1.000000e+00      1.000000e+00      1.000000e+00      4.298913e-09      1.848065e-17      1.000000e+00      1.000000e+00      1.000000e+00      3.544169e-09      1.256113e-17      1.000000e+00      1.692224e-09      5.477655e-09     -1.678801e-09     -7.768269e-10     -1.821278e-09      1.117473e-09      7.706632e-10      2.582920e-10      5.390117e-10     -5.136366e-10     -5.129840e-10     -2.562421e-10     -7.644560e-11     -1.406642e-10      0.000000e+00      0.000000e+00      0.000000e+00      0.000000e+00      0.000000e+00      0.000000e+00      0.000000e+00      0.000000e+00      0.000000e+00      0.000000e+00      0.000000e+00      0.000000e+00      0.000000e+00      0.000000e+00      0.000000e+00      0.000000e+00      0.000000e+00      0.000000e+00      0.000000e+00      0.000000e+00      0.000000e+00      0.000000e+00      0.000000e+00      0.000000e+00      0.000000e+00
11         2.630000e-07      1.000000e+00      1.000000e+00      1.000000e+00      4.298948e-09      1.848095e-17      1.000000e+00      1.000000e+00      1.000000e+00      3.544195e-09      1.256132e-17      1.000000e+00      1.692224e-09      5.477693e-09     -1.678800e-09     -7.768256e-10     -1.821329e-09      1.117474e-09      7.706634e-10      2.582904e-10      5.390599e-10     -5.136368e-10     -5.129836e-10     -2.562420e-10     -7.644330e-11     -1.406941e-10      0.000000e+00      0.000000e+00      0.000000e+00      0.000000e+00      0.000000e+00      0.000000e+00      0.000000e+00      0.000000e+00      0.000000e+00      0.000000e+00      0.000000e+00      0.000000e+00      0.000000e+00      0.000000e+00      0.000000e+00      0.000000e+00      0.000000e+00      0.000000e+00      0.000000e+00      0.000000e+00      0.000000e+00      0.000000e+00      0.000000e+00      0.000000e+00      0.000000e+00
12         3.030000e-07      1.000000e+00      1.000000e+00      1.000000e+00      4.298913e-09      1.848065e-17      1.000000e+00      1.000000e+00      1.000000e+00      3.544169e-09      1.256113e-17      1.000000e+00      1.692224e-09      5.477655e-09     -1.678801e-09     -7.768269e-10     -1.821278e-09      1.117473e-09      7.706632e-10      2.582921e-10      5.390117e-10     -5.136366e-10     -5.129839e-10     -2.562421e-10     -7.644560e-11     -1.406642e-10      0.000000e+00      0.000000e+00      0.000000e+00      0.000000e+00      0.000000e+00      0.000000e+00      0.000000e+00      0.000000e+00      0.000000e+00      0.000000e+00      0.000000e+00      0.000000e+00      0.000000e+00      0.000000e+00      0.000000e+00      0.000000e+00      0.000000e+00      0.000000e+00      0.000000e+00      0.000000e+00      0.000000e+00      0.000000e+00      0.000000e+00      0.000000e+00      0.000000e+00
13         3.430000e-07      1.000000e+00      1.000000e+00      1.000000e+00      4.298948e-09      1.848095e-17      1.000000e+00      1.000000e+00      1.000000e+00      3.544195e-09      1.256132e-17      1.000000e+00      1.692224e-09      5.477693e-09     -1.678800e-09     -7.768255e-10     -1.821329e-09      1.117474e-09      7.706634e-10      2.582904e-10      5.390598e-10     -5.136368e-10     -5.129835e-10     -2.562421e-10     -7.644338e-11     -1.406940e-10      0.000000e+00      0.000000e+00      0.000000e+00      0.000000e+00      0.000000e+00      0.000000e+00      0.000000e+00      0.000000e+00      0.000000e+00      0.000000e+00      0.000000e+00      0.000000e+00      0.000000e+00      0.000000e+00      0.000000e+00      0.000000e+00      0.000000e+00      0.000000e+00      0.000000e+00      0.000000e+00      0.000000e+00      0.000000e+00      0.000000e+00      0.000000e+00      0.000000e+00
14         3.830000e-07      1.000000e+00      1.000000e+00      1.000000e+00      4.298913e-09      1.848065e-17      1.000000e+00      1.000000e+00      1.000000e+00      3.544169e-09      1.256113e-17      1.000000e+00      1.692224e-09      5.477655e-09     -1.678801e-09     -7.768270e-10     -1.821278e-09      1.117473e-09      7.706633e-10      2.582921e-10      5.390117e-10     -5.136366e-10     -5.129840e-10     -2.562421e-10     -7.644563e-11     -1.406643e-10      0.000000e+00      0.000000e+00      0.000000e+00      0.000000e+00      0.000000e+00      0.000000e+00      0.000000e+00      0.000000e+00      0.000000e+00      0.000000e+00      0.000000e+00      0.000000e+00      0.000000e+00      0.000000e+00      0.000000e+00      0.000000e+00      0.000000e+00      0.000000e+00      0.000000e+00      0.000000e+00      0.000000e+00      0.000000e+00      0.000000e+00      0.000000e+00      0.000000e+00
15         4.000000e-07      1.000000e+00      1.000000e+00      1.000000e+00      4.298948e-09      1.848095e-17      1.000000e+00      1.000000e+00      1.000000e+00      3.544194e-09      1.256131e-17      1.000000e+00      1.692224e-09      5.477693e-09     -1.678800e-09     -7.768255e-10     -1.821329e-09      1.117474e-09      7.706633e-10      2.582903e-10      5.390598e-10     -5.136369e-10     -5.129835e-10     -2.562421e-10     -7.644338e-11     -1.406939e-10      0.000000e+00      0.000000e+00      0.000000e+00      0.000000e+00      0.000000e+00      0.000000e+00      0.000000e+00      0.000000e+00      0.000000e+00      0.000000e+00      0.000000e+00      0.000000e+00      0.000000e+00      0.000000e+00      0.000000e+00      0.000000e+00      0.000000e+00      0.000000e+00      0.000000e+00      0.000000e+00      0.000000e+00      0.000000e+00      0.000000e+00      0.000000e+00      0.000000e+00
16         4.010960e-07      1.000088e+00      1.000117e+00      1.000059e+00      2.862791e-05      8.195572e-10      1.000086e+00      1.000110e+00      1.000061e+00      2.438751e-05      5.947508e-10      1.000086e+00      2.367395e-09     -4.074316e-05     -2.348585e-09     -1.131796e-09      1.392180e-05      1.563276e-09      1.122803e-09      3.894811e-10     -4.197631e-06     -7.185281e-10     -7.473666e-10     -3.863865e-10     -1.185934e-10      1.103803e-06      1.095979e-02      1.095979e-02      1.095979e-02      1.734723e-18      3.009266e-36      1.095979e-02      1.095979e-02      1.095979e-02      1.673095e-17      2.799245e-34      1.095979e-02      2.818926e-18      1.301043e-18     -2.125036e-17     -1.734723e-18     -2.103352e-17     -9.107298e-18      2.168404e-19      2.168404e-19     -8.456777e-18     -1.821460e-17      2.168404e-19      0.000000e+00     -2.168404e-19     -1.864828e-17
17         4.019706e-07      1.000092e+00      1.000123e+00      1.000061e+00      3.106163e-05      9.648246e-10      1.000089e+00      1.000115e+00      1.000063e+00      2.643390e-05      6.987510e-10      1.000089e+00      3.096163e-09     -4.404230e-05     -3.071511e-09     -1.531179e-09      1.559346e-05      2.044425e-09      1.518987e-09      5.426939e-10     -4.846820e-06     -9.396530e-10     -1.011053e-09     -5.383728e-10     -1.694136e-10      1.304616e-06      1.970611e-02      1.970611e-02      1.970611e-02      3.469447e-18      1.203706e-35      1.970611e-02      1.970611e-02      1.970611e-02      3.050222e-17      9.303856e-34      1.970611e-02      5.637851e-18      2.818926e-18     -3.881444e-17     -1.301043e-18     -3.773024e-17     -1.593777e-17     -4.336809e-19     -4.336809e-19     -1.528725e-17     -3.469447e-17      8.673617e-19     -2.602085e-18      8.673617e-19     -3.382711e-17
18         4.037199e-07      1.000098e+00      1.000134e+00      1.000062e+00      3.573133e-05      1.276728e-09      1.000095e+00      1.000125e+00      1.000064e+00      3.035516e-05      9.214355e-10      1.000095e+00      5.319344e-09     -5.032451e-05     -5.276786e-09     -2.825973e-09      1.890762e-05      3.512077e-09      2.803364e-09      1.065224e-09     -6.161829e-06     -1.614109e-09     -1.865840e-09     -1.056702e-09     -3.500484e-10      1.713732e-06      3.719876e-02      3.719876e-02      3.719876e-02      0.000000e+00      0.000000e+00      3.719876e-02      3.719876e-02      3.719876e-02      5.877110e-17      3.454042e-33      3.719876e-02      1.019150e-17      1.040834e-17     -7.090682e-17      2.168404e-18     -7.611099e-17     -3.100818e-17      1.734723e-18      2.602085e-18     -2.970714e-17     -6.375109e-17     -2.602085e-18      8.673617e-19     -3.469447e-18     -6.722053e-17
19         4.072184e-07      1.000116e+00      1.000165e+00      1.000066e+00      4.975680e-05      2.475739e-09      1.000111e+00      1.000153e+00      1.000069e+00      4.210218e-05      1.772594e-09      1.000111e+00      1.618919e-08     -6.892722e-05     -1.605781e-08     -1.010119e-08      2.933258e-05      1.068582e-08      1.001922e-08      4.327985e-09     -1.050939e-05     -4.910168e-09     -6.667390e-09     -4.292865e-09     -1.572090e-09      3.119308e-06      7.218405e-02      7.218405e-02      7.218405e-02      2.775558e-17      7.703720e-34      7.218405e-02      7.218405e-02      7.218405e-02      1.103671e-16      1.218091e-32      7.218405e-02      1.691355e-17      2.775558e-17     -1.435484e-16     -3.469447e-18     -1.383442e-16     -5.898060e-17      1.734723e-18     -1.734723e-18     -5.290907e-17     -1.157928e-16     -5.204170e-18     -1.734723e-18      1.734723e-18     -1.157928e-16
