Index       TIME         {V(DRAIN)}_mean  {V(DRAIN)}_meanPlus {V(DRAIN)}_meanMinus {V(DRAIN)}_stddev {V(DRAIN)}_variance {V(DRAIN)}_regr_pce_mean {V(DRAIN)}_regr_pce_meanPlus {V(DRAIN)}_regr_pce_meanMinus {V(DRAIN)}_regr_pce_stddev {V(DRAIN)}_regr_pce_variance {V(DRAIN)}_coef(0_0) {V(DRAIN)}_coef(1_0) {V(DRAIN)}_coef(0_1) {V(DRAIN)}_coef(2_0) {V(DRAIN)}_coef(1_1) {V(DRAIN)}_coef(0_2) {V(DRAIN)}_coef(3_0) {V(DRAIN)}_coef(2_1) {V(DRAIN)}_coef(1_2) {V(DRAIN)}_coef(0_3) {V(DRAIN)}_coef(4_0) {V(DRAIN)}_coef(3_1) {V(DRAIN)}_coef(2_2) {V(DRAIN)}_coef(1_3) {V(DRAIN)}_coef(0_4)  {V(GATE)}_mean   {V(GATE)}_meanPlus {V(GATE)}_meanMinus {V(GATE)}_stddev  {V(GATE)}_variance {V(GATE)}_regr_pce_mean {V(GATE)}_regr_pce_meanPlus {V(GATE)}_regr_pce_meanMinus {V(GATE)}_regr_pce_stddev {V(GATE)}_regr_pce_variance {V(GATE)}_coef(0_0) {V(GATE)}_coef(1_0) {V(GATE)}_coef(0_1) {V(GATE)}_coef(2_0) {V(GATE)}_coef(1_1) {V(GATE)}_coef(0_2) {V(GATE)}_coef(3_0) {V(GATE)}_coef(2_1) {V(GATE)}_coef(1_2) {V(GATE)}_coef(0_3) {V(GATE)}_coef(4_0) {V(GATE)}_coef(3_1) {V(GATE)}_coef(2_2) {V(GATE)}_coef(1_3) {V(GATE)}_coef(0_4)
0          0.000000e+00      1.000000e+00      1.000000e+00      1.000000e+00      3.288585e-09      1.081479e-17      1.000000e+00      1.000000e+00      1.000000e+00      3.383140e-09      1.144564e-17      1.000000e+00      1.699591e-09      5.234234e-09     -1.699644e-09     -7.158149e-10     -1.496222e-09      1.086999e-09      8.178500e-10      2.891391e-10      2.059668e-10     -5.286617e-10     -3.065428e-10     -3.216842e-10      1.821344e-11      1.705464e-10      0.000000e+00      0.000000e+00      0.000000e+00      0.000000e+00      0.000000e+00     -0.000000e+00      0.000000e+00     -0.000000e+00      0.000000e+00      0.000000e+00     -0.000000e+00      0.000000e+00      0.000000e+00      0.000000e+00      0.000000e+00      0.000000e+00      0.000000e+00     -0.000000e+00     -0.000000e+00     -0.000000e+00     -0.000000e+00      0.000000e+00     -0.000000e+00      0.000000e+00      0.000000e+00
1          1.000000e-09      1.000000e+00      1.000000e+00      1.000000e+00      3.440519e-09      1.183717e-17      1.000000e+00      1.000000e+00      1.000000e+00      3.543477e-09      1.255623e-17      1.000000e+00      1.696322e-09      5.473444e-09     -1.676010e-09     -7.883625e-10     -1.809268e-09      1.145737e-09      7.914839e-10      2.648146e-10      5.178030e-10     -5.667032e-10     -4.940607e-10     -2.674259e-10     -4.430526e-11     -1.580934e-10      0.000000e+00      0.000000e+00      0.000000e+00      0.000000e+00      0.000000e+00     -0.000000e+00      0.000000e+00     -0.000000e+00      0.000000e+00      0.000000e+00     -0.000000e+00      0.000000e+00      0.000000e+00      0.000000e+00      0.000000e+00      0.000000e+00      0.000000e+00     -0.000000e+00     -0.000000e+00     -0.000000e+00     -0.000000e+00      0.000000e+00     -0.000000e+00      0.000000e+00      0.000000e+00
2          3.000000e-09      1.000000e+00      1.000000e+00      1.000000e+00      3.442571e-09      1.185129e-17      1.000000e+00      1.000000e+00      1.000000e+00      3.545650e-09      1.257163e-17      1.000000e+00      1.696293e-09      5.476557e-09     -1.675674e-09     -7.893893e-10     -1.813346e-09      1.146572e-09      7.911046e-10      2.644979e-10      5.219141e-10     -5.672306e-10     -4.967069e-10     -2.666401e-10     -4.516143e-11     -1.625067e-10      0.000000e+00      0.000000e+00      0.000000e+00      0.000000e+00      0.000000e+00     -0.000000e+00      0.000000e+00     -0.000000e+00      0.000000e+00      0.000000e+00     -0.000000e+00      0.000000e+00      0.000000e+00      0.000000e+00      0.000000e+00      0.000000e+00      0.000000e+00     -0.000000e+00     -0.000000e+00     -0.000000e+00     -0.000000e+00      0.000000e+00     -0.000000e+00      0.000000e+00      0.000000e+00
3          7.000000e-09      1.000000e+00      1.000000e+00      1.000000e+00      3.442598e-09      1.185148e-17      1.000000e+00      1.000000e+00      1.000000e+00      3.545678e-09      1.257183e-17      1.000000e+00      1.696293e-09      5.476597e-09     -1.675669e-09     -7.894039e-10     -1.813399e-09      1.146584e-09      7.910992e-10      2.644938e-10      5.219682e-10     -5.672378e-10     -4.967440e-10     -2.666288e-10     -4.517298e-11     -1.625658e-10      0.000000e+00      0.000000e+00      0.000000e+00      0.000000e+00      0.000000e+00     -0.000000e+00      0.000000e+00     -0.000000e+00      0.000000e+00      0.000000e+00     -0.000000e+00      0.000000e+00      0.000000e+00      0.000000e+00      0.000000e+00      0.000000e+00      0.000000e+00     -0.000000e+00     -0.000000e+00     -0.000000e+00     -0.000000e+00      0.000000e+00     -0.000000e+00      0.000000e+00      0.000000e+00
4          1.500000e-08      1.000000e+00      1.000000e+00      1.000000e+00      3.442571e-09      1.185130e-17      1.000000e+00      1.000000e+00      1.000000e+00      3.545650e-09      1.257163e-17      1.000000e+00      1.696293e-09      5.476557e-09     -1.675674e-09     -7.893894e-10     -1.813346e-09      1.146572e-09      7.911045e-10      2.644978e-10      5.219146e-10     -5.672307e-10     -4.967074e-10     -2.666399e-10     -4.516160e-11     -1.625074e-10      0.000000e+00      0.000000e+00      0.000000e+00      0.000000e+00      0.000000e+00     -0.000000e+00      0.000000e+00     -0.000000e+00      0.000000e+00      0.000000e+00     -0.000000e+00      0.000000e+00      0.000000e+00      0.000000e+00      0.000000e+00      0.000000e+00      0.000000e+00     -0.000000e+00     -0.000000e+00     -0.000000e+00     -0.000000e+00      0.000000e+00     -0.000000e+00      0.000000e+00      0.000000e+00
5          3.100000e-08      1.000000e+00      1.000000e+00      1.000000e+00      3.442597e-09      1.185148e-17      1.000000e+00      1.000000e+00      1.000000e+00      3.545678e-09      1.257183e-17      1.000000e+00      1.696293e-09      5.476597e-09     -1.675669e-09     -7.894038e-10     -1.813399e-09      1.146584e-09      7.910993e-10      2.644938e-10      5.219680e-10     -5.672378e-10     -4.967438e-10     -2.666288e-10     -4.517297e-11     -1.625655e-10      0.000000e+00      0.000000e+00      0.000000e+00      0.000000e+00      0.000000e+00     -0.000000e+00      0.000000e+00     -0.000000e+00      0.000000e+00      0.000000e+00     -0.000000e+00      0.000000e+00      0.000000e+00      0.000000e+00      0.000000e+00      0.000000e+00      0.000000e+00     -0.000000e+00     -0.000000e+00     -0.000000e+00     -0.000000e+00      0.000000e+00     -0.000000e+00      0.000000e+00      0.000000e+00
6          6.300000e-08      1.000000e+00      1.000000e+00      1.000000e+00      3.442571e-09      1.185130e-17      1.000000e+00      1.000000e+00      1.000000e+00      3.545650e-09      1.257163e-17      1.000000e+00      1.696293e-09      5.476557e-09     -1.675674e-09     -7.893895e-10     -1.813346e-09      1.146572e-09      7.911045e-10      2.644979e-10      5.219147e-10     -5.672307e-10     -4.967074e-10     -2.666400e-10     -4.516147e-11     -1.625074e-10      0.000000e+00      0.000000e+00      0.000000e+00      0.000000e+00      0.000000e+00     -0.000000e+00      0.000000e+00     -0.000000e+00      0.000000e+00      0.000000e+00     -0.000000e+00      0.000000e+00      0.000000e+00      0.000000e+00      0.000000e+00      0.000000e+00      0.000000e+00     -0.000000e+00     -0.000000e+00     -0.000000e+00     -0.000000e+00      0.000000e+00     -0.000000e+00      0.000000e+00      0.000000e+00
7          1.030000e-07      1.000000e+00      1.000000e+00      1.000000e+00      3.442597e-09      1.185148e-17      1.000000e+00      1.000000e+00      1.000000e+00      3.545678e-09      1.257183e-17      1.000000e+00      1.696293e-09      5.476597e-09     -1.675669e-09     -7.894039e-10     -1.813399e-09      1.146584e-09      7.910993e-10      2.644938e-10      5.219679e-10     -5.672378e-10     -4.967438e-10     -2.666287e-10     -4.517295e-11     -1.625654e-10      0.000000e+00      0.000000e+00      0.000000e+00      0.000000e+00      0.000000e+00     -0.000000e+00      0.000000e+00     -0.000000e+00      0.000000e+00      0.000000e+00     -0.000000e+00      0.000000e+00      0.000000e+00      0.000000e+00      0.000000e+00      0.000000e+00      0.000000e+00     -0.000000e+00     -0.000000e+00     -0.000000e+00     -0.000000e+00      0.000000e+00     -0.000000e+00      0.000000e+00      0.000000e+00
8          1.430000e-07      1.000000e+00      1.000000e+00      1.000000e+00      3.442571e-09      1.185130e-17      1.000000e+00      1.000000e+00      1.000000e+00      3.545650e-09      1.257163e-17      1.000000e+00      1.696293e-09      5.476557e-09     -1.675674e-09     -7.893894e-10     -1.813346e-09      1.146572e-09      7.911045e-10      2.644979e-10      5.219148e-10     -5.672307e-10     -4.967074e-10     -2.666400e-10     -4.516152e-11     -1.625075e-10      0.000000e+00      0.000000e+00      0.000000e+00      0.000000e+00      0.000000e+00     -0.000000e+00      0.000000e+00     -0.000000e+00      0.000000e+00      0.000000e+00     -0.000000e+00      0.000000e+00      0.000000e+00      0.000000e+00      0.000000e+00      0.000000e+00      0.000000e+00     -0.000000e+00     -0.000000e+00     -0.000000e+00     -0.000000e+00      0.000000e+00     -0.000000e+00      0.000000e+00      0.000000e+00
9          1.830000e-07      1.000000e+00      1.000000e+00      1.000000e+00      3.442597e-09      1.185148e-17      1.000000e+00      1.000000e+00      1.000000e+00      3.545678e-09      1.257183e-17      1.000000e+00      1.696293e-09      5.476597e-09     -1.675669e-09     -7.894038e-10     -1.813398e-09      1.146584e-09      7.910994e-10      2.644938e-10      5.219678e-10     -5.672378e-10     -4.967438e-10     -2.666287e-10     -4.517297e-11     -1.625653e-10      0.000000e+00      0.000000e+00      0.000000e+00      0.000000e+00      0.000000e+00     -0.000000e+00      0.000000e+00     -0.000000e+00      0.000000e+00      0.000000e+00     -0.000000e+00      0.000000e+00      0.000000e+00      0.000000e+00      0.000000e+00      0.000000e+00      0.000000e+00     -0.000000e+00     -0.000000e+00     -0.000000e+00     -0.000000e+00      0.000000e+00     -0.000000e+00      0.000000e+00      0.000000e+00
10         2.230000e-07      1.000000e+00      1.000000e+00      1.000000e+00      3.442571e-09      1.185130e-17      1.000000e+00      1.000000e+00      1.000000e+00      3.545650e-09      1.257163e-17      1.000000e+00      1.696293e-09      5.476557e-09     -1.675674e-09     -7.893896e-10     -1.813347e-09      1.146572e-09      7.911044e-10      2.644978e-10      5.219149e-10     -5.672307e-10     -4.967074e-10     -2.666400e-10     -4.516145e-11     -1.625076e-10      0.000000e+00      0.000000e+00      0.000000e+00      0.000000e+00      0.000000e+00     -0.000000e+00      0.000000e+00     -0.000000e+00      0.000000e+00      0.000000e+00     -0.000000e+00      0.000000e+00      0.000000e+00      0.000000e+00      0.000000e+00      0.000000e+00      0.000000e+00     -0.000000e+00     -0.000000e+00     -0.000000e+00     -0.000000e+00      0.000000e+00     -0.000000e+00      0.000000e+00      0.000000e+00
11         2.630000e-07      1.000000e+00      1.000000e+00      1.000000e+00      3.442597e-09      1.185148e-17      1.000000e+00      1.000000e+00      1.000000e+00      3.545678e-09      1.257183e-17      1.000000e+00      1.696293e-09      5.476597e-09     -1.675669e-09     -7.894038e-10     -1.813398e-09      1.146583e-09      7.910993e-10      2.644938e-10      5.219677e-10     -5.672378e-10     -4.967437e-10     -2.666287e-10     -4.517293e-11     -1.625652e-10      0.000000e+00      0.000000e+00      0.000000e+00      0.000000e+00      0.000000e+00     -0.000000e+00      0.000000e+00     -0.000000e+00      0.000000e+00      0.000000e+00     -0.000000e+00      0.000000e+00      0.000000e+00      0.000000e+00      0.000000e+00      0.000000e+00      0.000000e+00     -0.000000e+00     -0.000000e+00     -0.000000e+00     -0.000000e+00      0.000000e+00     -0.000000e+00      0.000000e+00      0.000000e+00
12         3.030000e-07      1.000000e+00      1.000000e+00      1.000000e+00      3.442571e-09      1.185130e-17      1.000000e+00      1.000000e+00      1.000000e+00      3.545650e-09      1.257163e-17      1.000000e+00      1.696293e-09      5.476557e-09     -1.675674e-09     -7.893896e-10     -1.813347e-09      1.146572e-09      7.911044e-10      2.644979e-10      5.219150e-10     -5.672307e-10     -4.967075e-10     -2.666400e-10     -4.516149e-11     -1.625077e-10      0.000000e+00      0.000000e+00      0.000000e+00      0.000000e+00      0.000000e+00     -0.000000e+00      0.000000e+00     -0.000000e+00      0.000000e+00      0.000000e+00     -0.000000e+00      0.000000e+00      0.000000e+00      0.000000e+00      0.000000e+00      0.000000e+00      0.000000e+00     -0.000000e+00     -0.000000e+00     -0.000000e+00     -0.000000e+00      0.000000e+00     -0.000000e+00      0.000000e+00      0.000000e+00
13         3.430000e-07      1.000000e+00      1.000000e+00      1.000000e+00      3.442597e-09      1.185148e-17      1.000000e+00      1.000000e+00      1.000000e+00      3.545678e-09      1.257183e-17      1.000000e+00      1.696293e-09      5.476597e-09     -1.675669e-09     -7.894038e-10     -1.813398e-09      1.146583e-09      7.910995e-10      2.644938e-10      5.219677e-10     -5.672377e-10     -4.967437e-10     -2.666287e-10     -4.517294e-11     -1.625651e-10      0.000000e+00      0.000000e+00      0.000000e+00      0.000000e+00      0.000000e+00     -0.000000e+00      0.000000e+00     -0.000000e+00      0.000000e+00      0.000000e+00     -0.000000e+00      0.000000e+00      0.000000e+00      0.000000e+00      0.000000e+00      0.000000e+00      0.000000e+00     -0.000000e+00     -0.000000e+00     -0.000000e+00     -0.000000e+00      0.000000e+00     -0.000000e+00      0.000000e+00      0.000000e+00
14         3.830000e-07      1.000000e+00      1.000000e+00      1.000000e+00      3.442571e-09      1.185130e-17      1.000000e+00      1.000000e+00      1.000000e+00      3.545650e-09      1.257163e-17      1.000000e+00      1.696293e-09      5.476557e-09     -1.675674e-09     -7.893897e-10     -1.813347e-09      1.146572e-09      7.911044e-10      2.644979e-10      5.219150e-10     -5.672307e-10     -4.967075e-10     -2.666400e-10     -4.516150e-11     -1.625078e-10      0.000000e+00      0.000000e+00      0.000000e+00      0.000000e+00      0.000000e+00     -0.000000e+00      0.000000e+00     -0.000000e+00      0.000000e+00      0.000000e+00     -0.000000e+00      0.000000e+00      0.000000e+00      0.000000e+00      0.000000e+00      0.000000e+00      0.000000e+00     -0.000000e+00     -0.000000e+00     -0.000000e+00     -0.000000e+00      0.000000e+00     -0.000000e+00      0.000000e+00      0.000000e+00
15         4.000000e-07      1.000000e+00      1.000000e+00      1.000000e+00      3.442597e-09      1.185148e-17      1.000000e+00      1.000000e+00      1.000000e+00      3.545678e-09      1.257183e-17      1.000000e+00      1.696293e-09      5.476597e-09     -1.675669e-09     -7.894039e-10     -1.813398e-09      1.146584e-09      7.910994e-10      2.644938e-10      5.219676e-10     -5.672377e-10     -4.967436e-10     -2.666288e-10     -4.517291e-11     -1.625650e-10      0.000000e+00      0.000000e+00      0.000000e+00      0.000000e+00      0.000000e+00     -0.000000e+00      0.000000e+00     -0.000000e+00      0.000000e+00      0.000000e+00     -0.000000e+00      0.000000e+00      0.000000e+00      0.000000e+00      0.000000e+00      0.000000e+00      0.000000e+00     -0.000000e+00     -0.000000e+00     -0.000000e+00     -0.000000e+00      0.000000e+00     -0.000000e+00      0.000000e+00      0.000000e+00
16         4.010960e-07      1.000088e+00      1.000112e+00      1.000064e+00      2.379192e-05      5.660554e-10      1.000086e+00      1.000110e+00      1.000061e+00      2.438110e-05      5.944379e-10      1.000086e+00      2.465592e-08     -4.073486e-05     -1.108064e-08      5.689382e-08      1.391395e-05     -1.395027e-08     -1.845763e-09      3.628332e-08     -4.142527e-06      3.287573e-08      9.442976e-08      8.087353e-09      9.462455e-08      1.183262e-06      1.095979e-02      1.095979e-02      1.095979e-02      2.255141e-17      5.085659e-34      1.095979e-02      1.095979e-02      1.095979e-02      1.345008e-18      1.809046e-36      1.095979e-02     -8.564351e-19     -6.711741e-20     -6.245986e-19      1.120551e-20     -8.998869e-19      1.695137e-18      1.136226e-18     -4.143663e-19      6.327069e-19     -5.321653e-19     -2.328014e-18      3.495256e-19     -1.917212e-18     -1.611051e-18
17         4.019706e-07      1.000091e+00      1.000117e+00      1.000066e+00      2.578961e-05      6.651039e-10      1.000089e+00      1.000115e+00      1.000063e+00      2.642603e-05      6.983353e-10      1.000089e+00      2.990741e-08     -4.403223e-05     -1.374351e-08      6.887570e-08      1.558375e-05     -1.713370e-08     -1.810917e-09      4.373939e-08     -4.780531e-06      3.980401e-08      1.151209e-07      9.313096e-09      1.144694e-07      1.401673e-06      1.970613e-02      1.970613e-02      1.970613e-02      0.000000e+00      0.000000e+00      1.970613e-02      1.970613e-02      1.970613e-02      1.753737e-18      3.075594e-36      1.970613e-02     -9.405509e-19     -1.080319e-18      1.252765e-18     -7.789144e-19     -1.789177e-18      7.655208e-19      1.126083e-18     -4.851816e-19      1.368831e-18     -1.087187e-18     -1.646303e-18      1.219967e-19     -9.243051e-19     -2.356227e-18
18         4.037199e-07      1.000098e+00      1.000127e+00      1.000068e+00      2.961725e-05      8.771812e-10      1.000095e+00      1.000125e+00      1.000064e+00      3.034434e-05      9.207788e-10      1.000095e+00      4.132705e-08     -5.031090e-05     -1.972548e-08      9.210594e-08      1.889428e-05     -2.259670e-08     -1.481284e-09      5.904988e-08     -6.072742e-06      5.331983e-08      1.553101e-07      1.191615e-08      1.541257e-07      1.845254e-06      3.719880e-02      3.719880e-02      3.719880e-02      3.469447e-17      1.203706e-33      3.719880e-02      3.719880e-02      3.719880e-02      3.592794e-18      1.290817e-35      3.719880e-02     -2.079637e-18     -1.801547e-18      2.469435e-18     -4.892228e-18     -5.233527e-18      1.980798e-18     -1.435831e-19     -4.589790e-19      1.171232e-18     -5.876819e-19     -6.000256e-19     -4.845807e-20      6.865958e-19     -1.265055e-18
19         4.072184e-07      1.000114e+00      1.000155e+00      1.000073e+00      4.107363e-05      1.687043e-09      1.000111e+00      1.000153e+00      1.000069e+00      4.208048e-05      1.770767e-09      1.000111e+00      8.476154e-08     -6.890092e-05     -4.412190e-08      1.722930e-07      2.930586e-05     -4.054305e-08      2.632592e-09      1.146270e-07     -1.033952e-05      1.006047e-07      2.979426e-07      1.916914e-08      2.948555e-07      3.374839e-06      7.218415e-02      7.218415e-02      7.218415e-02      1.249001e-16      1.560003e-32      7.218415e-02      7.218415e-02      7.218415e-02      1.019918e-17      1.040233e-34      7.218415e-02     -9.297540e-18     -4.330683e-18      6.281839e-18     -1.296891e-17     -7.288994e-18      2.993147e-18      4.435020e-18     -3.383205e-18      7.068616e-18     -5.875639e-18     -8.225819e-18     -1.032926e-19     -2.736774e-18     -1.116204e-17
