Index       TIME         {v(drain)}_mean  {v(drain)}_meanPlus {v(drain)}_meanMinus {v(drain)}_stddev {v(drain)}_variance {v(drain)}_regr_pce_mean {v(drain)}_regr_pce_meanPlus {v(drain)}_regr_pce_meanMinus {v(drain)}_regr_pce_stddev {v(drain)}_regr_pce_variance  {V(gate)}_mean   {V(gate)}_meanPlus {V(gate)}_meanMinus {V(gate)}_stddev  {V(gate)}_variance {V(gate)}_regr_pce_mean {V(gate)}_regr_pce_meanPlus {V(gate)}_regr_pce_meanMinus {V(gate)}_regr_pce_stddev {V(gate)}_regr_pce_variance
0          0.000000e+00      1.000000e+00      1.000000e+00      1.000000e+00      3.189945e-09      1.017575e-17      1.000000e+00      1.000000e+00      1.000000e+00      3.348984e-09      1.121569e-17      0.000000e+00      0.000000e+00      0.000000e+00      0.000000e+00      0.000000e+00     -0.000000e+00      0.000000e+00     -0.000000e+00      0.000000e+00      0.000000e+00
1          1.000000e-09      1.000000e+00      1.000000e+00      1.000000e+00      3.301887e-09      1.090246e-17      1.000000e+00      1.000000e+00      1.000000e+00      3.498470e-09      1.223929e-17      0.000000e+00      0.000000e+00      0.000000e+00      0.000000e+00      0.000000e+00     -0.000000e+00      0.000000e+00     -0.000000e+00      0.000000e+00      0.000000e+00
2          3.000000e-09      1.000000e+00      1.000000e+00      1.000000e+00      3.303393e-09      1.091240e-17      1.000000e+00      1.000000e+00      1.000000e+00      3.500472e-09      1.225330e-17      0.000000e+00      0.000000e+00      0.000000e+00      0.000000e+00      0.000000e+00     -0.000000e+00      0.000000e+00     -0.000000e+00      0.000000e+00      0.000000e+00
3          7.000000e-09      1.000000e+00      1.000000e+00      1.000000e+00      3.303412e-09      1.091253e-17      1.000000e+00      1.000000e+00      1.000000e+00      3.500498e-09      1.225349e-17      0.000000e+00      0.000000e+00      0.000000e+00      0.000000e+00      0.000000e+00     -0.000000e+00      0.000000e+00     -0.000000e+00      0.000000e+00      0.000000e+00
4          1.500000e-08      1.000000e+00      1.000000e+00      1.000000e+00      3.303393e-09      1.091241e-17      1.000000e+00      1.000000e+00      1.000000e+00      3.500472e-09      1.225331e-17      0.000000e+00      0.000000e+00      0.000000e+00      0.000000e+00      0.000000e+00     -0.000000e+00      0.000000e+00     -0.000000e+00      0.000000e+00      0.000000e+00
5          3.100000e-08      1.000000e+00      1.000000e+00      1.000000e+00      3.303412e-09      1.091253e-17      1.000000e+00      1.000000e+00      1.000000e+00      3.500498e-09      1.225349e-17      0.000000e+00      0.000000e+00      0.000000e+00      0.000000e+00      0.000000e+00     -0.000000e+00      0.000000e+00     -0.000000e+00      0.000000e+00      0.000000e+00
6          6.300000e-08      1.000000e+00      1.000000e+00      1.000000e+00      3.303393e-09      1.091241e-17      1.000000e+00      1.000000e+00      1.000000e+00      3.500472e-09      1.225331e-17      0.000000e+00      0.000000e+00      0.000000e+00      0.000000e+00      0.000000e+00     -0.000000e+00      0.000000e+00     -0.000000e+00      0.000000e+00      0.000000e+00
7          1.030000e-07      1.000000e+00      1.000000e+00      1.000000e+00      3.303412e-09      1.091253e-17      1.000000e+00      1.000000e+00      1.000000e+00      3.500498e-09      1.225348e-17      0.000000e+00      0.000000e+00      0.000000e+00      0.000000e+00      0.000000e+00     -0.000000e+00      0.000000e+00     -0.000000e+00      0.000000e+00      0.000000e+00
8          1.430000e-07      1.000000e+00      1.000000e+00      1.000000e+00      3.303393e-09      1.091241e-17      1.000000e+00      1.000000e+00      1.000000e+00      3.500472e-09      1.225331e-17      0.000000e+00      0.000000e+00      0.000000e+00      0.000000e+00      0.000000e+00     -0.000000e+00      0.000000e+00     -0.000000e+00      0.000000e+00      0.000000e+00
9          1.830000e-07      1.000000e+00      1.000000e+00      1.000000e+00      3.303412e-09      1.091253e-17      1.000000e+00      1.000000e+00      1.000000e+00      3.500498e-09      1.225348e-17      0.000000e+00      0.000000e+00      0.000000e+00      0.000000e+00      0.000000e+00     -0.000000e+00      0.000000e+00     -0.000000e+00      0.000000e+00      0.000000e+00
10         2.230000e-07      1.000000e+00      1.000000e+00      1.000000e+00      3.303393e-09      1.091241e-17      1.000000e+00      1.000000e+00      1.000000e+00      3.500472e-09      1.225331e-17      0.000000e+00      0.000000e+00      0.000000e+00      0.000000e+00      0.000000e+00     -0.000000e+00      0.000000e+00     -0.000000e+00      0.000000e+00      0.000000e+00
11         2.630000e-07      1.000000e+00      1.000000e+00      1.000000e+00      3.303412e-09      1.091253e-17      1.000000e+00      1.000000e+00      1.000000e+00      3.500498e-09      1.225348e-17      0.000000e+00      0.000000e+00      0.000000e+00      0.000000e+00      0.000000e+00     -0.000000e+00      0.000000e+00     -0.000000e+00      0.000000e+00      0.000000e+00
12         3.030000e-07      1.000000e+00      1.000000e+00      1.000000e+00      3.303393e-09      1.091241e-17      1.000000e+00      1.000000e+00      1.000000e+00      3.500472e-09      1.225331e-17      0.000000e+00      0.000000e+00      0.000000e+00      0.000000e+00      0.000000e+00     -0.000000e+00      0.000000e+00     -0.000000e+00      0.000000e+00      0.000000e+00
13         3.430000e-07      1.000000e+00      1.000000e+00      1.000000e+00      3.303412e-09      1.091253e-17      1.000000e+00      1.000000e+00      1.000000e+00      3.500498e-09      1.225348e-17      0.000000e+00      0.000000e+00      0.000000e+00      0.000000e+00      0.000000e+00     -0.000000e+00      0.000000e+00     -0.000000e+00      0.000000e+00      0.000000e+00
14         3.830000e-07      1.000000e+00      1.000000e+00      1.000000e+00      3.303393e-09      1.091241e-17      1.000000e+00      1.000000e+00      1.000000e+00      3.500472e-09      1.225331e-17      0.000000e+00      0.000000e+00      0.000000e+00      0.000000e+00      0.000000e+00     -0.000000e+00      0.000000e+00     -0.000000e+00      0.000000e+00      0.000000e+00
15         4.000000e-07      1.000000e+00      1.000000e+00      1.000000e+00      3.303412e-09      1.091253e-17      1.000000e+00      1.000000e+00      1.000000e+00      3.500498e-09      1.225348e-17      0.000000e+00      0.000000e+00      0.000000e+00      0.000000e+00      0.000000e+00     -0.000000e+00      0.000000e+00     -0.000000e+00      0.000000e+00      0.000000e+00
16         4.010960e-07      1.000085e+00      1.000108e+00      1.000062e+00      2.281189e-05      5.203825e-10      1.000086e+00      1.000110e+00      1.000061e+00      2.437885e-05      5.943285e-10      1.095979e-02      1.095979e-02      1.095979e-02      5.204170e-18      2.708339e-35      1.095979e-02      1.095979e-02      1.095979e-02      1.271883e-18      1.617685e-36
17         4.019706e-07      1.000088e+00      1.000113e+00      1.000063e+00      2.468390e-05      6.092951e-10      1.000089e+00      1.000115e+00      1.000063e+00      2.642295e-05      6.981724e-10      1.970617e-02      1.970617e-02      1.970617e-02      1.734723e-17      3.009266e-34      1.970617e-02      1.970617e-02      1.970617e-02      3.233176e-18      1.045343e-35
18         4.037199e-07      1.000094e+00      1.000122e+00      1.000065e+00      2.826203e-05      7.987422e-10      1.000095e+00      1.000125e+00      1.000064e+00      3.033943e-05      9.204813e-10      3.719891e-02      3.719891e-02      3.719891e-02      2.775558e-17      7.703720e-34      3.719891e-02      3.719891e-02      3.719891e-02      5.689716e-18      3.237287e-35
19         4.072184e-07      1.000109e+00      1.000148e+00      1.000070e+00      3.893468e-05      1.515909e-09      1.000111e+00      1.000153e+00      1.000069e+00      4.206780e-05      1.769700e-09      7.218439e-02      7.218439e-02      7.218439e-02      5.551115e-17      3.081488e-33      7.218439e-02      7.218439e-02      7.218439e-02      9.675639e-18      9.361799e-35
20         4.142155e-07      1.000161e+00      1.000246e+00      1.000077e+00      8.441263e-05      7.125492e-09      1.000166e+00      1.000258e+00      1.000073e+00      9.248639e-05      8.553733e-09      1.421554e-01      1.421554e-01      1.421554e-01      8.326673e-17      6.933348e-33      1.421554e-01      1.421554e-01      1.421554e-01      1.688759e-17      2.851907e-34
21         4.282097e-07      1.000708e+00      1.001421e+00      9.999938e-01      7.138051e-04      5.095177e-07      1.000757e+00      1.001554e+00      9.999604e-01      7.969296e-04      6.350967e-07      2.820973e-01      2.820973e-01      2.820973e-01      2.775558e-16      7.703720e-32      2.820973e-01      2.820973e-01      2.820973e-01      3.984567e-17      1.587677e-33
22         4.339106e-07      1.001597e+00      1.003507e+00      9.996877e-01      1.909575e-03      3.646477e-06      1.001742e+00      1.003923e+00      9.995615e-01      2.180663e-03      4.755290e-06      3.391060e-01      3.391060e-01      3.391060e-01      2.220446e-16      4.930381e-32      3.391060e-01      3.391060e-01      3.391060e-01      3.213459e-17      1.032632e-33
23         4.396115e-07      1.001837e+00      1.007487e+00      9.961861e-01      5.650510e-03      3.192827e-05      1.002087e+00      1.009148e+00      9.950261e-01      7.061039e-03      4.985827e-05      3.961146e-01      3.961146e-01      3.961146e-01      3.885781e-16      1.509929e-31      3.961146e-01      3.961146e-01      3.961146e-01      4.000798e-17      1.600639e-33
24         4.413614e-07      1.000759e+00      1.012120e+00      9.893973e-01      1.136145e-02      1.290826e-04      1.000941e+00      1.015188e+00      9.866938e-01      1.424707e-02      2.029791e-04      4.136137e-01      4.136137e-01      4.136137e-01      4.996004e-16      2.496005e-31      4.136137e-01      4.136137e-01      4.136137e-01      9.364144e-17      8.768720e-33
25         4.421608e-07      9.996273e-01      1.015087e+00      9.841676e-01      1.545970e-02      2.390024e-04      9.997331e-01      1.019085e+00      9.803815e-01      1.935160e-02      3.744843e-04      4.216083e-01      4.216083e-01      4.216083e-01      2.775558e-16      7.703720e-32      4.216083e-01      4.216083e-01      4.216083e-01      4.628734e-17      2.142517e-33
26         4.429603e-07      9.980106e-01      1.018656e+00      9.773657e-01      2.064491e-02      4.262123e-04      9.979956e-01      1.023769e+00      9.722226e-01      2.577302e-02      6.642485e-04      4.296028e-01      4.296028e-01      4.296028e-01      0.000000e+00      0.000000e+00      4.296028e-01      4.296028e-01      4.296028e-01      4.957654e-17      2.457833e-33
27         4.445592e-07      9.912155e-01      1.030312e+00      9.521189e-01      3.909666e-02      1.528549e-03      9.906649e-01      1.038857e+00      9.424727e-01      4.819219e-02      2.322488e-03      4.455919e-01      4.455919e-01      4.455919e-01      2.775558e-16      7.703720e-32      4.455919e-01      4.455919e-01      4.455919e-01      4.773482e-17      2.278613e-33
28         4.458889e-07      9.807563e-01      1.045609e+00      9.159034e-01      6.485291e-02      4.205899e-03      9.795008e-01      1.058064e+00      9.009379e-01      7.856288e-02      6.172126e-03      4.588887e-01      4.588887e-01      4.588887e-01      5.551115e-17      3.081488e-33      4.588887e-01      4.588887e-01      4.588887e-01      8.162916e-17      6.663320e-33
29         4.470699e-07      9.664172e-01      1.063243e+00      8.695915e-01      9.682573e-02      9.375221e-03      9.642525e-01      1.079632e+00      8.488734e-01      1.153791e-01      1.331234e-02      4.706992e-01      4.706992e-01      4.706992e-01      2.775558e-16      7.703720e-32      4.706992e-01      4.706992e-01      4.706992e-01      4.126477e-17      1.702781e-33
30         4.481329e-07      9.481013e-01      1.081450e+00      8.147529e-01      1.333484e-01      1.778179e-02      9.445972e-01      1.101287e+00      7.879078e-01      1.566894e-01      2.455158e-02      4.813286e-01      4.813286e-01      4.813286e-01      4.440892e-16      1.972152e-31      4.813286e-01      4.813286e-01      4.813286e-01      8.825057e-17      7.788162e-33
31         4.490895e-07      9.261720e-01      1.098966e+00      7.533780e-01      1.727940e-01      2.985776e-02      9.209002e-01      1.121488e+00      7.203123e-01      2.005878e-01      4.023547e-02      4.908951e-01      4.908951e-01      4.908951e-01      1.110223e-16      1.232595e-32      4.908951e-01      4.908951e-01      4.908951e-01      3.970169e-17      1.576224e-33
32         4.499505e-07      9.014303e-01      1.114947e+00      6.879139e-01      2.135164e-01      4.558925e-02      8.942174e-01      1.139420e+00      6.490148e-01      2.452026e-01      6.012429e-02      4.995049e-01      4.995049e-01      4.995049e-01      0.000000e+00      0.000000e+00      4.995049e-01      4.995049e-01      4.995049e-01      8.415263e-17      7.081664e-33
33         4.508115e-07      8.724044e-01      1.128507e+00      6.163013e-01      2.561030e-01      6.558877e-02      8.638530e-01      1.153312e+00      5.743944e-01      2.894586e-01      8.378627e-02      5.081147e-01      5.081147e-01      5.081147e-01      1.110223e-16      1.232595e-32      5.081147e-01      5.081147e-01      5.081147e-01      6.040315e-17      3.648540e-33
34         4.515466e-07      8.453527e-01      1.135826e+00      5.548791e-01      2.904736e-01      8.437491e-02      8.365606e-01      1.158156e+00      5.149651e-01      3.215954e-01      1.034236e-01      5.154661e-01      5.154661e-01      5.154661e-01      5.551115e-16      3.081488e-31      5.154661e-01      5.154661e-01      5.154661e-01      3.855000e-17      1.486102e-33
35         4.516612e-07      8.410504e-01      1.136352e+00      5.457484e-01      2.953020e-01      8.720328e-02      8.322850e-01      1.157987e+00      5.065833e-01      3.257017e-01      1.060816e-01      5.166124e-01      5.166124e-01      5.166124e-01      1.110223e-16      1.232595e-32      5.166124e-01      5.166124e-01      5.166124e-01      5.372117e-17      2.885964e-33
36         4.517759e-07      8.367743e-01      1.136778e+00      5.367704e-01      3.000039e-01      9.000233e-02      8.280471e-01      1.157657e+00      4.984370e-01      3.296101e-01      1.086428e-01      5.177588e-01      5.177588e-01      5.177588e-01      3.330669e-16      1.109336e-31      5.177588e-01      5.177588e-01      5.177588e-01      7.262665e-17      5.274630e-33
37         4.520051e-07      8.283296e-01      1.136975e+00      5.196847e-01      3.086449e-01      9.526167e-02      8.197397e-01      1.156072e+00      4.834074e-01      3.363324e-01      1.131195e-01      5.200514e-01      5.200514e-01      5.200514e-01      3.330669e-16      1.109336e-31      5.200514e-01      5.200514e-01      5.200514e-01      5.870021e-17      3.445714e-33
38         4.522344e-07      8.199018e-01      1.136578e+00      5.032253e-01      3.166765e-01      1.002840e-01      8.114968e-01      1.153725e+00      4.692691e-01      3.422277e-01      1.171198e-01      5.223441e-01      5.223441e-01      5.223441e-01      1.110223e-16      1.232595e-32      5.223441e-01      5.223441e-01      5.223441e-01      4.863653e-17      2.365512e-33
39         4.524637e-07      8.113724e-01      1.135834e+00      4.869105e-01      3.244618e-01      1.052755e-01      8.031656e-01      1.151047e+00      4.552838e-01      3.478818e-01      1.210218e-01      5.246367e-01      5.246367e-01      5.246367e-01      5.551115e-16      3.081488e-31      5.246367e-01      5.246367e-01      5.246367e-01      6.783468e-17      4.601544e-33
40         4.526929e-07      8.027090e-01      1.134826e+00      4.705915e-01      3.321174e-01      1.103020e-01      7.948049e-01      1.148180e+00      4.414298e-01      3.533751e-01      1.248739e-01      5.269294e-01      5.269294e-01      5.269294e-01      5.551115e-16      3.081488e-31      5.269294e-01      5.269294e-01      5.269294e-01      8.335926e-17      6.948767e-33
41         4.529222e-07      7.940192e-01      1.133429e+00      4.546098e-01      3.394094e-01      1.151987e-01      7.868146e-01      1.144976e+00      4.286535e-01      3.581612e-01      1.282794e-01      5.292221e-01      5.292221e-01      5.292221e-01      3.330669e-16      1.109336e-31      5.292221e-01      5.292221e-01      5.292221e-01      1.290066e-16      1.664270e-32
42         4.531515e-07      7.853819e-01      1.131543e+00      4.392208e-01      3.461611e-01      1.198275e-01      7.793310e-01      1.141366e+00      4.172964e-01      3.620347e-01      1.310691e-01      5.315147e-01      5.315147e-01      5.315147e-01      3.330669e-16      1.109336e-31      5.315147e-01      5.315147e-01      5.315147e-01      9.474052e-17      8.975767e-33
43         4.533807e-07      7.766580e-01      1.129368e+00      4.239482e-01      3.527098e-01      1.244042e-01      7.719398e-01      1.137614e+00      4.062661e-01      3.656737e-01      1.337173e-01      5.338074e-01      5.338074e-01      5.338074e-01      1.110223e-16      1.232595e-32      5.338074e-01      5.338074e-01      5.338074e-01      1.014972e-16      1.030168e-32
44         4.536100e-07      7.677018e-01      1.127098e+00      4.083059e-01      3.593959e-01      1.291654e-01      7.643533e-01      1.133901e+00      3.948054e-01      3.695479e-01      1.365657e-01      5.361001e-01      5.361001e-01      5.361001e-01      2.220446e-16      4.930381e-32      5.361001e-01      5.361001e-01      5.361001e-01      9.389694e-17      8.816636e-33
45         4.540685e-07      7.495072e-01      1.121851e+00      3.771636e-01      3.723437e-01      1.386398e-01      7.488701e-01      1.126388e+00      3.713522e-01      3.775180e-01      1.425198e-01      5.406854e-01      5.406854e-01      5.406854e-01      3.330669e-16      1.109336e-31      5.406854e-01      5.406854e-01      5.406854e-01      8.485237e-17      7.199925e-33
46         4.545271e-07      7.318664e-01      1.114665e+00      3.490675e-01      3.827989e-01      1.465350e-01      7.338667e-01      1.118058e+00      3.496757e-01      3.841910e-01      1.476027e-01      5.452707e-01      5.452707e-01      5.452707e-01      2.220446e-16      4.930381e-32      5.452707e-01      5.452707e-01      5.452707e-01      8.827608e-17      7.792666e-33
47         4.549397e-07      7.162514e-01      1.106700e+00      3.258032e-01      3.904482e-01      1.524498e-01      7.212873e-01      1.109636e+00      3.329385e-01      3.883488e-01      1.508148e-01      5.493975e-01      5.493975e-01      5.493975e-01      4.440892e-16      1.972152e-31      5.493975e-01      5.493975e-01      5.493975e-01      3.972124e-17      1.577777e-33
48         4.553524e-07      6.998544e-01      1.098257e+00      3.014522e-01      3.984022e-01      1.587243e-01      7.083064e-01      1.100893e+00      3.157197e-01      3.925867e-01      1.541243e-01      5.535243e-01      5.535243e-01      5.535243e-01      4.440892e-16      1.972152e-31      5.535243e-01      5.535243e-01      5.535243e-01      6.147803e-17      3.779548e-33
49         4.557651e-07      6.827184e-01      1.089359e+00      2.760778e-01      4.066406e-01      1.653566e-01      6.940517e-01      1.091831e+00      2.962720e-01      3.977796e-01      1.582286e-01      5.576511e-01      5.576511e-01      5.576511e-01      7.771561e-16      6.039716e-31      5.576511e-01      5.576511e-01      5.576511e-01      7.541834e-17      5.687926e-33
