Index   TIME           V(1)           V(6)           V(7)           
0       0.00000000e+00   3.40000000e+00   3.73798619e+00   2.96775474e+00   
1       1.00000000e-09   3.40200000e+00   3.73803277e+00   2.96779671e+00   
2       3.00000000e-09   3.40600000e+00   3.73806117e+00   2.96782716e+00   
3       5.00000000e-09   3.41000000e+00   3.73806835e+00   2.96783509e+00   
4       9.00000000e-09   3.41800000e+00   3.73807086e+00   2.96783778e+00   
5       1.70000000e-08   3.43400000e+00   3.73807469e+00   2.96784164e+00   
6       3.30000000e-08   3.46600000e+00   3.73808510e+00   2.96785175e+00   
7       6.50000000e-08   3.53000000e+00   3.73821263e+00   2.96797650e+00   
8       1.02500000e-07   3.60500000e+00   3.74055080e+00   2.97026428e+00   
9       1.15000000e-07   3.63000000e+00   3.74468590e+00   2.97429331e+00   
10      1.21250000e-07   3.64250000e+00   3.74912790e+00   2.97861820e+00   
11      1.30617980e-07   3.66123596e+00   3.76405593e+00   2.99317409e+00   
12      1.36028619e-07   3.67205724e+00   3.78366334e+00   3.01222018e+00   
13      1.37967301e-07   3.67593460e+00   3.79472052e+00   3.02291345e+00   
14      1.40557113e-07   3.68111423e+00   3.81834027e+00   3.04574101e+00   
15      1.42499472e-07   3.68499894e+00   3.84726962e+00   3.07360439e+00   
16      1.43956241e-07   3.68791248e+00   3.88065551e+00   3.10564385e+00   
17      1.45111745e-07   3.69022349e+00   3.91956893e+00   3.14286864e+00   
18      1.45978373e-07   3.69195675e+00   3.95998498e+00   3.18142857e+00   
19      1.46806873e-07   3.69361375e+00   4.01263634e+00   3.23155280e+00   
20      1.47428248e-07   3.69485650e+00   4.06433346e+00   3.28067892e+00   
21      1.48094264e-07   3.69618853e+00   4.13645383e+00   3.34912231e+00   
22      1.48760280e-07   3.69752056e+00   4.23184159e+00   3.43955634e+00   
23      1.49426296e-07   3.69885259e+00   4.35809407e+00   3.55924769e+00   
24      1.50092313e-07   3.70018463e+00   4.52154742e+00   3.71466912e+00   
25      1.50385901e-07   3.70077180e+00   4.60456981e+00   3.79425943e+00   
26      1.50567934e-07   3.70113587e+00   4.65789957e+00   3.84614689e+00   
27      1.50694052e-07   3.70138810e+00   4.69411275e+00   3.88229547e+00   
28      1.50788641e-07   3.70157728e+00   4.71941862e+00   3.90865763e+00   
29      1.50859583e-07   3.70171917e+00   4.73642936e+00   3.92740837e+00   
30      1.50927288e-07   3.70185458e+00   4.75076882e+00   3.94399586e+00   
31      1.50982877e-07   3.70196575e+00   4.76134201e+00   3.95649571e+00   
32      1.51038467e-07   3.70207693e+00   4.77094398e+00   3.96791529e+00   
33      1.51094056e-07   3.70218811e+00   4.77963102e+00   3.97825933e+00   
34      1.51171967e-07   3.70234393e+00   4.79036191e+00   3.99103884e+00   
35      1.51263483e-07   3.70252697e+00   4.80101999e+00   4.00370595e+00   
36      1.51355000e-07   3.70271000e+00   4.80979574e+00   4.01411975e+00   
37      1.51446516e-07   3.70289303e+00   4.81693284e+00   4.02258825e+00   
38      1.51538033e-07   3.70307607e+00   4.82267310e+00   4.02940666e+00   
39      1.51629549e-07   3.70325910e+00   4.82724284e+00   4.03484513e+00   
40      1.51752562e-07   3.70350512e+00   4.83193879e+00   4.04044864e+00   
41      1.51875575e-07   3.70375115e+00   4.83530390e+00   4.04447769e+00   
42      1.52082523e-07   3.70416505e+00   4.83900420e+00   4.04892251e+00   
43      1.52345620e-07   3.70469124e+00   4.84139565e+00   4.05180788e+00   
44      1.52649576e-07   3.70529915e+00   4.84244165e+00   4.05307585e+00   
45      1.53060897e-07   3.70612179e+00   4.84274354e+00   4.05344306e+00   
46      1.53472218e-07   3.70694444e+00   4.84259402e+00   4.05326176e+00   
47      1.54134533e-07   3.70826907e+00   4.84240727e+00   4.05303452e+00   
48      1.55090924e-07   3.71018185e+00   4.84229589e+00   4.05289918e+00   
49      1.56969846e-07   3.71393969e+00   4.84227532e+00   4.05287422e+00   
50      1.59780691e-07   3.71956138e+00   4.84229897e+00   4.05290263e+00   
51      1.65402380e-07   3.73080476e+00   4.84231112e+00   4.05291666e+00   
52      1.76645757e-07   3.75329151e+00   4.84231576e+00   4.05292155e+00   
53      1.99132513e-07   3.79826503e+00   4.84231662e+00   4.05292224e+00   
54      2.00000000e-07   3.80000000e+00   4.84231650e+00   4.05292208e+00   
55      2.01000000e-07   3.79800000e+00   4.84231730e+00   4.05292279e+00   
56      2.02125000e-07   3.79575000e+00   4.84232825e+00   4.05293279e+00   
57      2.03250000e-07   3.79350000e+00   4.84233323e+00   4.05293813e+00   
58      2.05500000e-07   3.78900000e+00   4.84233515e+00   4.05294034e+00   
59      2.10000000e-07   3.78000000e+00   4.84233605e+00   4.05294142e+00   
60      2.19000000e-07   3.76200000e+00   4.84233491e+00   4.05294023e+00   
61      2.37000000e-07   3.72600000e+00   4.84233040e+00   4.05293578e+00   
62      2.73000000e-07   3.65400000e+00   4.84220848e+00   4.05281626e+00   
63      3.10500000e-07   3.57900000e+00   4.83889677e+00   4.04956968e+00   
64      3.20500000e-07   3.55900000e+00   4.83388404e+00   4.04468789e+00   
65      3.30007867e-07   3.53998427e+00   4.82032975e+00   4.03145944e+00   
66      3.32769812e-07   3.53446038e+00   4.81288884e+00   4.02425137e+00   
67      3.36843849e-07   3.52631230e+00   4.79283972e+00   4.00478565e+00   
68      3.39642823e-07   3.52071435e+00   4.76658105e+00   3.97941420e+00   
69      3.41654138e-07   3.51669172e+00   4.73300783e+00   3.94713697e+00   
70      3.43098786e-07   3.51380243e+00   4.69339087e+00   3.90921553e+00   
71      3.44182271e-07   3.51163546e+00   4.64835960e+00   3.86625434e+00   
72      3.44994885e-07   3.51001023e+00   4.60097452e+00   3.82115096e+00   
73      3.45745633e-07   3.50850873e+00   4.54144273e+00   3.76457496e+00   
74      3.46308694e-07   3.50738261e+00   4.48361419e+00   3.70966509e+00   
75      3.46924920e-07   3.50615016e+00   4.40246381e+00   3.63263596e+00   
76      3.47541146e-07   3.50491771e+00   4.29763274e+00   3.53306723e+00   
77      3.48157373e-07   3.50368525e+00   4.16426300e+00   3.40606118e+00   
78      3.48550437e-07   3.50289913e+00   4.06400279e+00   3.31002224e+00   
79      3.48815881e-07   3.50236824e+00   3.99085201e+00   3.23927084e+00   
80      3.48993238e-07   3.50201352e+00   3.94112290e+00   3.19040525e+00   
81      3.49122155e-07   3.50175569e+00   3.90606392e+00   3.15509006e+00   
82      3.49218842e-07   3.50156232e+00   3.88144653e+00   3.12946531e+00   
83      3.49315530e-07   3.50136894e+00   3.85896562e+00   3.10532765e+00   
84      3.49389543e-07   3.50122091e+00   3.84320435e+00   3.08811502e+00   
85      3.49463556e-07   3.50107289e+00   3.82879318e+00   3.07219054e+00   
86      3.49537568e-07   3.50092486e+00   3.81580065e+00   3.05765335e+00   
87      3.49673956e-07   3.50065209e+00   3.79554471e+00   3.03463013e+00   
88      3.49810343e-07   3.50037931e+00   3.77965361e+00   3.01629119e+00   
89      3.49947084e-07   3.50010583e+00   3.76754549e+00   3.00216573e+00   
90      3.50083824e-07   3.49983235e+00   3.75860111e+00   2.99167515e+00   
91      3.50220565e-07   3.49955887e+00   3.75215774e+00   2.98411504e+00   
92      3.50357305e-07   3.49928539e+00   3.74761797e+00   2.97880710e+00   
93      3.50550163e-07   3.49889967e+00   3.74338167e+00   2.97388752e+00   
94      3.50743021e-07   3.49851396e+00   3.74092197e+00   2.97106270e+00   
95      3.51068542e-07   3.49786292e+00   3.73873742e+00   2.96858080e+00   
96      3.51394064e-07   3.49721187e+00   3.73799416e+00   2.96775672e+00   
97      3.51995528e-07   3.49600894e+00   3.73757031e+00   2.96729145e+00   
98      3.52596992e-07   3.49480602e+00   3.73768867e+00   2.96742879e+00   
99      3.53692224e-07   3.49261555e+00   3.73782087e+00   2.96757784e+00   
100     3.54787456e-07   3.49042509e+00   3.73790249e+00   2.96766934e+00   
101     3.56977920e-07   3.48604416e+00   3.73793077e+00   2.96770186e+00   
102     3.61358848e-07   3.47728230e+00   3.73792484e+00   2.96769622e+00   
103     3.67643519e-07   3.46471296e+00   3.73790961e+00   2.96767990e+00   
104     3.80212862e-07   3.43957428e+00   3.73790300e+00   2.96767309e+00   
105     4.00000000e-07   3.40000000e+00   3.73790305e+00   2.96767309e+00   
106     4.00500000e-07   3.40100000e+00   3.73796455e+00   2.96772389e+00   
107     4.01062500e-07   3.40212500e+00   3.73801178e+00   2.96777268e+00   
108     4.01625000e-07   3.40325000e+00   3.73804037e+00   2.96780373e+00   
109     4.02750000e-07   3.40550000e+00   3.73806069e+00   2.96782644e+00   
110     4.05000000e-07   3.41000000e+00   3.73807651e+00   2.96784420e+00   
111     4.08609267e-07   3.41721853e+00   3.73807465e+00   2.96784206e+00   
112     4.15827801e-07   3.43165560e+00   3.73807484e+00   2.96784188e+00   
113     4.30264869e-07   3.46052974e+00   3.73808227e+00   2.96784895e+00   
114     4.59139006e-07   3.51827801e+00   3.73816299e+00   2.96792792e+00   
115     5.00000000e-07   3.60000000e+00   3.74011185e+00   2.96983520e+00   
End of Xyce(TM) Simulation
