Index       TIME              V(1)              V(2)       
0        0.00000000e+00    1.00000000e+01    1.00000000e+00
1        1.00000000e-10    1.00000000e+01    1.00000000e+00
2        3.00000000e-10    1.00000000e+01    1.00000000e+00
3        7.00000000e-10    1.00000000e+01    1.00000000e+00
4        1.50000000e-09    1.00000000e+01    1.00000000e+00
5        3.10000000e-09    1.00000000e+01    1.00000000e+00
6        6.30000000e-09    1.00000000e+01    1.00000000e+00
7        1.27000000e-08    1.00000001e+01    1.00000001e+00
8        2.55000000e-08    1.00000002e+01    1.00000002e+00
9        5.11000000e-08    1.00000004e+01    1.00000003e+00
10       1.02300000e-07    1.00000007e+01    1.00000006e+00
11       2.04700000e-07    1.00000014e+01    1.00000012e+00
12       4.09500000e-07    1.00000029e+01    1.00000025e+00
13       8.19100000e-07    1.00000057e+01    1.00000049e+00
14       1.63830000e-06    1.00000115e+01    1.00000098e+00
15       3.27670000e-06    1.00000229e+01    1.00000197e+00
16       6.55350000e-06    1.00000459e+01    1.00000393e+00
17       1.31071000e-05    1.00000917e+01    1.00000786e+00
18       2.62143000e-05    1.00001835e+01    1.00001573e+00
19       5.24287000e-05    1.00003670e+01    1.00003146e+00
20       1.04857500e-04    1.00007340e+01    1.00006292e+00
21       2.09715100e-04    1.00014681e+01    1.00012585e+00
22       4.19430300e-04    1.00029362e+01    1.00025175e+00
23       8.38860700e-04    1.00058729e+01    1.00050369e+00
24       1.67772150e-03    1.00117476e+01    1.00100813e+00
25       3.35544310e-03    1.00235021e+01    1.00201924e+00
26       6.71088630e-03    1.00470322e+01    1.00405049e+00
27       1.34217727e-02    1.00941750e+01    1.00814929e+00
28       2.68435455e-02    1.01887847e+01    1.01649408e+00
29       5.36870911e-02    1.03792412e+01    1.03378891e+00
30       1.07374182e-01    1.07645789e+01    1.07093831e+00
31       2.14748365e-01    1.15478419e+01    1.15670379e+00
32       3.22122547e-01    1.23377436e+01    1.25997614e+00
33       4.29496730e-01    1.31172818e+01    1.38412663e+00
34       5.36870912e-01    1.38643603e+01    1.53306639e+00
35       6.44245094e-01    1.45512984e+01    1.71118936e+00
36       7.51619277e-01    1.51448172e+01    1.92319385e+00
37       8.48256041e-01    1.55683448e+01    2.14675347e+00
38       9.35229129e-01    1.58344210e+01    2.37708339e+00
39       1.01350491e+00    1.59620114e+01    2.60934492e+00
40       1.09178069e+00    1.59682260e+01    2.86574054e+00
41       1.17005647e+00    1.58411455e+01    3.14576137e+00
42       1.24050467e+00    1.56062265e+01    3.41664812e+00
43       1.31095287e+00    1.52547786e+01    3.70313399e+00
44       1.38140107e+00    1.47890289e+01    4.00203157e+00
45       1.45184927e+00    1.42158416e+01    4.30918570e+00
46       1.52229747e+00    1.35466976e+01    4.61959382e+00
47       1.59274567e+00    1.27972088e+01    4.92763262e+00
48       1.66319387e+00    1.19861845e+01    5.22737580e+00
49       1.73364207e+00    1.11343527e+01    5.51296623e+00
50       1.80409028e+00    1.02629064e+01    5.77899541e+00
51       1.87453848e+00    9.39207633e+00    6.02083801e+00
52       1.94498668e+00    8.53992072e+00    6.23489857e+00
53       2.01543488e+00    7.72146420e+00    6.41874539e+00
54       2.08588308e+00    6.94824973e+00    6.57112645e+00
55       2.14928646e+00    6.29763642e+00    6.68120838e+00
56       2.21268984e+00    5.69372574e+00    6.76620404e+00
57       2.27609322e+00    5.13810811e+00    6.82716686e+00
58       2.33949660e+00    4.63079132e+00    6.86552834e+00
59       2.40289998e+00    4.17054700e+00    6.88297882e+00
60       2.46630337e+00    3.75524166e+00    6.88136077e+00
61       2.52970675e+00    3.38213126e+00    6.86257928e+00
62       2.59311013e+00    3.04810846e+00    6.82853105e+00
63       2.65651351e+00    2.74989964e+00    6.78105137e+00
64       2.71991689e+00    2.48421435e+00    6.72187725e+00
65       2.78332027e+00    2.24785266e+00    6.65262395e+00
66       2.84672365e+00    2.03777749e+00    6.57477239e+00
67       2.91012703e+00    1.85115915e+00    6.48966469e+00
68       2.97353041e+00    1.68539861e+00    6.39850569e+00
69       3.03693379e+00    1.53813526e+00    6.30236851e+00
70       3.10033717e+00    1.40724387e+00    6.20220265e+00
71       3.16374056e+00    1.29082436e+00    6.09884361e+00
72       3.22714394e+00    1.18718717e+00    5.99302308e+00
73       3.29054732e+00    1.09483631e+00    5.88537922e+00
74       3.35395070e+00    1.01245150e+00    5.77646659e+00
75       3.41735408e+00    9.38870417e-01    5.66676550e+00
76       3.48075746e+00    8.73071572e-01    5.55669065e+00
77       3.54416084e+00    8.14158411e-01    5.44659900e+00
78       3.60756422e+00    7.61344639e-01    5.33679687e+00
79       3.73437098e+00    6.71075212e-01    5.11916253e+00
80       3.86117775e+00    5.98062506e-01    4.90531012e+00
81       3.98798451e+00    5.38775173e-01    4.69644039e+00
82       4.11479127e+00    4.90491903e-01    4.49339089e+00
83       4.24159803e+00    4.51109247e-01    4.29672502e+00
84       4.36840479e+00    4.18995806e-01    4.10679972e+00
85       4.49521156e+00    3.92882110e-01    3.92381669e+00
86       4.62201832e+00    3.71777559e-01    3.74786126e+00
87       4.74882508e+00    3.54907777e-01    3.57893176e+00
88       4.87563184e+00    3.41667289e-01    3.41696199e+00
89       5.00243860e+00    3.31583709e-01    3.26183823e+00
90       5.12924537e+00    3.24290585e-01    3.11341232e+00
91       5.25605213e+00    3.19506783e-01    2.97151157e+00
92       5.38285889e+00    3.17020912e-01    2.83594650e+00
93       5.50966565e+00    3.16679203e-01    2.70651672e+00
94       5.63647241e+00    3.18376817e-01    2.58301542e+00
95       5.76327918e+00    3.22051073e-01    2.46523290e+00
96       5.89008594e+00    3.27676552e-01    2.35295927e+00
97       6.01689270e+00    3.35261621e-01    2.24598646e+00
98       6.14369946e+00    3.44846126e-01    2.14410987e+00
99       6.27050622e+00    3.56500041e-01    2.04712951e+00
100      6.39731299e+00    3.70322938e-01    1.95485099e+00
101      6.52411975e+00    3.86444172e-01    1.86708612e+00
102      6.65092651e+00    4.05023719e-01    1.78365352e+00
103      6.77773327e+00    4.26253527e-01    1.70437894e+00
104      6.90454003e+00    4.50359744e-01    1.62909553e+00
105      7.03134679e+00    4.77605076e-01    1.55764410e+00
106      7.15815356e+00    5.08291998e-01    1.48987324e+00
107      7.28496032e+00    5.42766466e-01    1.42563946e+00
108      7.41176708e+00    5.81422248e-01    1.36480729e+00
109      7.53857384e+00    6.24705877e-01    1.30724937e+00
110      7.66538060e+00    6.73122273e-01    1.25284662e+00
111      7.79218737e+00    7.27241081e-01    1.20148830e+00
112      7.91899413e+00    7.87703744e-01    1.15307227e+00
113      8.04580089e+00    8.55231364e-01    1.10750516e+00
114      8.17260765e+00    9.30633378e-01    1.06470274e+00
115      8.29941441e+00    1.01481707e+00    1.02459026e+00
116      8.41354050e+00    1.09891087e+00    9.90735883e-01
117      8.51625398e+00    1.18204104e+00    9.62051933e-01
118      8.61896745e+00    1.27291642e+00    9.35033459e-01
119      8.72168093e+00    1.37225502e+00    9.09661825e-01
120      8.82439441e+00    1.48083983e+00    8.85924002e-01
121      8.92710789e+00    1.59952315e+00    8.63813139e-01
122      9.02982136e+00    1.72923126e+00    8.43329150e-01
123      9.13253484e+00    1.87096895e+00    8.24479441e-01
124      9.23524832e+00    2.02582386e+00    8.07279788e-01
125      9.33796179e+00    2.19497031e+00    7.91755393e-01
126      9.44067527e+00    2.37967258e+00    7.77942161e-01
127      9.54338875e+00    2.58128710e+00    7.65888239e-01
128      9.64610223e+00    2.80126332e+00    7.55655881e-01
129      9.74881570e+00    3.04114257e+00    7.47323716e-01
130      9.85152918e+00    3.30255434e+00    7.40989495e-01
131      9.95424266e+00    3.58720894e+00    7.36773449e-01
132      1.00569561e+01    3.89688557e+00    7.34822384e-01
133      1.01596696e+01    4.23341424e+00    7.35314701e-01
134      1.02623831e+01    4.59864970e+00    7.38466544e-01
135      1.03650966e+01    4.99443572e+00    7.44539240e-01
136      1.04678100e+01    5.42255395e+00    7.53848968e-01
137      1.05705235e+01    5.88465897e+00    7.66777873e-01
138      1.06732370e+01    6.38219000e+00    7.83788280e-01
139      1.07759505e+01    6.91625613e+00    8.05440040e-01
140      1.08786640e+01    7.48748663e+00    8.32412062e-01
141      1.09813774e+01    8.09584441e+00    8.65527356e-01
142      1.10840909e+01    8.74038261e+00    9.05785046e-01
143      1.11868044e+01    9.41894540e+00    9.54397251e-01
144      1.12895179e+01    1.01277993e+01    1.01283228e+00
145      1.13922313e+01    1.08611894e+01    1.08286316e+00
146      1.14949448e+01    1.16108220e+01    1.16661912e+00
147      1.15976583e+01    1.23652851e+01    1.26663478e+00
148      1.17003718e+01    1.31094441e+01    1.38588731e+00
149      1.18030852e+01    1.38238830e+01    1.52780466e+00
150      1.19057987e+01    1.44845154e+01    1.69621884e+00
151      1.20085122e+01    1.50625577e+01    1.89522665e+00
152      1.21112257e+01    1.55251294e+01    2.12891018e+00
153      1.22036678e+01    1.58139707e+01    2.37183299e+00
154      1.22868657e+01    1.59483646e+01    2.61854867e+00
155      1.23617438e+01    1.59525636e+01    2.86384046e+00
156      1.24366220e+01    1.58350841e+01    3.13071552e+00
157      1.25115001e+01    1.55889186e+01    3.41772337e+00
158      1.25788904e+01    1.52551116e+01    3.69116702e+00
159      1.26462807e+01    1.48167490e+01    3.97606909e+00
160      1.27136710e+01    1.42795814e+01    4.26884698e+00
161      1.27810613e+01    1.36532314e+01    4.56519879e+00
162      1.28484517e+01    1.29508479e+01    4.86027540e+00
163      1.29158420e+01    1.21884100e+01    5.14892484e+00
164      1.29832323e+01    1.13837466e+01    5.42598495e+00
165      1.30506226e+01    1.05553908e+01    5.68658965e+00
166      1.31180129e+01    9.72141515e+00    5.92645058e+00
167      1.31854032e+01    8.89839282e+00    6.14208002e+00
168      1.32527935e+01    8.10059876e+00    6.33093201e+00
169      1.33201838e+01    7.33951283e+00    6.49145325e+00
170      1.33875742e+01    6.62363745e+00    6.62304891e+00
171      1.34549645e+01    5.95856454e+00    6.72598680e+00
172      1.35156158e+01    5.40593812e+00    6.79490636e+00
173      1.35762670e+01    4.89756159e+00    6.84250179e+00
174      1.36369183e+01    4.43288300e+00    6.87014524e+00
175      1.36975696e+01    4.01044926e+00    6.87938199e+00
176      1.37582209e+01    3.62815928e+00    6.87185107e+00
177      1.38188722e+01    3.28348463e+00    6.84921964e+00
178      1.38795234e+01    2.97365282e+00    6.81313149e+00
179      1.39401747e+01    2.69579227e+00    6.76516899e+00
180      1.40008260e+01    2.44704216e+00    6.70682669e+00
181      1.40614773e+01    2.22463132e+00    6.63949476e+00
182      1.41221286e+01    2.02593157e+00    6.56445025e+00
183      1.41827798e+01    1.84849065e+00    6.48285427e+00
184      1.42434311e+01    1.69004949e+00    6.39575359e+00
185      1.43040824e+01    1.54854793e+00    6.30408513e+00
186      1.43647337e+01    1.42212226e+00    6.20868252e+00
187      1.44253850e+01    1.30909729e+00    6.11028369e+00
188      1.44860363e+01    1.20797488e+00    6.00953899e+00
189      1.45466875e+01    1.11742058e+00    5.90701942e+00
190      1.46073388e+01    1.03624950e+00    5.80322457e+00
191      1.46679901e+01    9.63412045e-01    5.69859025e+00
192      1.47286414e+01    8.97980111e-01    5.59349552e+00
193      1.47892927e+01    8.39134090e-01    5.48826913e+00
194      1.49105952e+01    7.38109096e-01    5.27862208e+00
195      1.50318978e+01    6.55891646e-01    5.07133193e+00
196      1.51532003e+01    5.88707425e-01    4.86775934e+00
197      1.52745029e+01    5.33619188e-01    4.66888687e+00
198      1.53958055e+01    4.88336123e-01    4.47540766e+00
199      1.55171080e+01    4.51066491e-01    4.28779371e+00
200      1.56384106e+01    4.20404545e-01    4.10634836e+00
201      1.57597132e+01    3.95244071e-01    3.93124659e+00
202      1.58810157e+01    3.74712360e-01    3.76256587e+00
203      1.60023183e+01    3.58119777e-01    3.60030986e+00
204      1.61236208e+01    3.44921203e-01    3.44442668e+00
205      1.62449234e+01    3.34686484e-01    3.29482295e+00
206      1.63662260e+01    3.27077766e-01    3.15137471e+00
207      1.64875285e+01    3.21832141e-01    3.01393576e+00
208      1.66088311e+01    3.18748031e-01    2.88234431e+00
209      1.67301337e+01    3.17675135e-01    2.75642800e+00
210      1.68514362e+01    3.18506485e-01    2.63600784e+00
211      1.69727388e+01    3.21172465e-01    2.52090136e+00
212      1.70940413e+01    3.25636339e-01    2.41092495e+00
213      1.72153439e+01    3.31890978e-01    2.30589576e+00
214      1.73366465e+01    3.39956564e-01    2.20563318e+00
215      1.74579490e+01    3.49879109e-01    2.10995988e+00
216      1.75792516e+01    3.61729658e-01    2.01870277e+00
217      1.77005542e+01    3.75604083e-01    1.93169359e+00
218      1.78218567e+01    3.91623406e-01    1.84876945e+00
219      1.79431593e+01    4.09934615e-01    1.76977322e+00
220      1.80644618e+01    4.30711913e-01    1.69455377e+00
221      1.81857644e+01    4.54158428e-01    1.62296625e+00
222      1.83070670e+01    4.80508338e-01    1.55487219e+00
223      1.84283695e+01    5.10029370e-01    1.49013966e+00
224      1.85496721e+01    5.43026016e-01    1.42864335e+00
225      1.86709746e+01    5.79842815e-01    1.37026465e+00
226      1.87922772e+01    6.20868384e-01    1.31489177e+00
227      1.89135798e+01    6.66539887e-01    1.26241981e+00
228      1.90348823e+01    7.17348052e-01    1.21275087e+00
229      1.91561849e+01    7.73842752e-01    1.16579420e+00
230      1.92774875e+01    8.36639177e-01    1.12146637e+00
231      1.93987900e+01    9.06424633e-01    1.07969153e+00
232      1.95200926e+01    9.83965969e-01    1.04040166e+00
233      1.96413951e+01    1.07011766e+00    1.00353701e+00
234      1.97505675e+01    1.15578415e+00    9.72390514e-01
235      1.98597398e+01    1.24995696e+00    9.43135870e-01
236      1.99689121e+01    1.35347673e+00    9.15748824e-01
237      2.00780844e+01    1.46726524e+00    8.90212210e-01
238      2.01872567e+01    1.59233155e+00    8.66516601e-01
239      2.02964290e+01    1.72977825e+00    8.44661109e-01
240      2.03946841e+01    1.86503779e+00    8.26571043e-01
241      2.04929391e+01    2.01224439e+00    8.09991640e-01
242      2.05911942e+01    2.17241936e+00    7.94944387e-01
243      2.06894493e+01    2.34665901e+00    7.81459613e-01
244      2.07877044e+01    2.53613648e+00    7.69577712e-01
245      2.08859594e+01    2.74210257e+00    7.59350590e-01
246      2.09842145e+01    2.96588524e+00    7.50843410e-01
247      2.10824696e+01    3.20888709e+00    7.44136695e-01
248      2.11807247e+01    3.47258047e+00    7.39328859e-01
249      2.12789797e+01    3.75849921e+00    7.36539280e-01
250      2.13772348e+01    4.06822614e+00    7.35912015e-01
251      2.14754899e+01    4.40337509e+00    7.37620322e-01
252      2.15737450e+01    4.76556585e+00    7.41872163e-01
253      2.16720000e+01    5.15639022e+00    7.48916900e-01
254      2.17702551e+01    5.57736667e+00    7.59053479e-01
255      2.18685102e+01    6.02988066e+00    7.72640397e-01
256      2.19667653e+01    6.51510719e+00    7.90107877e-01
257      2.20650203e+01    7.03391091e+00    8.11972659e-01
258      2.21632754e+01    7.58671795e+00    8.38856197e-01
259      2.22615305e+01    8.17335806e+00    8.71505600e-01
260      2.23597856e+01    8.79286145e+00    9.10820106e-01
261      2.24580406e+01    9.44321201e+00    9.57881268e-01
262      2.25562957e+01    1.01210466e+01    1.01398795e+00
263      2.26545508e+01    1.08212967e+01    1.08069534e+00
264      2.27528059e+01    1.15367739e+01    1.15985610e+00
265      2.28510609e+01    1.22577074e+01    1.25365988e+00
266      2.29493160e+01    1.29712603e+01    1.36466410e+00
267      2.30475711e+01    1.36610741e+01    1.49580434e+00
268      2.31458262e+01    1.43069252e+01    1.65036583e+00
269      2.32440812e+01    1.48846278e+01    1.83189032e+00
270      2.33423363e+01    1.53663649e+01    2.04398429e+00
271      2.34307659e+01    1.56931968e+01    2.26374544e+00
272      2.35103525e+01    1.58812322e+01    2.48664705e+00
273      2.35899391e+01    1.59518019e+01    2.73425578e+00
274      2.36695257e+01    1.58909047e+01    3.00656144e+00
275      2.37411537e+01    1.57150115e+01    3.27187416e+00
276      2.38127816e+01    1.54198058e+01    3.55452533e+00
277      2.38844096e+01    1.50052643e+01    3.85171369e+00
278      2.39560375e+01    1.44761213e+01    4.15959032e+00
279      2.40276655e+01    1.38420719e+01    4.47333240e+00
280      2.40992934e+01    1.31174966e+01    4.78733230e+00
281      2.41709214e+01    1.23206694e+01    5.09549824e+00
282      2.42425493e+01    1.14725343e+01    5.39163319e+00
283      2.43141773e+01    1.05951988e+01    5.66984649e+00
284      2.43858052e+01    9.71036059e+00    5.92494016e+00
285      2.44574332e+01    8.83789051e+00    6.15271693e+00
286      2.45290611e+01    7.99474784e+00    6.35017333e+00
287      2.46006891e+01    7.19433148e+00    6.51556302e+00
288      2.46723170e+01    6.44624331e+00    6.64834815e+00
289      2.47367822e+01    5.82268032e+00    6.74036898e+00
290      2.47948008e+01    5.30371654e+00    6.80173260e+00
291      2.48528195e+01    4.82514839e+00    6.84383879e+00
292      2.49108381e+01    4.38634208e+00    6.86791812e+00
293      2.49688567e+01    3.98594439e+00    6.87533502e+00
294      2.50268754e+01    3.62208198e+00    6.86752571e+00
295      2.50848940e+01    3.29253535e+00    6.84594676e+00
296      2.51429127e+01    2.99488382e+00    6.81203443e+00
297      2.52009313e+01    2.72662148e+00    6.76717424e+00
298      2.52589499e+01    2.48524599e+00    6.71267956e+00
299      2.53169686e+01    2.26832367e+00    6.64977772e+00
300      2.53749872e+01    2.07353455e+00    6.57960232e+00
301      2.54330059e+01    1.89870119e+00    6.50319026e+00
302      2.54910245e+01    1.74180495e+00    6.42148230e+00
303      2.55490431e+01    1.60099270e+00    6.33532621e+00
304      2.56070618e+01    1.47457662e+00    6.24548150e+00
305      2.56650804e+01    1.36102918e+00    6.15262533e+00
306      2.57230990e+01    1.25897493e+00    6.05735881e+00
307      2.57811177e+01    1.16718039e+00    5.96021361e+00
308      2.58391363e+01    1.08454298e+00    5.86165844e+00
309      2.58971550e+01    1.01007961e+00    5.76210527e+00
310      2.59551736e+01    9.42915422e-01    5.66191524e+00
311      2.60131922e+01    8.82272998e-01    5.56140405e+00
312      2.61292295e+01    7.77597836e-01    5.36058472e+00
313      2.62452668e+01    6.91775238e-01    5.16129827e+00
314      2.63613041e+01    6.21135657e-01    4.96490247e+00
315      2.64773414e+01    5.62793320e-01    4.77239977e+00
316      2.65933786e+01    5.14475243e-01    4.58451702e+00
317      2.67094159e+01    4.74386903e-01    4.40176772e+00
318      2.68254532e+01    4.41107633e-01    4.22450062e+00
319      2.69414905e+01    4.13509546e-01    4.05293739e+00
320      2.70575278e+01    3.90694854e-01    3.88720182e+00
321      2.71735650e+01    3.71947432e-01    3.72734253e+00
322      2.72896023e+01    3.56695367e-01    3.57335062e+00
323      2.74056396e+01    3.44481970e-01    3.42517340e+00
324      2.75216769e+01    3.34943293e-01    3.28272513e+00
325      2.76377142e+01    3.27790740e-01    3.14589535e+00
326      2.77537514e+01    3.22797283e-01    3.01455553e+00
327      2.78697887e+01    3.19787125e-01    2.88856420e+00
328      2.79858260e+01    3.18627421e-01    2.76777096e+00
329      2.81018633e+01    3.19221930e-01    2.65201974e+00
330      2.82179005e+01    3.21506136e-01    2.54115130e+00
331      2.83339378e+01    3.25443536e-01    2.43500518e+00
