Index       TIME              I(VS)          {V(2)+0.2}        {V(3)+0.2}        I(XKS1:L1)        I(XKS1:L2)    
0        0.00000000e+00   -5.00000000e-01   -4.99800000e+02   -2.49800000e+02    5.00000000e-01    2.50000000e-01
1        1.00000000e-04   -1.30943984e-02   -6.49837439e+00   -5.89088318e+00    1.30943984e-02    6.09088318e-03
2        1.00781250e-04   -1.09172633e-02   -4.27129435e+00   -4.13613163e+00    1.09172633e-02    4.33613163e-03
3        1.00950242e-04   -1.05048557e-02   -3.84808313e+00   -3.77388179e+00    1.05048557e-02    3.97388179e-03
4        1.01045497e-04   -1.02885635e-02   -3.62570146e+00   -3.57638155e+00    1.02885635e-02    3.77638155e-03
5        1.01140752e-04   -1.00798245e-02   -3.41087291e+00   -3.38245281e+00    1.00798245e-02    3.58245281e-03
6        1.01331262e-04   -9.70264693e-03   -3.02151622e+00   -3.01759709e+00    9.70264693e-03    3.21759709e-03
7        1.01521773e-04   -9.37116273e-03   -2.67785297e+00   -2.68491527e+00    9.37116273e-03    2.88491527e-03
8        1.01712283e-04   -9.07762229e-03   -2.37213351e+00   -2.38411772e+00    9.07762229e-03    2.58411772e-03
9        1.01902793e-04   -8.81674916e-03   -2.09908141e+00   -2.11327162e+00    8.81674916e-03    2.31327162e-03
10       1.02093303e-04   -8.58456156e-03   -1.85471486e+00   -1.86989379e+00    8.58456156e-03    2.06989379e-03
11       1.02283813e-04   -8.37782488e-03   -1.63579927e+00   -1.65142132e+00    8.37782488e-03    1.85142132e-03
12       1.02474323e-04   -8.19378913e-03   -1.43958464e+00   -1.45540527e+00    8.19378913e-03    1.65540527e-03
13       1.02664833e-04   -8.03005574e-03   -1.26367241e+00   -1.27958202e+00    8.03005574e-03    1.47958202e-03
14       1.02855343e-04   -7.88450405e-03   -1.10594190e+00   -1.12189137e+00    7.88450405e-03    1.32189137e-03
15       1.03045853e-04   -7.75524589e-03   -9.64504964e-01   -9.80472277e-01    7.75524589e-03    1.18047228e-03
16       1.03236363e-04   -7.64059413e-03   -8.37674461e-01   -8.53649745e-01    7.64059413e-03    1.05364975e-03
17       1.03426873e-04   -7.53903854e-03   -7.23940163e-01   -7.39918995e-01    7.53903854e-03    9.39918995e-04
18       1.03617383e-04   -7.44922603e-03   -6.21948983e-01   -6.37929381e-01    7.44922603e-03    8.37929381e-04
19       1.03807893e-04   -7.36994377e-03   -5.30488079e-01   -5.46469154e-01    7.36994377e-03    7.46469154e-04
20       1.03998403e-04   -7.30010437e-03   -4.48470074e-01   -4.64451427e-01    7.30010437e-03    6.64451427e-04
21       1.04379423e-04   -7.18458210e-03   -3.08590691e-01   -3.24572182e-01    7.18458210e-03    5.24572182e-04
22       1.04760443e-04   -7.09652522e-03   -1.96176841e-01   -2.12158273e-01    7.09652522e-03    4.12158273e-04
23       1.05141463e-04   -7.03054080e-03   -1.05835588e-01   -1.21816933e-01    7.03054080e-03    3.21816933e-04
24       1.05522484e-04   -6.98229487e-03   -3.32329573e-02   -4.92142116e-02    6.98229487e-03    2.49214212e-04
25       1.05903504e-04   -6.94830442e-03    2.51140391e-02    9.13287610e-03    6.94830442e-03    1.90867124e-04
26       1.06284524e-04   -6.92577038e-03    7.20045019e-02    5.60234305e-02    6.92577038e-03    1.43976569e-04
27       1.07046564e-04   -6.90585369e-03    1.40633600e-01    1.24652713e-01    6.90585369e-03    7.53472867e-05
28       1.08570644e-04   -6.92847625e-03    2.15434159e-01    1.99453644e-01    6.92847625e-03    5.46356209e-07
29       1.10094725e-04   -6.99647970e-03    2.44851541e-01    2.28871404e-01    6.99647970e-03   -2.88714042e-05
30       1.11618805e-04   -7.08232958e-03    2.56420171e-01    2.40440417e-01    7.08232958e-03   -4.04404168e-05
31       1.13142886e-04   -7.17519684e-03    2.60969055e-01    2.44989689e-01    7.17519684e-03   -4.49896895e-05
32       1.16191047e-04   -7.36727888e-03    2.63712122e-01    2.47733546e-01    7.36727888e-03   -4.77335463e-05
33       1.19239207e-04   -7.56190789e-03    2.63898397e-01    2.47920637e-01    7.56190789e-03   -4.79206371e-05
34       1.25335529e-04   -7.95149681e-03    2.63909581e-01    2.47933501e-01    7.95149681e-03   -4.79335007e-05
35       1.31431851e-04   -8.34106645e-03    2.63897716e-01    2.47923419e-01    8.34106645e-03   -4.79234190e-05
36       1.43624494e-04   -9.12006007e-03    2.63884388e-01    2.47913845e-01    9.12006007e-03   -4.79138455e-05
37       1.68009781e-04   -1.06774568e-02    2.63849713e-01    2.47887669e-01    1.06774568e-02   -4.78876694e-05
38       2.16780354e-04   -1.37894076e-02    2.63768083e-01    2.47826770e-01    1.37894076e-02   -4.78267700e-05
39       3.14321501e-04   -1.99982730e-02    2.63542136e-01    2.47657413e-01    1.99982730e-02   -4.76574134e-05
40       5.09403794e-04   -3.23265113e-02    2.62851969e-01    2.47140484e-01    3.23265113e-02   -4.71404844e-05
41       7.04486087e-04   -4.44800505e-02    2.61753461e-01    2.46317281e-01    4.44800505e-02   -4.63172810e-05
42       8.99568380e-04   -5.63930496e-02    2.60387479e-01    2.45293018e-01    5.63930496e-02   -4.52930184e-05
43       1.09465067e-03   -6.80012339e-02    2.58630721e-01    2.43976536e-01    6.80012339e-02   -4.39765362e-05
44       1.28973297e-03   -7.92417192e-02    2.56619276e-01    2.42467729e-01    7.92417192e-02   -4.24677288e-05
45       1.48481526e-03   -9.00538582e-02    2.54241380e-01    2.40685756e-01    9.00538582e-02   -4.06857561e-05
46       1.67989755e-03   -1.00379078e-01    2.51628712e-01    2.38725605e-01    1.00379078e-01   -3.87256052e-05
47       1.87497985e-03   -1.10161673e-01    2.48680258e-01    2.36516033e-01    1.10161673e-01   -3.65160332e-05
48       2.07006214e-03   -1.19348643e-01    2.45523540e-01    2.34147439e-01    1.19348643e-01   -3.41474392e-05
49       2.26514443e-03   -1.27890429e-01    2.42067476e-01    2.31557440e-01    1.27890429e-01   -3.15574399e-05
50       2.46022673e-03   -1.35740746e-01    2.38435584e-01    2.28832079e-01    1.35740746e-01   -2.88320794e-05
51       2.65530902e-03   -1.42857254e-01    2.34545867e-01    2.25917084e-01    1.42857254e-01   -2.59170835e-05
52       2.85039131e-03   -1.49201381e-01    2.30517895e-01    2.22894296e-01    1.49201381e-01   -2.28942960e-05
53       3.04547361e-03   -1.54738923e-01    2.26277888e-01    2.19716793e-01    1.54738923e-01   -1.97167934e-05
54       3.24055590e-03   -1.59439851e-01    2.21941444e-01    2.16462303e-01    1.59439851e-01   -1.64623031e-05
55       3.43563819e-03   -1.63278840e-01    2.17442115e-01    2.13090490e-01    1.63278840e-01   -1.30904896e-05
56       3.63072049e-03   -1.66235047e-01    2.12891430e-01    2.09674989e-01    1.66235047e-01   -9.67498873e-06
57       3.82580278e-03   -1.68292575e-01    2.08229383e-01    2.06181291e-01    1.68292575e-01   -6.18129126e-06
58       4.02088507e-03   -1.69440218e-01    2.03563281e-01    2.02678916e-01    1.69440218e-01   -2.67891585e-06
59       4.21596737e-03   -1.69671852e-01    1.98838668e-01    1.99138426e-01    1.69671852e-01    8.61574166e-07
60       4.41104966e-03   -1.68986146e-01    1.94158432e-01    1.95625157e-01    1.68986146e-01    4.37484304e-06
61       4.60613195e-03   -1.67386883e-01    1.89472787e-01    1.92114006e-01    1.67386883e-01    7.88599382e-06
62       4.80121424e-03   -1.64882636e-01    1.84879976e-01    1.88666031e-01    1.64882636e-01    1.13339686e-05
63       4.99629654e-03   -1.61487015e-01    1.80334023e-01    1.85259746e-01    1.61487015e-01    1.47402542e-05
64       5.19137883e-03   -1.57218309e-01    1.75928277e-01    1.81951816e-01    1.57218309e-01    1.80481842e-05
65       5.38646112e-03   -1.52099662e-01    1.71619749e-01    1.78723682e-01    1.52099662e-01    2.12763175e-05
66       5.58154342e-03   -1.46158683e-01    1.67496643e-01    1.75627499e-01    1.46158683e-01    2.43725013e-05
67       5.77662571e-03   -1.39427553e-01    1.63518173e-01    1.72646981e-01    1.39427553e-01    2.73530187e-05
68       5.97170800e-03   -1.31942603e-01    1.59767153e-01    1.69829649e-01    1.31942603e-01    3.01703508e-05
69       6.16679030e-03   -1.23744357e-01    1.56204267e-01    1.67160886e-01    1.23744357e-01    3.28391140e-05
70       6.36187259e-03   -1.14877081e-01    1.52906721e-01    1.64683467e-01    1.14877081e-01    3.53165325e-05
71       6.55695488e-03   -1.05388769e-01    1.49835996e-01    1.62383885e-01    1.05388769e-01    3.76161150e-05
72       6.75203718e-03   -9.53306648e-02    1.47063497e-01    1.60300081e-01    9.53306648e-02    3.96999189e-05
73       6.94711947e-03   -8.47571980e-02    1.44550899e-01    1.58419152e-01    8.47571980e-02    4.15808480e-05
74       7.14220176e-03   -7.37254806e-02    1.42363659e-01    1.56774145e-01    7.37254806e-02    4.32258551e-05
75       7.33728406e-03   -6.22952041e-02    1.40463122e-01    1.55352318e-01    6.22952041e-02    4.46476816e-05
76       7.53236635e-03   -5.05281153e-02    1.38908698e-01    1.54181797e-01    5.05281153e-02    4.58182030e-05
77       7.72744864e-03   -3.84878786e-02    1.37660955e-01    1.53249624e-01    3.84878786e-02    4.67503760e-05
78       7.92253094e-03   -2.62395409e-02    1.36773219e-01    1.52579014e-01    2.62395409e-02    4.74209861e-05
79       8.11761323e-03   -1.38493661e-02    1.36204921e-01    1.52156486e-01    1.38493661e-02    4.78435138e-05
80       8.31269552e-03   -1.38429537e-03    1.36003330e-01    1.52000402e-01    1.38429537e-03    4.79995976e-05
81       8.41023667e-03    4.85526331e-03    1.36031345e-01    1.52023406e-01   -4.85526331e-03    4.79765942e-05
82       8.49700251e-03    1.04002494e-02    1.36092129e-01    1.52068868e-01   -1.04002494e-02    4.79311325e-05
83       8.58376835e-03    1.59342308e-02    1.36343344e-01    1.52255852e-01   -1.59342308e-02    4.77441481e-05
84       8.75730003e-03    2.69448538e-02    1.36753546e-01    1.52565256e-01   -2.69448538e-02    4.74347443e-05
85       8.93083171e-03    3.78404320e-02    1.37666057e-01    1.53246014e-01   -3.78404320e-02    4.67539864e-05
86       9.10436340e-03    4.85738962e-02    1.38621614e-01    1.53966108e-01   -4.85738962e-02    4.60338917e-05
87       9.27789508e-03    5.90997656e-02    1.40055616e-01    1.55036417e-01   -5.90997656e-02    4.49635826e-05
88       9.45142676e-03    6.93725838e-02    1.41537699e-01    1.56152939e-01   -6.93725838e-02    4.38470611e-05
89       9.62495844e-03    7.93488108e-02    1.43471085e-01    1.57596371e-01   -7.93488108e-02    4.24036294e-05
90       9.79849012e-03    8.89853705e-02    1.45452037e-01    1.59088447e-01   -8.89853705e-02    4.09115526e-05
91       9.97202180e-03    9.82414172e-02    1.47853994e-01    1.60882032e-01   -9.82414172e-02    3.91179679e-05
92       1.01455535e-02    1.07076983e-01    1.50297794e-01    1.62722529e-01   -1.07076983e-01    3.72774714e-05
93       1.03190852e-02    1.15454622e-01    1.53129343e-01    1.64837161e-01   -1.15454622e-01    3.51628388e-05
94       1.04926168e-02    1.23338151e-01    1.55992207e-01    1.66993130e-01   -1.23338151e-01    3.30068703e-05
95       1.06661485e-02    1.30694172e-01    1.59206880e-01    1.69394079e-01   -1.30694172e-01    3.06059211e-05
96       1.08396802e-02    1.37490895e-01    1.62437999e-01    1.71827311e-01   -1.37490895e-01    2.81726890e-05
97       1.10132119e-02    1.43699553e-01    1.65982647e-01    1.74474824e-01   -1.43699553e-01    2.55251759e-05
98       1.11867436e-02    1.49293281e-01    1.69525045e-01    1.77142494e-01   -1.49293281e-01    2.28575063e-05
99       1.13602753e-02    1.54248441e-01    1.73340756e-01    1.79992486e-01   -1.54248441e-01    2.00075141e-05
100      1.15338069e-02    1.58543550e-01    1.77132251e-01    1.82847872e-01   -1.58543550e-01    1.71521284e-05
101      1.17073386e-02    1.62160507e-01    1.81155364e-01    1.85852689e-01   -1.62160507e-01    1.41473109e-05
102      1.18808703e-02    1.65083573e-01    1.85129630e-01    1.88845964e-01   -1.65083573e-01    1.11540361e-05
103      1.20544020e-02    1.67300497e-01    1.89292835e-01    1.91955207e-01   -1.67300497e-01    8.04479307e-06
104      1.22279337e-02    1.68801549e-01    1.93380518e-01    1.95034282e-01   -1.68801549e-01    4.96571814e-06
105      1.24014653e-02    1.69580545e-01    1.97614011e-01    1.98195674e-01   -1.69580545e-01    1.80432563e-06
106      1.25749970e-02    1.69633921e-01    2.01743915e-01    2.01307081e-01   -1.69633921e-01   -1.30708136e-06
107      1.27485287e-02    1.68961674e-01    2.05976603e-01    2.04467372e-01   -1.68961674e-01   -4.46737166e-06
108      1.29220604e-02    1.67566462e-01    2.10076893e-01    2.07557171e-01   -1.67566462e-01   -7.55717055e-06
109      1.30955921e-02    1.65454464e-01    2.14237614e-01    2.10663048e-01   -1.65454464e-01   -1.06630485e-05
110      1.32691238e-02    1.62634512e-01    2.18237043e-01    2.13677743e-01   -1.62634512e-01   -1.36777427e-05
111      1.34426554e-02    1.59118868e-01    2.22255786e-01    2.16676757e-01   -1.59118868e-01   -1.66767570e-05
112      1.36161871e-02    1.54922382e-01    2.26084905e-01    2.19564202e-01   -1.54922382e-01   -1.95642022e-05
113      1.37897188e-02    1.50063192e-01    2.29894018e-01    2.22405663e-01   -1.50063192e-01   -2.24056631e-05
114      1.39632505e-02    1.44561908e-01    2.33486358e-01    2.25115953e-01   -1.44561908e-01   -2.51159529e-05
115      1.41367822e-02    1.38442240e-01    2.37021705e-01    2.27751804e-01   -1.38442240e-01   -2.77518036e-05
116      1.43103138e-02    1.31730199e-01    2.40314906e-01    2.30238118e-01   -1.31730199e-01   -3.02381178e-05
117      1.44838455e-02    1.24454666e-01    2.43516972e-01    2.32623761e-01   -1.24454666e-01   -3.26237609e-05
118      1.46573772e-02    1.16646608e-01    2.46453846e-01    2.34843161e-01   -1.16646608e-01   -3.48431614e-05
119      1.48309089e-02    1.08339585e-01    2.49268756e-01    2.36938226e-01   -1.08339585e-01   -3.69382258e-05
120      1.50044406e-02    9.95689845e-02    2.51798262e-01    2.38852386e-01   -9.95689845e-02   -3.88523858e-05
121      1.51779723e-02    9.03724769e-02    2.54178707e-01    2.40621421e-01   -9.03724769e-02   -4.06214212e-05
122      1.53515039e-02    8.07892638e-02    2.56256818e-01    2.42197277e-01   -8.07892638e-02   -4.21972768e-05
123      1.55250356e-02    7.08604837e-02    2.58162868e-01    2.43610363e-01   -7.08604837e-02   -4.36103630e-05
124      1.56985673e-02    6.06284788e-02    2.59753319e-01    2.44820675e-01   -6.06284788e-02   -4.48206748e-05
125      1.58720990e-02    5.01371559e-02    2.61153110e-01    2.45853937e-01   -5.01371559e-02   -4.58539370e-05
126      1.60456307e-02    3.94312710e-02    2.62228014e-01    2.46677752e-01   -3.94312710e-02   -4.66777522e-05
127      1.62191623e-02    2.85567515e-02    2.63098295e-01    2.47313772e-01   -2.85567515e-02   -4.73137725e-05
128      1.63926940e-02    1.75599993e-02    2.63638619e-01    2.47736780e-01   -1.75599993e-02   -4.77367801e-05
129      1.65662257e-02    6.48817975e-03    2.63965152e-01    2.47964898e-01   -6.48817975e-03   -4.79648977e-05
130      1.66144258e-02    3.40586474e-03    2.63948422e-01    2.47961349e-01   -3.40586474e-03   -4.79613490e-05
131      1.66626258e-02    3.22505303e-04    2.63990682e-01    2.47992416e-01   -3.22505303e-04   -4.79924157e-05
132      1.67293546e-02   -3.94614073e-03    2.63970267e-01    2.47977796e-01    3.94614073e-03   -4.79777963e-05
133      1.67960834e-02   -8.21230232e-03    2.63896703e-01    2.47923148e-01    8.21230232e-03   -4.79231480e-05
134      1.69295409e-02   -1.67262716e-02    2.63695684e-01    2.47772133e-01    1.67262716e-02   -4.77721326e-05
135      1.70629984e-02   -2.51979784e-02    2.63265270e-01    2.47450691e-01    2.51979784e-02   -4.74506908e-05
136      1.71964559e-02   -3.36058491e-02    2.62739861e-01    2.47055747e-01    3.36058491e-02   -4.70557473e-05
137      1.73299135e-02   -4.19287326e-02    2.61993478e-01    2.46497915e-01    4.19287326e-02   -4.64979146e-05
138      1.74633710e-02   -5.01454436e-02    2.61149617e-01    2.45863566e-01    5.01454436e-02   -4.58635660e-05
139      1.75968285e-02   -5.82353037e-02    2.60094223e-01    2.45074488e-01    5.82353037e-02   -4.50744876e-05
140      1.77302861e-02   -6.61777279e-02    2.58941012e-01    2.44207622e-01    6.61777279e-02   -4.42076222e-05
141      1.78637436e-02   -7.39527218e-02    2.57586745e-01    2.43194836e-01    7.39527218e-02   -4.31948363e-05
142      1.79972011e-02   -8.15405069e-02    2.56136365e-01    2.42104644e-01    8.15405069e-02   -4.21046439e-05
143      1.81306587e-02   -8.89219773e-02    2.54496438e-01    2.40878000e-01    8.89219773e-02   -4.08780002e-05
144      1.82641162e-02   -9.60783591e-02    2.52764025e-01    2.39575884e-01    9.60783591e-02   -3.95758843e-05
145      1.83975737e-02   -1.02991630e-01    2.50854586e-01    2.38147439e-01    1.02991630e-01   -3.81474393e-05
146      1.85310313e-02   -1.09644208e-01    2.48858091e-01    2.36646906e-01    1.09644208e-01   -3.66469061e-05
147      1.86644888e-02   -1.16019340e-01    2.46698052e-01    2.35030797e-01    1.16019340e-01   -3.50307972e-05
148      1.87979463e-02   -1.22100812e-01    2.44458058e-01    2.33347323e-01    1.22100812e-01   -3.33473232e-05
149      1.89314039e-02   -1.27873309e-01    2.42068906e-01    2.31559621e-01    1.27873309e-01   -3.15596211e-05
150      1.90648614e-02   -1.33322149e-01    2.39608424e-01    2.29710501e-01    1.33322149e-01   -2.97105005e-05
151      1.91983189e-02   -1.38433613e-01    2.37013996e-01    2.27769044e-01    1.38433613e-01   -2.77690436e-05
152      1.93317765e-02   -1.43194697e-01    2.34358237e-01    2.25773216e-01    1.43194697e-01   -2.57732164e-05
153      1.94652340e-02   -1.47593416e-01    2.31584474e-01    2.23697427e-01    1.47593416e-01   -2.36974268e-05
154      1.95986915e-02   -1.51618577e-01    2.28760597e-01    2.21575290e-01    1.51618577e-01   -2.15752904e-05
155      1.97321491e-02   -1.55260050e-01    2.25835284e-01    2.19385975e-01    1.55260050e-01   -1.93859747e-05
156      1.98656066e-02   -1.58508565e-01    2.22872123e-01    2.17159180e-01    1.58508565e-01   -1.71591803e-05
157      1.99990641e-02   -1.61355954e-01    2.19824601e-01    2.14878316e-01    1.61355954e-01   -1.48783165e-05
158      2.01325217e-02   -1.63794959e-01    2.16752375e-01    2.12569552e-01    1.63794959e-01   -1.25695522e-05
159      2.02659792e-02   -1.65819457e-01    2.13613243e-01    2.10220065e-01    1.65819457e-01   -1.02200649e-05
160      2.03994367e-02   -1.67424277e-01    2.10463255e-01    2.07852829e-01    1.67424277e-01   -7.85282903e-06
161      2.05328943e-02   -1.68605403e-01    2.07264059e-01    2.05458356e-01    1.68605403e-01   -5.45835561e-06
162      2.06663518e-02   -1.69359801e-01    2.04068381e-01    2.03056720e-01    1.69359801e-01   -3.05672017e-06
163      2.07998093e-02   -1.69685606e-01    2.00841291e-01    2.00641370e-01    1.69685606e-01   -6.41369635e-07
164      2.09332669e-02   -1.69581951e-01    1.97632439e-01    1.98229739e-01    1.69581951e-01    1.77026083e-06
165      2.10667244e-02   -1.69049139e-01    1.94409925e-01    1.95817847e-01    1.69049139e-01    4.18215342e-06
166      2.12001819e-02   -1.68088479e-01    1.91220532e-01    1.93420713e-01    1.68088479e-01    6.57928734e-06
167      2.13336394e-02   -1.66702441e-01    1.88035031e-01    1.91036591e-01    1.66702441e-01    8.96340861e-06
168      2.14670970e-02   -1.64894495e-01    1.84897523e-01    1.88678286e-01    1.64894495e-01    1.13217137e-05
169      2.16005545e-02   -1.62669252e-01    1.81781111e-01    1.86345981e-01    1.62669252e-01    1.36540192e-05
170      2.17340120e-02   -1.60032310e-01    1.78727373e-01    1.84050433e-01    1.60032310e-01    1.59495673e-05
171      2.18674696e-02   -1.56990375e-01    1.75711439e-01    1.81793474e-01    1.56990375e-01    1.82065263e-05
172      2.20009271e-02   -1.53551115e-01    1.72772498e-01    1.79583966e-01    1.53551115e-01    2.04160342e-05
173      2.21343846e-02   -1.49723263e-01    1.69887426e-01    1.77425132e-01    1.49723263e-01    2.25748684e-05
