Index       TIME              I(VS)          {V(2)+0.2}        {V(3)+0.2}           I(L1)             I(L2)      
0        0.00000000e+00   -5.00000000e-01   -4.99800000e+02    2.00000000e-01    5.00000000e-01    0.00000000e+00
1        1.00000000e-04   -1.12562419e-02   -4.66021794e+00   -3.42928533e+00    1.12562419e-02    3.62928533e-03
2        1.00195312e-04   -1.05634857e-02   -3.95497544e+00   -3.27093541e+00    1.05634857e-02    3.47093541e-03
3        1.00230941e-04   -1.04449068e-02   -3.83411879e+00   -3.23739861e+00    1.04449068e-02    3.43739861e-03
4        1.00266570e-04   -1.03300100e-02   -3.71694423e+00   -3.20173556e+00    1.03300100e-02    3.40173556e-03
5        1.00337828e-04   -1.01200423e-02   -3.50242097e+00   -3.11973241e+00    1.01200423e-02    3.31973241e-03
6        1.00409086e-04   -9.93252151e-03   -3.31034473e+00   -3.02711552e+00    9.93252151e-03    3.22711552e-03
7        1.00480344e-04   -9.76308772e-03   -3.13635545e+00   -2.92777274e+00    9.76308772e-03    3.12777274e-03
8        1.00551602e-04   -9.60841907e-03   -2.97713132e+00   -2.82457249e+00    9.60841907e-03    3.02457249e-03
9        1.00694118e-04   -9.33312299e-03   -2.69272428e+00   -2.61493339e+00    9.33312299e-03    2.81493339e-03
10       1.00836634e-04   -9.09374100e-03   -2.44423136e+00   -2.40803997e+00    9.09374100e-03    2.60803997e-03
11       1.00979150e-04   -8.88140345e-03   -2.22278290e+00   -2.20973670e+00    8.88140345e-03    2.40973670e-03
12       1.01121666e-04   -8.69062278e-03   -2.02289134e+00   -2.02272268e+00    8.69062278e-03    2.22272268e-03
13       1.01264182e-04   -8.51783641e-03   -1.84099409e+00   -1.84799025e+00    8.51783641e-03    2.04799025e-03
14       1.01406697e-04   -8.36059263e-03   -1.67463945e+00   -1.68562198e+00    8.36059263e-03    1.88562198e-03
15       1.01549213e-04   -8.21709457e-03   -1.52203055e+00   -1.53523100e+00    8.21709457e-03    1.73523100e-03
16       1.01691729e-04   -8.08594353e-03   -1.38176869e+00   -1.39620314e+00    8.08594353e-03    1.59620314e-03
17       1.01834245e-04   -7.96599360e-03   -1.25270796e+00   -1.26782897e+00    7.96599360e-03    1.46782897e-03
18       1.01976761e-04   -7.85626827e-03   -1.13387185e+00   -1.14937483e+00    7.85626827e-03    1.34937483e-03
19       1.02119277e-04   -7.75591180e-03   -1.02440462e+00   -1.04012010e+00    7.75591180e-03    1.24012010e-03
20       1.02261793e-04   -7.66416010e-03   -9.23542179e-01   -9.39375887e-01    7.66416010e-03    1.13937589e-03
21       1.02546825e-04   -7.50349407e-03   -7.44654715e-01   -7.60596058e-01    7.50349407e-03    9.60596058e-04
22       1.02831856e-04   -7.36980123e-03   -5.92740521e-01   -6.08711289e-01    7.36980123e-03    8.08711289e-04
23       1.03116888e-04   -7.25899664e-03   -4.63714647e-01   -4.79693424e-01    7.25899664e-03    6.79693424e-04
24       1.03401920e-04   -7.16762692e-03   -3.54123720e-01   -3.70104643e-01    7.16762692e-03    5.70104643e-04
25       1.03686952e-04   -7.09276328e-03   -2.61038957e-01   -2.77020418e-01    7.09276328e-03    4.77020418e-04
26       1.03971983e-04   -7.03191928e-03   -1.81973902e-01   -1.97955462e-01    7.03191928e-03    3.97955462e-04
27       1.04257015e-04   -6.98298327e-03   -1.14816921e-01   -1.30798459e-01    6.98298327e-03    3.30798459e-04
28       1.04542047e-04   -6.94416175e-03   -5.77745046e-02   -7.37559877e-02    6.94416175e-03    2.73755988e-04
29       1.05112110e-04   -6.89048713e-03    3.23416852e-02    1.63603326e-02    6.89048713e-03    1.83639667e-04
30       1.05682174e-04   -6.86205616e-03    9.72139113e-02    8.12326952e-02    6.86205616e-03    1.18767305e-04
31       1.06252237e-04   -6.85179736e-03    1.43913643e-01    1.27932564e-01    6.85179736e-03    7.20674358e-05
32       1.06822301e-04   -6.85462018e-03    1.77531453e-01    1.61550511e-01    6.85462018e-03    3.84494888e-05
33       1.07962428e-04   -6.88504600e-03    2.19985935e-01    2.04005271e-01    6.88504600e-03   -4.00527082e-06
34       1.10242682e-04   -6.99613878e-03    2.54649926e-01    2.38669825e-01    6.99613878e-03   -3.86698245e-05
35       1.14803190e-04   -7.27714953e-03    2.65136981e-01    2.49158039e-01    7.27714953e-03   -4.91580385e-05
36       1.18773338e-04   -7.53219591e-03    2.63836168e-01    2.47858283e-01    7.53219591e-03   -4.78582827e-05
37       1.22743485e-04   -7.78584716e-03    2.63913476e-01    2.47936674e-01    7.78584716e-03   -4.79366737e-05
38       1.26713632e-04   -8.03956771e-03    2.63903894e-01    2.47928218e-01    8.03956771e-03   -4.79282177e-05
39       1.34653927e-04   -8.54694346e-03    2.63895051e-01    2.47921709e-01    8.54694346e-03   -4.79217085e-05
40       1.50534516e-04   -9.56146160e-03    2.63874715e-01    2.47906456e-01    9.56146160e-03   -4.79064562e-05
41       1.82295694e-04   -1.15894324e-02    2.63828163e-01    2.47871660e-01    1.15894324e-02   -4.78716603e-05
42       2.45818051e-04   -1.56400975e-02    2.63709044e-01    2.47782473e-01    1.56400975e-02   -4.77824735e-05
43       3.72862764e-04   -2.37121960e-02    2.63368885e-01    2.47527728e-01    2.37121960e-02   -4.75277280e-05
44       4.99907478e-04   -3.17299399e-02    2.62854905e-01    2.47142765e-01    3.17299399e-02   -4.71427654e-05
45       6.26952191e-04   -3.96748850e-02    2.62223894e-01    2.46669592e-01    3.96748850e-02   -4.66695923e-05
46       7.53996904e-04   -4.75288630e-02    2.61424339e-01    2.46070707e-01    4.75288630e-02   -4.60707070e-05
47       8.81041618e-04   -5.52738105e-02    2.60508524e-01    2.45383672e-01    5.52738105e-02   -4.53836718e-05
48       1.00808633e-03   -6.28920128e-02    2.59430477e-01    2.44576140e-01    6.28920128e-02   -4.45761405e-05
49       1.13513104e-03   -7.03659521e-02    2.58238489e-01    2.43681744e-01    7.03659521e-02   -4.36817442e-05
50       1.26217576e-03   -7.76785307e-02    2.56891612e-01    2.42672780e-01    7.76785307e-02   -4.26727805e-05
51       1.38922047e-03   -8.48129358e-02    2.55434592e-01    2.41579403e-01    8.48129358e-02   -4.15794029e-05
52       1.51626518e-03   -9.17528448e-02    2.53831031e-01    2.40378089e-01    9.17528448e-02   -4.03780886e-05
53       1.64330990e-03   -9.84823031e-02    2.52122531e-01    2.39095914e-01    9.84823031e-02   -3.90959136e-05
54       1.77035461e-03   -1.04985913e-01    2.50276807e-01    2.37713113e-01    1.04985913e-01   -3.77131133e-05
55       1.89739932e-03   -1.11248725e-01    2.48332662e-01    2.36254038e-01    1.11248725e-01   -3.62540378e-05
56       2.02444404e-03   -1.17256407e-01    2.46261534e-01    2.34702297e-01    1.17256407e-01   -3.47022969e-05
57       2.15148875e-03   -1.22995151e-01    2.44099727e-01    2.33079824e-01    1.22995151e-01   -3.30798235e-05
58       2.27853346e-03   -1.28451824e-01    2.41822035e-01    2.31373252e-01    1.28451824e-01   -3.13732517e-05
59       2.40557818e-03   -1.33613882e-01    2.39462528e-01    2.29602367e-01    1.33613882e-01   -2.96023670e-05
60       2.53262289e-03   -1.38469516e-01    2.36999020e-01    2.27756507e-01    1.38469516e-01   -2.77565073e-05
61       2.65966760e-03   -1.43007561e-01    2.34463575e-01    2.25853545e-01    1.43007561e-01   -2.58535453e-05
62       2.78671232e-03   -1.47217635e-01    2.31836717e-01    2.23885230e-01    1.47217635e-01   -2.38852299e-05
63       2.91375703e-03   -1.51090059e-01    2.29148695e-01    2.21867724e-01    1.51090059e-01   -2.18677243e-05
64       3.04080174e-03   -1.54615975e-01    2.26382461e-01    2.19794919e-01    1.54615975e-01   -1.97949191e-05
65       3.16784646e-03   -1.57787273e-01    2.23566614e-01    2.17681443e-01    1.57787273e-01   -1.76814434e-05
66       3.29489117e-03   -1.60596701e-01    2.20686267e-01    2.15523082e-01    1.60596701e-01   -1.55230821e-05
67       3.42193588e-03   -1.63037796e-01    2.17768506e-01    2.13333081e-01    1.63037796e-01   -1.33330806e-05
68       3.54898060e-03   -1.65104980e-01    2.14800363e-01    2.11108890e-01    1.65104980e-01   -1.11088900e-05
69       3.67602531e-03   -1.66793491e-01    2.11807528e-01    2.08862500e-01    1.66793491e-01   -8.86250024e-06
70       3.80307002e-03   -1.68099475e-01    2.08778721e-01    2.06592818e-01    1.68099475e-01   -6.59281842e-06
71       3.93011474e-03   -1.69019921e-01    2.05738331e-01    2.04310688e-01    1.69019921e-01   -4.31068771e-06
72       4.05715945e-03   -1.69552734e-01    2.02676552e-01    2.02016277e-01    1.69552734e-01   -2.01627691e-06
73       4.18420416e-03   -1.69696675e-01    1.99616556e-01    1.99719374e-01    1.69696675e-01    2.80626374e-07
74       4.31124888e-03   -1.69451429e-01    1.96549810e-01    1.97421229e-01    1.69451429e-01    2.57877102e-06
75       4.43829359e-03   -1.68817546e-01    1.93498328e-01    1.95130651e-01    1.68817546e-01    4.86934891e-06
76       4.56533830e-03   -1.67796492e-01    1.90454671e-01    1.92849807e-01    1.67796492e-01    7.15019251e-06
77       4.69238302e-03   -1.66390596e-01    1.87439742e-01    1.90586590e-01    1.66390596e-01    9.41341024e-06
78       4.81942773e-03   -1.64603094e-01    1.84447021e-01    1.88343928e-01    1.64603094e-01    1.16560716e-05
79       4.94647244e-03   -1.62438075e-01    1.81496342e-01    1.86128850e-01    1.62438075e-01    1.38711499e-05
80       5.07351716e-03   -1.59900516e-01    1.78581945e-01    1.83944907e-01    1.59900516e-01    1.60550935e-05
81       5.20056187e-03   -1.56996224e-01    1.75722620e-01    1.81798301e-01    1.56996224e-01    1.82016988e-05
82       5.32760658e-03   -1.53731873e-01    1.72913218e-01    1.79693077e-01    1.53731873e-01    2.03069234e-05
83       5.45465130e-03   -1.50114937e-01    1.70171510e-01    1.77634647e-01    1.50114937e-01    2.23653534e-05
84       5.58169601e-03   -1.46153723e-01    1.67492818e-01    1.75627424e-01    1.46153723e-01    2.43725763e-05
85       5.70874073e-03   -1.41857304e-01    1.64893907e-01    1.73676059e-01    1.41857304e-01    2.63239406e-05
86       5.83578544e-03   -1.37235546e-01    1.62370443e-01    1.71785226e-01    1.37235546e-01    2.82147742e-05
87       5.96283015e-03   -1.32299038e-01    1.59938197e-01    1.69958833e-01    1.32299038e-01    3.00411669e-05
88       6.08987487e-03   -1.27059112e-01    1.57593060e-01    1.68201712e-01    1.27059112e-01    3.17982883e-05
89       6.21691958e-03   -1.21527774e-01    1.55349815e-01    1.66517048e-01    1.21527774e-01    3.34829520e-05
90       6.34396429e-03   -1.15717722e-01    1.53204473e-01    1.64909739e-01    1.15717722e-01    3.50902614e-05
91       6.47100901e-03   -1.09642270e-01    1.51170830e-01    1.63382259e-01    1.09642270e-01    3.66177406e-05
92       6.59805372e-03   -1.03315362e-01    1.49244920e-01    1.61939490e-01    1.03315362e-01    3.80605098e-05
93       6.72509843e-03   -9.67514991e-02    1.47439556e-01    1.60583208e-01    9.67514991e-02    3.94167919e-05
94       6.85214315e-03   -8.99657440e-02    1.45750705e-01    1.59318201e-01    8.99657440e-02    4.06817995e-05
95       6.97918786e-03   -8.29736516e-02    1.44190202e-01    1.58145556e-01    8.29736516e-02    4.18544436e-05
96       7.10623257e-03   -7.57912657e-02    1.42753867e-01    1.57069904e-01    7.57912657e-02    4.29300960e-05
97       7.23327729e-03   -6.84350513e-02    1.41452559e-01    1.56091654e-01    6.84350513e-02    4.39083465e-05
98       7.36032200e-03   -6.09218871e-02    1.40281884e-01    1.55215215e-01    6.09218871e-02    4.47847848e-05
99       7.48736671e-03   -5.32689971e-02    1.39251727e-01    1.54440330e-01    5.32689971e-02    4.55596699e-05
100      7.61441143e-03   -4.54939398e-02    1.38357420e-01    1.53771140e-01    4.54939398e-02    4.62288604e-05
101      7.74145614e-03   -3.76145403e-02    1.37607884e-01    1.53206726e-01    3.76145403e-02    4.67932741e-05
102      7.86850085e-03   -2.96488764e-02    1.36998122e-01    1.52750918e-01    2.96488764e-02    4.72490820e-05
103      8.12259028e-03   -1.35320445e-02    1.36146140e-01    1.52109488e-01    1.35320445e-02    4.78905124e-05
104      8.21233948e-03   -7.80179263e-03    1.36152575e-01    1.52114407e-01    7.80179263e-03    4.78855928e-05
105      8.30208869e-03   -2.06288028e-03    1.35962030e-01    1.51972925e-01    2.06288028e-03    4.80270745e-05
106      8.39183789e-03    3.67863918e-03    1.36090564e-01    1.52065616e-01   -3.67863918e-03    4.79343843e-05
107      8.48158710e-03    9.41571833e-03    1.36062796e-01    1.52049561e-01   -9.41571833e-03    4.79504394e-05
108      8.57133630e-03    1.51422339e-02    1.36322555e-01    1.52237619e-01   -1.51422339e-02    4.77623810e-05
109      8.66108550e-03    2.08512162e-02    1.36454871e-01    1.52344409e-01   -2.08512162e-02    4.76555908e-05
110      8.84058391e-03    3.21913195e-02    1.37187368e-01    1.52884637e-01   -3.21913195e-02    4.71153633e-05
111      9.02008232e-03    4.33839599e-02    1.38096671e-01    1.53575027e-01   -4.33839599e-02    4.64249728e-05
112      9.19958073e-03    5.43781224e-02    1.39396545e-01    1.54540180e-01   -5.43781224e-02    4.54598196e-05
113      9.37907914e-03    6.51232712e-02    1.40869976e-01    1.55654280e-01   -6.51232712e-02    4.43457203e-05
114      9.55857754e-03    7.55704262e-02    1.42714675e-01    1.57027515e-01   -7.55704262e-02    4.29724854e-05
115      9.73807595e-03    8.56715685e-02    1.44724106e-01    1.58544178e-01   -8.56715685e-02    4.14558222e-05
116      9.91757436e-03    9.53806533e-02    1.47081035e-01    1.60301113e-01   -9.53806533e-02    3.96988869e-05
117      1.00970728e-02    1.04653052e-01    1.49588610e-01    1.62191904e-01   -1.04653052e-01    3.78080961e-05
118      1.02765712e-02    1.13446503e-01    1.52415734e-01    1.64301073e-01   -1.13446503e-01    3.56989268e-05
119      1.04560696e-02    1.21720578e-01    1.55374560e-01    1.66530778e-01   -1.21720578e-01    3.34692217e-05
120      1.06355680e-02    1.29437575e-01    1.58621176e-01    1.68954210e-01   -1.29437575e-01    3.10457898e-05
121      1.08150664e-02    1.36562004e-01    1.61976168e-01    1.71481479e-01   -1.36562004e-01    2.85185213e-05
122      1.09945648e-02    1.43061415e-01    1.65583841e-01    1.74175397e-01   -1.43061415e-01    2.58246034e-05
123      1.11740632e-02    1.48905902e-01    1.69272732e-01    1.76953491e-01   -1.48905902e-01    2.30465090e-05
124      1.13535616e-02    1.54068864e-01    1.73176364e-01    1.79869118e-01   -1.54068864e-01    2.01308822e-05
125      1.15330600e-02    1.58526520e-01    1.77130834e-01    1.82846765e-01   -1.58526520e-01    1.71532351e-05
126      1.17125584e-02    1.62258609e-01    1.81259860e-01    1.85931220e-01   -1.62258609e-01    1.40687804e-05
127      1.18920569e-02    1.65247909e-01    1.85406785e-01    1.89053544e-01   -1.65247909e-01    1.09464561e-05
128      1.20715553e-02    1.67480872e-01    1.89686471e-01    1.92250812e-01   -1.67480872e-01    7.74918779e-06
129      1.22510537e-02    1.68947145e-01    1.93949254e-01    1.95460336e-01   -1.68947145e-01    4.53966385e-06
130      1.24305521e-02    1.69640144e-01    1.98302062e-01    1.98712299e-01   -1.69640144e-01    1.28770131e-06
131      1.26100505e-02    1.69556574e-01    2.02602034e-01    2.01949990e-01   -1.69556574e-01   -1.94999008e-06
132      1.27895489e-02    1.68696937e-01    2.06949045e-01    2.05197489e-01   -1.68696937e-01   -5.19748856e-06
133      1.29690473e-02    1.67065051e-01    2.11206896e-01    2.08403837e-01   -1.67065051e-01   -8.40383721e-06
134      1.31485457e-02    1.64668499e-01    2.15469261e-01    2.11587759e-01   -1.64668499e-01   -1.15877593e-05
135      1.33280441e-02    1.61518141e-01    2.19606488e-01    2.14703862e-01   -1.61518141e-01   -1.47038625e-05
136      1.35075425e-02    1.57628506e-01    2.23706867e-01    2.17766226e-01   -1.57628506e-01   -1.77662258e-05
137      1.36870409e-02    1.53017291e-01    2.27647213e-01    2.20734863e-01   -1.53017291e-01   -2.07348626e-05
138      1.38665393e-02    1.47705708e-01    2.31511192e-01    2.23619878e-01   -1.47705708e-01   -2.36198777e-05
139      1.40460378e-02    1.41717969e-01    2.35182031e-01    2.26386553e-01   -1.41717969e-01   -2.63865534e-05
140      1.42255362e-02    1.35081580e-01    2.38739492e-01    2.29041646e-01   -1.35081580e-01   -2.90416462e-05
141      1.44050346e-02    1.27826823e-01    2.42073158e-01    2.31555586e-01   -1.27826823e-01   -3.15555863e-05
142      1.45845330e-02    1.19986999e-01    2.45259555e-01    2.33932362e-01   -1.19986999e-01   -3.39323624e-05
143      1.47640314e-02    1.11597904e-01    2.48194577e-01    2.36147439e-01   -1.11597904e-01   -3.61474390e-05
144      1.49435298e-02    1.02698025e-01    2.50952126e-01    2.38202570e-01   -1.02698025e-01   -3.82025703e-05
145      1.51230282e-02    9.33280151e-02    2.53434350e-01    2.40078144e-01   -9.33280151e-02   -4.00781440e-05
146      1.53025266e-02    8.35308478e-02    2.55713083e-01    2.41774163e-01   -8.35308478e-02   -4.17741632e-05
147      1.54820250e-02    7.33512873e-02    2.57696661e-01    2.43275824e-01   -7.33512873e-02   -4.32758244e-05
148      1.56615234e-02    6.28360087e-02    2.59455343e-01    2.44581812e-01   -6.28360087e-02   -4.45818119e-05
149      1.58410218e-02    5.20330671e-02    2.60903569e-01    2.45682009e-01   -5.20330671e-02   -4.56820085e-05
150      1.60205202e-02    4.09919873e-02    2.62110454e-01    2.46574160e-01   -4.09919873e-02   -4.65741595e-05
151      1.62000187e-02    2.97632348e-02    2.62996434e-01    2.47252699e-01   -2.97632348e-02   -4.72526991e-05
152      1.63795171e-02    1.83982801e-02    2.63629848e-01    2.47714761e-01   -1.83982801e-02   -4.77147606e-05
153      1.65590155e-02    6.94907439e-03    2.63936992e-01    2.47959178e-01   -6.94907439e-03   -4.79591784e-05
154      1.66082987e-02    3.79775556e-03    2.63943055e-01    2.47957308e-01   -3.79775556e-03   -4.79573081e-05
155      1.66575819e-02    6.45191209e-04    2.63992437e-01    2.47993666e-01   -6.45191209e-04   -4.79936659e-05
156      1.67561484e-02   -5.65960426e-03    2.63937996e-01    2.47954507e-01    5.65960426e-03   -4.79545070e-05
157      1.68547148e-02   -1.19565476e-02    2.63833725e-01    2.47874990e-01    1.19565476e-02   -4.78749897e-05
158      1.69532813e-02   -1.82370198e-02    2.63605149e-01    2.47705669e-01    1.82370198e-02   -4.77056688e-05
159      1.70518478e-02   -2.44922797e-02    2.63322818e-01    2.47492202e-01    2.44922797e-02   -4.74922016e-05
160      1.71504142e-02   -3.07137575e-02    2.62920979e-01    2.47193300e-01    3.07137575e-02   -4.71932999e-05
161      1.73475471e-02   -4.30208828e-02    2.61945790e-01    2.46460032e-01    4.30208828e-02   -4.64600321e-05
162      1.75446800e-02   -5.50906235e-02    2.60515168e-01    2.45390434e-01    5.50906235e-02   -4.53904344e-05
163      1.77418130e-02   -6.68561248e-02    2.58860473e-01    2.44146816e-01    6.68561248e-02   -4.41468163e-05
164      1.79389459e-02   -7.82526517e-02    2.56774173e-01    2.42586096e-01    7.82526517e-02   -4.25860956e-05
165      1.81360788e-02   -8.92170792e-02    2.54477888e-01    2.40860609e-01    8.92170792e-02   -4.08606093e-05
166      1.83332117e-02   -9.96890816e-02    2.51780534e-01    2.38842166e-01    9.96890816e-02   -3.88421663e-05
167      1.85303446e-02   -1.09610650e-01    2.48894637e-01    2.36673836e-01    1.09610650e-01   -3.66738362e-05
168      1.87274775e-02   -1.18927205e-01    2.45644409e-01    2.34241246e-01    1.18927205e-01   -3.42412456e-05
169      1.89246105e-02   -1.27587127e-01    2.42233799e-01    2.31678784e-01    1.27587127e-01   -3.16787844e-05
170      1.91217434e-02   -1.35542789e-01    2.38501149e-01    2.28884828e-01    1.35542789e-01   -2.88848283e-05
171      1.93188763e-02   -1.42750097e-01    2.34642220e-01    2.25985567e-01    1.42750097e-01   -2.59855673e-05
172      1.95160092e-02   -1.49169434e-01    2.30508311e-01    2.22891066e-01    1.49169434e-01   -2.28910661e-05
173      1.97131421e-02   -1.54765194e-01    2.26287271e-01    2.19719697e-01    1.54765194e-01   -1.97196969e-05
