Index       TIME              V(1)              V(2)              L1:L             {L1:L}          {R1:R*L1:L}   
0        0.00000000e+00    0.00000000e+00    0.00000000e+00    1.00000000e-03    1.00000000e-03    2.00000000e-03
1        1.00000000e-10    6.28318531e-07    1.52327380e-13    1.00000000e-03    1.00000000e-03    2.00000000e-03
2        3.00000000e-10    1.88495559e-06    1.06629138e-12    1.00000000e-03    1.00000000e-03    2.00000000e-03
3        7.00000000e-10    4.39822972e-06    4.11283732e-12    1.00000000e-03    1.00000000e-03    2.00000000e-03
4        1.50000000e-09    9.42477796e-06    1.75176301e-11    1.00000000e-03    1.00000000e-03    2.00000000e-03
5        3.10000000e-09    1.94778745e-05    7.35739522e-11    1.00000000e-03    1.00000000e-03    2.00000000e-03
6        6.30000000e-09    3.95840674e-05    3.02673008e-10    1.00000000e-03    1.00000000e-03    2.00000000e-03
7        1.27000000e-08    7.97964533e-05    1.22881249e-09    1.00000000e-03    1.00000000e-03    2.00000000e-03
8        2.55000000e-08    1.60221225e-04    4.95282269e-09    1.00000000e-03    1.00000000e-03    2.00000000e-03
9        5.11000000e-08    3.21070764e-04    1.98874941e-08    1.00000000e-03    1.00000000e-03    2.00000000e-03
10       1.02300000e-07    6.42769813e-04    7.97012489e-08    1.00000000e-03    1.00000000e-03    2.00000000e-03
11       2.04700000e-07    1.28616768e-03    3.19088854e-07    1.00000000e-03    1.00000000e-03    2.00000000e-03
12       4.09500000e-07    2.57296154e-03    1.27676380e-06    1.00000000e-03    1.00000000e-03    2.00000000e-03
13       8.19100000e-07    5.14653437e-03    5.10658396e-06    1.00000000e-03    1.00000000e-03    2.00000000e-03
14       1.63830000e-06    1.02935607e-02    2.04150186e-05    1.00000000e-03    1.00000000e-03    2.00000000e-03
15       2.45750000e-06    1.54403143e-02    4.59071877e-05    1.00000000e-03    1.00000000e-03    2.00000000e-03
16       4.09590000e-06    2.57324580e-02    1.27353567e-04    1.00000000e-03    1.00000000e-03    2.00000000e-03
17       5.73430000e-06    3.60218748e-02    2.49294928e-04    1.00000000e-03    1.00000000e-03    2.00000000e-03
18       7.37270000e-06    4.63074742e-02    4.11566931e-04    1.00000000e-03    1.00000000e-03    2.00000000e-03
19       1.06495000e-05    6.68628614e-02    8.56340515e-04    1.00000000e-03    1.00000000e-03    2.00000000e-03
20       1.39263000e-05    8.73899068e-02    1.46036919e-03    1.00000000e-03    1.00000000e-03    2.00000000e-03
21       1.72031000e-05    1.07879909e-01    2.22220587e-03    1.00000000e-03    1.00000000e-03    2.00000000e-03
22       2.04799000e-05    1.28324183e-01    3.14034547e-03    1.00000000e-03    1.00000000e-03    2.00000000e-03
23       2.37567000e-05    1.48714063e-01    4.21322545e-03    1.00000000e-03    1.00000000e-03    2.00000000e-03
24       3.03103000e-05    1.89296096e-01    6.81582748e-03    1.00000000e-03    1.00000000e-03    2.00000000e-03
25       3.68639000e-05    2.29557206e-01    1.00171899e-02    1.00000000e-03    1.00000000e-03    2.00000000e-03
26       4.34175000e-05    2.69429137e-01    1.38028110e-02    1.00000000e-03    1.00000000e-03    2.00000000e-03
27       4.99711000e-05    3.08844293e-01    1.81573333e-02    1.00000000e-03    1.00000000e-03    2.00000000e-03
28       5.65247000e-05    3.47735851e-01    2.30645679e-02    1.00000000e-03    1.00000000e-03    2.00000000e-03
29       6.30783000e-05    3.86037876e-01    2.85075198e-02    1.00000000e-03    1.00000000e-03    2.00000000e-03
30       6.96319000e-05    4.23685434e-01    3.44684147e-02    1.00000000e-03    1.00000000e-03    2.00000000e-03
31       7.61855000e-05    4.60614699e-01    4.09287273e-02    1.00000000e-03    1.00000000e-03    2.00000000e-03
32       8.27391000e-05    4.96763062e-01    4.78692108e-02    1.00000000e-03    1.00000000e-03    2.00000000e-03
33       8.92927000e-05    5.32069241e-01    5.52699277e-02    1.00000000e-03    1.00000000e-03    2.00000000e-03
34       9.58463000e-05    5.66473378e-01    6.31102817e-02    1.00000000e-03    1.00000000e-03    2.00000000e-03
35       1.02399900e-04    5.99917147e-01    7.13690508e-02    1.00000000e-03    1.00000000e-03    2.00000000e-03
36       1.08953500e-04    6.32343850e-01    8.00244217e-02    1.00000000e-03    1.00000000e-03    2.00000000e-03
37       1.15507100e-04    6.63698511e-01    8.90540247e-02    1.00000000e-03    1.00000000e-03    2.00000000e-03
38       1.22060700e-04    6.93927974e-01    9.84349702e-02    1.00000000e-03    1.00000000e-03    2.00000000e-03
39       1.28614300e-04    7.22980989e-01    1.08143886e-01    1.00000000e-03    1.00000000e-03    2.00000000e-03
40       1.35167900e-04    7.50808301e-01    1.18156953e-01    1.00000000e-03    1.00000000e-03    2.00000000e-03
41       1.41721500e-04    7.77362734e-01    1.28449949e-01    1.00000000e-03    1.00000000e-03    2.00000000e-03
42       1.48275100e-04    8.02599268e-01    1.38998283e-01    1.00000000e-03    1.00000000e-03    2.00000000e-03
43       1.54828700e-04    8.26475120e-01    1.49777038e-01    1.00000000e-03    1.00000000e-03    2.00000000e-03
44       1.61382300e-04    8.48949810e-01    1.60761010e-01    1.00000000e-03    1.00000000e-03    2.00000000e-03
45       1.67935900e-04    8.69985237e-01    1.71924750e-01    1.00000000e-03    1.00000000e-03    2.00000000e-03
46       1.74489500e-04    8.89545739e-01    1.83242608e-01    1.00000000e-03    1.00000000e-03    2.00000000e-03
47       1.81043100e-04    9.07598153e-01    1.94688771e-01    1.00000000e-03    1.00000000e-03    2.00000000e-03
48       1.87596700e-04    9.24111874e-01    2.06237306e-01    1.00000000e-03    1.00000000e-03    2.00000000e-03
49       1.94150300e-04    9.39058907e-01    2.17862206e-01    1.00000000e-03    1.00000000e-03    2.00000000e-03
50       2.00703900e-04    9.52413910e-01    2.29537427e-01    1.00000000e-03    1.00000000e-03    2.00000000e-03
51       2.07257500e-04    9.64154243e-01    2.41236937e-01    1.00000000e-03    1.00000000e-03    2.00000000e-03
52       2.13811100e-04    9.74260001e-01    2.52934755e-01    1.00000000e-03    1.00000000e-03    2.00000000e-03
53       2.20364700e-04    9.82714052e-01    2.64604991e-01    1.00000000e-03    1.00000000e-03    2.00000000e-03
54       2.26918300e-04    9.89502062e-01    2.76221896e-01    1.00000000e-03    1.00000000e-03    2.00000000e-03
55       2.33471900e-04    9.94612525e-01    2.87759899e-01    1.00000000e-03    1.00000000e-03    2.00000000e-03
56       2.40025500e-04    9.98036776e-01    2.99193648e-01    1.00000000e-03    1.00000000e-03    2.00000000e-03
57       2.46579100e-04    9.99769010e-01    3.10498056e-01    1.00000000e-03    1.00000000e-03    2.00000000e-03
58       2.53132700e-04    9.99806289e-01    3.21648340e-01    1.00000000e-03    1.00000000e-03    2.00000000e-03
59       2.59686300e-04    9.98148552e-01    3.32620060e-01    1.00000000e-03    1.00000000e-03    2.00000000e-03
60       2.66239900e-04    9.94798608e-01    3.43389164e-01    1.00000000e-03    1.00000000e-03    2.00000000e-03
61       2.72793500e-04    9.89762136e-01    3.53932022e-01    1.00000000e-03    1.00000000e-03    2.00000000e-03
62       2.79347100e-04    9.83047676e-01    3.64225468e-01    1.00000000e-03    1.00000000e-03    2.00000000e-03
63       2.85900700e-04    9.74666610e-01    3.74246838e-01    1.00000000e-03    1.00000000e-03    2.00000000e-03
64       2.92454300e-04    9.64633148e-01    3.83974007e-01    1.00000000e-03    1.00000000e-03    2.00000000e-03
65       2.99007900e-04    9.52964299e-01    3.93385424e-01    1.00000000e-03    1.00000000e-03    2.00000000e-03
66       3.05561500e-04    9.39679846e-01    4.02460151e-01    1.00000000e-03    1.00000000e-03    2.00000000e-03
67       3.12115100e-04    9.24802311e-01    4.11177891e-01    1.00000000e-03    1.00000000e-03    2.00000000e-03
68       3.18668700e-04    9.08356916e-01    4.19519029e-01    1.00000000e-03    1.00000000e-03    2.00000000e-03
69       3.25222300e-04    8.90371543e-01    4.27464658e-01    1.00000000e-03    1.00000000e-03    2.00000000e-03
70       3.31775900e-04    8.70876682e-01    4.34996614e-01    1.00000000e-03    1.00000000e-03    2.00000000e-03
71       3.38329500e-04    8.49905385e-01    4.42097502e-01    1.00000000e-03    1.00000000e-03    2.00000000e-03
72       3.44883100e-04    8.27493204e-01    4.48750729e-01    1.00000000e-03    1.00000000e-03    2.00000000e-03
73       3.51436700e-04    8.03678136e-01    4.54940527e-01    1.00000000e-03    1.00000000e-03    2.00000000e-03
74       3.57990300e-04    7.78500556e-01    4.60651982e-01    1.00000000e-03    1.00000000e-03    2.00000000e-03
75       3.64543900e-04    7.52003148e-01    4.65871054e-01    1.00000000e-03    1.00000000e-03    2.00000000e-03
76       3.71097500e-04    7.24230836e-01    4.70584605e-01    1.00000000e-03    1.00000000e-03    2.00000000e-03
77       3.77651100e-04    6.95230702e-01    4.74780416e-01    1.00000000e-03    1.00000000e-03    2.00000000e-03
78       3.84204700e-04    6.65051911e-01    4.78447211e-01    1.00000000e-03    1.00000000e-03    2.00000000e-03
79       3.90758300e-04    6.33745628e-01    4.81574671e-01    1.00000000e-03    1.00000000e-03    2.00000000e-03
80       3.97311900e-04    6.01364927e-01    4.84153452e-01    1.00000000e-03    1.00000000e-03    2.00000000e-03
81       4.03865500e-04    5.67964704e-01    4.86175202e-01    1.00000000e-03    1.00000000e-03    2.00000000e-03
82       4.10419100e-04    5.33601585e-01    4.87632571e-01    1.00000000e-03    1.00000000e-03    2.00000000e-03
83       4.16972700e-04    4.98333827e-01    4.88519224e-01    1.00000000e-03    1.00000000e-03    2.00000000e-03
84       4.23526300e-04    4.62221221e-01    4.88829853e-01    1.00000000e-03    1.00000000e-03    2.00000000e-03
85       4.30079900e-04    4.25324991e-01    4.88560181e-01    1.00000000e-03    1.00000000e-03    2.00000000e-03
86       4.43187100e-04    3.49433085e-01    4.86267209e-01    1.00000000e-03    1.00000000e-03    2.00000000e-03
87       4.56294300e-04    2.71172545e-01    4.81628843e-01    1.00000000e-03    1.00000000e-03    2.00000000e-03
88       4.69401500e-04    1.91073859e-01    4.74648458e-01    1.00000000e-03    1.00000000e-03    2.00000000e-03
89       4.82508700e-04    1.09679977e-01    4.65346136e-01    1.00000000e-03    1.00000000e-03    2.00000000e-03
90       4.95615900e-04    2.75426292e-02    4.53758501e-01    1.00000000e-03    1.00000000e-03    2.00000000e-03
91       5.08723100e-04   -5.47814168e-02    4.39938449e-01    1.00000000e-03    1.00000000e-03    2.00000000e-03
92       5.21830300e-04   -1.36734127e-01    4.23954763e-01    1.00000000e-03    1.00000000e-03    2.00000000e-03
93       5.34937500e-04   -2.17759983e-01    4.05891631e-01    1.00000000e-03    1.00000000e-03    2.00000000e-03
94       5.48044700e-04   -2.97309752e-01    3.85848046e-01    1.00000000e-03    1.00000000e-03    2.00000000e-03
95       5.61151900e-04   -3.74844204e-01    3.63937121e-01    1.00000000e-03    1.00000000e-03    2.00000000e-03
96       5.74259100e-04   -4.49837771e-01    3.40285295e-01    1.00000000e-03    1.00000000e-03    2.00000000e-03
97       5.87366300e-04   -5.21782110e-01    3.15031461e-01    1.00000000e-03    1.00000000e-03    2.00000000e-03
98       6.00473500e-04   -5.90189544e-01    2.88326005e-01    1.00000000e-03    1.00000000e-03    2.00000000e-03
99       6.13580700e-04   -6.54596374e-01    2.60329766e-01    1.00000000e-03    1.00000000e-03    2.00000000e-03
100      6.26687900e-04   -7.14566017e-01    2.31212927e-01    1.00000000e-03    1.00000000e-03    2.00000000e-03
101      6.39795100e-04   -7.69691969e-01    2.01153846e-01    1.00000000e-03    1.00000000e-03    2.00000000e-03
102      6.52902300e-04   -8.19600558e-01    1.70337831e-01    1.00000000e-03    1.00000000e-03    2.00000000e-03
103      6.66009500e-04   -8.63953477e-01    1.38955863e-01    1.00000000e-03    1.00000000e-03    2.00000000e-03
104      6.79116700e-04   -9.02450081e-01    1.07203288e-01    1.00000000e-03    1.00000000e-03    2.00000000e-03
105      6.92223900e-04   -9.34829420e-01    7.52784785e-02    1.00000000e-03    1.00000000e-03    2.00000000e-03
106      7.05331100e-04   -9.60872010e-01    4.33814714e-02    1.00000000e-03    1.00000000e-03    2.00000000e-03
107      7.18438300e-04   -9.80401321e-01    1.17125981e-02    1.00000000e-03    1.00000000e-03    2.00000000e-03
108      7.31545500e-04   -9.93284975e-01   -1.95288873e-02    1.00000000e-03    1.00000000e-03    2.00000000e-03
109      7.44652700e-04   -9.99435638e-01   -5.01461729e-02    1.00000000e-03    1.00000000e-03    2.00000000e-03
110      7.57759900e-04   -9.98811618e-01   -7.99462365e-02    1.00000000e-03    1.00000000e-03    2.00000000e-03
111      7.70867100e-04   -9.91417146e-01   -1.08741167e-01    1.00000000e-03    1.00000000e-03    2.00000000e-03
112      7.83974300e-04   -9.77302345e-01   -1.36349450e-01    1.00000000e-03    1.00000000e-03    2.00000000e-03
113      7.97081500e-04   -9.56562892e-01   -1.62597212e-01    1.00000000e-03    1.00000000e-03    2.00000000e-03
114      8.10188700e-04   -9.29339370e-01   -1.87319411e-01    1.00000000e-03    1.00000000e-03    2.00000000e-03
115      8.23295900e-04   -8.95816314e-01   -2.10360963e-01    1.00000000e-03    1.00000000e-03    2.00000000e-03
116      8.36403100e-04   -8.56220959e-01   -2.31577810e-01    1.00000000e-03    1.00000000e-03    2.00000000e-03
117      8.49510300e-04   -8.10821704e-01   -2.50837905e-01    1.00000000e-03    1.00000000e-03    2.00000000e-03
118      8.62617500e-04   -7.59926288e-01   -2.68022116e-01    1.00000000e-03    1.00000000e-03    2.00000000e-03
119      8.75724700e-04   -7.03879705e-01   -2.83025045e-01    1.00000000e-03    1.00000000e-03    2.00000000e-03
120      8.88831900e-04   -6.43061867e-01   -2.95755753e-01    1.00000000e-03    1.00000000e-03    2.00000000e-03
121      9.01939100e-04   -5.77885030e-01   -3.06138387e-01    1.00000000e-03    1.00000000e-03    2.00000000e-03
122      9.15046300e-04   -5.08790994e-01   -3.14112701e-01    1.00000000e-03    1.00000000e-03    2.00000000e-03
123      9.28153500e-04   -4.36248115e-01   -3.19634475e-01    1.00000000e-03    1.00000000e-03    2.00000000e-03
124      9.41260700e-04   -3.60748124e-01   -3.22675823e-01    1.00000000e-03    1.00000000e-03    2.00000000e-03
125      9.54367900e-04   -2.82802799e-01   -3.23225391e-01    1.00000000e-03    1.00000000e-03    2.00000000e-03
126      9.67475100e-04   -2.02940494e-01   -3.21288442e-01    1.00000000e-03    1.00000000e-03    2.00000000e-03
127      9.80582300e-04   -1.21702554e-01   -3.16886830e-01    1.00000000e-03    1.00000000e-03    2.00000000e-03
128      9.93689500e-04   -3.96396526e-02   -3.10058856e-01    1.00000000e-03    1.00000000e-03    2.00000000e-03
129      1.00000000e-03   -2.44929360e-16   -3.05919642e-01    1.00000000e-03    1.00000000e-03    2.00000000e-03
0        0.00000000e+00    0.00000000e+00    0.00000000e+00    2.00000000e-03    2.00000000e-03    4.00000000e-03
1        1.00000000e-10    6.28318531e-07    1.07711724e-13    2.00000000e-03    2.00000000e-03    4.00000000e-03
2        3.00000000e-10    1.88495559e-06    7.53981868e-13    2.00000000e-03    2.00000000e-03    4.00000000e-03
3        7.00000000e-10    4.39822972e-06    2.90821516e-12    2.00000000e-03    2.00000000e-03    4.00000000e-03
4        1.50000000e-09    9.42477796e-06    1.23868350e-11    2.00000000e-03    2.00000000e-03    4.00000000e-03
5        3.10000000e-09    1.94778745e-05    5.20246405e-11    2.00000000e-03    2.00000000e-03    4.00000000e-03
6        6.30000000e-09    3.95840674e-05    2.14022137e-10    2.00000000e-03    2.00000000e-03    4.00000000e-03
7        1.27000000e-08    7.97964533e-05    8.68901644e-10    2.00000000e-03    2.00000000e-03    4.00000000e-03
8        2.55000000e-08    1.60221225e-04    3.50217451e-09    2.00000000e-03    2.00000000e-03    4.00000000e-03
9        5.11000000e-08    3.21070764e-04    1.40625820e-08    2.00000000e-03    2.00000000e-03    4.00000000e-03
10       1.02300000e-07    6.42769813e-04    5.63572935e-08    2.00000000e-03    2.00000000e-03    4.00000000e-03
11       2.04700000e-07    1.28616768e-03    2.25629892e-07    2.00000000e-03    2.00000000e-03    4.00000000e-03
12       4.09500000e-07    2.57296154e-03    9.02808343e-07    2.00000000e-03    2.00000000e-03    4.00000000e-03
13       8.19100000e-07    5.14653437e-03    3.61090015e-06    2.00000000e-03    2.00000000e-03    4.00000000e-03
14       1.63830000e-06    1.02935607e-02    1.44355981e-05    2.00000000e-03    2.00000000e-03    4.00000000e-03
15       3.27670000e-06    2.05866589e-02    5.76670049e-05    2.00000000e-03    2.00000000e-03    4.00000000e-03
16       4.91510000e-06    3.08775754e-02    1.29589804e-04    2.00000000e-03    2.00000000e-03    4.00000000e-03
17       6.55350000e-06    4.11652198e-02    2.30089106e-04    2.00000000e-03    2.00000000e-03    4.00000000e-03
18       9.83030000e-06    6.17263315e-02    5.16284033e-04    2.00000000e-03    2.00000000e-03    4.00000000e-03
19       1.31071000e-05    8.22612786e-02    9.15338672e-04    2.00000000e-03    2.00000000e-03    4.00000000e-03
20       1.63839000e-05    1.02761357e-01    1.42624009e-03    2.00000000e-03    2.00000000e-03    4.00000000e-03
21       2.29375000e-05    1.43622166e-01    2.77877302e-03    2.00000000e-03    2.00000000e-03    4.00000000e-03
22       2.94911000e-05    1.84239486e-01    4.56548645e-03    2.00000000e-03    2.00000000e-03    4.00000000e-03
23       3.60447000e-05    2.24544456e-01    6.77682572e-03    2.00000000e-03    2.00000000e-03    4.00000000e-03
24       4.25983000e-05    2.64468746e-01    9.40261328e-03    2.00000000e-03    2.00000000e-03    4.00000000e-03
25       4.91519000e-05    3.03944670e-01    1.24320646e-02    2.00000000e-03    2.00000000e-03    4.00000000e-03
26       5.57055000e-05    3.42905303e-01    1.58538048e-02    2.00000000e-03    2.00000000e-03    4.00000000e-03
27       6.22591000e-05    3.81284593e-01    1.96558869e-02    2.00000000e-03    2.00000000e-03    4.00000000e-03
28       6.88127000e-05    4.19017473e-01    2.38258104e-02    2.00000000e-03    2.00000000e-03    4.00000000e-03
29       7.53663000e-05    4.56039974e-01    2.83505412e-02    2.00000000e-03    2.00000000e-03    4.00000000e-03
30       8.19199000e-05    4.92289330e-01    3.32165323e-02    2.00000000e-03    2.00000000e-03    4.00000000e-03
31       8.84735000e-05    5.27704086e-01    3.84097457e-02    2.00000000e-03    2.00000000e-03    4.00000000e-03
32       9.50271000e-05    5.62224200e-01    4.39156744e-02    2.00000000e-03    2.00000000e-03    4.00000000e-03
33       1.01580700e-04    5.95791151e-01    4.97193663e-02    2.00000000e-03    2.00000000e-03    4.00000000e-03
34       1.08134300e-04    6.28348029e-01    5.58054480e-02    2.00000000e-03    2.00000000e-03    4.00000000e-03
35       1.14687900e-04    6.59839640e-01    6.21581495e-02    2.00000000e-03    2.00000000e-03    4.00000000e-03
36       1.21241500e-04    6.90212596e-01    6.87613299e-02    2.00000000e-03    2.00000000e-03    4.00000000e-03
37       1.27795100e-04    7.19415402e-01    7.55985035e-02    2.00000000e-03    2.00000000e-03    4.00000000e-03
38       1.34348700e-04    7.47398550e-01    8.26528667e-02    2.00000000e-03    2.00000000e-03    4.00000000e-03
39       1.40902300e-04    7.74114600e-01    8.99073249e-02    2.00000000e-03    2.00000000e-03    4.00000000e-03
40       1.47455900e-04    7.99518258e-01    9.73445210e-02    2.00000000e-03    2.00000000e-03    4.00000000e-03
41       1.54009500e-04    8.23566457e-01    1.04946863e-01    2.00000000e-03    2.00000000e-03    4.00000000e-03
42       1.60563100e-04    8.46218425e-01    1.12696553e-01    2.00000000e-03    2.00000000e-03    4.00000000e-03
43       1.67116700e-04    8.67435761e-01    1.20575616e-01    2.00000000e-03    2.00000000e-03    4.00000000e-03
