Index       TIME              V(1)              V(2)              L1:L             {L1:L}          {R1:R*L1:L}   
0        0.00000000e+00    0.00000000e+00    0.00000000e+00    1.00000000e+02    1.00000000e+02    2.00000000e+02
1        1.00000000e-10    6.28318531e-07    6.28318531e-07    1.00000000e+02    1.00000000e+02    2.00000000e+02
2        3.00000000e-10    1.88495559e-06    1.88495559e-06    1.00000000e+02    1.00000000e+02    2.00000000e+02
3        7.00000000e-10    4.39822972e-06    4.39822972e-06    1.00000000e+02    1.00000000e+02    2.00000000e+02
4        1.50000000e-09    9.42477796e-06    9.42477796e-06    1.00000000e+02    1.00000000e+02    2.00000000e+02
5        3.10000000e-09    1.94778745e-05    1.94778745e-05    1.00000000e+02    1.00000000e+02    2.00000000e+02
6        6.30000000e-09    3.95840674e-05    3.95840674e-05    1.00000000e+02    1.00000000e+02    2.00000000e+02
7        1.27000000e-08    7.97964533e-05    7.97964533e-05    1.00000000e+02    1.00000000e+02    2.00000000e+02
8        2.55000000e-08    1.60221225e-04    1.60221225e-04    1.00000000e+02    1.00000000e+02    2.00000000e+02
9        5.11000000e-08    3.21070764e-04    3.21070764e-04    1.00000000e+02    1.00000000e+02    2.00000000e+02
10       1.02300000e-07    6.42769813e-04    6.42769813e-04    1.00000000e+02    1.00000000e+02    2.00000000e+02
11       2.04700000e-07    1.28616768e-03    1.28616768e-03    1.00000000e+02    1.00000000e+02    2.00000000e+02
12       3.07100000e-07    1.92956501e-03    1.92956501e-03    1.00000000e+02    1.00000000e+02    2.00000000e+02
13       4.09500000e-07    2.57296154e-03    2.57296154e-03    1.00000000e+02    1.00000000e+02    2.00000000e+02
14       6.14300000e-07    3.85975115e-03    3.85975115e-03    1.00000000e+02    1.00000000e+02    2.00000000e+02
15       1.02390000e-06    6.43330906e-03    6.43330906e-03    1.00000000e+02    1.00000000e+02    2.00000000e+02
16       1.43350000e-06    9.00682436e-03    9.00682436e-03    1.00000000e+02    1.00000000e+02    2.00000000e+02
17       1.84310000e-06    1.15802800e-02    1.15802800e-02    1.00000000e+02    1.00000000e+02    2.00000000e+02
18       2.66230000e-06    1.67269441e-02    1.67269441e-02    1.00000000e+02    1.00000000e+02    2.00000000e+02
19       4.30070000e-06    2.70188066e-02    2.70188066e-02    1.00000000e+02    1.00000000e+02    2.00000000e+02
20       7.57750000e-06    4.75928514e-02    4.75928514e-02    1.00000000e+02    1.00000000e+02    2.00000000e+02
21       1.08543000e-05    6.81467225e-02    6.81467225e-02    1.00000000e+02    1.00000000e+02    2.00000000e+02
22       1.74079000e-05    1.09159106e-01    1.09159106e-01    1.00000000e+02    1.00000000e+02    2.00000000e+02
23       2.39615000e-05    1.49986427e-01    1.49986427e-01    1.00000000e+02    1.00000000e+02    2.00000000e+02
24       3.05151000e-05    1.90559470e-01    1.90559470e-01    1.00000000e+02    1.00000000e+02    2.00000000e+02
25       3.70687000e-05    2.30809448e-01    2.30809448e-01    1.00000000e+02    1.00000000e+02    2.00000000e+02
26       4.36223000e-05    2.70668124e-01    2.70668124e-01    1.00000000e+02    1.00000000e+02    2.00000000e+02
27       5.01759000e-05    3.10067925e-01    3.10067925e-01    1.00000000e+02    1.00000000e+02    2.00000000e+02
28       5.67295000e-05    3.48942053e-01    3.48942053e-01    1.00000000e+02    1.00000000e+02    2.00000000e+02
29       6.32831000e-05    3.87224604e-01    3.87224604e-01    1.00000000e+02    1.00000000e+02    2.00000000e+02
30       6.98367000e-05    4.24850675e-01    4.24850675e-01    1.00000000e+02    1.00000000e+02    2.00000000e+02
31       7.63903000e-05    4.61756478e-01    4.61756478e-01    1.00000000e+02    1.00000000e+02    2.00000000e+02
32       8.29439000e-05    4.97879444e-01    4.97879444e-01    1.00000000e+02    1.00000000e+02    2.00000000e+02
33       8.94975000e-05    5.33158332e-01    5.33158332e-01    1.00000000e+02    1.00000000e+02    2.00000000e+02
34       9.60511000e-05    5.67533332e-01    5.67533332e-01    1.00000000e+02    1.00000000e+02    2.00000000e+02
35       1.02604700e-04    6.00946168e-01    6.00946168e-01    1.00000000e+02    1.00000000e+02    2.00000000e+02
36       1.09158300e-04    6.33340192e-01    6.33340192e-01    1.00000000e+02    1.00000000e+02    2.00000000e+02
37       1.15711900e-04    6.64660485e-01    6.64660485e-01    1.00000000e+02    1.00000000e+02    2.00000000e+02
38       1.22265500e-04    6.94853949e-01    6.94853949e-01    1.00000000e+02    1.00000000e+02    2.00000000e+02
39       1.28819100e-04    7.23869396e-01    7.23869396e-01    1.00000000e+02    1.00000000e+02    2.00000000e+02
40       1.35372700e-04    7.51657634e-01    7.51657634e-01    1.00000000e+02    1.00000000e+02    2.00000000e+02
41       1.41926300e-04    7.78171553e-01    7.78171553e-01    1.00000000e+02    1.00000000e+02    2.00000000e+02
42       1.48479900e-04    8.03366201e-01    8.03366201e-01    1.00000000e+02    1.00000000e+02    2.00000000e+02
43       1.55033500e-04    8.27198867e-01    8.27198867e-01    1.00000000e+02    1.00000000e+02    2.00000000e+02
44       1.61587100e-04    8.49629145e-01    8.49629145e-01    1.00000000e+02    1.00000000e+02    2.00000000e+02
45       1.68140700e-04    8.70619007e-01    8.70619007e-01    1.00000000e+02    1.00000000e+02    2.00000000e+02
46       1.74694300e-04    8.90132870e-01    8.90132870e-01    1.00000000e+02    1.00000000e+02    2.00000000e+02
47       1.81247900e-04    9.08137650e-01    9.08137650e-01    1.00000000e+02    1.00000000e+02    2.00000000e+02
48       1.87801500e-04    9.24602822e-01    9.24602822e-01    1.00000000e+02    1.00000000e+02    2.00000000e+02
49       1.94355100e-04    9.39500474e-01    9.39500474e-01    1.00000000e+02    1.00000000e+02    2.00000000e+02
50       2.00908700e-04    9.52805347e-01    9.52805347e-01    1.00000000e+02    1.00000000e+02    2.00000000e+02
51       2.07462300e-04    9.64494886e-01    9.64494886e-01    1.00000000e+02    1.00000000e+02    2.00000000e+02
52       2.14015900e-04    9.74549273e-01    9.74549273e-01    1.00000000e+02    1.00000000e+02    2.00000000e+02
53       2.20569500e-04    9.82951462e-01    9.82951462e-01    1.00000000e+02    1.00000000e+02    2.00000000e+02
54       2.27123100e-04    9.89687209e-01    9.89687209e-01    1.00000000e+02    1.00000000e+02    2.00000000e+02
55       2.33676700e-04    9.94745094e-01    9.94745094e-01    1.00000000e+02    1.00000000e+02    2.00000000e+02
56       2.40230300e-04    9.98116543e-01    9.98116543e-01    1.00000000e+02    1.00000000e+02    2.00000000e+02
57       2.46783900e-04    9.99795838e-01    9.99795838e-01    1.00000000e+02    1.00000000e+02    2.00000000e+02
58       2.53337500e-04    9.99780135e-01    9.99780135e-01    1.00000000e+02    1.00000000e+02    2.00000000e+02
59       2.59891100e-04    9.98069459e-01    9.98069459e-01    1.00000000e+02    1.00000000e+02    2.00000000e+02
60       2.66444700e-04    9.94666710e-01    9.94666710e-01    1.00000000e+02    1.00000000e+02    2.00000000e+02
61       2.72998300e-04    9.89577657e-01    9.89577657e-01    1.00000000e+02    1.00000000e+02    2.00000000e+02
62       2.79551900e-04    9.82810928e-01    9.82810928e-01    1.00000000e+02    1.00000000e+02    2.00000000e+02
63       2.86105500e-04    9.74377995e-01    9.74377995e-01    1.00000000e+02    1.00000000e+02    2.00000000e+02
64       2.92659100e-04    9.64293155e-01    9.64293155e-01    1.00000000e+02    1.00000000e+02    2.00000000e+02
65       2.99212700e-04    9.52573504e-01    9.52573504e-01    1.00000000e+02    1.00000000e+02    2.00000000e+02
66       3.05766300e-04    9.39238912e-01    9.39238912e-01    1.00000000e+02    1.00000000e+02    2.00000000e+02
67       3.12319900e-04    9.24311986e-01    9.24311986e-01    1.00000000e+02    1.00000000e+02    2.00000000e+02
68       3.18873500e-04    9.07818032e-01    9.07818032e-01    1.00000000e+02    1.00000000e+02    2.00000000e+02
69       3.25427100e-04    8.89785012e-01    8.89785012e-01    1.00000000e+02    1.00000000e+02    2.00000000e+02
70       3.31980700e-04    8.70243499e-01    8.70243499e-01    1.00000000e+02    1.00000000e+02    2.00000000e+02
71       3.38534300e-04    8.49226623e-01    8.49226623e-01    1.00000000e+02    1.00000000e+02    2.00000000e+02
72       3.45087900e-04    8.26770014e-01    8.26770014e-01    1.00000000e+02    1.00000000e+02    2.00000000e+02
73       3.51641500e-04    8.02911744e-01    8.02911744e-01    1.00000000e+02    1.00000000e+02    2.00000000e+02
74       3.58195100e-04    7.77692262e-01    7.77692262e-01    1.00000000e+02    1.00000000e+02    2.00000000e+02
75       3.64748700e-04    7.51154322e-01    7.51154322e-01    1.00000000e+02    1.00000000e+02    2.00000000e+02
76       3.71302300e-04    7.23342916e-01    7.23342916e-01    1.00000000e+02    1.00000000e+02    2.00000000e+02
77       3.77855900e-04    6.94305194e-01    6.94305194e-01    1.00000000e+02    1.00000000e+02    2.00000000e+02
78       3.84409500e-04    6.64090385e-01    6.64090385e-01    1.00000000e+02    1.00000000e+02    2.00000000e+02
79       3.90963100e-04    6.32749713e-01    6.32749713e-01    1.00000000e+02    1.00000000e+02    2.00000000e+02
80       3.97516700e-04    6.00336312e-01    6.00336312e-01    1.00000000e+02    1.00000000e+02    2.00000000e+02
81       4.04070300e-04    5.66905133e-01    5.66905133e-01    1.00000000e+02    1.00000000e+02    2.00000000e+02
82       4.10623900e-04    5.32512854e-01    5.32512854e-01    1.00000000e+02    1.00000000e+02    2.00000000e+02
83       4.17177500e-04    4.97217782e-01    4.97217782e-01    1.00000000e+02    1.00000000e+02    2.00000000e+02
84       4.23731100e-04    4.61079754e-01    4.61079754e-01    1.00000000e+02    1.00000000e+02    2.00000000e+02
85       4.30284700e-04    4.24160036e-01    4.24160036e-01    1.00000000e+02    1.00000000e+02    2.00000000e+02
86       4.36838300e-04    3.86521220e-01    3.86521220e-01    1.00000000e+02    1.00000000e+02    2.00000000e+02
87       4.43391900e-04    3.48227118e-01    3.48227118e-01    1.00000000e+02    1.00000000e+02    2.00000000e+02
88       4.49945500e-04    3.09342650e-01    3.09342650e-01    1.00000000e+02    1.00000000e+02    2.00000000e+02
89       4.56499100e-04    2.69933739e-01    2.69933739e-01    1.00000000e+02    1.00000000e+02    2.00000000e+02
90       4.63052700e-04    2.30067198e-01    2.30067198e-01    1.00000000e+02    1.00000000e+02    2.00000000e+02
91       4.69606300e-04    1.89810613e-01    1.89810613e-01    1.00000000e+02    1.00000000e+02    2.00000000e+02
92       4.76159900e-04    1.49232234e-01    1.49232234e-01    1.00000000e+02    1.00000000e+02    2.00000000e+02
93       4.82713500e-04    1.08400854e-01    1.08400854e-01    1.00000000e+02    1.00000000e+02    2.00000000e+02
94       4.95820700e-04    2.62562986e-02    2.62562986e-02    1.00000000e+02    1.00000000e+02    2.00000000e+02
95       5.00117216e-04   -7.36488061e-04   -7.36488061e-04    1.00000000e+02    1.00000000e+02    2.00000000e+02
96       5.04413731e-04   -2.77287380e-02   -2.77287380e-02    1.00000000e+02    1.00000000e+02    2.00000000e+02
97       5.13006763e-04   -8.16329624e-02   -8.16329624e-02    1.00000000e+02    1.00000000e+02    2.00000000e+02
98       5.21599794e-04   -1.35299277e-01   -1.35299277e-01    1.00000000e+02    1.00000000e+02    2.00000000e+02
99       5.30192826e-04   -1.88571277e-01   -1.88571277e-01    1.00000000e+02    1.00000000e+02    2.00000000e+02
100      5.38785857e-04   -2.41293708e-01   -2.41293708e-01    1.00000000e+02    1.00000000e+02    2.00000000e+02
101      5.47378889e-04   -2.93312915e-01   -2.93312915e-01    1.00000000e+02    1.00000000e+02    2.00000000e+02
102      5.55971920e-04   -3.44477296e-01   -3.44477296e-01    1.00000000e+02    1.00000000e+02    2.00000000e+02
103      5.64564952e-04   -3.94637737e-01   -3.94637737e-01    1.00000000e+02    1.00000000e+02    2.00000000e+02
104      5.73157983e-04   -4.43648052e-01   -4.43648052e-01    1.00000000e+02    1.00000000e+02    2.00000000e+02
105      5.81751015e-04   -4.91365405e-01   -4.91365405e-01    1.00000000e+02    1.00000000e+02    2.00000000e+02
106      5.90344046e-04   -5.37650729e-01   -5.37650729e-01    1.00000000e+02    1.00000000e+02    2.00000000e+02
107      5.98937077e-04   -5.82369132e-01   -5.82369132e-01    1.00000000e+02    1.00000000e+02    2.00000000e+02
108      6.07530109e-04   -6.25390287e-01   -6.25390287e-01    1.00000000e+02    1.00000000e+02    2.00000000e+02
109      6.16123140e-04   -6.66588813e-01   -6.66588813e-01    1.00000000e+02    1.00000000e+02    2.00000000e+02
110      6.24716172e-04   -7.05844642e-01   -7.05844642e-01    1.00000000e+02    1.00000000e+02    2.00000000e+02
111      6.33309203e-04   -7.43043367e-01   -7.43043367e-01    1.00000000e+02    1.00000000e+02    2.00000000e+02
112      6.41902235e-04   -7.78076578e-01   -7.78076578e-01    1.00000000e+02    1.00000000e+02    2.00000000e+02
113      6.50495266e-04   -8.10842173e-01   -8.10842173e-01    1.00000000e+02    1.00000000e+02    2.00000000e+02
114      6.59088298e-04   -8.41244662e-01   -8.41244662e-01    1.00000000e+02    1.00000000e+02    2.00000000e+02
115      6.67681329e-04   -8.69195438e-01   -8.69195438e-01    1.00000000e+02    1.00000000e+02    2.00000000e+02
116      6.76274360e-04   -8.94613045e-01   -8.94613045e-01    1.00000000e+02    1.00000000e+02    2.00000000e+02
117      6.84867392e-04   -9.17423403e-01   -9.17423403e-01    1.00000000e+02    1.00000000e+02    2.00000000e+02
118      6.93460423e-04   -9.37560036e-01   -9.37560036e-01    1.00000000e+02    1.00000000e+02    2.00000000e+02
119      7.02053455e-04   -9.54964257e-01   -9.54964257e-01    1.00000000e+02    1.00000000e+02    2.00000000e+02
120      7.10646486e-04   -9.69585344e-01   -9.69585344e-01    1.00000000e+02    1.00000000e+02    2.00000000e+02
121      7.19239518e-04   -9.81380686e-01   -9.81380686e-01    1.00000000e+02    1.00000000e+02    2.00000000e+02
122      7.27832549e-04   -9.90315905e-01   -9.90315905e-01    1.00000000e+02    1.00000000e+02    2.00000000e+02
123      7.36425581e-04   -9.96364962e-01   -9.96364962e-01    1.00000000e+02    1.00000000e+02    2.00000000e+02
124      7.45018612e-04   -9.99510227e-01   -9.99510227e-01    1.00000000e+02    1.00000000e+02    2.00000000e+02
125      7.53611644e-04   -9.99742533e-01   -9.99742533e-01    1.00000000e+02    1.00000000e+02    2.00000000e+02
126      7.62204675e-04   -9.97061205e-01   -9.97061205e-01    1.00000000e+02    1.00000000e+02    2.00000000e+02
127      7.70797706e-04   -9.91474055e-01   -9.91474055e-01    1.00000000e+02    1.00000000e+02    2.00000000e+02
128      7.79390738e-04   -9.82997367e-01   -9.82997367e-01    1.00000000e+02    1.00000000e+02    2.00000000e+02
129      7.87983769e-04   -9.71655846e-01   -9.71655846e-01    1.00000000e+02    1.00000000e+02    2.00000000e+02
130      7.96576801e-04   -9.57482545e-01   -9.57482545e-01    1.00000000e+02    1.00000000e+02    2.00000000e+02
131      8.05169832e-04   -9.40518770e-01   -9.40518770e-01    1.00000000e+02    1.00000000e+02    2.00000000e+02
132      8.13762864e-04   -9.20813961e-01   -9.20813961e-01    1.00000000e+02    1.00000000e+02    2.00000000e+02
133      8.22355895e-04   -8.98425545e-01   -8.98425545e-01    1.00000000e+02    1.00000000e+02    2.00000000e+02
134      8.30948927e-04   -8.73418770e-01   -8.73418770e-01    1.00000000e+02    1.00000000e+02    2.00000000e+02
135      8.39541958e-04   -8.45866516e-01   -8.45866516e-01    1.00000000e+02    1.00000000e+02    2.00000000e+02
136      8.47275686e-04   -8.18959319e-01   -8.18959319e-01    1.00000000e+02    1.00000000e+02    2.00000000e+02
137      8.54236042e-04   -7.93087908e-01   -7.93087908e-01    1.00000000e+02    1.00000000e+02    2.00000000e+02
138      8.61196397e-04   -7.65699883e-01   -7.65699883e-01    1.00000000e+02    1.00000000e+02    2.00000000e+02
139      8.68156753e-04   -7.36847620e-01   -7.36847620e-01    1.00000000e+02    1.00000000e+02    2.00000000e+02
140      8.75117108e-04   -7.06586291e-01   -7.06586291e-01    1.00000000e+02    1.00000000e+02    2.00000000e+02
141      8.82077464e-04   -6.74973766e-01   -6.74973766e-01    1.00000000e+02    1.00000000e+02    2.00000000e+02
142      8.89037819e-04   -6.42070497e-01   -6.42070497e-01    1.00000000e+02    1.00000000e+02    2.00000000e+02
143      8.95998175e-04   -6.07939404e-01   -6.07939404e-01    1.00000000e+02    1.00000000e+02    2.00000000e+02
144      9.02958530e-04   -5.72645755e-01   -5.72645755e-01    1.00000000e+02    1.00000000e+02    2.00000000e+02
145      9.09918886e-04   -5.36257042e-01   -5.36257042e-01    1.00000000e+02    1.00000000e+02    2.00000000e+02
146      9.16879241e-04   -4.98842852e-01   -4.98842852e-01    1.00000000e+02    1.00000000e+02    2.00000000e+02
147      9.23839597e-04   -4.60474730e-01   -4.60474730e-01    1.00000000e+02    1.00000000e+02    2.00000000e+02
148      9.30799952e-04   -4.21226048e-01   -4.21226048e-01    1.00000000e+02    1.00000000e+02    2.00000000e+02
149      9.37760308e-04   -3.81171860e-01   -3.81171860e-01    1.00000000e+02    1.00000000e+02    2.00000000e+02
150      9.44720663e-04   -3.40388762e-01   -3.40388762e-01    1.00000000e+02    1.00000000e+02    2.00000000e+02
151      9.51681019e-04   -2.98954742e-01   -2.98954742e-01    1.00000000e+02    1.00000000e+02    2.00000000e+02
152      9.58641374e-04   -2.56949035e-01   -2.56949035e-01    1.00000000e+02    1.00000000e+02    2.00000000e+02
153      9.65601729e-04   -2.14451967e-01   -2.14451967e-01    1.00000000e+02    1.00000000e+02    2.00000000e+02
154      9.72562085e-04   -1.71544805e-01   -1.71544805e-01    1.00000000e+02    1.00000000e+02    2.00000000e+02
155      9.79522440e-04   -1.28309600e-01   -1.28309600e-01    1.00000000e+02    1.00000000e+02    2.00000000e+02
156      9.86482796e-04   -8.48290295e-02   -8.48290295e-02    1.00000000e+02    1.00000000e+02    2.00000000e+02
157      9.93443151e-04   -4.11862419e-02   -4.11862419e-02    1.00000000e+02    1.00000000e+02    2.00000000e+02
158      1.00000000e-03   -2.44929318e-16   -1.02300468e-15    1.00000000e+02    1.00000000e+02    2.00000000e+02
0        0.00000000e+00    0.00000000e+00    0.00000000e+00    2.00000000e+02    2.00000000e+02    4.00000000e+02
1        1.00000000e-10    6.28318531e-07    3.14159265e-07    2.00000000e+02    2.00000000e+02    4.00000000e+02
2        3.00000000e-10    1.88495559e-06    9.42477796e-07    2.00000000e+02    2.00000000e+02    4.00000000e+02
3        7.00000000e-10    4.39822972e-06    2.19911486e-06    2.00000000e+02    2.00000000e+02    4.00000000e+02
4        1.50000000e-09    9.42477796e-06    4.71238898e-06    2.00000000e+02    2.00000000e+02    4.00000000e+02
5        3.10000000e-09    1.94778745e-05    9.73893723e-06    2.00000000e+02    2.00000000e+02    4.00000000e+02
6        6.30000000e-09    3.95840674e-05    1.97920337e-05    2.00000000e+02    2.00000000e+02    4.00000000e+02
7        1.27000000e-08    7.97964533e-05    3.98982267e-05    2.00000000e+02    2.00000000e+02    4.00000000e+02
8        2.55000000e-08    1.60221225e-04    8.01106123e-05    2.00000000e+02    2.00000000e+02    4.00000000e+02
9        5.11000000e-08    3.21070764e-04    1.60535382e-04    2.00000000e+02    2.00000000e+02    4.00000000e+02
10       1.02300000e-07    6.42769813e-04    3.21384906e-04    2.00000000e+02    2.00000000e+02    4.00000000e+02
11       2.04700000e-07    1.28616768e-03    6.43083839e-04    2.00000000e+02    2.00000000e+02    4.00000000e+02
12       4.09500000e-07    2.57296154e-03    1.28648077e-03    2.00000000e+02    2.00000000e+02    4.00000000e+02
13       8.19100000e-07    5.14653437e-03    2.57326718e-03    2.00000000e+02    2.00000000e+02    4.00000000e+02
14       1.22870000e-06    7.72007310e-03    3.86003655e-03    2.00000000e+02    2.00000000e+02    4.00000000e+02
