Index       TIME              V(1)              V(2)              L1:L             {L1:L}          {R1:R*L1:L}   
0        0.00000000e+00    0.00000000e+00    0.00000000e+00    1.00000000e-03    1.00000000e-03    2.00000000e-03
1        1.00000000e-10    6.28318531e-07    1.25663706e-06    1.00000000e-03    1.00000000e-03    2.00000000e-03
2        3.00000000e-10    1.88495559e-06    3.76991118e-06    1.00000000e-03    1.00000000e-03    2.00000000e-03
3        5.00000000e-10    3.14159265e-06    6.28318531e-06    1.00000000e-03    1.00000000e-03    2.00000000e-03
4        9.00000000e-10    5.65486678e-06    1.13097336e-05    1.00000000e-03    1.00000000e-03    2.00000000e-03
5        1.70000000e-09    1.06814150e-05    2.13628300e-05    1.00000000e-03    1.00000000e-03    2.00000000e-03
6        3.30000000e-09    2.07345115e-05    4.14690230e-05    1.00000000e-03    1.00000000e-03    2.00000000e-03
7        4.90000000e-09    3.07876080e-05    6.15752160e-05    1.00000000e-03    1.00000000e-03    2.00000000e-03
8        8.10000000e-09    5.08938010e-05    1.01787602e-04    1.00000000e-03    1.00000000e-03    2.00000000e-03
9        1.13000000e-08    7.09999939e-05    1.41999988e-04    1.00000000e-03    1.00000000e-03    2.00000000e-03
10       1.45000000e-08    9.11061868e-05    1.82212374e-04    1.00000000e-03    1.00000000e-03    2.00000000e-03
11       1.77000000e-08    1.11212380e-04    2.22424759e-04    1.00000000e-03    1.00000000e-03    2.00000000e-03
12       2.09000000e-08    1.31318573e-04    2.62637145e-04    1.00000000e-03    1.00000000e-03    2.00000000e-03
13       2.41000000e-08    1.51424765e-04    3.02849531e-04    1.00000000e-03    1.00000000e-03    2.00000000e-03
14       2.73000000e-08    1.71530958e-04    3.43061916e-04    1.00000000e-03    1.00000000e-03    2.00000000e-03
15       3.05000000e-08    1.91637151e-04    3.83274301e-04    1.00000000e-03    1.00000000e-03    2.00000000e-03
16       3.37000000e-08    2.11743343e-04    4.23486687e-04    1.00000000e-03    1.00000000e-03    2.00000000e-03
17       3.69000000e-08    2.31849536e-04    4.63699072e-04    1.00000000e-03    1.00000000e-03    2.00000000e-03
18       4.01000000e-08    2.51955728e-04    5.03911456e-04    1.00000000e-03    1.00000000e-03    2.00000000e-03
19       4.65000000e-08    2.92168113e-04    5.84336225e-04    1.00000000e-03    1.00000000e-03    2.00000000e-03
20       5.29000000e-08    3.32380497e-04    6.64760993e-04    1.00000000e-03    1.00000000e-03    2.00000000e-03
21       5.93000000e-08    3.72592880e-04    7.45185760e-04    1.00000000e-03    1.00000000e-03    2.00000000e-03
22       6.57000000e-08    4.12805263e-04    8.25610526e-04    1.00000000e-03    1.00000000e-03    2.00000000e-03
23       7.21000000e-08    4.53017645e-04    9.06035290e-04    1.00000000e-03    1.00000000e-03    2.00000000e-03
24       7.85000000e-08    4.93230027e-04    9.86460053e-04    1.00000000e-03    1.00000000e-03    2.00000000e-03
25       8.49000000e-08    5.33442407e-04    1.06688481e-03    1.00000000e-03    1.00000000e-03    2.00000000e-03
26       9.13000000e-08    5.73654787e-04    1.14730957e-03    1.00000000e-03    1.00000000e-03    2.00000000e-03
27       1.04100000e-07    6.54079544e-04    1.30815909e-03    1.00000000e-03    1.00000000e-03    2.00000000e-03
28       1.16900000e-07    7.34504296e-04    1.46900859e-03    1.00000000e-03    1.00000000e-03    2.00000000e-03
29       1.29700000e-07    8.14929044e-04    1.62985809e-03    1.00000000e-03    1.00000000e-03    2.00000000e-03
30       1.55300000e-07    9.75778523e-04    1.95155705e-03    1.00000000e-03    1.00000000e-03    2.00000000e-03
31       1.80900000e-07    1.13662798e-03    2.27325595e-03    1.00000000e-03    1.00000000e-03    2.00000000e-03
32       2.06500000e-07    1.29747740e-03    2.59495480e-03    1.00000000e-03    1.00000000e-03    2.00000000e-03
33       2.32100000e-07    1.45832679e-03    2.91665359e-03    1.00000000e-03    1.00000000e-03    2.00000000e-03
34       2.57700000e-07    1.61917615e-03    3.23835229e-03    1.00000000e-03    1.00000000e-03    2.00000000e-03
35       2.83300000e-07    1.78002546e-03    3.56005092e-03    1.00000000e-03    1.00000000e-03    2.00000000e-03
36       3.08900000e-07    1.94087472e-03    3.88174945e-03    1.00000000e-03    1.00000000e-03    2.00000000e-03
37       3.31940000e-07    2.08563902e-03    4.17127804e-03    1.00000000e-03    1.00000000e-03    2.00000000e-03
38       3.52676000e-07    2.21592685e-03    4.43185370e-03    1.00000000e-03    1.00000000e-03    2.00000000e-03
39       3.71338400e-07    2.33318586e-03    4.66637172e-03    1.00000000e-03    1.00000000e-03    2.00000000e-03
40       3.88134560e-07    2.43871895e-03    4.87743789e-03    1.00000000e-03    1.00000000e-03    2.00000000e-03
41       4.04930720e-07    2.54425201e-03    5.08850401e-03    1.00000000e-03    1.00000000e-03    2.00000000e-03
42       4.20047264e-07    2.63923173e-03    5.27846347e-03    1.00000000e-03    1.00000000e-03    2.00000000e-03
43       4.33652154e-07    2.72471347e-03    5.44942694e-03    1.00000000e-03    1.00000000e-03    2.00000000e-03
44       4.45896554e-07    2.80164701e-03    5.60329403e-03    1.00000000e-03    1.00000000e-03    2.00000000e-03
45       4.56916515e-07    2.87088719e-03    5.74177438e-03    1.00000000e-03    1.00000000e-03    2.00000000e-03
46       4.66834479e-07    2.93320334e-03    5.86640667e-03    1.00000000e-03    1.00000000e-03    2.00000000e-03
47       4.76752444e-07    2.99551947e-03    5.99103894e-03    1.00000000e-03    1.00000000e-03    2.00000000e-03
48       4.85678612e-07    3.05160398e-03    6.10320796e-03    1.00000000e-03    1.00000000e-03    2.00000000e-03
49       4.93712163e-07    3.10208003e-03    6.20416007e-03    1.00000000e-03    1.00000000e-03    2.00000000e-03
50       5.00942359e-07    3.14750847e-03    6.29501695e-03    1.00000000e-03    1.00000000e-03    2.00000000e-03
51       5.08172555e-07    3.19293691e-03    6.38587382e-03    1.00000000e-03    1.00000000e-03    2.00000000e-03
52       5.14679732e-07    3.23382249e-03    6.46764499e-03    1.00000000e-03    1.00000000e-03    2.00000000e-03
53       5.20536191e-07    3.27061952e-03    6.54123903e-03    1.00000000e-03    1.00000000e-03    2.00000000e-03
54       5.26392650e-07    3.30741653e-03    6.61483306e-03    1.00000000e-03    1.00000000e-03    2.00000000e-03
55       5.31663463e-07    3.34053384e-03    6.68106769e-03    1.00000000e-03    1.00000000e-03    2.00000000e-03
56       5.36934276e-07    3.37365115e-03    6.74730230e-03    1.00000000e-03    1.00000000e-03    2.00000000e-03
57       5.41678007e-07    3.40345673e-03    6.80691345e-03    1.00000000e-03    1.00000000e-03    2.00000000e-03
58       5.45947366e-07    3.43028174e-03    6.86056348e-03    1.00000000e-03    1.00000000e-03    2.00000000e-03
59       5.50216724e-07    3.45710675e-03    6.91421350e-03    1.00000000e-03    1.00000000e-03    2.00000000e-03
60       5.54486083e-07    3.48393176e-03    6.96786352e-03    1.00000000e-03    1.00000000e-03    2.00000000e-03
61       5.58328506e-07    3.50807427e-03    7.01614853e-03    1.00000000e-03    1.00000000e-03    2.00000000e-03
62       5.61786686e-07    3.52980252e-03    7.05960504e-03    1.00000000e-03    1.00000000e-03    2.00000000e-03
63       5.65244866e-07    3.55153077e-03    7.10306155e-03    1.00000000e-03    1.00000000e-03    2.00000000e-03
64       5.68703047e-07    3.57325902e-03    7.14651805e-03    1.00000000e-03    1.00000000e-03    2.00000000e-03
65       5.71815409e-07    3.59281445e-03    7.18562889e-03    1.00000000e-03    1.00000000e-03    2.00000000e-03
66       5.74927771e-07    3.61236987e-03    7.22473974e-03    1.00000000e-03    1.00000000e-03    2.00000000e-03
67       5.78040134e-07    3.63192529e-03    7.26385058e-03    1.00000000e-03    1.00000000e-03    2.00000000e-03
68       5.80841260e-07    3.64952517e-03    7.29905034e-03    1.00000000e-03    1.00000000e-03    2.00000000e-03
69       5.83642386e-07    3.66712505e-03    7.33425009e-03    1.00000000e-03    1.00000000e-03    2.00000000e-03
70       5.86443512e-07    3.68472492e-03    7.36944984e-03    1.00000000e-03    1.00000000e-03    2.00000000e-03
71       5.88964526e-07    3.70056481e-03    7.40112962e-03    1.00000000e-03    1.00000000e-03    2.00000000e-03
72       5.91233438e-07    3.71482071e-03    7.42964141e-03    1.00000000e-03    1.00000000e-03    2.00000000e-03
73       5.93502350e-07    3.72907660e-03    7.45815321e-03    1.00000000e-03    1.00000000e-03    2.00000000e-03
74       5.95771262e-07    3.74333250e-03    7.48666500e-03    1.00000000e-03    1.00000000e-03    2.00000000e-03
75       5.98040174e-07    3.75758839e-03    7.51517679e-03    1.00000000e-03    1.00000000e-03    2.00000000e-03
76       6.00082195e-07    3.77041870e-03    7.54083740e-03    1.00000000e-03    1.00000000e-03    2.00000000e-03
77       6.02124216e-07    3.78324900e-03    7.56649801e-03    1.00000000e-03    1.00000000e-03    2.00000000e-03
78       6.04166237e-07    3.79607931e-03    7.59215861e-03    1.00000000e-03    1.00000000e-03    2.00000000e-03
79       6.06004056e-07    3.80762658e-03    7.61525316e-03    1.00000000e-03    1.00000000e-03    2.00000000e-03
80       6.07841875e-07    3.81917385e-03    7.63834771e-03    1.00000000e-03    1.00000000e-03    2.00000000e-03
81       6.09679694e-07    3.83072112e-03    7.66144225e-03    1.00000000e-03    1.00000000e-03    2.00000000e-03
82       6.11517513e-07    3.84226840e-03    7.68453679e-03    1.00000000e-03    1.00000000e-03    2.00000000e-03
83       6.13171550e-07    3.85266094e-03    7.70532188e-03    1.00000000e-03    1.00000000e-03    2.00000000e-03
84       6.14825586e-07    3.86305348e-03    7.72610697e-03    1.00000000e-03    1.00000000e-03    2.00000000e-03
85       6.16479623e-07    3.87344603e-03    7.74689205e-03    1.00000000e-03    1.00000000e-03    2.00000000e-03
86       6.18133660e-07    3.88383857e-03    7.76767714e-03    1.00000000e-03    1.00000000e-03    2.00000000e-03
87       6.19787697e-07    3.89423111e-03    7.78846222e-03    1.00000000e-03    1.00000000e-03    2.00000000e-03
88       6.21441734e-07    3.90462365e-03    7.80924731e-03    1.00000000e-03    1.00000000e-03    2.00000000e-03
89       6.23095771e-07    3.91501619e-03    7.83003239e-03    1.00000000e-03    1.00000000e-03    2.00000000e-03
90       6.24749808e-07    3.92540873e-03    7.85081747e-03    1.00000000e-03    1.00000000e-03    2.00000000e-03
91       6.26403845e-07    3.93580128e-03    7.87160255e-03    1.00000000e-03    1.00000000e-03    2.00000000e-03
92       6.28057882e-07    3.94619382e-03    7.89238763e-03    1.00000000e-03    1.00000000e-03    2.00000000e-03
93       6.29711919e-07    3.95658636e-03    7.91317271e-03    1.00000000e-03    1.00000000e-03    2.00000000e-03
94       6.31365956e-07    3.96697889e-03    7.93395779e-03    1.00000000e-03    1.00000000e-03    2.00000000e-03
95       6.33019993e-07    3.97737143e-03    7.95474287e-03    1.00000000e-03    1.00000000e-03    2.00000000e-03
96       6.36328067e-07    3.99815651e-03    7.99631302e-03    1.00000000e-03    1.00000000e-03    2.00000000e-03
97       6.36741576e-07    4.00075464e-03    8.00150929e-03    1.00000000e-03    1.00000000e-03    2.00000000e-03
98       6.37155085e-07    4.00335278e-03    8.00670556e-03    1.00000000e-03    1.00000000e-03    2.00000000e-03
99       6.37527244e-07    4.00569110e-03    8.01138220e-03    1.00000000e-03    1.00000000e-03    2.00000000e-03
100      6.37899402e-07    4.00802942e-03    8.01605884e-03    1.00000000e-03    1.00000000e-03    2.00000000e-03
101      6.38643719e-07    4.01270606e-03    8.02541212e-03    1.00000000e-03    1.00000000e-03    2.00000000e-03
102      6.40132352e-07    4.02205934e-03    8.04411869e-03    1.00000000e-03    1.00000000e-03    2.00000000e-03
103      6.43109619e-07    4.04076591e-03    8.08153182e-03    1.00000000e-03    1.00000000e-03    2.00000000e-03
104      6.46086885e-07    4.05947247e-03    8.11894495e-03    1.00000000e-03    1.00000000e-03    2.00000000e-03
105      6.48766425e-07    4.07630838e-03    8.15261676e-03    1.00000000e-03    1.00000000e-03    2.00000000e-03
106      6.51445965e-07    4.09314429e-03    8.18628857e-03    1.00000000e-03    1.00000000e-03    2.00000000e-03
107      6.54125505e-07    4.10998019e-03    8.21996038e-03    1.00000000e-03    1.00000000e-03    2.00000000e-03
108      6.56805045e-07    4.12681609e-03    8.25363218e-03    1.00000000e-03    1.00000000e-03    2.00000000e-03
109      6.59484585e-07    4.14365199e-03    8.28730399e-03    1.00000000e-03    1.00000000e-03    2.00000000e-03
110      6.62164124e-07    4.16048789e-03    8.32097579e-03    1.00000000e-03    1.00000000e-03    2.00000000e-03
111      6.67523204e-07    4.19415969e-03    8.38831938e-03    1.00000000e-03    1.00000000e-03    2.00000000e-03
112      6.78241364e-07    4.26150327e-03    8.52300654e-03    1.00000000e-03    1.00000000e-03    2.00000000e-03
113      6.88959523e-07    4.32884683e-03    8.65769367e-03    1.00000000e-03    1.00000000e-03    2.00000000e-03
114      6.99677683e-07    4.39619038e-03    8.79238075e-03    1.00000000e-03    1.00000000e-03    2.00000000e-03
115      7.10395842e-07    4.46353390e-03    8.92706779e-03    1.00000000e-03    1.00000000e-03    2.00000000e-03
116      7.21114002e-07    4.53087740e-03    9.06175480e-03    1.00000000e-03    1.00000000e-03    2.00000000e-03
117      7.31832161e-07    4.59822088e-03    9.19644176e-03    1.00000000e-03    1.00000000e-03    2.00000000e-03
118      7.42550321e-07    4.66556434e-03    9.33112868e-03    1.00000000e-03    1.00000000e-03    2.00000000e-03
119      7.63986640e-07    4.80025120e-03    9.60050239e-03    1.00000000e-03    1.00000000e-03    2.00000000e-03
120      7.85422959e-07    4.93493796e-03    9.86987593e-03    1.00000000e-03    1.00000000e-03    2.00000000e-03
121      8.28295597e-07    5.20431123e-03    1.04086225e-02    1.00000000e-03    1.00000000e-03    2.00000000e-03
122      8.71168235e-07    5.47368412e-03    1.09473682e-02    1.00000000e-03    1.00000000e-03    2.00000000e-03
123      9.14040873e-07    5.74305661e-03    1.14861132e-02    1.00000000e-03    1.00000000e-03    2.00000000e-03
124      9.56913511e-07    6.01242869e-03    1.20248574e-02    1.00000000e-03    1.00000000e-03    2.00000000e-03
125      9.99786149e-07    6.28180033e-03    1.25636007e-02    1.00000000e-03    1.00000000e-03    2.00000000e-03
126      1.04265879e-06    6.55117151e-03    1.31023430e-02    1.00000000e-03    1.00000000e-03    2.00000000e-03
127      1.08553143e-06    6.82054222e-03    1.36410844e-02    1.00000000e-03    1.00000000e-03    2.00000000e-03
128      1.12840406e-06    7.08991243e-03    1.41798249e-02    1.00000000e-03    1.00000000e-03    2.00000000e-03
129      1.17127670e-06    7.35928213e-03    1.47185643e-02    1.00000000e-03    1.00000000e-03    2.00000000e-03
130      1.21414934e-06    7.62865130e-03    1.52573026e-02    1.00000000e-03    1.00000000e-03    2.00000000e-03
131      1.25702198e-06    7.89801991e-03    1.57960398e-02    1.00000000e-03    1.00000000e-03    2.00000000e-03
132      1.29989462e-06    8.16738795e-03    1.63347759e-02    1.00000000e-03    1.00000000e-03    2.00000000e-03
133      1.34276725e-06    8.43675539e-03    1.68735108e-02    1.00000000e-03    1.00000000e-03    2.00000000e-03
134      1.38563989e-06    8.70612223e-03    1.74122445e-02    1.00000000e-03    1.00000000e-03    2.00000000e-03
135      1.47138517e-06    9.24485398e-03    1.84897080e-02    1.00000000e-03    1.00000000e-03    2.00000000e-03
136      1.55713044e-06    9.78358305e-03    1.95671661e-02    1.00000000e-03    1.00000000e-03    2.00000000e-03
137      1.64287572e-06    1.03223093e-02    2.06446185e-02    1.00000000e-03    1.00000000e-03    2.00000000e-03
138      1.72862100e-06    1.08610325e-02    2.17220650e-02    1.00000000e-03    1.00000000e-03    2.00000000e-03
139      1.81436627e-06    1.13997526e-02    2.27995052e-02    1.00000000e-03    1.00000000e-03    2.00000000e-03
140      1.90011155e-06    1.19384694e-02    2.38769387e-02    1.00000000e-03    1.00000000e-03    2.00000000e-03
141      1.98585683e-06    1.24771827e-02    2.49543653e-02    1.00000000e-03    1.00000000e-03    2.00000000e-03
142      2.07160210e-06    1.30158923e-02    2.60317847e-02    1.00000000e-03    1.00000000e-03    2.00000000e-03
143      2.15734738e-06    1.35545983e-02    2.71091965e-02    1.00000000e-03    1.00000000e-03    2.00000000e-03
144      2.24309265e-06    1.40933002e-02    2.81866005e-02    1.00000000e-03    1.00000000e-03    2.00000000e-03
145      2.32883793e-06    1.46319981e-02    2.92639962e-02    1.00000000e-03    1.00000000e-03    2.00000000e-03
146      2.41458321e-06    1.51706917e-02    3.03413835e-02    1.00000000e-03    1.00000000e-03    2.00000000e-03
147      2.50032848e-06    1.57093810e-02    3.14187620e-02    1.00000000e-03    1.00000000e-03    2.00000000e-03
148      2.58607376e-06    1.62480656e-02    3.24961313e-02    1.00000000e-03    1.00000000e-03    2.00000000e-03
149      2.67181904e-06    1.67867456e-02    3.35734912e-02    1.00000000e-03    1.00000000e-03    2.00000000e-03
150      2.75756431e-06    1.73254207e-02    3.46508414e-02    1.00000000e-03    1.00000000e-03    2.00000000e-03
151      2.84330959e-06    1.78640907e-02    3.57281815e-02    1.00000000e-03    1.00000000e-03    2.00000000e-03
152      2.92905486e-06    1.84027556e-02    3.68055112e-02    1.00000000e-03    1.00000000e-03    2.00000000e-03
153      3.01480014e-06    1.89414151e-02    3.78828303e-02    1.00000000e-03    1.00000000e-03    2.00000000e-03
154      3.10054542e-06    1.94800692e-02    3.89601383e-02    1.00000000e-03    1.00000000e-03    2.00000000e-03
155      3.18629069e-06    2.00187175e-02    4.00374351e-02    1.00000000e-03    1.00000000e-03    2.00000000e-03
156      3.27203597e-06    2.05573601e-02    4.11147202e-02    1.00000000e-03    1.00000000e-03    2.00000000e-03
157      3.35778124e-06    2.10959967e-02    4.21919934e-02    1.00000000e-03    1.00000000e-03    2.00000000e-03
158      3.44352652e-06    2.16346272e-02    4.32692544e-02    1.00000000e-03    1.00000000e-03    2.00000000e-03
159      3.61501707e-06    2.27118691e-02    4.54237383e-02    1.00000000e-03    1.00000000e-03    2.00000000e-03
160      3.78650763e-06    2.37890847e-02    4.75781694e-02    1.00000000e-03    1.00000000e-03    2.00000000e-03
161      3.95799818e-06    2.48662727e-02    4.97325454e-02    1.00000000e-03    1.00000000e-03    2.00000000e-03
162      4.12948873e-06    2.59434318e-02    5.18868636e-02    1.00000000e-03    1.00000000e-03    2.00000000e-03
163      4.30097928e-06    2.70205608e-02    5.40411215e-02    1.00000000e-03    1.00000000e-03    2.00000000e-03
164      4.47246984e-06    2.80976584e-02    5.61953167e-02    1.00000000e-03    1.00000000e-03    2.00000000e-03
165      4.64396039e-06    2.91747233e-02    5.83494467e-02    1.00000000e-03    1.00000000e-03    2.00000000e-03
166      4.81545094e-06    3.02517545e-02    6.05035089e-02    1.00000000e-03    1.00000000e-03    2.00000000e-03
167      4.98694149e-06    3.13287504e-02    6.26575009e-02    1.00000000e-03    1.00000000e-03    2.00000000e-03
168      5.15843204e-06    3.24057100e-02    6.48114201e-02    1.00000000e-03    1.00000000e-03    2.00000000e-03
169      5.32992260e-06    3.34826320e-02    6.69652641e-02    1.00000000e-03    1.00000000e-03    2.00000000e-03
170      5.50141315e-06    3.45595152e-02    6.91190303e-02    1.00000000e-03    1.00000000e-03    2.00000000e-03
171      5.67290370e-06    3.56363581e-02    7.12727163e-02    1.00000000e-03    1.00000000e-03    2.00000000e-03
172      5.84439425e-06    3.67131598e-02    7.34263195e-02    1.00000000e-03    1.00000000e-03    2.00000000e-03
173      6.01588481e-06    3.77899188e-02    7.55798375e-02    1.00000000e-03    1.00000000e-03    2.00000000e-03
