Index       TIME              V(1)              I(L1)             V(3)              V(2)              I(VS)      
0        0.00000000e+00    0.00000000e+00    0.00000000e+00    0.00000000e+00    0.00000000e+00    0.00000000e+00
1        4.76190476e-06    0.00000000e+00    0.00000000e+00    2.13713467e-04    5.79136864e-04    3.65423397e-07
2        9.52380952e-06    0.00000000e+00    0.00000000e+00    8.54850042e-04    1.10188201e-03    2.47031971e-07
3        1.42857143e-05    0.00000000e+00    0.00000000e+00    1.92339825e-03    1.58285446e-03   -3.40543790e-07
4        1.90476190e-05    0.00000000e+00    0.00000000e+00    3.41933895e-03    2.03550915e-03   -1.38382979e-06
5        2.38095238e-05    0.00000000e+00    0.00000000e+00    5.34264536e-03    2.47222375e-03   -2.87042161e-06
6        2.85714286e-05    0.00000000e+00    0.00000000e+00    7.69328306e-03    2.90437908e-03   -4.78890398e-06
7        3.33333333e-05    0.00000000e+00    0.00000000e+00    1.04712099e-02    3.34243392e-03   -7.12877603e-06
8        3.80952381e-05    0.00000000e+00    0.00000000e+00    1.36763763e-02    3.79599430e-03   -9.88038198e-06
9        4.28571429e-05    0.00000000e+00    0.00000000e+00    1.73087247e-02    4.27387792e-03   -1.30348468e-05
10       4.76190476e-05    0.00000000e+00    0.00000000e+00    2.13681901e-02    4.78417380e-03   -1.65840163e-05
11       5.23809524e-05    0.00000000e+00    0.00000000e+00    2.58546999e-02    5.33429768e-03   -2.05204022e-05
12       5.71428571e-05    0.00000000e+00    0.00000000e+00    3.07681737e-02    5.93104336e-03   -2.48371303e-05
13       6.19047619e-05    0.00000000e+00    0.00000000e+00    3.61085235e-02    6.58063034e-03   -2.95278932e-05
14       6.66666667e-05    0.00000000e+00    0.00000000e+00    4.18756537e-02    7.28874794e-03   -3.45869058e-05
15       7.14285714e-05    0.00000000e+00    0.00000000e+00    4.80694611e-02    8.06059623e-03   -4.00088649e-05
16       7.61904762e-05    0.00000000e+00    0.00000000e+00    5.46898347e-02    8.90092390e-03   -4.57889108e-05
17       8.09523810e-05    0.00000000e+00    0.00000000e+00    6.17366559e-02    9.81406342e-03   -5.19225925e-05
18       8.57142857e-05    0.00000000e+00    0.00000000e+00    6.92097987e-02    1.08039636e-02   -5.84058351e-05
19       9.04761905e-05    0.00000000e+00    0.00000000e+00    7.71091291e-02    1.18742195e-02   -6.52349096e-05
20       9.52380952e-05    0.00000000e+00    0.00000000e+00    8.54345056e-02    1.30281007e-02   -7.24064050e-05
21       1.00000000e-04    0.00000000e+00    0.00000000e+00    0.00000000e+00    1.28628188e-02    1.28628188e-05
22       1.04761905e-04    0.00000000e+00    0.00000000e+00    4.48798281e-03    1.27333912e-02    8.24540839e-06
23       1.09523810e-04    0.00000000e+00    0.00000000e+00    8.97592544e-03    1.26885829e-02    3.71265748e-06
24       1.12500000e-04    0.00000000e+00    0.00000000e+00    1.17808394e-02    1.27074475e-02    9.26608092e-07
25       1.17261905e-04    0.00000000e+00    0.00000000e+00    1.62686263e-02    1.27753419e-02   -3.49328440e-06
26       1.18750000e-04    0.00000000e+00    0.00000000e+00    1.76710456e-02    1.28029503e-02   -4.86809534e-06
27       1.23511905e-04    0.00000000e+00    0.00000000e+00    2.21586367e-02    1.29559064e-02   -9.20273026e-06
28       1.25000000e-04    0.00000000e+00    0.00000000e+00    2.35609556e-02    1.30217441e-02   -1.05392115e-05
29       1.29761905e-04    0.00000000e+00    0.00000000e+00    2.80482755e-02    1.32707310e-02   -1.47775445e-05
30       1.31250000e-04    0.00000000e+00    0.00000000e+00    2.94505065e-02    1.33624993e-02   -1.60880072e-05
31       1.36011905e-04    0.00000000e+00    0.00000000e+00    3.39374874e-02    1.36880630e-02   -2.02494244e-05
32       1.37500000e-04    0.00000000e+00    0.00000000e+00    3.53396305e-02    1.37965983e-02   -2.15430322e-05
33       1.42261905e-04    0.00000000e+00    0.00000000e+00    3.98262072e-02    1.41913521e-02   -2.56348551e-05
34       1.47023810e-04    0.00000000e+00    0.00000000e+00    4.43124274e-02    1.46764207e-02   -2.96360067e-05
35       1.50000000e-04    0.00000000e+00    0.00000000e+00    4.71160859e-02    1.50139919e-02   -3.21020940e-05
36       1.54761905e-04    0.00000000e+00    0.00000000e+00    5.16016382e-02    1.55927393e-02   -3.60088990e-05
37       1.59523810e-04    0.00000000e+00    0.00000000e+00    5.60867287e-02    1.62307041e-02   -3.98560246e-05
38       1.62500000e-04    0.00000000e+00    0.00000000e+00    5.88896943e-02    1.66554026e-02   -4.22342916e-05
39       1.67261905e-04    0.00000000e+00    0.00000000e+00    6.33739512e-02    1.72444253e-02   -4.61295259e-05
40       1.72023810e-04    0.00000000e+00    0.00000000e+00    6.78576408e-02    1.80496943e-02   -4.98079465e-05
41       1.76785714e-04    0.00000000e+00    0.00000000e+00    7.23407230e-02    1.89078776e-02   -5.34328454e-05
42       1.81547619e-04    0.00000000e+00    0.00000000e+00    7.68231576e-02    1.98191395e-02   -5.70040181e-05
43       1.86309524e-04    0.00000000e+00    0.00000000e+00    8.13049044e-02    2.07846364e-02   -6.05202680e-05
44       1.87500000e-04    0.00000000e+00    0.00000000e+00    8.24251830e-02    2.10384688e-02   -6.13867142e-05
45       1.92261905e-04    0.00000000e+00    0.00000000e+00    8.69060113e-02    2.20745635e-02   -6.48314477e-05
46       1.97023810e-04    0.00000000e+00    0.00000000e+00    5.60663943e-02    2.26182298e-02   -3.34481645e-05
47       2.01785714e-04    0.00000000e+00    0.00000000e+00    1.68299355e-03    2.23127493e-02    2.06297558e-05
48       2.06547619e-04    0.00000000e+00    0.00000000e+00    6.17096130e-03    2.20953358e-02    1.59243745e-05
49       2.11309524e-04    0.00000000e+00    0.00000000e+00    1.06588738e-02    2.19706189e-02    1.13117451e-05
50       2.12500000e-04    0.00000000e+00    0.00000000e+00    1.17808394e-02    2.19543833e-02    1.01735439e-05
51       2.17261905e-04    0.00000000e+00    0.00000000e+00    1.62686263e-02    2.11545697e-02    4.88594340e-06
52       2.22023810e-04    0.00000000e+00    0.00000000e+00    2.07562676e-02    2.11040364e-02    3.47768732e-07
53       2.26785714e-04    0.00000000e+00    0.00000000e+00    2.52437231e-02    2.11195448e-02   -4.12417836e-06
54       2.31547619e-04    0.00000000e+00    0.00000000e+00    2.97309527e-02    2.12066905e-02   -8.52426218e-06
55       2.36309524e-04    0.00000000e+00    0.00000000e+00    3.42179160e-02    2.13710107e-02   -1.28469053e-05
56       2.41071429e-04    0.00000000e+00    0.00000000e+00    3.87045731e-02    2.16167660e-02   -1.70878071e-05
57       2.45833333e-04    0.00000000e+00    0.00000000e+00    4.31908836e-02    2.19462836e-02   -2.12446000e-05
58       2.50595238e-04    0.00000000e+00    0.00000000e+00    4.76768076e-02    2.23598020e-02   -2.53170056e-05
59       2.55357143e-04    0.00000000e+00    0.00000000e+00    5.21623047e-02    2.28556738e-02   -2.93066309e-05
60       2.60119048e-04    0.00000000e+00    0.00000000e+00    5.66473348e-02    2.34307784e-02   -3.32165565e-05
61       2.62500000e-04    0.00000000e+00    0.00000000e+00    5.88896943e-02    2.37422162e-02   -3.51474781e-05
62       2.67261905e-04    0.00000000e+00    0.00000000e+00    6.33739512e-02    2.44285489e-02   -3.89454023e-05
63       2.72023810e-04    0.00000000e+00    0.00000000e+00    6.78576408e-02    2.51831008e-02   -4.26745401e-05
64       2.76785714e-04    0.00000000e+00    0.00000000e+00    7.23407230e-02    2.60013309e-02   -4.63393921e-05
65       2.81547619e-04    0.00000000e+00    0.00000000e+00    7.68231576e-02    2.68791354e-02   -4.99440222e-05
66       2.86309524e-04    0.00000000e+00    0.00000000e+00    8.13049044e-02    2.78130527e-02   -5.34918517e-05
67       2.91071429e-04    0.00000000e+00    0.00000000e+00    8.57859234e-02    2.88003851e-02   -5.69855384e-05
68       2.95833333e-04    0.00000000e+00    0.00000000e+00    7.84929521e-02    2.96552777e-02   -4.88376744e-05
69       3.00595238e-04    0.00000000e+00    0.00000000e+00    5.60997851e-04    2.92758211e-02    2.87148233e-05
70       3.05357143e-04    0.00000000e+00    0.00000000e+00    5.04897564e-03    2.89701610e-02    2.39211854e-05
71       3.10119048e-04    0.00000000e+00    0.00000000e+00    9.53690823e-03    2.87370680e-02    1.92001598e-05
72       3.12500000e-04    0.00000000e+00    0.00000000e+00    1.17808394e-02    2.86522805e-02    1.68714411e-05
73       3.17261905e-04    0.00000000e+00    0.00000000e+00    1.62686263e-02    2.75058293e-02    1.12372030e-05
74       3.22023810e-04    0.00000000e+00    0.00000000e+00    2.07562676e-02    2.74240554e-02    6.66778779e-06
75       3.26785714e-04    0.00000000e+00    0.00000000e+00    2.52437231e-02    2.74163441e-02    2.17262098e-06
76       3.31547619e-04    0.00000000e+00    0.00000000e+00    2.97309527e-02    2.74783994e-02   -2.25255321e-06
77       3.36309524e-04    0.00000000e+00    0.00000000e+00    3.42179160e-02    2.76067526e-02   -6.61116338e-06
78       3.41071429e-04    0.00000000e+00    0.00000000e+00    3.87045731e-02    2.77991721e-02   -1.09054010e-05
79       3.45833333e-04    0.00000000e+00    0.00000000e+00    4.31908836e-02    2.80547375e-02   -1.51361461e-05
80       3.50595238e-04    0.00000000e+00    0.00000000e+00    4.76768076e-02    2.83736587e-02   -1.93031489e-05
81       3.55357143e-04    0.00000000e+00    0.00000000e+00    5.21623047e-02    2.87569457e-02   -2.34053589e-05
82       3.60119048e-04    0.00000000e+00    0.00000000e+00    5.66473348e-02    2.92060277e-02   -2.74413072e-05
83       3.62500000e-04    0.00000000e+00    0.00000000e+00    5.88896943e-02    2.94514798e-02   -2.94382144e-05
84       3.67261905e-04    0.00000000e+00    0.00000000e+00    6.33739512e-02    3.00019232e-02   -3.33720280e-05
85       3.72023810e-04    0.00000000e+00    0.00000000e+00    6.78576408e-02    3.06213893e-02   -3.72362516e-05
86       3.76785714e-04    0.00000000e+00    0.00000000e+00    7.23407230e-02    3.13104018e-02   -4.10303212e-05
87       3.81547619e-04    0.00000000e+00    0.00000000e+00    7.68231576e-02    3.20688726e-02   -4.47542850e-05
88       3.86309524e-04    0.00000000e+00    0.00000000e+00    8.13049044e-02    3.28960914e-02   -4.84088130e-05
89       3.91071429e-04    0.00000000e+00    0.00000000e+00    8.57859234e-02    3.37907728e-02   -5.19951506e-05
90       3.95833333e-04    0.00000000e+00    0.00000000e+00    7.84929521e-02    3.45671962e-02   -4.39257559e-05
91       4.00595238e-04    0.00000000e+00    0.00000000e+00    5.60997851e-04    3.41223553e-02    3.35613574e-05
92       4.05357143e-04    0.00000000e+00    0.00000000e+00    5.04897564e-03    3.37613338e-02    2.87123581e-05
93       4.10119048e-04    0.00000000e+00    0.00000000e+00    9.53690823e-03    3.34822525e-02    2.39453442e-05
94       4.12500000e-04    0.00000000e+00    0.00000000e+00    1.17808394e-02    3.33777244e-02    2.15968850e-05
95       4.17261905e-04    0.00000000e+00    0.00000000e+00    1.62686263e-02    3.23888861e-02    1.61202598e-05
96       4.22023810e-04    0.00000000e+00    0.00000000e+00    2.07562676e-02    3.21925286e-02    1.14362609e-05
97       4.26785714e-04    0.00000000e+00    0.00000000e+00    2.52437231e-02    3.20770294e-02    6.83330626e-06
98       4.31547619e-04    0.00000000e+00    0.00000000e+00    2.97309527e-02    3.20430582e-02    2.31210555e-06
99       4.36309524e-04    0.00000000e+00    0.00000000e+00    3.42179160e-02    3.20902102e-02   -2.12770585e-06
100      4.41071429e-04    0.00000000e+00    0.00000000e+00    3.87045731e-02    3.22168434e-02   -6.48772968e-06
101      4.45833333e-04    0.00000000e+00    0.00000000e+00    4.31908836e-02    3.24202406e-02   -1.07706430e-05
102      4.50595238e-04    0.00000000e+00    0.00000000e+00    4.76768076e-02    3.26969705e-02   -1.49798371e-05
103      4.55357143e-04    0.00000000e+00    0.00000000e+00    5.21623047e-02    3.30433208e-02   -1.91189839e-05
104      4.60119048e-04    0.00000000e+00    0.00000000e+00    5.66473348e-02    3.34557043e-02   -2.31916305e-05
105      4.62500000e-04    0.00000000e+00    0.00000000e+00    5.88896943e-02    3.36817211e-02   -2.52079731e-05
106      4.67261905e-04    0.00000000e+00    0.00000000e+00    6.33739512e-02    3.41875898e-02   -2.91863614e-05
107      4.72023810e-04    0.00000000e+00    0.00000000e+00    6.78576408e-02    3.47528343e-02   -3.31048065e-05
108      4.76785714e-04    0.00000000e+00    0.00000000e+00    7.23407230e-02    3.53760677e-02   -3.69646553e-05
109      4.81547619e-04    0.00000000e+00    0.00000000e+00    7.68231576e-02    3.60566005e-02   -4.07665570e-05
110      4.86309524e-04    0.00000000e+00    0.00000000e+00    8.13049044e-02    3.67943281e-02   -4.45105763e-05
111      4.91071429e-04    0.00000000e+00    0.00000000e+00    8.57859234e-02    3.75895809e-02   -4.81963425e-05
112      4.95833333e-04    0.00000000e+00    0.00000000e+00    7.84929521e-02    3.82589953e-02   -4.02339567e-05
113      5.00595238e-04    0.00000000e+00    0.00000000e+00    5.60997851e-04    3.77024443e-02    3.71414464e-05
114      5.05357143e-04    0.00000000e+00    0.00000000e+00    5.04897564e-03    3.72288448e-02    3.21798692e-05
115      5.10119048e-04    0.00000000e+00    0.00000000e+00    9.53690823e-03    3.68374756e-02    2.73005674e-05
116      5.12500000e-04    0.00000000e+00    0.00000000e+00    1.17808394e-02    3.66775169e-02    2.48966775e-05
117      5.17261905e-04    0.00000000e+00    0.00000000e+00    1.62686263e-02    3.52393944e-02    1.89707681e-05
118      5.22023810e-04    0.00000000e+00    0.00000000e+00    2.07562676e-02    3.50113521e-02    1.42550844e-05
119      5.26785714e-04    0.00000000e+00    0.00000000e+00    2.52437231e-02    3.48485855e-02    9.60486237e-06
120      5.31547619e-04    0.00000000e+00    0.00000000e+00    2.97309527e-02    3.47482265e-02    5.01727385e-06
121      5.36309524e-04    0.00000000e+00    0.00000000e+00    3.42179160e-02    3.47094261e-02    4.91510086e-07
122      5.41071429e-04    0.00000000e+00    0.00000000e+00    3.87045731e-02    3.47333196e-02   -3.97125345e-06
123      5.45833333e-04    0.00000000e+00    0.00000000e+00    4.31908836e-02    3.48224844e-02   -8.36839923e-06
124      5.50595238e-04    0.00000000e+00    0.00000000e+00    4.76768076e-02    3.49801728e-02   -1.26966348e-05
125      5.55357143e-04    0.00000000e+00    0.00000000e+00    5.21623047e-02    3.52095555e-02   -1.69527492e-05
126      5.60119048e-04    0.00000000e+00    0.00000000e+00    5.66473348e-02    3.55131236e-02   -2.11342113e-05
127      5.64880952e-04    0.00000000e+00    0.00000000e+00    6.11318579e-02    3.58923127e-02   -2.52395452e-05
128      5.69642857e-04    0.00000000e+00    0.00000000e+00    6.56158337e-02    3.63473514e-02   -2.92684823e-05
129      5.74404762e-04    0.00000000e+00    0.00000000e+00    7.00992221e-02    3.68772968e-02   -3.32219253e-05
130      5.79166667e-04    0.00000000e+00    0.00000000e+00    7.45819830e-02    3.74802043e-02   -3.71017787e-05
131      5.83928571e-04    0.00000000e+00    0.00000000e+00    7.90640762e-02    3.81533770e-02   -4.09106992e-05
132      5.88690476e-04    0.00000000e+00    0.00000000e+00    8.35454616e-02    3.88936455e-02   -4.46518161e-05
133      5.93452381e-04    0.00000000e+00    0.00000000e+00    8.80260991e-02    3.96976408e-02   -4.83284583e-05
134      5.98214286e-04    0.00000000e+00    0.00000000e+00    3.36398366e-02    3.96423174e-02    6.00248078e-06
135      6.02976190e-04    0.00000000e+00    0.00000000e+00    2.80498926e-03    3.91064810e-02    3.63014918e-05
136      6.07738095e-04    0.00000000e+00    0.00000000e+00    7.29294695e-03    3.86483559e-02    3.13554089e-05
137      6.12500000e-04    0.00000000e+00    0.00000000e+00    1.17808394e-02    3.82664107e-02    2.64855713e-05
138      6.17261905e-04    0.00000000e+00    0.00000000e+00    1.62686263e-02    3.79583057e-02    2.16896794e-05
139      6.22023810e-04    0.00000000e+00    0.00000000e+00    2.07562676e-02    3.77209164e-02    1.69646488e-05
140      6.26785714e-04    0.00000000e+00    0.00000000e+00    2.52437231e-02    3.75513149e-02    1.23075918e-05
141      6.31547619e-04    0.00000000e+00    0.00000000e+00    2.97309527e-02    3.74476963e-02    7.71674369e-06
142      6.36309524e-04    0.00000000e+00    0.00000000e+00    3.42179160e-02    3.74097806e-02    3.19186462e-06
143      6.41071429e-04    0.00000000e+00    0.00000000e+00    3.87045731e-02    3.74386685e-02   -1.26590455e-06
144      6.45833333e-04    0.00000000e+00    0.00000000e+00    4.31908836e-02    3.75363426e-02   -5.65454100e-06
145      6.50595238e-04    0.00000000e+00    0.00000000e+00    4.76768076e-02    3.77050434e-02   -9.97176411e-06
146      6.55357143e-04    0.00000000e+00    0.00000000e+00    5.21623047e-02    3.79466989e-02   -1.42156058e-05
147      6.60119048e-04    0.00000000e+00    0.00000000e+00    5.66473348e-02    3.82625113e-02   -1.83848235e-05
148      6.64880952e-04    0.00000000e+00    0.00000000e+00    6.11318579e-02    3.86527372e-02   -2.24791207e-05
149      6.69642857e-04    0.00000000e+00    0.00000000e+00    6.56158337e-02    3.91166471e-02   -2.64991866e-05
150      6.74404762e-04    0.00000000e+00    0.00000000e+00    7.00992221e-02    3.96526265e-02   -3.04465956e-05
151      6.79166667e-04    0.00000000e+00    0.00000000e+00    7.45819830e-02    4.02583691e-02   -3.43236138e-05
152      6.83928571e-04    0.00000000e+00    0.00000000e+00    7.90640762e-02    4.09311157e-02   -3.81329605e-05
153      6.88690476e-04    0.00000000e+00    0.00000000e+00    8.35454616e-02    4.16678985e-02   -4.18775631e-05
154      6.93452381e-04    0.00000000e+00    0.00000000e+00    8.80260991e-02    4.24657645e-02   -4.55603346e-05
155      6.98214286e-04    0.00000000e+00    0.00000000e+00    3.36398366e-02    4.24022148e-02    8.76237821e-06
156      7.02976190e-04    0.00000000e+00    0.00000000e+00    2.80498926e-03    4.18569053e-02    3.90519160e-05
157      7.07738095e-04    0.00000000e+00    0.00000000e+00    7.29294695e-03    4.13885624e-02    3.40956155e-05
158      7.12500000e-04    0.00000000e+00    0.00000000e+00    1.17808394e-02    4.09959037e-02    2.92150643e-05
159      7.17261905e-04    0.00000000e+00    0.00000000e+00    1.62686263e-02    3.79193741e-02    2.16507478e-05
160      7.22023810e-04    0.00000000e+00    0.00000000e+00    2.07562676e-02    3.76141446e-02    1.68578769e-05
161      7.26785714e-04    0.00000000e+00    0.00000000e+00    2.52437231e-02    3.73953153e-02    1.21515922e-05
162      7.31547619e-04    0.00000000e+00    0.00000000e+00    2.97309527e-02    3.72620966e-02    7.53114396e-06
163      7.36309524e-04    0.00000000e+00    0.00000000e+00    3.42179160e-02    3.72118459e-02    2.99392988e-06
164      7.41071429e-04    0.00000000e+00    0.00000000e+00    3.87045731e-02    3.72402706e-02   -1.46430242e-06
165      7.45833333e-04    0.00000000e+00    0.00000000e+00    4.31908836e-02    3.73420742e-02   -5.84880943e-06
166      7.50595238e-04    0.00000000e+00    0.00000000e+00    4.76768076e-02    3.75117518e-02   -1.01650558e-05
167      7.55357143e-04    0.00000000e+00    0.00000000e+00    5.21623047e-02    3.77443095e-02   -1.44179952e-05
168      7.60119048e-04    0.00000000e+00    0.00000000e+00    5.66473348e-02    3.80357780e-02   -1.86115569e-05
169      7.64880952e-04    0.00000000e+00    0.00000000e+00    6.11318579e-02    3.83834778e-02   -2.27483801e-05
170      7.69642857e-04    0.00000000e+00    0.00000000e+00    6.56158337e-02    3.87860561e-02   -2.68297776e-05
171      7.74404762e-04    0.00000000e+00    0.00000000e+00    7.00992221e-02    3.92433452e-02   -3.08558769e-05
172      7.79166667e-04    0.00000000e+00    0.00000000e+00    7.45819830e-02    3.97561074e-02   -3.48258756e-05
173      7.83928571e-04    0.00000000e+00    0.00000000e+00    7.90640762e-02    4.03257246e-02   -3.87383515e-05
