Index       V(N_1)       I(IBASECURRENT)    {-I(VVCE)}         V(N_4)
0       0.00000000e+00   0.00000000e+00   9.88765133e-21   -1.03610167e-16  
1       1.00000000e-01   0.00000000e+00   1.40735685e-20   1.23013142e-19   
2       2.00000000e-01   0.00000000e+00   2.58171191e-19   1.28812371e-17   
3       3.00000000e-01   0.00000000e+00   7.00897737e-18   5.38647110e-16   
4       4.00000000e-01   0.00000000e+00   2.12391190e-16   2.17810387e-14   
5       5.00000000e-01   0.00000000e+00   6.97172644e-15   8.93216930e-13   
6       6.00000000e-01   0.00000000e+00   1.41262949e-13   2.17318845e-11   
7       7.00000000e-01   0.00000000e+00   4.53488893e-13   8.13921653e-11   
8       8.00000000e-01   0.00000000e+00   5.57359000e-13   1.14324991e-10   
9       9.00000000e-01   0.00000000e+00   5.74708378e-13   1.32619671e-10   
10      1.00000000e+00   0.00000000e+00   5.77266497e-13   1.48011068e-10   
11      1.10000000e+00   0.00000000e+00   5.77639306e-13   1.62917346e-10   
12      1.20000000e+00   0.00000000e+00   5.77693108e-13   1.77744568e-10   
13      1.30000000e+00   0.00000000e+00   5.77700890e-13   1.92559210e-10   
14      1.40000000e+00   0.00000000e+00   5.77702016e-13   2.07371861e-10   
15      1.50000000e+00   0.00000000e+00   5.77702179e-13   2.22184199e-10   
16      1.60000000e+00   0.00000000e+00   5.77702203e-13   2.36996489e-10   
17      1.70000000e+00   0.00000000e+00   5.77702206e-13   2.51808771e-10   
18      1.80000000e+00   0.00000000e+00   5.77702207e-13   2.66621052e-10   
19      1.90000000e+00   0.00000000e+00   5.77702207e-13   2.81433332e-10   
20      2.00000000e+00   0.00000000e+00   5.77702207e-13   2.96245613e-10   
21      2.10000000e+00   0.00000000e+00   5.77702202e-13   3.11057894e-10   
22      2.20000000e+00   0.00000000e+00   5.77702202e-13   3.25870175e-10   
23      2.30000000e+00   0.00000000e+00   5.77702202e-13   3.40682455e-10   
24      2.40000000e+00   0.00000000e+00   5.77702202e-13   3.55494736e-10   
25      2.50000000e+00   0.00000000e+00   5.77702202e-13   3.70307017e-10   
26      2.60000000e+00   0.00000000e+00   5.77702202e-13   3.85119297e-10   
27      2.70000000e+00   0.00000000e+00   5.77702202e-13   3.99931578e-10   
28      2.80000000e+00   0.00000000e+00   5.77702202e-13   4.14743859e-10   
29      2.90000000e+00   0.00000000e+00   5.77702202e-13   4.29556139e-10   
30      3.00000000e+00   0.00000000e+00   5.77702202e-13   4.44368420e-10   
31      3.10000000e+00   0.00000000e+00   5.77702202e-13   4.59180701e-10   
32      3.20000000e+00   0.00000000e+00   5.77702202e-13   4.73992981e-10   
33      3.30000000e+00   0.00000000e+00   5.77702202e-13   4.88805262e-10   
34      3.40000000e+00   0.00000000e+00   5.77702202e-13   5.03617543e-10   
35      3.50000000e+00   0.00000000e+00   5.77702202e-13   5.18429823e-10   
36      3.60000000e+00   0.00000000e+00   5.77702202e-13   5.33242104e-10   
37      3.70000000e+00   0.00000000e+00   5.77702202e-13   5.48054385e-10   
38      3.80000000e+00   0.00000000e+00   5.77702202e-13   5.62866665e-10   
39      3.90000000e+00   0.00000000e+00   5.77702202e-13   5.77678946e-10   
40      4.00000000e+00   0.00000000e+00   5.77702202e-13   5.92491227e-10   
41      4.10000000e+00   0.00000000e+00   5.77702202e-13   6.07303507e-10   
42      4.20000000e+00   0.00000000e+00   5.77702202e-13   6.22115788e-10   
43      4.30000000e+00   0.00000000e+00   5.77702202e-13   6.36928069e-10   
44      4.40000000e+00   0.00000000e+00   5.77702202e-13   6.51740349e-10   
45      4.50000000e+00   0.00000000e+00   5.77702202e-13   6.66552630e-10   
46      4.60000000e+00   0.00000000e+00   5.77702202e-13   6.81364911e-10   
47      4.70000000e+00   0.00000000e+00   5.77702202e-13   6.96177191e-10   
48      4.80000000e+00   0.00000000e+00   5.77702202e-13   7.10989472e-10   
49      4.90000000e+00   0.00000000e+00   5.77702202e-13   7.25801753e-10   
50      5.00000000e+00   0.00000000e+00   5.77702202e-13   7.40614033e-10   
51      5.10000000e+00   0.00000000e+00   5.77702202e-13   7.55426314e-10   
52      5.20000000e+00   0.00000000e+00   5.77702202e-13   7.70238595e-10   
53      5.30000000e+00   0.00000000e+00   5.77702202e-13   7.85050875e-10   
54      5.40000000e+00   0.00000000e+00   5.77702202e-13   7.99863156e-10   
55      5.50000000e+00   0.00000000e+00   5.77702202e-13   8.14675437e-10   
56      5.60000000e+00   0.00000000e+00   5.77702202e-13   8.29487717e-10   
57      5.70000000e+00   0.00000000e+00   5.77702202e-13   8.44299998e-10   
58      5.80000000e+00   0.00000000e+00   5.77702202e-13   8.59112279e-10   
59      5.90000000e+00   0.00000000e+00   5.77702202e-13   8.73924559e-10   
60      6.00000000e+00   0.00000000e+00   5.77702202e-13   8.88736840e-10   
61      6.10000000e+00   0.00000000e+00   5.77702202e-13   9.03549121e-10   
62      6.20000000e+00   0.00000000e+00   5.77702202e-13   9.18361401e-10   
63      6.30000000e+00   0.00000000e+00   5.77702202e-13   9.33173682e-10   
64      6.40000000e+00   0.00000000e+00   5.77702202e-13   9.47985963e-10   
65      6.50000000e+00   0.00000000e+00   5.77702202e-13   9.62798243e-10   
66      6.60000000e+00   0.00000000e+00   5.77702202e-13   9.77610524e-10   
67      6.70000000e+00   0.00000000e+00   5.77702202e-13   9.92422805e-10   
68      6.80000000e+00   0.00000000e+00   5.77702202e-13   1.00723509e-09   
69      6.90000000e+00   0.00000000e+00   5.77702202e-13   1.02204737e-09   
70      7.00000000e+00   0.00000000e+00   5.77702202e-13   1.03685965e-09   
71      7.10000000e+00   0.00000000e+00   5.77702202e-13   1.05167193e-09   
72      7.20000000e+00   0.00000000e+00   5.77702202e-13   1.06648421e-09   
73      7.30000000e+00   0.00000000e+00   5.77702202e-13   1.08129649e-09   
74      7.40000000e+00   0.00000000e+00   5.77702202e-13   1.09610877e-09   
75      7.50000000e+00   0.00000000e+00   5.77702202e-13   1.11092105e-09   
76      7.60000000e+00   0.00000000e+00   5.77702202e-13   1.12573333e-09   
77      7.70000000e+00   0.00000000e+00   5.77702202e-13   1.14054561e-09   
78      7.80000000e+00   0.00000000e+00   5.77702202e-13   1.15535789e-09   
79      7.90000000e+00   0.00000000e+00   5.77702202e-13   1.17017017e-09   
80      8.00000000e+00   0.00000000e+00   5.77702202e-13   1.18498245e-09   
81      8.10000000e+00   0.00000000e+00   5.77702202e-13   1.19979473e-09   
82      8.20000000e+00   0.00000000e+00   5.77702202e-13   1.21460701e-09   
83      8.30000000e+00   0.00000000e+00   5.77702202e-13   1.22941930e-09   
84      8.40000000e+00   0.00000000e+00   5.77702202e-13   1.24423158e-09   
85      8.50000000e+00   0.00000000e+00   5.77702202e-13   1.25904386e-09   
86      8.60000000e+00   0.00000000e+00   5.77702202e-13   1.27385614e-09   
87      8.70000000e+00   0.00000000e+00   5.77702202e-13   1.28866842e-09   
88      8.80000000e+00   0.00000000e+00   5.77702202e-13   1.30348070e-09   
89      8.90000000e+00   0.00000000e+00   5.77702202e-13   1.31829298e-09   
90      9.00000000e+00   0.00000000e+00   5.77702202e-13   1.33310526e-09   
91      9.10000000e+00   0.00000000e+00   5.77702202e-13   1.34791754e-09   
92      9.20000000e+00   0.00000000e+00   5.77702202e-13   1.36272982e-09   
93      9.30000000e+00   0.00000000e+00   5.77702202e-13   1.37754210e-09   
94      9.40000000e+00   0.00000000e+00   5.77702202e-13   1.39235438e-09   
95      9.50000000e+00   0.00000000e+00   5.77702202e-13   1.40716666e-09   
96      9.60000000e+00   0.00000000e+00   5.77702202e-13   1.42197894e-09   
97      9.70000000e+00   0.00000000e+00   5.77702202e-13   1.43679122e-09   
98      9.80000000e+00   0.00000000e+00   5.77702202e-13   1.45160351e-09   
99      9.90000000e+00   0.00000000e+00   5.77702202e-13   1.46641579e-09   
100     1.00000000e+01   0.00000000e+00   5.77702202e-13   1.48122807e-09   
101     1.01000000e+01   0.00000000e+00   5.77702202e-13   1.49604035e-09   
102     1.02000000e+01   0.00000000e+00   5.77702202e-13   1.51085263e-09   
103     1.03000000e+01   0.00000000e+00   5.77702202e-13   1.52566491e-09   
104     1.04000000e+01   0.00000000e+00   5.77702202e-13   1.54047719e-09   
105     1.05000000e+01   0.00000000e+00   5.77702202e-13   1.55528947e-09   
106     1.06000000e+01   0.00000000e+00   5.77702202e-13   1.57010175e-09   
107     1.07000000e+01   0.00000000e+00   5.77702202e-13   1.58491403e-09   
108     1.08000000e+01   0.00000000e+00   5.77702202e-13   1.59972631e-09   
109     1.09000000e+01   0.00000000e+00   5.77702202e-13   1.61453859e-09   
110     1.10000000e+01   0.00000000e+00   5.77702202e-13   1.62935087e-09   
111     1.11000000e+01   0.00000000e+00   5.77702202e-13   1.64416315e-09   
112     1.12000000e+01   0.00000000e+00   5.77702202e-13   1.65897543e-09   
113     1.13000000e+01   0.00000000e+00   5.77702202e-13   1.67378772e-09   
114     1.14000000e+01   0.00000000e+00   5.77702202e-13   1.68860000e-09   
115     1.15000000e+01   0.00000000e+00   5.77702202e-13   1.70341228e-09   
116     1.16000000e+01   0.00000000e+00   5.77702202e-13   1.71822456e-09   
117     1.17000000e+01   0.00000000e+00   5.77702202e-13   1.73303684e-09   
118     1.18000000e+01   0.00000000e+00   5.77702202e-13   1.74784912e-09   
119     1.19000000e+01   0.00000000e+00   5.77702202e-13   1.76266140e-09   
120     1.20000000e+01   0.00000000e+00   5.77702202e-13   1.77747368e-09   
121     1.21000000e+01   0.00000000e+00   5.77702202e-13   1.79228596e-09   
122     1.22000000e+01   0.00000000e+00   5.77702202e-13   1.80709824e-09   
123     1.23000000e+01   0.00000000e+00   5.77702202e-13   1.82191052e-09   
124     1.24000000e+01   0.00000000e+00   5.77702202e-13   1.83672280e-09   
125     1.25000000e+01   0.00000000e+00   5.77702202e-13   1.85153508e-09   
126     1.26000000e+01   0.00000000e+00   5.77702202e-13   1.86634736e-09   
127     1.27000000e+01   0.00000000e+00   5.77702202e-13   1.88115964e-09   
128     1.28000000e+01   0.00000000e+00   5.77702202e-13   1.89597193e-09   
129     1.29000000e+01   0.00000000e+00   5.77702202e-13   1.91078421e-09   
130     1.30000000e+01   0.00000000e+00   5.77702202e-13   1.92559649e-09   
131     1.31000000e+01   0.00000000e+00   5.77702202e-13   1.94040877e-09   
132     1.32000000e+01   0.00000000e+00   5.77702202e-13   1.95522105e-09   
133     1.33000000e+01   0.00000000e+00   5.77702202e-13   1.97003333e-09   
134     1.34000000e+01   0.00000000e+00   5.77702202e-13   1.98484561e-09   
135     1.35000000e+01   0.00000000e+00   5.77702202e-13   1.99965789e-09   
136     1.36000000e+01   0.00000000e+00   5.77702202e-13   2.01447017e-09   
137     1.37000000e+01   0.00000000e+00   5.77702202e-13   2.02928245e-09   
138     1.38000000e+01   0.00000000e+00   5.77702202e-13   2.04409473e-09   
139     1.39000000e+01   0.00000000e+00   5.77702202e-13   2.05890701e-09   
140     1.40000000e+01   0.00000000e+00   5.77702202e-13   2.07371929e-09   
141     1.41000000e+01   0.00000000e+00   5.77702202e-13   2.08853157e-09   
142     1.42000000e+01   0.00000000e+00   5.77702202e-13   2.10334385e-09   
143     1.43000000e+01   0.00000000e+00   5.77702202e-13   2.11815614e-09   
144     1.44000000e+01   0.00000000e+00   5.77702202e-13   2.13296842e-09   
145     1.45000000e+01   0.00000000e+00   5.77702202e-13   2.14778070e-09   
146     1.46000000e+01   0.00000000e+00   5.77702202e-13   2.16259298e-09   
147     1.47000000e+01   0.00000000e+00   5.77702202e-13   2.17740526e-09   
148     1.48000000e+01   0.00000000e+00   5.77702202e-13   2.19221754e-09   
149     1.49000000e+01   0.00000000e+00   5.77702202e-13   2.20702982e-09   
150     1.50000000e+01   0.00000000e+00   5.77702202e-13   2.22184210e-09   
151     1.51000000e+01   0.00000000e+00   5.77702202e-13   2.23665438e-09   
152     1.52000000e+01   0.00000000e+00   5.77702202e-13   2.25146666e-09   
153     1.53000000e+01   0.00000000e+00   5.77702202e-13   2.26627894e-09   
154     1.54000000e+01   0.00000000e+00   5.77702202e-13   2.28109122e-09   
155     1.55000000e+01   0.00000000e+00   5.77702202e-13   2.29590350e-09   
156     1.56000000e+01   0.00000000e+00   5.77702202e-13   2.31071578e-09   
157     1.57000000e+01   0.00000000e+00   5.77702202e-13   2.32552806e-09   
158     1.58000000e+01   0.00000000e+00   5.77702202e-13   2.34034035e-09   
159     1.59000000e+01   0.00000000e+00   5.77702202e-13   2.35515263e-09   
160     1.60000000e+01   0.00000000e+00   5.77702202e-13   2.36996491e-09   
161     1.61000000e+01   0.00000000e+00   5.77702202e-13   2.38477719e-09   
162     1.62000000e+01   0.00000000e+00   5.77702202e-13   2.39958947e-09   
163     1.63000000e+01   0.00000000e+00   5.77702202e-13   2.41440175e-09   
164     1.64000000e+01   0.00000000e+00   5.77702202e-13   2.42921403e-09   
165     1.65000000e+01   0.00000000e+00   5.77702202e-13   2.44402631e-09   
166     1.66000000e+01   0.00000000e+00   5.77702202e-13   2.45883859e-09   
167     1.67000000e+01   0.00000000e+00   5.77702202e-13   2.47365087e-09   
168     1.68000000e+01   0.00000000e+00   5.77702202e-13   2.48846315e-09   
169     1.69000000e+01   0.00000000e+00   5.77702202e-13   2.50327543e-09   
170     1.70000000e+01   0.00000000e+00   5.77702202e-13   2.51808771e-09   
171     1.71000000e+01   0.00000000e+00   5.77702202e-13   2.53289999e-09   
172     1.72000000e+01   0.00000000e+00   5.77702202e-13   2.54771227e-09   
173     1.73000000e+01   0.00000000e+00   5.77702202e-13   2.56252456e-09   
174     1.74000000e+01   0.00000000e+00   5.77702202e-13   2.57733684e-09   
175     1.75000000e+01   0.00000000e+00   5.77702202e-13   2.59214912e-09   
176     1.76000000e+01   0.00000000e+00   5.77702202e-13   2.60696140e-09   
177     1.77000000e+01   0.00000000e+00   5.77702202e-13   2.62177368e-09   
178     1.78000000e+01   0.00000000e+00   5.77702202e-13   2.63658596e-09   
179     1.79000000e+01   0.00000000e+00   5.77702202e-13   2.65139824e-09   
180     1.80000000e+01   0.00000000e+00   5.77702202e-13   2.66621052e-09   
181     1.81000000e+01   0.00000000e+00   5.77702202e-13   2.68102280e-09   
182     1.82000000e+01   0.00000000e+00   5.77702202e-13   2.69583508e-09   
183     1.83000000e+01   0.00000000e+00   5.77702202e-13   2.71064736e-09   
184     1.84000000e+01   0.00000000e+00   5.77702202e-13   2.72545964e-09   
185     1.85000000e+01   0.00000000e+00   5.77702202e-13   2.74027192e-09   
186     1.86000000e+01   0.00000000e+00   5.77702202e-13   2.75508420e-09   
187     1.87000000e+01   0.00000000e+00   5.77702202e-13   2.76989649e-09   
188     1.88000000e+01   0.00000000e+00   5.77702202e-13   2.78470877e-09   
189     1.89000000e+01   0.00000000e+00   5.77702202e-13   2.79952105e-09   
190     1.90000000e+01   0.00000000e+00   5.77702202e-13   2.81433333e-09   
191     1.91000000e+01   0.00000000e+00   5.77702202e-13   2.82914561e-09   
192     1.92000000e+01   0.00000000e+00   5.77702202e-13   2.84395789e-09   
193     1.93000000e+01   0.00000000e+00   5.77702202e-13   2.85877017e-09   
194     1.94000000e+01   0.00000000e+00   5.77702202e-13   2.87358245e-09   
195     1.95000000e+01   0.00000000e+00   5.77702202e-13   2.88839473e-09   
196     1.96000000e+01   0.00000000e+00   5.77702202e-13   2.90320701e-09   
197     1.97000000e+01   0.00000000e+00   5.77702202e-13   2.91801929e-09   
198     1.98000000e+01   0.00000000e+00   5.77702202e-13   2.93283157e-09   
199     1.99000000e+01   0.00000000e+00   5.77702202e-13   2.94764385e-09   
200     2.00000000e+01   0.00000000e+00   5.77702202e-13   2.96245613e-09   
201     0.00000000e+00   2.00000000e-05   -1.99895451e-05  4.98559809e-03   
202     1.00000000e-01   2.00000000e-05   -3.05300932e-06  5.41719331e-03   
203     2.00000000e-01   2.00000000e-05   5.05130942e-04   3.18532475e-02   
204     3.00000000e-01   2.00000000e-05   2.69704983e-03   2.13630183e-01   
205     4.00000000e-01   2.00000000e-05   4.08862768e-03   4.25560041e-01   
206     5.00000000e-01   2.00000000e-05   4.40346930e-03   5.70764733e-01   
207     6.00000000e-01   2.00000000e-05   4.45245007e-03   6.91205686e-01   
208     7.00000000e-01   2.00000000e-05   4.45867517e-03   8.06483150e-01   
209     8.00000000e-01   2.00000000e-05   4.45857533e-03   9.20782265e-01   
210     9.00000000e-01   2.00000000e-05   4.45755182e-03   1.03486309e+00   
211     1.00000000e+00   2.00000000e-05   4.45639445e-03   1.14885710e+00   
212     1.10000000e+00   2.00000000e-05   4.45521867e-03   1.26278657e+00   
213     1.20000000e+00   2.00000000e-05   4.45404138e-03   1.37665528e+00   
214     1.30000000e+00   2.00000000e-05   4.45286503e-03   1.49046393e+00   
215     1.40000000e+00   2.00000000e-05   4.45168999e-03   1.60421273e+00   
216     1.50000000e+00   2.00000000e-05   4.45051632e-03   1.71790180e+00   
217     1.60000000e+00   2.00000000e-05   4.44934401e-03   1.83153124e+00   
218     1.70000000e+00   2.00000000e-05   4.44817306e-03   1.94510116e+00   
219     1.80000000e+00   2.00000000e-05   4.44700347e-03   2.05861166e+00   
220     1.90000000e+00   2.00000000e-05   4.44583524e-03   2.17206285e+00   
221     2.00000000e+00   2.00000000e-05   4.44466836e-03   2.28545483e+00   
222     2.10000000e+00   2.00000000e-05   4.44350283e-03   2.39878769e+00   
223     2.20000000e+00   2.00000000e-05   4.44233865e-03   2.51206155e+00   
224     2.30000000e+00   2.00000000e-05   4.44117582e-03   2.62527650e+00   
225     2.40000000e+00   2.00000000e-05   4.44001433e-03   2.73843265e+00   
226     2.50000000e+00   2.00000000e-05   4.43885418e-03   2.85153010e+00   
227     2.60000000e+00   2.00000000e-05   4.43769537e-03   2.96456895e+00   
228     2.70000000e+00   2.00000000e-05   4.43653788e-03   3.07754929e+00   
229     2.80000000e+00   2.00000000e-05   4.43538173e-03   3.19047124e+00   
230     2.90000000e+00   2.00000000e-05   4.43422691e-03   3.30333488e+00   
231     3.00000000e+00   2.00000000e-05   4.43307341e-03   3.41614033e+00   
232     3.10000000e+00   2.00000000e-05   4.43192124e-03   3.52888767e+00   
233     3.20000000e+00   2.00000000e-05   4.43077038e-03   3.64157702e+00   
234     3.30000000e+00   2.00000000e-05   4.42962084e-03   3.75420846e+00   
235     3.40000000e+00   2.00000000e-05   4.42847262e-03   3.86678210e+00   
236     3.50000000e+00   2.00000000e-05   4.42732570e-03   3.97929804e+00   
237     3.60000000e+00   2.00000000e-05   4.42618009e-03   4.09175637e+00   
238     3.70000000e+00   2.00000000e-05   4.42503579e-03   4.20415719e+00   
239     3.80000000e+00   2.00000000e-05   4.42389279e-03   4.31650060e+00   
240     3.90000000e+00   2.00000000e-05   4.42275108e-03   4.42878669e+00   
241     4.00000000e+00   2.00000000e-05   4.42161068e-03   4.54101557e+00   
242     4.10000000e+00   2.00000000e-05   4.42047157e-03   4.65318733e+00   
243     4.20000000e+00   2.00000000e-05   4.41933375e-03   4.76530207e+00   
244     4.30000000e+00   2.00000000e-05   4.41819721e-03   4.87735988e+00   
245     4.40000000e+00   2.00000000e-05   4.41706197e-03   4.98936086e+00   
246     4.50000000e+00   2.00000000e-05   4.41592800e-03   5.10130511e+00   
247     4.60000000e+00   2.00000000e-05   4.41479532e-03   5.21319271e+00   
248     4.70000000e+00   2.00000000e-05   4.41366391e-03   5.32502377e+00   
249     4.80000000e+00   2.00000000e-05   4.41253378e-03   5.43679838e+00   
250     4.90000000e+00   2.00000000e-05   4.41140492e-03   5.54851664e+00   
251     5.00000000e+00   2.00000000e-05   4.41027733e-03   5.66017863e+00   
252     5.10000000e+00   2.00000000e-05   4.40915100e-03   5.77178446e+00   
253     5.20000000e+00   2.00000000e-05   4.40802594e-03   5.88333422e+00   
254     5.30000000e+00   2.00000000e-05   4.40690214e-03   5.99482799e+00   
255     5.40000000e+00   2.00000000e-05   4.40577960e-03   6.10626588e+00   
256     5.50000000e+00   2.00000000e-05   4.40465831e-03   6.21764798e+00   
257     5.60000000e+00   2.00000000e-05   4.40353827e-03   6.32897438e+00   
