Index       FREQ        {SQRT(ABS(ONOISE))} {SQRT(ABS(INOISE))} {POW(ABS(DNO(RLOAD)),1/3)} {POW(ABS(DNO(M1,FLICKER_DI_SI_1OVERF)),1/3)} {POW(ABS(DNO(M1,WHITE_D_DI1_RD)),1/3)} {POW(ABS(DNO(M1,WHITE_DI1_DI_RD)),1/3)} {POW(ABS(DNO(M1,WHITE_DI_SI_ID)),1/3)} {POW(ABS(DNO(M1,WHITE_G_GE_RG)),1/3)} {POW(ABS(DNO(M1,WHITE_GI_DI_IGBD)),1/3)} {POW(ABS(DNO(M1,WHITE_GI_DI_IGD)),1/3)} {POW(ABS(DNO(M1,WHITE_GI_E_IGB)),1/3)} {POW(ABS(DNO(M1,WHITE_GI_SI_IGBS)),1/3)} {POW(ABS(DNO(M1,WHITE_GI_SI_IGS)),1/3)} {POW(ABS(DNO(M1,WHITE_N_GND_CORL)),1/3)} {POW(ABS(DNO(M1,WHITE_S_SI1_RS)),1/3)} {POW(ABS(DNO(M1,WHITE_SI1_SI_RS)),1/3)} {POW(ABS(DNO(M1)),1/3)} {POW(ABS(DNI(RLOAD)),1/3)} {POW(ABS(DNI(M1,FLICKER_DI_SI_1OVERF)),1/3)} {POW(ABS(DNI(M1,WHITE_D_DI1_RD)),1/3)} {POW(ABS(DNI(M1,WHITE_DI1_DI_RD)),1/3)} {POW(ABS(DNI(M1,WHITE_DI_SI_ID)),1/3)} {POW(ABS(DNI(M1,WHITE_G_GE_RG)),1/3)} {POW(ABS(DNI(M1,WHITE_GI_DI_IGBD)),1/3)} {POW(ABS(DNI(M1,WHITE_GI_DI_IGD)),1/3)} {POW(ABS(DNI(M1,WHITE_GI_E_IGB)),1/3)} {POW(ABS(DNI(M1,WHITE_GI_SI_IGBS)),1/3)} {POW(ABS(DNI(M1,WHITE_GI_SI_IGS)),1/3)} {POW(ABS(DNI(M1,WHITE_N_GND_CORL)),1/3)} {POW(ABS(DNI(M1,WHITE_S_SI1_RS)),1/3)} {POW(ABS(DNI(M1,WHITE_SI1_SI_RS)),1/3)} {POW(ABS(DNI(M1)),1/3)}
0        1.00000000e+03    3.20906954e-10    4.15243305e-07    2.57100381e-07    4.41358435e-07    0.00000000e+00    0.00000000e+00    2.24828973e-08    0.00000000e+00    0.00000000e+00    2.30003712e-11    0.00000000e+00    0.00000000e+00    0.00000000e+00    0.00000000e+00    0.00000000e+00    0.00000000e+00    4.41377881e-07    3.05294088e-05    5.24091486e-05    0.00000000e+00    0.00000000e+00    2.66973375e-06    0.00000000e+00    0.00000000e+00    2.73118123e-09    0.00000000e+00    0.00000000e+00    0.00000000e+00    0.00000000e+00    0.00000000e+00    0.00000000e+00    5.24114577e-05
1        1.23284674e+03    2.92278511e-10    3.81419966e-07    2.56375144e-07    4.09291805e-07    0.00000000e+00    0.00000000e+00    2.23561455e-08    0.00000000e+00    0.00000000e+00    2.28707020e-11    0.00000000e+00    0.00000000e+00    0.00000000e+00    0.00000000e+00    0.00000000e+00    0.00000000e+00    4.09314037e-07    3.06158938e-05    4.88769474e-05    0.00000000e+00    0.00000000e+00    2.66973375e-06    0.00000000e+00    0.00000000e+00    2.73118123e-09    0.00000000e+00    0.00000000e+00    0.00000000e+00    0.00000000e+00    0.00000000e+00    0.00000000e+00    4.88796023e-05
2        1.51991108e+03    2.67881888e-10    3.51553307e-07    2.55895360e-07    3.80279126e-07    0.00000000e+00    0.00000000e+00    2.22725219e-08    0.00000000e+00    0.00000000e+00    2.27851537e-11    0.00000000e+00    0.00000000e+00    0.00000000e+00    0.00000000e+00    0.00000000e+00    0.00000000e+00    3.80304591e-07    3.06733329e-05    4.55828047e-05    0.00000000e+00    0.00000000e+00    2.66973375e-06    0.00000000e+00    0.00000000e+00    2.73118123e-09    0.00000000e+00    0.00000000e+00    0.00000000e+00    0.00000000e+00    0.00000000e+00    0.00000000e+00    4.55858572e-05
3        1.87381742e+03    2.46944673e-10    3.25283100e-07    2.55578603e-07    3.53771999e-07    0.00000000e+00    0.00000000e+00    2.22174081e-08    0.00000000e+00    0.00000000e+00    2.27287714e-11    0.00000000e+00    0.00000000e+00    0.00000000e+00    0.00000000e+00    0.00000000e+00    0.00000000e+00    3.53801205e-07    3.07113601e-05    4.25106762e-05    0.00000000e+00    0.00000000e+00    2.66973375e-06    0.00000000e+00    0.00000000e+00    2.73118123e-09    0.00000000e+00    0.00000000e+00    0.00000000e+00    0.00000000e+00    0.00000000e+00    0.00000000e+00    4.25141858e-05
4        2.31012970e+03    2.28916057e-10    3.02275785e-07    2.55369739e-07    3.29389878e-07    0.00000000e+00    0.00000000e+00    2.21811070e-08    0.00000000e+00    0.00000000e+00    2.26916348e-11    0.00000000e+00    0.00000000e+00    0.00000000e+00    0.00000000e+00    0.00000000e+00    0.00000000e+00    3.29423402e-07    3.07364826e-05    3.96455989e-05    0.00000000e+00    0.00000000e+00    2.66973375e-06    0.00000000e+00    0.00000000e+00    2.73118123e-09    0.00000000e+00    0.00000000e+00    0.00000000e+00    0.00000000e+00    0.00000000e+00    0.00000000e+00    3.96496340e-05
5        2.84803587e+03    2.13382749e-10    2.82220612e-07    2.55232125e-07    3.06859098e-07    0.00000000e+00    0.00000000e+00    2.21572064e-08    0.00000000e+00    0.00000000e+00    2.26671840e-11    0.00000000e+00    0.00000000e+00    0.00000000e+00    0.00000000e+00    0.00000000e+00    0.00000000e+00    3.06897601e-07    3.07530565e-05    3.69736183e-05    0.00000000e+00    0.00000000e+00    2.66973375e-06    0.00000000e+00    0.00000000e+00    2.73118123e-09    0.00000000e+00    0.00000000e+00    0.00000000e+00    0.00000000e+00    0.00000000e+00    0.00000000e+00    3.69782575e-05
6        3.51119173e+03    2.00018196e-10    2.64826619e-07    2.55141501e-07    2.85974627e-07    0.00000000e+00    0.00000000e+00    2.21414741e-08    0.00000000e+00    0.00000000e+00    2.26510896e-11    0.00000000e+00    0.00000000e+00    0.00000000e+00    0.00000000e+00    0.00000000e+00    0.00000000e+00    2.86018863e-07    3.07639805e-05    3.44817201e-05    0.00000000e+00    0.00000000e+00    2.66973375e-06    0.00000000e+00    0.00000000e+00    2.73118123e-09    0.00000000e+00    0.00000000e+00    0.00000000e+00    0.00000000e+00    0.00000000e+00    0.00000000e+00    3.44870539e-05
7        4.32876128e+03    1.88551982e-10    2.49820420e-07    2.55081840e-07    2.66576178e-07    0.00000000e+00    0.00000000e+00    2.21311202e-08    0.00000000e+00    0.00000000e+00    2.26404974e-11    0.00000000e+00    0.00000000e+00    0.00000000e+00    0.00000000e+00    0.00000000e+00    0.00000000e+00    2.66627013e-07    3.07711762e-05    3.21577676e-05    0.00000000e+00    0.00000000e+00    2.66973375e-06    0.00000000e+00    0.00000000e+00    2.73118123e-09    0.00000000e+00    0.00000000e+00    0.00000000e+00    0.00000000e+00    0.00000000e+00    0.00000000e+00    3.21639000e-05
8        5.33669923e+03    1.78751543e-10    2.36944822e-07    2.55042572e-07    2.48533296e-07    0.00000000e+00    0.00000000e+00    2.21243066e-08    0.00000000e+00    0.00000000e+00    2.26335271e-11    0.00000000e+00    0.00000000e+00    0.00000000e+00    0.00000000e+00    0.00000000e+00    0.00000000e+00    2.48591724e-07    3.07759142e-05    2.99904417e-05    0.00000000e+00    0.00000000e+00    2.66973375e-06    0.00000000e+00    0.00000000e+00    2.73118123e-09    0.00000000e+00    0.00000000e+00    0.00000000e+00    0.00000000e+00    0.00000000e+00    0.00000000e+00    2.99974921e-05
9        6.57933225e+03    1.70411419e-10    2.25958219e-07    2.55016730e-07    2.31736014e-07    0.00000000e+00    0.00000000e+00    2.21198232e-08    0.00000000e+00    0.00000000e+00    2.26289405e-11    0.00000000e+00    0.00000000e+00    0.00000000e+00    0.00000000e+00    0.00000000e+00    0.00000000e+00    2.31803174e-07    3.07790331e-05    2.79691863e-05    0.00000000e+00    0.00000000e+00    2.66973375e-06    0.00000000e+00    0.00000000e+00    2.73118123e-09    0.00000000e+00    0.00000000e+00    0.00000000e+00    0.00000000e+00    0.00000000e+00    0.00000000e+00    2.79772921e-05
10       8.11130831e+03    1.63347153e-10    2.16634642e-07    2.54999725e-07    2.16088959e-07    0.00000000e+00    0.00000000e+00    2.21168732e-08    0.00000000e+00    0.00000000e+00    2.26259225e-11    0.00000000e+00    0.00000000e+00    0.00000000e+00    0.00000000e+00    0.00000000e+00    0.00000000e+00    2.16166161e-07    3.07810858e-05    2.60841568e-05    0.00000000e+00    0.00000000e+00    2.66973375e-06    0.00000000e+00    0.00000000e+00    2.73118123e-09    0.00000000e+00    0.00000000e+00    0.00000000e+00    0.00000000e+00    0.00000000e+00    0.00000000e+00    2.60934758e-05
11       1.00000000e+04    1.57391974e-10    2.08764232e-07    2.54988535e-07    2.01507600e-07    0.00000000e+00    0.00000000e+00    2.21149322e-08    0.00000000e+00    0.00000000e+00    2.26239368e-11    0.00000000e+00    0.00000000e+00    0.00000000e+00    0.00000000e+00    0.00000000e+00    0.00000000e+00    2.01596349e-07    3.07824366e-05    2.43261719e-05    0.00000000e+00    0.00000000e+00    2.66973375e-06    0.00000000e+00    0.00000000e+00    2.73118123e-09    0.00000000e+00    0.00000000e+00    0.00000000e+00    0.00000000e+00    0.00000000e+00    0.00000000e+00    2.43368857e-05
12       1.23284674e+04    1.52395097e-10    2.02153900e-07    2.54981172e-07    1.87915810e-07    0.00000000e+00    0.00000000e+00    2.21136550e-08    0.00000000e+00    0.00000000e+00    2.26226303e-11    0.00000000e+00    0.00000000e+00    0.00000000e+00    0.00000000e+00    0.00000000e+00    0.00000000e+00    1.88017833e-07    3.07833255e-05    2.26866693e-05    0.00000000e+00    0.00000000e+00    2.66973375e-06    0.00000000e+00    0.00000000e+00    2.73118123e-09    0.00000000e+00    0.00000000e+00    0.00000000e+00    0.00000000e+00    0.00000000e+00    0.00000000e+00    2.26989863e-05
13       1.51991108e+04    1.48220840e-10    1.96627907e-07    2.54976328e-07    1.75244254e-07    0.00000000e+00    0.00000000e+00    2.21128148e-08    0.00000000e+00    0.00000000e+00    2.26217707e-11    0.00000000e+00    0.00000000e+00    0.00000000e+00    0.00000000e+00    0.00000000e+00    0.00000000e+00    1.75361536e-07    3.07839104e-05    2.11576637e-05    0.00000000e+00    0.00000000e+00    2.66973375e-06    0.00000000e+00    0.00000000e+00    2.73118123e-09    0.00000000e+00    0.00000000e+00    0.00000000e+00    0.00000000e+00    0.00000000e+00    0.00000000e+00    2.11718235e-05
14       1.87381742e+04    1.44748066e-10    1.92028169e-07    2.54973141e-07    1.63429292e-07    0.00000000e+00    0.00000000e+00    2.21122619e-08    0.00000000e+00    0.00000000e+00    2.26212051e-11    0.00000000e+00    0.00000000e+00    0.00000000e+00    0.00000000e+00    0.00000000e+00    0.00000000e+00    1.63564114e-07    3.07842952e-05    1.97317080e-05    0.00000000e+00    0.00000000e+00    2.66973375e-06    0.00000000e+00    0.00000000e+00    2.73118123e-09    0.00000000e+00    0.00000000e+00    0.00000000e+00    0.00000000e+00    0.00000000e+00    0.00000000e+00    1.97479858e-05
15       2.31012970e+04    1.41869637e-10    1.88214183e-07    2.54971043e-07    1.52412197e-07    0.00000000e+00    0.00000000e+00    2.21118982e-08    0.00000000e+00    0.00000000e+00    2.26208330e-11    0.00000000e+00    0.00000000e+00    0.00000000e+00    0.00000000e+00    0.00000000e+00    0.00000000e+00    1.52567177e-07    3.07845484e-05    1.84018569e-05    0.00000000e+00    0.00000000e+00    2.66973375e-06    0.00000000e+00    0.00000000e+00    2.73118123e-09    0.00000000e+00    0.00000000e+00    0.00000000e+00    0.00000000e+00    0.00000000e+00    0.00000000e+00    1.84205688e-05
16       2.84803587e+04    1.39491750e-10    1.85062516e-07    2.54969664e-07    1.42138587e-07    0.00000000e+00    0.00000000e+00    2.21116588e-08    0.00000000e+00    0.00000000e+00    2.26205882e-11    0.00000000e+00    0.00000000e+00    0.00000000e+00    0.00000000e+00    0.00000000e+00    0.00000000e+00    1.42316732e-07    3.07847150e-05    1.71616334e-05    0.00000000e+00    0.00000000e+00    2.66973375e-06    0.00000000e+00    0.00000000e+00    2.73118123e-09    0.00000000e+00    0.00000000e+00    0.00000000e+00    0.00000000e+00    0.00000000e+00    0.00000000e+00    1.71831424e-05
17       3.51119173e+04    1.37533085e-10    1.82465922e-07    2.54968756e-07    1.32557978e-07    0.00000000e+00    0.00000000e+00    2.21115014e-08    0.00000000e+00    0.00000000e+00    2.26204271e-11    0.00000000e+00    0.00000000e+00    0.00000000e+00    0.00000000e+00    0.00000000e+00    0.00000000e+00    1.32762741e-07    3.07848246e-05    1.60049967e-05    0.00000000e+00    0.00000000e+00    2.66973375e-06    0.00000000e+00    0.00000000e+00    2.73118123e-09    0.00000000e+00    0.00000000e+00    0.00000000e+00    0.00000000e+00    0.00000000e+00    0.00000000e+00    1.60297197e-05
18       4.32876128e+04    1.35923807e-10    1.80332150e-07    2.54968159e-07    1.23623435e-07    0.00000000e+00    0.00000000e+00    2.21113978e-08    0.00000000e+00    0.00000000e+00    2.26203211e-11    0.00000000e+00    0.00000000e+00    0.00000000e+00    0.00000000e+00    0.00000000e+00    0.00000000e+00    1.23858776e-07    3.07848967e-05    1.49263135e-05    0.00000000e+00    0.00000000e+00    2.66973375e-06    0.00000000e+00    0.00000000e+00    2.73118123e-09    0.00000000e+00    0.00000000e+00    0.00000000e+00    0.00000000e+00    0.00000000e+00    0.00000000e+00    1.49547287e-05
19       5.33669923e+04    1.34604453e-10    1.78582569e-07    2.54967766e-07    1.15291273e-07    0.00000000e+00    0.00000000e+00    2.21113296e-08    0.00000000e+00    0.00000000e+00    2.26202514e-11    0.00000000e+00    0.00000000e+00    0.00000000e+00    0.00000000e+00    0.00000000e+00    0.00000000e+00    1.15561739e-07    3.07849442e-05    1.39203299e-05    0.00000000e+00    0.00000000e+00    2.66973375e-06    0.00000000e+00    0.00000000e+00    2.73118123e-09    0.00000000e+00    0.00000000e+00    0.00000000e+00    0.00000000e+00    0.00000000e+00    0.00000000e+00    1.39529861e-05
20       6.57933225e+04    1.33524777e-10    1.77150679e-07    2.54967507e-07    1.07520809e-07    0.00000000e+00    0.00000000e+00    2.21112848e-08    0.00000000e+00    0.00000000e+00    2.26202055e-11    0.00000000e+00    0.00000000e+00    0.00000000e+00    0.00000000e+00    0.00000000e+00    0.00000000e+00    1.07831609e-07    3.07849754e-05    1.29821463e-05    0.00000000e+00    0.00000000e+00    2.66973375e-06    0.00000000e+00    0.00000000e+00    2.73118123e-09    0.00000000e+00    0.00000000e+00    0.00000000e+00    0.00000000e+00    0.00000000e+00    0.00000000e+00    1.30196725e-05
21       8.11130831e+04    1.32642606e-10    1.75980633e-07    2.54967337e-07    1.00274133e-07    0.00000000e+00    0.00000000e+00    2.21112553e-08    0.00000000e+00    0.00000000e+00    2.26201753e-11    0.00000000e+00    0.00000000e+00    0.00000000e+00    0.00000000e+00    0.00000000e+00    0.00000000e+00    1.00631237e-07    3.07849960e-05    1.21071931e-05    0.00000000e+00    0.00000000e+00    2.66973375e-06    0.00000000e+00    0.00000000e+00    2.73118123e-09    0.00000000e+00    0.00000000e+00    0.00000000e+00    0.00000000e+00    0.00000000e+00    0.00000000e+00    1.21503102e-05
22       1.00000000e+05    1.31922744e-10    1.75025802e-07    2.54967225e-07    9.35159098e-08    0.00000000e+00    0.00000000e+00    2.21112359e-08    0.00000000e+00    0.00000000e+00    2.26201555e-11    0.00000000e+00    0.00000000e+00    0.00000000e+00    0.00000000e+00    0.00000000e+00    0.00000000e+00    9.39261545e-08    3.07850095e-05    1.12912088e-05    0.00000000e+00    0.00000000e+00    2.66973375e-06    0.00000000e+00    0.00000000e+00    2.73118123e-09    0.00000000e+00    0.00000000e+00    0.00000000e+00    0.00000000e+00    0.00000000e+00    0.00000000e+00    1.13407422e-05
23       1.23284674e+05    1.31335959e-10    1.74247449e-07    2.54967151e-07    8.72132001e-08    0.00000000e+00    0.00000000e+00    2.21112231e-08    0.00000000e+00    0.00000000e+00    2.26201424e-11    0.00000000e+00    0.00000000e+00    0.00000000e+00    0.00000000e+00    0.00000000e+00    0.00000000e+00    8.76844034e-08    3.07850184e-05    1.05302191e-05    0.00000000e+00    0.00000000e+00    2.66973375e-06    0.00000000e+00    0.00000000e+00    2.73118123e-09    0.00000000e+00    0.00000000e+00    0.00000000e+00    0.00000000e+00    0.00000000e+00    0.00000000e+00    1.05871127e-05
24       1.51991108e+05    1.30858078e-10    1.73613528e-07    2.54967103e-07    8.13352914e-08    0.00000000e+00    0.00000000e+00    2.21112147e-08    0.00000000e+00    0.00000000e+00    2.26201338e-11    0.00000000e+00    0.00000000e+00    0.00000000e+00    0.00000000e+00    0.00000000e+00    0.00000000e+00    8.18763851e-08    3.07850242e-05    9.82051757e-06    0.00000000e+00    0.00000000e+00    2.66973375e-06    0.00000000e+00    0.00000000e+00    2.73118123e-09    0.00000000e+00    0.00000000e+00    0.00000000e+00    0.00000000e+00    0.00000000e+00    0.00000000e+00    9.88584986e-06
25       1.87381742e+05    1.30469175e-10    1.73097623e-07    2.54967071e-07    7.58535460e-08    0.00000000e+00    0.00000000e+00    2.21112092e-08    0.00000000e+00    0.00000000e+00    2.26201281e-11    0.00000000e+00    0.00000000e+00    0.00000000e+00    0.00000000e+00    0.00000000e+00    0.00000000e+00    7.64747194e-08    3.07850281e-05    9.15864756e-06    0.00000000e+00    0.00000000e+00    2.66973375e-06    0.00000000e+00    0.00000000e+00    2.73118123e-09    0.00000000e+00    0.00000000e+00    0.00000000e+00    0.00000000e+00    0.00000000e+00    0.00000000e+00    9.23364877e-06
26       2.31012970e+05    1.30152874e-10    1.72678020e-07    2.54967050e-07    7.07412593e-08    0.00000000e+00    0.00000000e+00    2.21112055e-08    0.00000000e+00    0.00000000e+00    2.26201244e-11    0.00000000e+00    0.00000000e+00    0.00000000e+00    0.00000000e+00    0.00000000e+00    0.00000000e+00    7.14541146e-08    3.07850306e-05    8.54138537e-06    0.00000000e+00    0.00000000e+00    2.66973375e-06    0.00000000e+00    0.00000000e+00    2.73118123e-09    0.00000000e+00    0.00000000e+00    0.00000000e+00    0.00000000e+00    0.00000000e+00    0.00000000e+00    8.62745639e-06
27       2.84803587e+05    1.29895750e-10    1.72336913e-07    2.54967036e-07    6.59735280e-08    0.00000000e+00    0.00000000e+00    2.21112031e-08    0.00000000e+00    0.00000000e+00    2.26201220e-11    0.00000000e+00    0.00000000e+00    0.00000000e+00    0.00000000e+00    0.00000000e+00    0.00000000e+00    6.67912480e-08    3.07850323e-05    7.96572458e-06    0.00000000e+00    0.00000000e+00    2.66973375e-06    0.00000000e+00    0.00000000e+00    2.73118123e-09    0.00000000e+00    0.00000000e+00    0.00000000e+00    0.00000000e+00    0.00000000e+00    0.00000000e+00    8.06445710e-06
28       3.51119173e+05    1.29686816e-10    1.72059731e-07    2.54967027e-07    6.15271286e-08    0.00000000e+00    0.00000000e+00    2.21112015e-08    0.00000000e+00    0.00000000e+00    2.26201204e-11    0.00000000e+00    0.00000000e+00    0.00000000e+00    0.00000000e+00    0.00000000e+00    0.00000000e+00    6.24646511e-08    3.07850334e-05    7.42886140e-06    0.00000000e+00    0.00000000e+00    2.66973375e-06    0.00000000e+00    0.00000000e+00    2.73118123e-09    0.00000000e+00    0.00000000e+00    0.00000000e+00    0.00000000e+00    0.00000000e+00    0.00000000e+00    7.54205903e-06
29       4.32876128e+05    1.29517097e-10    1.71834571e-07    2.54967021e-07    5.73804034e-08    0.00000000e+00    0.00000000e+00    2.21112005e-08    0.00000000e+00    0.00000000e+00    2.26201193e-11    0.00000000e+00    0.00000000e+00    0.00000000e+00    0.00000000e+00    0.00000000e+00    0.00000000e+00    5.84545996e-08    3.07850341e-05    6.92818101e-06    0.00000000e+00    0.00000000e+00    2.66973375e-06    0.00000000e+00    0.00000000e+00    2.73118123e-09    0.00000000e+00    0.00000000e+00    0.00000000e+00    0.00000000e+00    0.00000000e+00    0.00000000e+00    7.05788079e-06
30       5.33669923e+05    1.29379269e-10    1.71651719e-07    2.54967017e-07    5.35131546e-08    0.00000000e+00    0.00000000e+00    2.21111998e-08    0.00000000e+00    0.00000000e+00    2.26201186e-11    0.00000000e+00    0.00000000e+00    0.00000000e+00    0.00000000e+00    0.00000000e+00    0.00000000e+00    5.47430035e-08    3.07850346e-05    6.46124480e-06    0.00000000e+00    0.00000000e+00    2.66973375e-06    0.00000000e+00    0.00000000e+00    2.73118123e-09    0.00000000e+00    0.00000000e+00    0.00000000e+00    0.00000000e+00    0.00000000e+00    0.00000000e+00    6.60973828e-06
