Index       FREQ        {SQRT(ABS(ONOISE))} {SQRT(ABS(INOISE))} {POW(ABS(DNO(RLOAD)),1/3)} {POW(ABS(DNO(M1,FLICKER_DI_SI_FLICKER)),1/3)} {POW(ABS(DNO(M1,WHITE_D_DI_THERMAL)),1/3)} {POW(ABS(DNO(M1,WHITE_S_SI_THERMAL)),1/3)} {POW(ABS(DNO(M1,WHITE_DI_SI_THERMAL)),1/3)} {POW(ABS(DNO(M1,WHITE_G_SI_SHOT)),1/3)} {POW(ABS(DNO(M1,WHITE_G_E_SHOT)),1/3)} {POW(ABS(DNO(M1,WHITE_G_DI_SHOT)),1/3)} {POW(ABS(DNO(M1)),1/3)} {POW(ABS(DNI(RLOAD)),1/3)} {POW(ABS(DNI(M1,FLICKER_DI_SI_FLICKER)),1/3)} {POW(ABS(DNI(M1,WHITE_D_DI_THERMAL)),1/3)} {POW(ABS(DNI(M1,WHITE_S_SI_THERMAL)),1/3)} {POW(ABS(DNI(M1,WHITE_DI_SI_THERMAL)),1/3)} {POW(ABS(DNI(M1,WHITE_G_SI_SHOT)),1/3)} {POW(ABS(DNI(M1,WHITE_G_E_SHOT)),1/3)} {POW(ABS(DNI(M1,WHITE_G_DI_SHOT)),1/3)} {POW(ABS(DNI(M1)),1/3)}
0        1.00000000e+03    3.35167857e-10    4.24868776e-07    2.57100099e-07    4.56820966e-07    2.28593949e-11    2.22596350e-10    2.23693671e-08    1.78990102e-15    0.00000000e+00    1.31334475e-11    4.56838844e-07    3.01136833e-05    5.35066379e-05    2.67748081e-09    2.60723198e-08    2.62008471e-06    2.09647964e-13    0.00000000e+00    1.53829765e-09    5.35087320e-05
1        1.23284674e+03    3.04775610e-10    3.89632955e-07    2.56374865e-07    4.23630920e-07    2.27305208e-11    2.21341420e-10    2.22432555e-08    1.77981010e-15    0.00000000e+00    1.30594051e-11    4.23651360e-07    3.01989906e-05    4.99004696e-05    2.67748082e-09    2.60723198e-08    2.62008471e-06    2.09647964e-13    0.00000000e+00    1.53829765e-09    4.99028773e-05
2        1.51991108e+03    2.78828284e-10    3.58470642e-07    2.55895083e-07    3.93601813e-07    2.26454970e-11    2.20513490e-10    2.21600543e-08    1.77315270e-15    0.00000000e+00    1.30105563e-11    3.93625226e-07    3.02556476e-05    4.65373450e-05    2.67748082e-09    2.60723198e-08    2.62008471e-06    2.09647964e-13    0.00000000e+00    1.53829765e-09    4.65401132e-05
3        1.87381742e+03    2.56514915e-10    3.31011734e-07    2.55578327e-07    3.66166038e-07    2.25894603e-11    2.19967826e-10    2.21052189e-08    1.76876501e-15    0.00000000e+00    1.29783615e-11    3.66192890e-07    3.02931570e-05    4.34008837e-05    2.67748081e-09    2.60723198e-08    2.62008471e-06    2.09647964e-13    0.00000000e+00    1.53829765e-09    4.34040664e-05
4        2.31012970e+03    2.37258528e-10    3.06914821e-07    2.55369464e-07    3.40929715e-07    2.25525514e-11    2.19608421e-10    2.20691012e-08    1.76587502e-15    0.00000000e+00    1.29571561e-11    3.40960538e-07    3.03179374e-05    4.04758094e-05    2.67748081e-09    2.60723198e-08    2.62008471e-06    2.09647964e-13    0.00000000e+00    1.53829765e-09    4.04794687e-05
5        2.84803587e+03    2.20627508e-10    2.85863041e-07    2.55231851e-07    3.17609593e-07    2.25282506e-11    2.19371788e-10    2.20453212e-08    1.76397225e-15    0.00000000e+00    1.29431945e-11    3.17644992e-07    3.03342855e-05    3.77478753e-05    2.67748082e-09    2.60723198e-08    2.62008471e-06    2.09647964e-13    0.00000000e+00    1.53829765e-09    3.77520825e-05
6        3.51119173e+03    2.06281961e-10    2.67560690e-07    2.55141227e-07    2.95993456e-07    2.25122549e-11    2.19216027e-10    2.20296684e-08    1.76271978e-15    0.00000000e+00    1.29340044e-11    2.96034127e-07    3.03450608e-05    3.52037948e-05    2.67748082e-09    2.60723198e-08    2.62008471e-06    2.09647964e-13    0.00000000e+00    1.53829765e-09    3.52086320e-05
7        4.32876128e+03    1.93941272e-10    2.51730593e-07    2.55081567e-07    2.75915403e-07    2.25017276e-11    2.19113517e-10    2.20193668e-08    1.76189549e-15    0.00000000e+00    1.29279562e-11    2.75962141e-07    3.03521585e-05    3.28311769e-05    2.67748082e-09    2.60723198e-08    2.62008471e-06    2.09647964e-13    0.00000000e+00    1.53829765e-09    3.28367382e-05
8        5.33669923e+03    1.83364576e-10    2.38112276e-07    2.55042299e-07    2.57240407e-07    2.24948000e-11    2.19046058e-10    2.20125877e-08    1.76135306e-15    0.00000000e+00    1.29239761e-11    2.57294126e-07    3.03568320e-05    3.06184655e-05    2.67748082e-09    2.60723198e-08    2.62008471e-06    2.09647964e-13    0.00000000e+00    1.53829765e-09    3.06248594e-05
9        6.57933225e+03    1.74339163e-10    2.26460954e-07    2.55016457e-07    2.39854649e-07    2.24902415e-11    2.19001669e-10    2.20081269e-08    1.76099613e-15    0.00000000e+00    1.29213571e-11    2.39916397e-07    3.03599084e-05    2.85548834e-05    2.67748082e-09    2.60723198e-08    2.62008471e-06    2.09647964e-13    0.00000000e+00    1.53829765e-09    2.85622345e-05
10       8.11130831e+03    1.66673807e-10    2.16547222e-07    2.54999451e-07    2.23659416e-07    2.24872421e-11    2.18972462e-10    2.20051918e-08    1.76076127e-15    0.00000000e+00    1.29196338e-11    2.23730397e-07    3.03619331e-05    2.66303798e-05    2.67748082e-09    2.60723198e-08    2.62008471e-06    2.09647964e-13    0.00000000e+00    1.53829765e-09    2.66388313e-05
11       1.00000000e+04    1.60195102e-10    2.08157311e-07    2.54988262e-07    2.08567214e-07    2.24852686e-11    2.18953244e-10    2.20032606e-08    1.76060674e-15    0.00000000e+00    1.29184999e-11    2.08648812e-07    3.03632656e-05    2.48355813e-05    2.67748082e-09    2.60723198e-08    2.62008471e-06    2.09647964e-13    0.00000000e+00    1.53829765e-09    2.48452978e-05
12       1.23284674e+04    1.54745593e-10    2.01093644e-07    2.54980899e-07    1.94499249e-07    2.24839700e-11    2.18940600e-10    2.20019899e-08    1.76050507e-15    0.00000000e+00    1.29177539e-11    1.94593053e-07    3.03641423e-05    2.31617463e-05    2.67748082e-09    2.60723198e-08    2.62008471e-06    2.09647964e-13    0.00000000e+00    1.53829765e-09    2.31729168e-05
13       1.51991108e+04    1.50182862e-10    1.95175448e-07    2.54976055e-07    1.81383758e-07    2.24831157e-11    2.18932281e-10    2.20011539e-08    1.76043817e-15    0.00000000e+00    1.29172631e-11    1.81491593e-07    3.03647193e-05    2.16007221e-05    2.67748083e-09    2.60723198e-08    2.62008471e-06    2.09647964e-13    0.00000000e+00    1.53829765e-09    2.16135640e-05
14       1.87381742e+04    1.46379037e-10    1.90239188e-07    2.54972867e-07    1.69154871e-07    2.24825536e-11    2.18926807e-10    2.20006038e-08    1.76039416e-15    0.00000000e+00    1.29169401e-11    1.69278835e-07    3.03650989e-05    2.01449057e-05    2.67748082e-09    2.60723198e-08    2.62008471e-06    2.09647964e-13    0.00000000e+00    1.53829765e-09    2.01596688e-05
15       2.31012970e+04    1.43220373e-10    1.86138673e-07    2.54970770e-07    1.57751803e-07    2.24821837e-11    2.18923206e-10    2.20002419e-08    1.76036520e-15    0.00000000e+00    1.29167276e-11    1.57894305e-07    3.03653486e-05    1.87872065e-05    2.67748081e-09    2.60723198e-08    2.62008471e-06    2.09647964e-13    0.00000000e+00    1.53829765e-09    1.88041775e-05
16       2.84803587e+04    1.40606716e-10    1.82744759e-07    2.54969390e-07    1.47118268e-07    2.24819404e-11    2.18920836e-10    2.20000038e-08    1.76034615e-15    0.00000000e+00    1.29165878e-11    1.47282074e-07    3.03655130e-05    1.75210117e-05    2.67748082e-09    2.60723198e-08    2.62008471e-06    2.09647964e-13    0.00000000e+00    1.53829765e-09    1.75405201e-05
17       3.51119173e+04    1.38450785e-10    1.79944644e-07    2.54968483e-07    1.37202012e-07    2.24817802e-11    2.18919277e-10    2.19998471e-08    1.76033361e-15    0.00000000e+00    1.29164958e-11    1.37390299e-07    3.03656211e-05    1.63401541e-05    2.67748081e-09    2.60723198e-08    2.62008471e-06    2.09647964e-13    0.00000000e+00    1.53829765e-09    1.63625783e-05
18       4.32876128e+04    1.36677258e-10    1.77640838e-07    2.54967885e-07    1.27954456e-07    2.24816750e-11    2.18918252e-10    2.19997441e-08    1.76032536e-15    0.00000000e+00    1.29164353e-11    1.28170871e-07    3.03656922e-05    1.52388824e-05    2.67748082e-09    2.60723198e-08    2.62008471e-06    2.09647964e-13    0.00000000e+00    1.53829765e-09    1.52646566e-05
19       5.33669923e+04    1.35221728e-10    1.75749883e-07    2.54967492e-07    1.19330386e-07    2.24816057e-11    2.18917577e-10    2.19996762e-08    1.76031994e-15    0.00000000e+00    1.29163955e-11    1.19579112e-07    3.03657390e-05    1.42118327e-05    2.67748083e-09    2.60723198e-08    2.62008471e-06    2.09647964e-13    0.00000000e+00    1.53829765e-09    1.42414551e-05
20       6.57933225e+04    1.34029564e-10    1.74200938e-07    2.54967234e-07    1.11287692e-07    2.24815600e-11    2.18917133e-10    2.19996316e-08    1.76031637e-15    0.00000000e+00    1.29163693e-11    1.11573527e-07    3.03657698e-05    1.32540028e-05    2.67748081e-09    2.60723198e-08    2.62008471e-06    2.09647964e-13    0.00000000e+00    1.53829765e-09    1.32880449e-05
21       8.11130831e+04    1.33054761e-10    1.72934313e-07    2.54967064e-07    1.03787135e-07    2.24815300e-11    2.18916841e-10    2.19996023e-08    1.76031402e-15    0.00000000e+00    1.29163521e-11    1.04115580e-07    3.03657901e-05    1.23607273e-05    2.67748081e-09    2.60723198e-08    2.62008471e-06    2.09647964e-13    0.00000000e+00    1.53829765e-09    1.23998442e-05
22       1.00000000e+05    1.32258817e-10    1.71900034e-07    2.54966952e-07    9.67921446e-08    2.24815103e-11    2.18916649e-10    2.19995829e-08    1.76031247e-15    0.00000000e+00    1.29163407e-11    9.71694997e-08    3.03658034e-05    1.15276557e-05    2.67748082e-09    2.60723198e-08    2.62008471e-06    2.09647964e-13    0.00000000e+00    1.53829765e-09    1.15725976e-05
23       1.23284674e+05    1.31609685e-10    1.71056488e-07    2.54966878e-07    9.02686259e-08    2.24814973e-11    2.18916522e-10    2.19995702e-08    1.76031145e-15    0.00000000e+00    1.29163333e-11    9.07021011e-08    3.03658122e-05    1.07507303e-05    2.67748081e-09    2.60723198e-08    2.62008471e-06    2.09647964e-13    0.00000000e+00    1.53829765e-09    1.08023559e-05
24       1.51991108e+05    1.31080803e-10    1.70369183e-07    2.54966830e-07    8.41847906e-08    2.24814888e-11    2.18916439e-10    2.19995619e-08    1.76031079e-15    0.00000000e+00    1.29163284e-11    8.46826289e-08    3.03658179e-05    1.00261670e-05    2.67748082e-09    2.60723198e-08    2.62008471e-06    2.09647964e-13    0.00000000e+00    1.53829765e-09    1.00854582e-05
25       1.87381742e+05    1.30650244e-10    1.69809639e-07    2.54966798e-07    7.85109979e-08    2.24814831e-11    2.18916384e-10    2.19995564e-08    1.76031035e-15    0.00000000e+00    1.29163251e-11    7.90826105e-08    3.03658217e-05    9.35043694e-06    2.67748081e-09    2.60723198e-08    2.62008471e-06    2.09647964e-13    0.00000000e+00    1.53829765e-09    9.41851438e-06
26       2.31012970e+05    1.30299964e-10    1.69354412e-07    2.54966777e-07    7.32196073e-08    2.24814794e-11    2.18916348e-10    2.19995528e-08    1.76031006e-15    0.00000000e+00    1.29163230e-11    7.38757225e-08    3.03658242e-05    8.72024879e-06    2.67748081e-09    2.60723198e-08    2.62008471e-06    2.09647964e-13    0.00000000e+00    1.53829765e-09    8.79839025e-06
27       2.84803587e+05    1.30015151e-10    1.68984260e-07    2.54966763e-07    6.82848435e-08    2.24814771e-11    2.18916324e-10    2.19995504e-08    1.76030987e-15    0.00000000e+00    1.29163216e-11    6.90376663e-08    3.03658259e-05    8.13253320e-06    2.67748082e-09    2.60723198e-08    2.62008471e-06    2.09647964e-13    0.00000000e+00    1.53829765e-09    8.22219229e-06
28       3.51119173e+05    1.29783673e-10    1.68683420e-07    2.54966754e-07    6.36826690e-08    2.24814754e-11    2.18916309e-10    2.19995488e-08    1.76030974e-15    0.00000000e+00    1.29163207e-11    6.45460516e-08    3.03658270e-05    7.58442768e-06    2.67748082e-09    2.60723198e-08    2.62008471e-06    2.09647964e-13    0.00000000e+00    1.53829765e-09    7.68725414e-06
29       4.32876128e+05    1.29595611e-10    1.68439003e-07    2.54966748e-07    5.93906675e-08    2.24814744e-11    2.18916299e-10    2.19995478e-08    1.76030966e-15    0.00000000e+00    1.29163201e-11    6.03802854e-08    3.03658277e-05    7.07326264e-06    2.67748082e-09    2.60723198e-08    2.62008471e-06    2.09647964e-13    0.00000000e+00    1.53829765e-09    7.19112337e-06
30       5.33669923e+05    1.29442868e-10    1.68240487e-07    2.54966744e-07    5.53879336e-08    2.24814737e-11    2.18916292e-10    2.19995471e-08    1.76030960e-15    0.00000000e+00    1.29163197e-11    5.65214620e-08    3.03658281e-05    6.59654841e-06    2.67748082e-09    2.60723198e-08    2.62008471e-06    2.09647964e-13    0.00000000e+00    1.53829765e-09    6.73154849e-06
31       6.57933225e+05    1.29318842e-10    1.68079291e-07    2.54966742e-07    5.16549712e-08    2.24814733e-11    2.18916287e-10    2.19995467e-08    1.76030957e-15    0.00000000e+00    1.29163194e-11    5.29522542e-08    3.03658284e-05    6.15196313e-06    2.67748082e-09    2.60723198e-08    2.62008471e-06    2.09647964e-13    0.00000000e+00    1.53829765e-09    6.30646592e-06
32       8.11130831e+05    1.29218154e-10    1.67948427e-07    2.54966740e-07    4.81735983e-08    2.24814730e-11    2.18916284e-10    2.19995464e-08    1.76030954e-15    0.00000000e+00    1.29163193e-11    4.96567974e-08    3.03658287e-05    5.73734140e-06    2.67748082e-09    2.60723198e-08    2.62008471e-06    2.09647964e-13    0.00000000e+00    1.53829765e-09    5.91398628e-06
33       1.00000000e+06    1.29136425e-10    1.67842204e-07    2.54966739e-07    4.49268587e-08    2.24814728e-11    2.18916283e-10    2.19995462e-08    1.76030953e-15    0.00000000e+00    1.29163191e-11    4.66205666e-08    3.03658288e-05    5.35066379e-06    2.67748082e-09    2.60723198e-08    2.62008471e-06    2.09647964e-13    0.00000000e+00    1.53829765e-09    5.55237969e-06
34       1.23284674e+06    1.29070094e-10    1.67755993e-07    2.54966738e-07    4.18989385e-08    2.24814726e-11    2.18916281e-10    2.19995460e-08    1.76030952e-15    0.00000000e+00    1.29163191e-11    4.38302377e-08    3.03658289e-05    4.99004696e-06    2.67748081e-09    2.60723198e-08    2.62008471e-06    2.09647964e-13    0.00000000e+00    1.53829765e-09    5.22005932e-06
35       1.51991108e+06    1.29016266e-10    1.67686032e-07    2.54966737e-07    3.90750901e-08    2.24814725e-11    2.18916280e-10    2.19995460e-08    1.76030951e-15    0.00000000e+00    1.29163190e-11    4.12735325e-08    3.03658289e-05    4.65373450e-06    2.67748082e-09    2.60723198e-08    2.62008471e-06    2.09647964e-13    0.00000000e+00    1.53829765e-09    4.91556287e-06
36       1.87381742e+06    1.28972588e-10    1.67629263e-07    2.54966737e-07    3.64415597e-08    2.24814725e-11    2.18916280e-10    2.19995459e-08    1.76030951e-15    0.00000000e+00    1.29163190e-11    3.89390411e-08    3.03658290e-05    4.34008837e-06    2.67748082e-09    2.60723198e-08    2.62008471e-06    2.09647964e-13    0.00000000e+00    1.53829765e-09    4.63753144e-06
37       2.31012970e+06    1.28937148e-10    1.67583202e-07    2.54966737e-07    3.39855205e-08    2.24814725e-11    2.18916280e-10    2.19995459e-08    1.76030950e-15    0.00000000e+00    1.29163190e-11    3.68160231e-08    3.03658290e-05    4.04758094e-06    2.67748082e-09    2.60723198e-08    2.62008471e-06    2.09647964e-13    0.00000000e+00    1.53829765e-09    4.38468592e-06
38       2.84803587e+06    1.28908395e-10    1.67545831e-07    2.54966737e-07    3.16950102e-08    2.24814724e-11    2.18916279e-10    2.19995458e-08    1.76030950e-15    0.00000000e+00    1.29163190e-11    3.48941903e-08    3.03658290e-05    3.77478753e-06    2.67748082e-09    2.60723198e-08    2.62008471e-06    2.09647964e-13    0.00000000e+00    1.53829765e-09    4.15580099e-06
39       3.51119173e+06    1.28885068e-10    1.67515512e-07    2.54966737e-07    2.95588725e-08    2.24814725e-11    2.18916279e-10    2.19995458e-08    1.76030950e-15    0.00000000e+00    1.29163189e-11    3.31634785e-08    3.03658290e-05    3.52037948e-06    2.67748083e-09    2.60723198e-08    2.62008471e-06    2.09647964e-13    0.00000000e+00    1.53829765e-09    3.94967803e-06
40       4.32876128e+06    1.28866143e-10    1.67490916e-07    2.54966737e-07    2.75667034e-08    2.24814724e-11    2.18916279e-10    2.19995458e-08    1.76030950e-15    0.00000000e+00    1.29163189e-11    3.16138241e-08    3.03658290e-05    3.28311769e-06    2.67748082e-09    2.60723198e-08    2.62008471e-06    2.09647964e-13    0.00000000e+00    1.53829765e-09    3.76511851e-06
41       5.33669923e+06    1.28850791e-10    1.67470962e-07    2.54966737e-07    2.57087999e-08    2.24814724e-11    2.18916279e-10    2.19995458e-08    1.76030950e-15    0.00000000e+00    1.29163189e-11    3.02349648e-08    3.03658290e-05    3.06184655e-06    2.67748083e-09    2.60723198e-08    2.62008471e-06    2.09647964e-13    0.00000000e+00    1.53829765e-09    3.60090020e-06
42       6.57933225e+06    1.28838337e-10    1.67454775e-07    2.54966737e-07    2.39761128e-08    2.24814725e-11    2.18916279e-10    2.19995458e-08    1.76030950e-15    0.00000000e+00    1.29163189e-11    2.90162869e-08    3.03658290e-05    2.85548834e-06    2.67748083e-09    2.60723198e-08    2.62008471e-06    2.09647964e-13    0.00000000e+00    1.53829765e-09    3.45575905e-06
43       8.11130831e+06    1.28828234e-10    1.67441644e-07    2.54966737e-07    2.23602030e-08    2.24814725e-11    2.18916279e-10    2.19995458e-08    1.76030950e-15    0.00000000e+00    1.29163189e-11    2.79467422e-08    3.03658290e-05    2.66303798e-06    2.67748084e-09    2.60723198e-08    2.62008470e-06    2.09647964e-13    0.00000000e+00    1.53829765e-09    3.32837926e-06
44       1.00000000e+07    1.28820039e-10    1.67430993e-07    2.54966737e-07    2.08532002e-08    2.24814726e-11    2.18916279e-10    2.19995458e-08    1.76030950e-15    0.00000000e+00    1.29163189e-11    2.70148475e-08    3.03658290e-05    2.48355813e-06    2.67748085e-09    2.60723198e-08    2.62008470e-06    2.09647964e-13    0.00000000e+00    1.53829765e-09    3.21739319e-06
45       1.23284674e+07    1.28813391e-10    1.67422353e-07    2.54966737e-07    1.94477643e-08    2.24814727e-11    2.18916279e-10    2.19995458e-08    1.76030950e-15    0.00000000e+00    1.29163189e-11    2.62087716e-08    3.03658290e-05    2.31617463e-06    2.67748086e-09    2.60723198e-08    2.62008470e-06    2.09647964e-13    0.00000000e+00    1.53829765e-09    3.12139179e-06
46       1.51991108e+07    1.28807999e-10    1.67415344e-07    2.54966737e-07    1.81370501e-08    2.24814729e-11    2.18916279e-10    2.19995458e-08    1.76030950e-15    0.00000000e+00    1.29163189e-11    2.55164986e-08    3.03658290e-05    2.16007221e-06    2.67748088e-09    2.60723198e-08    2.62008470e-06    2.09647964e-13    0.00000000e+00    1.53829765e-09    3.03894400e-06
47       1.87381742e+07    1.28803625e-10    1.67409659e-07    2.54966737e-07    1.69146736e-08    2.24814731e-11    2.18916279e-10    2.19995458e-08    1.76030950e-15    0.00000000e+00    1.29163189e-11    2.49260448e-08    3.03658290e-05    2.01449057e-06    2.67748090e-09    2.60723198e-08    2.62008470e-06    2.09647964e-13    0.00000000e+00    1.53829765e-09    2.96862259e-06
48       2.31012970e+07    1.28800077e-10    1.67405047e-07    2.54966737e-07    1.57746812e-08    2.24814735e-11    2.18916279e-10    2.19995458e-08    1.76030950e-15    0.00000000e+00    1.29163189e-11    2.44256983e-08    3.03658290e-05    1.87872065e-06    2.67748096e-09    2.60723198e-08    2.62008470e-06    2.09647964e-13    0.00000000e+00    1.53829765e-09    2.90903272e-06
49       2.84803587e+07    1.28797198e-10    1.67401306e-07    2.54966737e-07    1.47115205e-08    2.24814741e-11    2.18916279e-10    2.19995458e-08    1.76030950e-15    0.00000000e+00    1.29163189e-11    2.40042517e-08    3.03658290e-05    1.75210116e-06    2.67748103e-09    2.60723198e-08    2.62008470e-06    2.09647964e-13    0.00000000e+00    1.53829765e-09    2.85883960e-06
