Index       FREQ        {SQRT(ABS(ONOISE))}   {LOG(INOISE)}   {POW(ABS(DNO(X1:M1,FLICKER_DI_SI_1OVERF)),1/3)} {POW(ABS(DNO(X1:M1,WHITE_DI_SI_ID)),1/3)} {POW(ABS(DNO(X1:M1,WHITE_N2_GND_CORL)),1/3)} {POW(ABS(DNO(X1:M1,WHITE_N1_GND_CORL)),1/3)} {POW(ABS(DNO(X1:M1,WHITE_GI_SI_IGS)),1/3)} {POW(ABS(DNO(X1:M1,WHITE_GI_DI_IGD)),1/3)} {POW(ABS(DNO(X1:M1,WHITE_GI_BI_IGB)),1/3)} {POW(ABS(DNO(X1:M1,WHITE_D_DI_RD)),1/3)} {POW(ABS(DNO(X1:M1,WHITE_S_SI_RS)),1/3)} {POW(ABS(DNO(X1:M1,WHITE_G_GM_RG)),1/3)} {POW(ABS(DNO(X1:M1,WHITE_SBULK_BI_RBPS)),1/3)} {POW(ABS(DNO(X1:M1,WHITE_SBULK_B_RBSB)),1/3)} {POW(ABS(DNO(X1:M1,WHITE_B_BI_RBPB)),1/3)} {POW(ABS(DNO(X1:M1,WHITE_DBULK_BI_RBPD)),1/3)} {POW(ABS(DNO(X1:M1,WHITE_DBULK_B_RBDB)),1/3)} {POW(ABS(DNO(X1:M1)),1/3)} {POW(ABS(DNO(RIN)),1/3)} {POW(ABS(DNI(X1:M1,FLICKER_DI_SI_1OVERF)),1/3)} {POW(ABS(DNI(X1:M1,WHITE_DI_SI_ID)),1/3)} {POW(ABS(DNI(X1:M1,WHITE_N2_GND_CORL)),1/3)} {POW(ABS(DNI(X1:M1,WHITE_N1_GND_CORL)),1/3)} {POW(ABS(DNI(X1:M1,WHITE_GI_SI_IGS)),1/3)} {POW(ABS(DNI(X1:M1,WHITE_GI_DI_IGD)),1/3)} {POW(ABS(DNI(X1:M1,WHITE_GI_BI_IGB)),1/3)} {POW(ABS(DNI(X1:M1,WHITE_D_DI_RD)),1/3)} {POW(ABS(DNI(X1:M1,WHITE_S_SI_RS)),1/3)} {POW(ABS(DNI(X1:M1,WHITE_G_GM_RG)),1/3)} {POW(ABS(DNI(X1:M1,WHITE_SBULK_BI_RBPS)),1/3)} {POW(ABS(DNI(X1:M1,WHITE_SBULK_B_RBSB)),1/3)} {POW(ABS(DNI(X1:M1,WHITE_B_BI_RBPB)),1/3)} {POW(ABS(DNI(X1:M1,WHITE_DBULK_BI_RBPD)),1/3)} {POW(ABS(DNI(X1:M1,WHITE_DBULK_B_RBDB)),1/3)} {LOG(DNI(X1:M1))} {POW(ABS(DNI(RIN)),1/3)}
0        1.00000000e+02    1.62459237e-08    4.42148882e+00    6.41449963e-06    6.55892438e-08    0.00000000e+00    0.00000000e+00    9.14081047e-13    6.71986979e-10    0.00000000e+00    2.76862959e-10    1.45583590e-09    0.00000000e+00    0.00000000e+00    0.00000000e+00    0.00000000e+00    0.00000000e+00    0.00000000e+00    6.41450192e-06    0.00000000e+00    2.97734699e+01    3.04438302e-01    0.00000000e+00    0.00000000e+00    4.24278838e-06    3.11908726e-03    0.00000000e+00    1.28508402e-03    6.75739164e-03    0.00000000e+00    0.00000000e+00    0.00000000e+00    0.00000000e+00    0.00000000e+00    0.00000000e+00    4.42148882e+00    0.00000000e+00
1        1.25892541e+02    1.44791967e-08    4.32148894e+00    5.94058824e-06    6.55892438e-08    0.00000000e+00    0.00000000e+00    9.14081047e-13    6.71986979e-10    0.00000000e+00    2.76862959e-10    1.45583590e-09    0.00000000e+00    0.00000000e+00    0.00000000e+00    0.00000000e+00    0.00000000e+00    0.00000000e+00    5.94059090e-06    0.00000000e+00    2.75737680e+01    3.04438302e-01    0.00000000e+00    0.00000000e+00    4.24278838e-06    3.11908726e-03    0.00000000e+00    1.28508402e-03    6.75739164e-03    0.00000000e+00    0.00000000e+00    0.00000000e+00    0.00000000e+00    0.00000000e+00    0.00000000e+00    4.32148894e+00    0.00000000e+00
2        1.58489319e+02    1.29045999e-08    4.22148909e+00    5.50169002e-06    6.55892438e-08    0.00000000e+00    0.00000000e+00    9.14081047e-13    6.71986979e-10    0.00000000e+00    2.76862959e-10    1.45583590e-09    0.00000000e+00    0.00000000e+00    0.00000000e+00    0.00000000e+00    0.00000000e+00    0.00000000e+00    5.50169313e-06    0.00000000e+00    2.55365830e+01    3.04438302e-01    0.00000000e+00    0.00000000e+00    4.24278838e-06    3.11908726e-03    0.00000000e+00    1.28508402e-03    6.75739164e-03    0.00000000e+00    0.00000000e+00    0.00000000e+00    0.00000000e+00    0.00000000e+00    0.00000000e+00    4.22148909e+00    0.00000000e+00
3        1.99526231e+02    1.15012393e-08    4.12148928e+00    5.09521817e-06    6.55892438e-08    0.00000000e+00    0.00000000e+00    9.14081047e-13    6.71986979e-10    0.00000000e+00    2.76862959e-10    1.45583590e-09    0.00000000e+00    0.00000000e+00    0.00000000e+00    0.00000000e+00    0.00000000e+00    0.00000000e+00    5.09522179e-06    0.00000000e+00    2.36499077e+01    3.04438302e-01    0.00000000e+00    0.00000000e+00    4.24278838e-06    3.11908726e-03    0.00000000e+00    1.28508402e-03    6.75739164e-03    0.00000000e+00    0.00000000e+00    0.00000000e+00    0.00000000e+00    0.00000000e+00    0.00000000e+00    4.12148928e+00    0.00000000e+00
4        2.51188643e+02    1.02504931e-08    4.02148952e+00    4.71877697e-06    6.55892438e-08    0.00000000e+00    0.00000000e+00    9.14081047e-13    6.71986979e-10    0.00000000e+00    2.76862959e-10    1.45583590e-09    0.00000000e+00    0.00000000e+00    0.00000000e+00    0.00000000e+00    0.00000000e+00    0.00000000e+00    4.71878119e-06    0.00000000e+00    2.19026225e+01    3.04438302e-01    0.00000000e+00    0.00000000e+00    4.24278838e-06    3.11908726e-03    0.00000000e+00    1.28508402e-03    6.75739164e-03    0.00000000e+00    0.00000000e+00    0.00000000e+00    0.00000000e+00    0.00000000e+00    0.00000000e+00    4.02148952e+00    0.00000000e+00
5        3.16227766e+02    9.13576481e-09    3.92148982e+00    4.37014772e-06    6.55892438e-08    0.00000000e+00    0.00000000e+00    9.14081047e-13    6.71986979e-10    0.00000000e+00    2.76862959e-10    1.45583590e-09    0.00000000e+00    0.00000000e+00    0.00000000e+00    0.00000000e+00    0.00000000e+00    0.00000000e+00    4.37015265e-06    0.00000000e+00    2.02844289e+01    3.04438302e-01    0.00000000e+00    0.00000000e+00    4.24278838e-06    3.11908726e-03    0.00000000e+00    1.28508402e-03    6.75739164e-03    0.00000000e+00    0.00000000e+00    0.00000000e+00    0.00000000e+00    0.00000000e+00    0.00000000e+00    3.92148982e+00    0.00000000e+00
6        3.98107171e+02    8.14226252e-09    3.82149020e+00    4.04727565e-06    6.55892438e-08    0.00000000e+00    0.00000000e+00    9.14081047e-13    6.71986979e-10    0.00000000e+00    2.76862959e-10    1.45583590e-09    0.00000000e+00    0.00000000e+00    0.00000000e+00    0.00000000e+00    0.00000000e+00    0.00000000e+00    4.04728139e-06    0.00000000e+00    1.87857895e+01    3.04438302e-01    0.00000000e+00    0.00000000e+00    4.24278838e-06    3.11908726e-03    0.00000000e+00    1.28508402e-03    6.75739164e-03    0.00000000e+00    0.00000000e+00    0.00000000e+00    0.00000000e+00    0.00000000e+00    0.00000000e+00    3.82149020e+00    0.00000000e+00
7        5.01187234e+02    7.25680311e-09    3.72149068e+00    3.74825778e-06    6.55892438e-08    0.00000000e+00    0.00000000e+00    9.14081047e-13    6.71986979e-10    0.00000000e+00    2.76862959e-10    1.45583590e-09    0.00000000e+00    0.00000000e+00    0.00000000e+00    0.00000000e+00    0.00000000e+00    0.00000000e+00    3.74826447e-06    0.00000000e+00    1.73978715e+01    3.04438302e-01    0.00000000e+00    0.00000000e+00    4.24278838e-06    3.11908726e-03    0.00000000e+00    1.28508402e-03    6.75739164e-03    0.00000000e+00    0.00000000e+00    0.00000000e+00    0.00000000e+00    0.00000000e+00    0.00000000e+00    3.72149068e+00    0.00000000e+00
8        6.30957344e+02    6.46763707e-09    3.62149128e+00    3.47133173e-06    6.55892438e-08    0.00000000e+00    0.00000000e+00    9.14081047e-13    6.71986979e-10    0.00000000e+00    2.76862959e-10    1.45583590e-09    0.00000000e+00    0.00000000e+00    0.00000000e+00    0.00000000e+00    0.00000000e+00    0.00000000e+00    3.47133953e-06    0.00000000e+00    1.61124946e+01    3.04438302e-01    0.00000000e+00    0.00000000e+00    4.24278838e-06    3.11908726e-03    0.00000000e+00    1.28508402e-03    6.75739164e-03    0.00000000e+00    0.00000000e+00    0.00000000e+00    0.00000000e+00    0.00000000e+00    0.00000000e+00    3.62149128e+00    0.00000000e+00
9        7.94328235e+02    5.76429264e-09    3.52149204e+00    3.21486532e-06    6.55892438e-08    0.00000000e+00    0.00000000e+00    9.14081047e-13    6.71986979e-10    0.00000000e+00    2.76862959e-10    1.45583590e-09    0.00000000e+00    0.00000000e+00    0.00000000e+00    0.00000000e+00    0.00000000e+00    0.00000000e+00    3.21487442e-06    0.00000000e+00    1.49220830e+01    3.04438302e-01    0.00000000e+00    0.00000000e+00    4.24278838e-06    3.11908726e-03    0.00000000e+00    1.28508402e-03    6.75739164e-03    0.00000000e+00    0.00000000e+00    0.00000000e+00    0.00000000e+00    0.00000000e+00    0.00000000e+00    3.52149204e+00    0.00000000e+00
10       1.00000000e+03    5.13743687e-09    3.42149300e+00    2.97734699e-06    6.55892438e-08    0.00000000e+00    0.00000000e+00    9.14081047e-13    6.71986979e-10    0.00000000e+00    2.76862959e-10    1.45583590e-09    0.00000000e+00    0.00000000e+00    0.00000000e+00    0.00000000e+00    0.00000000e+00    0.00000000e+00    2.97735760e-06    0.00000000e+00    1.38196205e+01    3.04438302e-01    0.00000000e+00    0.00000000e+00    4.24278838e-06    3.11908726e-03    0.00000000e+00    1.28508402e-03    6.75739164e-03    0.00000000e+00    0.00000000e+00    0.00000000e+00    0.00000000e+00    0.00000000e+00    0.00000000e+00    3.42149300e+00    0.00000000e+00
11       1.25892541e+03    4.57875177e-09    3.32149420e+00    2.75737680e-06    6.55892438e-08    0.00000000e+00    0.00000000e+00    9.14081047e-13    6.71986979e-10    0.00000000e+00    2.76862959e-10    1.45583590e-09    0.00000000e+00    0.00000000e+00    0.00000000e+00    0.00000000e+00    0.00000000e+00    0.00000000e+00    2.75738917e-06    0.00000000e+00    1.27986094e+01    3.04438302e-01    0.00000000e+00    0.00000000e+00    4.24278838e-06    3.11908726e-03    0.00000000e+00    1.28508402e-03    6.75739164e-03    0.00000000e+00    0.00000000e+00    0.00000000e+00    0.00000000e+00    0.00000000e+00    0.00000000e+00    3.32149420e+00    0.00000000e+00
12       1.58489319e+03    4.08082392e-09    3.22149571e+00    2.55365830e-06    6.55892438e-08    0.00000000e+00    0.00000000e+00    9.14081047e-13    6.71986979e-10    0.00000000e+00    2.76862959e-10    1.45583590e-09    0.00000000e+00    0.00000000e+00    0.00000000e+00    0.00000000e+00    0.00000000e+00    0.00000000e+00    2.55367272e-06    0.00000000e+00    1.18530318e+01    3.04438302e-01    0.00000000e+00    0.00000000e+00    4.24278838e-06    3.11908726e-03    0.00000000e+00    1.28508402e-03    6.75739164e-03    0.00000000e+00    0.00000000e+00    0.00000000e+00    0.00000000e+00    0.00000000e+00    0.00000000e+00    3.22149571e+00    0.00000000e+00
13       1.99526231e+03    3.63704612e-09    3.12149762e+00    2.36499077e-06    6.55892438e-08    0.00000000e+00    0.00000000e+00    9.14081047e-13    6.71986979e-10    0.00000000e+00    2.76862959e-10    1.45583590e-09    0.00000000e+00    0.00000000e+00    0.00000000e+00    0.00000000e+00    0.00000000e+00    0.00000000e+00    2.36500759e-06    0.00000000e+00    1.09773148e+01    3.04438302e-01    0.00000000e+00    0.00000000e+00    4.24278838e-06    3.11908726e-03    0.00000000e+00    1.28508402e-03    6.75739164e-03    0.00000000e+00    0.00000000e+00    0.00000000e+00    0.00000000e+00    0.00000000e+00    0.00000000e+00    3.12149762e+00    0.00000000e+00
14       2.51188643e+03    3.24152972e-09    3.02150002e+00    2.19026225e-06    6.55892438e-08    0.00000000e+00    0.00000000e+00    9.14081047e-13    6.71986979e-10    0.00000000e+00    2.76862959e-10    1.45583590e-09    0.00000000e+00    0.00000000e+00    0.00000000e+00    0.00000000e+00    0.00000000e+00    0.00000000e+00    2.19028185e-06    0.00000000e+00    1.01662968e+01    3.04438302e-01    0.00000000e+00    0.00000000e+00    4.24278838e-06    3.11908726e-03    0.00000000e+00    1.28508402e-03    6.75739164e-03    0.00000000e+00    0.00000000e+00    0.00000000e+00    0.00000000e+00    0.00000000e+00    0.00000000e+00    3.02150002e+00    0.00000000e+00
15       3.16227766e+03    2.88902645e-09    2.92150304e+00    2.02844289e-06    6.55892438e-08    0.00000000e+00    0.00000000e+00    9.14081047e-13    6.71986979e-10    0.00000000e+00    2.76862959e-10    1.45583590e-09    0.00000000e+00    0.00000000e+00    0.00000000e+00    0.00000000e+00    0.00000000e+00    0.00000000e+00    2.02846575e-06    0.00000000e+00    9.41519786e+00    3.04438302e-01    0.00000000e+00    0.00000000e+00    4.24278838e-06    3.11908726e-03    0.00000000e+00    1.28508402e-03    6.75739164e-03    0.00000000e+00    0.00000000e+00    0.00000000e+00    0.00000000e+00    0.00000000e+00    0.00000000e+00    2.92150304e+00    0.00000000e+00
16       3.98107171e+03    2.57485880e-09    2.82150684e+00    1.87857895e-06    6.55892438e-08    0.00000000e+00    0.00000000e+00    9.14081047e-13    6.71986979e-10    0.00000000e+00    2.76862959e-10    1.45583590e-09    0.00000000e+00    0.00000000e+00    0.00000000e+00    0.00000000e+00    0.00000000e+00    0.00000000e+00    1.87860560e-06    0.00000000e+00    8.71959107e+00    3.04438302e-01    0.00000000e+00    0.00000000e+00    4.24278838e-06    3.11908726e-03    0.00000000e+00    1.28508402e-03    6.75739164e-03    0.00000000e+00    0.00000000e+00    0.00000000e+00    0.00000000e+00    0.00000000e+00    0.00000000e+00    2.82150684e+00    0.00000000e+00
17       5.01187234e+03    2.29485797e-09    2.72151162e+00    1.73978715e-06    6.55892438e-08    0.00000000e+00    0.00000000e+00    9.14081047e-13    6.71986979e-10    0.00000000e+00    2.76862959e-10    1.45583590e-09    0.00000000e+00    0.00000000e+00    0.00000000e+00    0.00000000e+00    0.00000000e+00    0.00000000e+00    1.73981822e-06    0.00000000e+00    8.07537659e+00    3.04438302e-01    0.00000000e+00    0.00000000e+00    4.24278838e-06    3.11908726e-03    0.00000000e+00    1.28508402e-03    6.75739164e-03    0.00000000e+00    0.00000000e+00    0.00000000e+00    0.00000000e+00    0.00000000e+00    0.00000000e+00    2.72151162e+00    0.00000000e+00
18       6.30957344e+03    2.04530850e-09    2.62151765e+00    1.61124946e-06    6.55892438e-08    0.00000000e+00    0.00000000e+00    9.14081047e-13    6.71986979e-10    0.00000000e+00    2.76862959e-10    1.45583590e-09    0.00000000e+00    0.00000000e+00    0.00000000e+00    0.00000000e+00    0.00000000e+00    0.00000000e+00    1.61128569e-06    0.00000000e+00    7.47875749e+00    3.04438302e-01    0.00000000e+00    0.00000000e+00    4.24278838e-06    3.11908726e-03    0.00000000e+00    1.28508402e-03    6.75739164e-03    0.00000000e+00    0.00000000e+00    0.00000000e+00    0.00000000e+00    0.00000000e+00    0.00000000e+00    2.62151765e+00    0.00000000e+00
19       7.94328235e+03    1.82289904e-09    2.52152523e+00    1.49220830e-06    6.55892438e-08    0.00000000e+00    0.00000000e+00    9.14081047e-13    6.71986979e-10    0.00000000e+00    2.76862959e-10    1.45583590e-09    0.00000000e+00    0.00000000e+00    0.00000000e+00    0.00000000e+00    0.00000000e+00    0.00000000e+00    1.49225054e-06    0.00000000e+00    6.92621738e+00    3.04438302e-01    0.00000000e+00    0.00000000e+00    4.24278838e-06    3.11908726e-03    0.00000000e+00    1.28508402e-03    6.75739164e-03    0.00000000e+00    0.00000000e+00    0.00000000e+00    0.00000000e+00    0.00000000e+00    0.00000000e+00    2.52152523e+00    0.00000000e+00
20       1.00000000e+04    1.62467834e-09    2.42153478e+00    1.38196205e-06    6.55892438e-08    0.00000000e+00    0.00000000e+00    9.14081047e-13    6.71986979e-10    0.00000000e+00    2.76862959e-10    1.45583590e-09    0.00000000e+00    0.00000000e+00    0.00000000e+00    0.00000000e+00    0.00000000e+00    0.00000000e+00    1.38201130e-06    0.00000000e+00    6.41449963e+00    3.04438302e-01    0.00000000e+00    0.00000000e+00    4.24278838e-06    3.11908726e-03    0.00000000e+00    1.28508402e-03    6.75739164e-03    0.00000000e+00    0.00000000e+00    0.00000000e+00    0.00000000e+00    0.00000000e+00    0.00000000e+00    2.42153478e+00    0.00000000e+00
21       1.25892541e+04    1.44801613e-09    2.32154680e+00    1.27986094e-06    6.55892438e-08    0.00000000e+00    0.00000000e+00    9.14081047e-13    6.71986979e-10    0.00000000e+00    2.76862959e-10    1.45583590e-09    0.00000000e+00    0.00000000e+00    0.00000000e+00    0.00000000e+00    0.00000000e+00    0.00000000e+00    1.27991835e-06    0.00000000e+00    5.94058824e+00    3.04438302e-01    0.00000000e+00    0.00000000e+00    4.24278838e-06    3.11908726e-03    0.00000000e+00    1.28508402e-03    6.75739164e-03    0.00000000e+00    0.00000000e+00    0.00000000e+00    0.00000000e+00    0.00000000e+00    0.00000000e+00    2.32154680e+00    0.00000000e+00
22       1.58489319e+04    1.29056822e-09    2.22156193e+00    1.18530318e-06    6.55892438e-08    0.00000000e+00    0.00000000e+00    9.14081047e-13    6.71986979e-10    0.00000000e+00    2.76862959e-10    1.45583590e-09    0.00000000e+00    0.00000000e+00    0.00000000e+00    0.00000000e+00    0.00000000e+00    0.00000000e+00    1.18537013e-06    0.00000000e+00    5.50169002e+00    3.04438302e-01    0.00000000e+00    0.00000000e+00    4.24278838e-06    3.11908726e-03    0.00000000e+00    1.28508402e-03    6.75739164e-03    0.00000000e+00    0.00000000e+00    0.00000000e+00    0.00000000e+00    0.00000000e+00    0.00000000e+00    2.22156193e+00    0.00000000e+00
23       1.99526231e+04    1.15024536e-09    2.12158098e+00    1.09773148e-06    6.55892438e-08    0.00000000e+00    0.00000000e+00    9.14081047e-13    6.71986979e-10    0.00000000e+00    2.76862959e-10    1.45583590e-09    0.00000000e+00    0.00000000e+00    0.00000000e+00    0.00000000e+00    0.00000000e+00    0.00000000e+00    1.09780952e-06    0.00000000e+00    5.09521817e+00    3.04438302e-01    0.00000000e+00    0.00000000e+00    4.24278838e-06    3.11908726e-03    0.00000000e+00    1.28508402e-03    6.75739164e-03    0.00000000e+00    0.00000000e+00    0.00000000e+00    0.00000000e+00    0.00000000e+00    0.00000000e+00    2.12158098e+00    0.00000000e+00
24       2.51188643e+04    1.02518556e-09    2.02160496e+00    1.01662968e-06    6.55892438e-08    0.00000000e+00    0.00000000e+00    9.14081047e-13    6.71986979e-10    0.00000000e+00    2.76862959e-10    1.45583590e-09    0.00000000e+00    0.00000000e+00    0.00000000e+00    0.00000000e+00    0.00000000e+00    0.00000000e+00    1.01672067e-06    0.00000000e+00    4.71877697e+00    3.04438302e-01    0.00000000e+00    0.00000000e+00    4.24278838e-06    3.11908726e-03    0.00000000e+00    1.28508402e-03    6.75739164e-03    0.00000000e+00    0.00000000e+00    0.00000000e+00    0.00000000e+00    0.00000000e+00    0.00000000e+00    2.02160496e+00    0.00000000e+00
25       3.16227766e+04    9.13729353e-10    1.92163515e+00    9.41519786e-07    6.55892438e-08    0.00000000e+00    0.00000000e+00    9.14081047e-13    6.71986979e-10    0.00000000e+00    2.76862959e-10    1.45583590e-09    0.00000000e+00    0.00000000e+00    0.00000000e+00    0.00000000e+00    0.00000000e+00    0.00000000e+00    9.41625876e-07    0.00000000e+00    4.37014772e+00    3.04438302e-01    0.00000000e+00    0.00000000e+00    4.24278838e-06    3.11908726e-03    0.00000000e+00    1.28508402e-03    6.75739164e-03    0.00000000e+00    0.00000000e+00    0.00000000e+00    0.00000000e+00    0.00000000e+00    0.00000000e+00    1.92163515e+00    0.00000000e+00
26       3.98107171e+04    8.14397773e-10    1.82167316e+00    8.71959107e-07    6.55892438e-08    0.00000000e+00    0.00000000e+00    9.14081047e-13    6.71986979e-10    0.00000000e+00    2.76862959e-10    1.45583590e-09    0.00000000e+00    0.00000000e+00    0.00000000e+00    0.00000000e+00    0.00000000e+00    0.00000000e+00    8.72082795e-07    0.00000000e+00    4.04727565e+00    3.04438302e-01    0.00000000e+00    0.00000000e+00    4.24278838e-06    3.11908726e-03    0.00000000e+00    1.28508402e-03    6.75739164e-03    0.00000000e+00    0.00000000e+00    0.00000000e+00    0.00000000e+00    0.00000000e+00    0.00000000e+00    1.82167316e+00    0.00000000e+00
