Index       FREQ        {SQRT(ABS(ONOISE))} {SQRT(ABS(INOISE))} {POW(ABS(DNO(R3)),1/3)} {POW(ABS(DNO(R1)),1/3)} {POW(ABS(DNO(R5)),1/3)} {POW(ABS(DNO(R4)),1/3)} {POW(ABS(DNO(Q1,WHITE_BI_EI_IBEI_SHOT_NOISE)),1/3)} {POW(ABS(DNO(Q1,FLICKER_BI_EI_IBEI_FLICKER_NOISE)),1/3)} {POW(ABS(DNO(Q1,WHITE_BX_EI_IBEX_SHOT_NOISE)),1/3)} {POW(ABS(DNO(Q1,FLICKER_BX_EI_IBEX_FLICKER_NOISE)),1/3)} {POW(ABS(DNO(Q1,WHITE_CI_EI_TRANSPORT_CURRENT_SHOT_NOISE)),1/3)} {POW(ABS(DNO(Q1,WHITE_BX_BP_IBEP_SHOT_NOISE)),1/3)} {POW(ABS(DNO(Q1,FLICKER_BX_BP_IBEP_FLICKER_NOISE)),1/3)} {POW(ABS(DNO(Q1,WHITE_C_CX_RCX_THERMAL_NOISE)),1/3)} {POW(ABS(DNO(Q1,WHITE_CX_CI_RCI_THERMAL_NOISE)),1/3)} {POW(ABS(DNO(Q1,WHITE_B_BX_RBX_THERMAL_NOISE)),1/3)} {POW(ABS(DNO(Q1,WHITE_BX_BI_RBI_THERMAL_NOISE)),1/3)} {POW(ABS(DNO(Q1,WHITE_E_EI_RE_THERMAL_NOISE)),1/3)} {POW(ABS(DNO(Q1,WHITE_BP_CX_RBP_THERMAL_NOISE)),1/3)} {POW(ABS(DNO(Q1,WHITE_BX_SI_PARASITIC_TRANSPORT_CURRENT_SHOT_NOISE)),1/3)} {POW(ABS(DNO(Q1,WHITE_S_SI_RS_THERMAL_NOISE)),1/3)} {POW(ABS(DNO(Q1)),1/3)} {POW(ABS(DNO(R2)),1/3)} {POW(ABS(DNI(R3)),1/3)} {POW(ABS(DNI(R1)),1/3)} {POW(ABS(DNI(R5)),1/3)} {POW(ABS(DNI(R4)),1/3)} {POW(ABS(DNI(Q1,WHITE_BI_EI_IBEI_SHOT_NOISE)),1/3)} {POW(ABS(DNI(Q1,FLICKER_BI_EI_IBEI_FLICKER_NOISE)),1/3)} {POW(ABS(DNI(Q1,WHITE_BX_EI_IBEX_SHOT_NOISE)),1/3)} {POW(ABS(DNI(Q1,FLICKER_BX_EI_IBEX_FLICKER_NOISE)),1/3)} {POW(ABS(DNI(Q1,WHITE_CI_EI_TRANSPORT_CURRENT_SHOT_NOISE)),1/3)} {POW(ABS(DNI(Q1,WHITE_BX_BP_IBEP_SHOT_NOISE)),1/3)} {POW(ABS(DNI(Q1,FLICKER_BX_BP_IBEP_FLICKER_NOISE)),1/3)} {POW(ABS(DNI(Q1,WHITE_C_CX_RCX_THERMAL_NOISE)),1/3)} {POW(ABS(DNI(Q1,WHITE_CX_CI_RCI_THERMAL_NOISE)),1/3)} {POW(ABS(DNI(Q1,WHITE_B_BX_RBX_THERMAL_NOISE)),1/3)} {POW(ABS(DNI(Q1,WHITE_BX_BI_RBI_THERMAL_NOISE)),1/3)} {POW(ABS(DNI(Q1,WHITE_E_EI_RE_THERMAL_NOISE)),1/3)} {POW(ABS(DNI(Q1,WHITE_BP_CX_RBP_THERMAL_NOISE)),1/3)} {POW(ABS(DNI(Q1,WHITE_BX_SI_PARASITIC_TRANSPORT_CURRENT_SHOT_NOISE)),1/3)} {POW(ABS(DNI(Q1,WHITE_S_SI_RS_THERMAL_NOISE)),1/3)} {POW(ABS(DNI(Q1)),1/3)} {POW(ABS(DNI(R2)),1/3)}
0        1.00000000e-02    1.10013248e-07    8.27098679e-05    9.08035316e-07    1.23958058e-06    2.28182318e-05    1.32874826e-06    5.88834154e-06    0.00000000e+00    0.00000000e+00    0.00000000e+00    1.21507042e-06    0.00000000e+00    0.00000000e+00    2.78523893e-07    5.11871815e-07    2.82688865e-07    3.10162208e-07    2.60495214e-07    4.41566627e-14    0.00000000e+00    1.49429722e-14    5.90769526e-06    2.21884345e-06    7.50777014e-05    1.02490354e-04    1.88664512e-03    1.09862869e-04    4.86856777e-04    0.00000000e+00    0.00000000e+00    0.00000000e+00    1.00463817e-04    0.00000000e+00    0.00000000e+00    2.30287669e-05    4.23223178e-05    2.33731330e-05    2.56446696e-05    2.15381291e-05    3.65093811e-12    0.00000000e+00    1.23550702e-12    4.88456972e-04    1.83457254e-04
1        1.07177346e-02    1.07914144e-07    7.21012974e-05    9.37992170e-07    1.28047524e-06    2.25065922e-05    1.37258488e-06    6.08260220e-06    0.00000000e+00    0.00000000e+00    0.00000000e+00    1.25515648e-06    0.00000000e+00    0.00000000e+00    2.87712598e-07    5.28758837e-07    2.92015167e-07    3.20394894e-07    2.69089190e-07    4.77717677e-14    0.00000000e+00    1.61659835e-14    6.10259442e-06    2.29204470e-06    7.16873213e-05    9.78620535e-05    1.72009678e-03    1.04901657e-04    4.64871107e-04    0.00000000e+00    0.00000000e+00    0.00000000e+00    9.59270332e-05    0.00000000e+00    0.00000000e+00    2.19888248e-05    4.04111099e-05    2.23176544e-05    2.44866135e-05    2.05655056e-05    3.65102201e-12    0.00000000e+00    1.23550717e-12    4.66399039e-04    1.75172619e-04
2        1.14869835e-02    1.05657919e-07    6.28658570e-05    9.67606002e-07    1.32090160e-06    2.21687066e-05    1.41591956e-06    6.27463831e-06    0.00000000e+00    0.00000000e+00    0.00000000e+00    1.29478351e-06    0.00000000e+00    0.00000000e+00    2.96796080e-07    5.45452480e-07    3.01234714e-07    3.30510450e-07    2.77584763e-07    5.16100188e-14    0.00000000e+00    1.74650623e-14    6.29526171e-06    2.36440770e-06    6.84500462e-05    9.34427602e-05    1.56825091e-03    1.00164488e-04    4.43878274e-04    0.00000000e+00    0.00000000e+00    0.00000000e+00    9.15951235e-05    0.00000000e+00    0.00000000e+00    2.09958448e-05    3.85862091e-05    2.13098410e-05    2.33808549e-05    1.96368045e-05    3.65097794e-12    0.00000000e+00    1.23550734e-12    4.45337208e-04    1.67262104e-04
3        1.23114441e-02    1.03248649e-07    5.48257752e-05    9.96716264e-07    1.36064049e-06    2.18044236e-05    1.45851739e-06    6.46340874e-06    0.00000000e+00    0.00000000e+00    0.00000000e+00    1.33373667e-06    0.00000000e+00    0.00000000e+00    3.05725093e-07    5.61862239e-07    3.10297529e-07    3.40454042e-07    2.85935878e-07    5.56756754e-14    0.00000000e+00    1.88413405e-14    6.48465259e-06    2.43554012e-06    6.53589622e-05    8.92230350e-05    1.42980961e-03    9.56412435e-05    4.23833444e-04    0.00000000e+00    0.00000000e+00    0.00000000e+00    8.74588360e-05    0.00000000e+00    0.00000000e+00    2.00477061e-05    3.68437178e-05    2.03475404e-05    2.23250323e-05    1.87500424e-05    3.65089293e-12    0.00000000e+00    1.23550754e-12    4.25226495e-04    1.59708816e-04
4        1.31950791e-02    1.00693548e-07    4.78262902e-05    1.02516364e-06    1.39947440e-06    2.14139859e-05    1.50014522e-06    6.64788031e-06    0.00000000e+00    0.00000000e+00    0.00000000e+00    1.37180275e-06    0.00000000e+00    0.00000000e+00    3.14450765e-07    5.77898299e-07    3.19154020e-07    3.50171257e-07    2.94096830e-07    5.99743253e-14    0.00000000e+00    2.02956103e-14    6.66973048e-06    2.50505265e-06    6.24074675e-05    8.51938658e-05    1.30358957e-03    9.13222639e-05    4.04693807e-04    0.00000000e+00    0.00000000e+00    0.00000000e+00    8.35093367e-05    0.00000000e+00    0.00000000e+00    1.91423839e-05    3.51799147e-05    1.94286974e-05    2.13168909e-05    1.79033256e-05    3.65097397e-12    0.00000000e+00    1.23550777e-12    4.06023949e-04    1.52496622e-04
5        1.41421356e-02    9.80030399e-08    4.17326707e-05    1.05279439e-06    1.43719348e-06    2.09980576e-05    1.54057811e-06    6.82705611e-06    0.00000000e+00    0.00000000e+00    0.00000000e+00    1.40877604e-06    0.00000000e+00    0.00000000e+00    3.22925943e-07    5.93473999e-07    3.27756334e-07    3.59609595e-07    3.02023518e-07    6.44995794e-14    0.00000000e+00    2.18283622e-14    6.84949520e-06    2.57256962e-06    5.95892587e-05    8.13466475e-05    1.18851192e-03    8.71983250e-05    3.86418484e-04    0.00000000e+00    0.00000000e+00    0.00000000e+00    7.97381906e-05    0.00000000e+00    0.00000000e+00    1.82779446e-05    3.35912463e-05    1.85513498e-05    2.03542775e-05    1.70948456e-05    3.65074335e-12    0.00000000e+00    1.23550803e-12    3.87688560e-04    1.45610119e-04
6        1.51571657e-02    9.51906785e-08    3.64276229e-05    1.07946479e-06    1.47360149e-06    2.05577352e-05    1.57960572e-06    7.00000399e-06    0.00000000e+00    0.00000000e+00    0.00000000e+00    1.44446419e-06    0.00000000e+00    0.00000000e+00    3.31106535e-07    6.08508308e-07    3.36059733e-07    3.68719966e-07    3.09674708e-07    6.92630142e-14    0.00000000e+00    2.34398452e-14    7.02301153e-06    2.63773979e-06    5.68983169e-05    7.76731634e-05    1.08359304e-03    8.32606193e-05    3.68968447e-04    0.00000000e+00    0.00000000e+00    0.00000000e+00    7.61373436e-05    0.00000000e+00    0.00000000e+00    1.74525420e-05    3.20743196e-05    1.77136238e-05    1.94351365e-05    1.63228758e-05    3.65083603e-12    0.00000000e+00    1.23550833e-12    3.70181168e-04    1.39034600e-04
7        1.62450479e-02    9.22729146e-08    3.18090327e-05    1.10504524e-06    1.50852152e-06    2.00945394e-05    1.61703842e-06    7.16588357e-06    0.00000000e+00    0.00000000e+00    0.00000000e+00    1.47869379e-06    0.00000000e+00    0.00000000e+00    3.38952789e-07    6.22928171e-07    3.44023881e-07    3.77458116e-07    3.17013224e-07    7.42596319e-14    0.00000000e+00    2.51301444e-14    7.18943632e-06    2.70024648e-06    5.43288950e-05    7.41655679e-05    9.87936135e-04    7.95007370e-05    3.52306425e-04    0.00000000e+00    0.00000000e+00    0.00000000e+00    7.26991052e-05    0.00000000e+00    0.00000000e+00    1.66644133e-05    3.06258949e-05    1.69137305e-05    1.85575049e-05    1.55857675e-05    3.65093086e-12    0.00000000e+00    1.23550868e-12    3.53464382e-04    1.32756020e-04
8        1.74110113e-02    8.92687084e-08    2.77880000e-05    1.12942392e-06    1.54180092e-06    1.96103875e-05    1.65271261e-06    7.32396969e-06    0.00000000e+00    0.00000000e+00    0.00000000e+00    1.51131521e-06    0.00000000e+00    0.00000000e+00    3.46430406e-07    6.36670552e-07    3.51613978e-07    3.85785863e-07    3.24006990e-07    7.94863352e-14    0.00000000e+00    2.68992753e-14    7.34804205e-06    2.75981645e-06    5.18755056e-05    7.08163698e-05    9.00723584e-04    7.59106483e-05    3.36396833e-04    0.00000000e+00    0.00000000e+00    0.00000000e+00    6.94161324e-05    0.00000000e+00    0.00000000e+00    1.59118752e-05    2.92428787e-05    1.61499615e-05    1.77195084e-05    1.48819465e-05    3.65088231e-12    0.00000000e+00    1.23550908e-12    3.37502499e-04    1.26760971e-04
9        1.86606598e-02    8.61990110e-08    2.42871282e-05    1.15250967e-06    1.57331520e-06    1.91075472e-05    1.68649486e-06    7.47367105e-06    0.00000000e+00    0.00000000e+00    0.00000000e+00    1.54220642e-06    0.00000000e+00    0.00000000e+00    3.53511416e-07    6.49684047e-07    3.58801652e-07    3.93672077e-07    3.30629850e-07    8.49473292e-14    0.00000000e+00    2.87472857e-14    7.49823545e-06    2.81622686e-06    4.95329088e-05    6.76184161e-05    8.21209939e-04    7.24826858e-05    3.21205693e-04    0.00000000e+00    0.00000000e+00    0.00000000e+00    6.62814135e-05    0.00000000e+00    0.00000000e+00    1.51933205e-05    2.79223173e-05    1.54206858e-05    1.69193575e-05    1.42099096e-05    3.65089199e-12    0.00000000e+00    1.23550953e-12    3.22261429e-04    1.21036649e-04
10       2.00000000e-02    8.30861487e-08    2.12390342e-05    1.17423383e-06    1.60297065e-06    1.85885751e-05    1.71828474e-06    7.61454246e-06    0.00000000e+00    0.00000000e+00    0.00000000e+00    1.57127556e-06    0.00000000e+00    0.00000000e+00    3.60174761e-07    6.61929958e-07    3.65565546e-07    4.01093325e-07    3.36862114e-07    9.06415029e-14    0.00000000e+00    3.06743612e-14    7.63956988e-06    2.86930997e-06    4.72961017e-05    6.45648769e-05    7.48715560e-04    6.92095285e-05    3.06700561e-04    0.00000000e+00    0.00000000e+00    0.00000000e+00    6.32882538e-05    0.00000000e+00    0.00000000e+00    1.45072146e-05    2.66613904e-05    1.47243460e-05    1.61553433e-05    1.35682216e-05    3.65088250e-12    0.00000000e+00    1.23551006e-12    3.07708622e-04    1.15570828e-04
11       2.14354693e-02    7.99531509e-08    1.85850518e-05    1.19455117e-06    1.63070549e-06    1.80562430e-05    1.74801605e-06    7.74629046e-06    0.00000000e+00    0.00000000e+00    0.00000000e+00    1.59846208e-06    0.00000000e+00    0.00000000e+00    3.66406561e-07    6.73382774e-07    3.71891592e-07    4.08034173e-07    3.42690805e-07    9.65709305e-14    0.00000000e+00    3.26809271e-14    7.77175092e-06    2.91895521e-06    4.51603071e-05    6.16492306e-05    6.82620805e-04    6.60841860e-05    2.92850457e-04    0.00000000e+00    0.00000000e+00    0.00000000e+00    6.04302606e-05    0.00000000e+00    0.00000000e+00    1.38520921e-05    2.54574049e-05    1.40594551e-05    1.54258344e-05    1.29555120e-05    3.65088829e-12    0.00000000e+00    1.23551066e-12    2.93812996e-04    1.10351835e-04
12       2.29739671e-02    7.68230676e-08    1.62741030e-05    1.21343965e-06    1.65648962e-06    1.75134580e-05    1.77565656e-06    7.86877209e-06    0.00000000e+00    0.00000000e+00    0.00000000e+00    1.62373648e-06    0.00000000e+00    0.00000000e+00    3.72200054e-07    6.84030066e-07    3.77772947e-07    4.14487113e-07    3.48109604e-07    1.02738077e-13    0.00000000e+00    3.47677402e-14    7.89463513e-06    2.96510868e-06    4.31209636e-05    5.88652503e-05    6.22360729e-04    6.30999838e-05    2.79625802e-04    0.00000000e+00    0.00000000e+00    0.00000000e+00    5.77013300e-05    0.00000000e+00    0.00000000e+00    1.32265539e-05    2.43077895e-05    1.34245931e-05    1.47292729e-05    1.23704723e-05    3.65091488e-12    0.00000000e+00    1.23551135e-12    2.80544875e-04    1.05368523e-04
13       2.46228883e-02    7.37183206e-08    1.42617148e-05    1.23089929e-06    1.68032305e-06    1.69631810e-05    1.80120632e-06    7.98198738e-06    0.00000000e+00    0.00000000e+00    0.00000000e+00    1.64709876e-06    0.00000000e+00    0.00000000e+00    3.77555239e-07    6.93871838e-07    3.83209639e-07    4.20452174e-07    3.53118519e-07    1.09142445e-13    0.00000000e+00    3.69359672e-14    8.00822254e-06    3.00777041e-06    4.11737159e-05    5.62069900e-05    5.67420263e-04    6.02505485e-05    2.66998352e-04    0.00000000e+00    0.00000000e+00    0.00000000e+00    5.50956339e-05    0.00000000e+00    0.00000000e+00    1.26292641e-05    2.32100890e-05    1.28184044e-05    1.40641712e-05    1.18118531e-05    3.65082673e-12    0.00000000e+00    1.23551215e-12    2.67875921e-04    1.00610250e-04
14       2.63901582e-02    7.06601259e-08    1.25091646e-05    1.24695020e-06    1.70223322e-06    1.64083495e-05    1.82469476e-06    8.08606668e-06    0.00000000e+00    0.00000000e+00    0.00000000e+00    1.66857583e-06    0.00000000e+00    0.00000000e+00    3.82478285e-07    7.02919422e-07    3.88207954e-07    4.25936254e-07    3.57723323e-07    1.15796695e-13    0.00000000e+00    3.91872458e-14    8.11264394e-06    3.04698952e-06    3.93144053e-05    5.36687724e-05    5.17329803e-04    5.75297948e-05    2.54941137e-04    0.00000000e+00    0.00000000e+00    0.00000000e+00    5.26076072e-05    0.00000000e+00    0.00000000e+00    1.20589469e-05    2.21619588e-05    1.22395945e-05    1.34291092e-05    1.12784614e-05    3.65089014e-12    0.00000000e+00    1.23551306e-12    2.55779077e-04    9.60668521e-05
15       2.82842712e-02    6.76680138e-08    1.09827346e-05    1.26163007e-06    1.72227153e-06    1.58518072e-05    1.84617703e-06    8.18125412e-06    0.00000000e+00    0.00000000e+00    0.00000000e+00    1.68821807e-06    0.00000000e+00    0.00000000e+00    3.86980737e-07    7.11194039e-07    3.92779645e-07    4.30952249e-07    3.61934826e-07    1.22698444e-13    0.00000000e+00    4.15237278e-14    8.20814427e-06    3.08285799e-06    3.75390609e-05    5.12451768e-05    4.71661205e-04    5.49319122e-05    2.43428407e-04    0.00000000e+00    0.00000000e+00    0.00000000e+00    5.02319361e-05    0.00000000e+00    0.00000000e+00    1.15143843e-05    2.11611605e-05    1.16869274e-05    1.28227308e-05    1.07691580e-05    3.65082008e-12    0.00000000e+00    1.23551411e-12    2.44228507e-04    9.17286271e-05
16       3.03143313e-02    6.47594632e-08    9.65306446e-06    1.27499116e-06    1.74050931e-06    1.52962451e-05    1.86572966e-06    8.26788863e-06    0.00000000e+00    0.00000000e+00    0.00000000e+00    1.70609541e-06    0.00000000e+00    0.00000000e+00    3.91078628e-07    7.18725152e-07    3.96941021e-07    4.35518051e-07    3.65768031e-07    1.29863948e-13    0.00000000e+00    4.39481052e-14    8.29506354e-06    3.11550355e-06    3.58438912e-05    4.89310268e-05    4.30024116e-04    5.24513527e-05    2.32435573e-04    0.00000000e+00    0.00000000e+00    0.00000000e+00    4.79635469e-05    0.00000000e+00    0.00000000e+00    1.09944133e-05    2.02055567e-05    1.11592231e-05    1.22437411e-05    1.02828552e-05    3.65087176e-12    0.00000000e+00    1.23551531e-12    2.33199543e-04    8.75863095e-05
17       3.24900959e-02    6.19496545e-08    8.49458675e-06    1.28709730e-06    1.75703367e-06    1.47441550e-05    1.88344606e-06    8.34638390e-06    0.00000000e+00    0.00000000e+00    0.00000000e+00    1.72229323e-06    0.00000000e+00    0.00000000e+00    3.94791526e-07    7.25548723e-07    4.00711986e-07    4.39655500e-07    3.69241249e-07    1.37297419e-13    0.00000000e+00    4.64636197e-14    8.37381683e-06    3.14508207e-06    3.42252760e-05    4.67213801e-05    3.92062645e-04    5.00828188e-05    2.21939158e-04    0.00000000e+00    0.00000000e+00    0.00000000e+00    4.57975950e-05    0.00000000e+00    0.00000000e+00    1.04979234e-05    1.92931064e-05    1.06553547e-05    1.16909039e-05    9.81851460e-06    3.65088332e-12    0.00000000e+00    1.23551670e-12    2.22668629e-04    8.36310522e-05
18       3.48220225e-02    5.92513343e-08    7.48503627e-06    1.29802081e-06    1.77194327e-06    1.41977961e-05    1.89943205e-06    8.41720866e-06    0.00000000e+00    0.00000000e+00    0.00000000e+00    1.73690824e-06    0.00000000e+00    0.00000000e+00    3.98141601e-07    7.31705499e-07    4.04115092e-07    4.43389340e-07    3.72375231e-07    1.45011711e-13    0.00000000e+00    4.90740606e-14    8.44487440e-06    3.17177018e-06    3.26797584e-05    4.46115175e-05    3.57452317e-04    4.78212524e-05    2.11916746e-04    0.00000000e+00    0.00000000e+00    0.00000000e+00    4.37294544e-05    0.00000000e+00    0.00000000e+00    1.00238542e-05    1.84218610e-05    1.01742464e-05    1.11630387e-05    9.37514446e-06    3.65090271e-12    0.00000000e+00    1.23551829e-12    2.12613275e-04    7.98544080e-05
19       3.73213197e-02    5.66747826e-08    6.60502293e-06    1.30783961e-06    1.78534445e-06    1.36591746e-05    1.91380172e-06    8.48086805e-06    0.00000000e+00    0.00000000e+00    0.00000000e+00    1.75004471e-06    0.00000000e+00    0.00000000e+00    4.01152748e-07    7.37239391e-07    4.07174648e-07    4.46746241e-07    3.75192338e-07    1.53015624e-13    0.00000000e+00    5.17837513e-14    8.50874306e-06    3.19575824e-06    3.12040380e-05    4.25969329e-05    3.25897303e-04    4.56618236e-05    2.02346929e-04    0.00000000e+00    0.00000000e+00    0.00000000e+00    4.17547083e-05    0.00000000e+00    0.00000000e+00    9.57119321e-06    1.75899597e-05    9.71487106e-06    1.06590186e-05    8.95179797e-06    3.65083401e-12    0.00000000e+00    1.23552011e-12    2.03012005e-04    7.62483110e-05
20       4.00000000e-02    5.42278613e-08    5.83766020e-06    1.31663469e-06    1.79734773e-06    1.31300342e-05    1.92667360e-06    8.53788703e-06    0.00000000e+00    0.00000000e+00    0.00000000e+00    1.76181094e-06    0.00000000e+00    0.00000000e+00    4.03849798e-07    7.42196035e-07    4.09915920e-07    4.49753926e-07    3.77715810e-07    1.61332517e-13    0.00000000e+00    5.45975306e-14    8.56594947e-06    3.21724404e-06    2.97949630e-05    4.06733238e-05    2.97127886e-04    4.35999211e-05    1.93209270e-04    0.00000000e+00    0.00000000e+00    0.00000000e+00    3.98691392e-05    0.00000000e+00    0.00000000e+00    9.13897368e-06    1.67956257e-05    9.27624782e-06    1.01777674e-05    8.54757106e-06    3.65089605e-12    0.00000000e+00    1.23552221e-12    1.93844313e-04    7.28050596e-05
21       4.28709385e-02    5.19161300e-08    5.16824197e-06    1.32448789e-06    1.80806475e-06    1.26118570e-05    1.93816748e-06    8.58879599e-06    0.00000000e+00    0.00000000e+00    0.00000000e+00    1.77231640e-06    0.00000000e+00    0.00000000e+00    4.06257838e-07    7.46621536e-07    4.12364448e-07    4.52440416e-07    3.79969131e-07    1.69970261e-13    0.00000000e+00    5.75207295e-14    8.61702580e-06    3.23642746e-06    2.84495244e-05    3.88365817e-05    2.70898161e-04    4.16311417e-05    1.84484254e-04    0.00000000e+00    0.00000000e+00    0.00000000e+00    3.80687199e-05    0.00000000e+00    0.00000000e+00    8.72627251e-06    1.60371626e-05    8.85744030e-06    9.71825771e-06    8.16160052e-06    3.65090019e-12    0.00000000e+00    1.23552462e-12    1.85090621e-04    6.95172999e-05
