Index       FREQ        {SQRT(ABS(INOISE))} {POW(ABS(ONOISE),1/3)} {POW(ABS(DNO(M1,FLICKER_B_GND)),1/3)} {POW(ABS(DNO(M1,FLICKER_DI_SI_FLICKER_NOISE_IN_CHANNEL_INTERNAL_NODES_#2)),1/3)} {POW(ABS(DNO(M1,FLICKER_G_GND_GATE_FLICKER_NOISE)),1/3)} {POW(ABS(DNO(M1,WHITE_D_DI)),1/3)} {POW(ABS(DNO(M1,WHITE_DI_SI)),1/3)} {POW(ABS(DNO(M1,WHITE_DI_SI_THERMAL_NOISE_IN_CHANNEL_INTERNAL_NODES_#2)),1/3)} {POW(ABS(DNO(M1,WHITE_G_GND_GATE_SHOT_NOISE)),1/3)} {POW(ABS(DNO(M1,WHITE_NOI_GND)),1/3)} {POW(ABS(DNO(M1,WHITE_S_SI)),1/3)} {POW(ABS(DNO(M1)),1/3)} {POW(ABS(DNI(M1,FLICKER_B_GND)),1/3)} {POW(ABS(DNI(M1,FLICKER_DI_SI_FLICKER_NOISE_IN_CHANNEL_INTERNAL_NODES_#2)),1/3)} {POW(ABS(DNI(M1,FLICKER_G_GND_GATE_FLICKER_NOISE)),1/3)} {POW(ABS(DNI(M1,WHITE_DI_SI)),1/3)} {POW(ABS(DNI(M1,WHITE_DI_SI_THERMAL_NOISE_IN_CHANNEL_INTERNAL_NODES_#2)),1/3)} {POW(ABS(DNI(M1,WHITE_G_GND_GATE_SHOT_NOISE)),1/3)} {POW(ABS(DNI(M1,WHITE_NOI_GND)),1/3)} {POW(ABS(DNI(M1)),1/3)}
0        1.00000000e+03    2.43112085e-08    2.29020689e-09    0.00000000e+00    0.00000000e+00    0.00000000e+00    1.31359888e-10    2.07373559e-09    0.00000000e+00    0.00000000e+00    1.31487286e-09    9.35554871e-10    2.29020689e-09    0.00000000e+00    0.00000000e+00    0.00000000e+00    7.59888193e-06    0.00000000e+00    0.00000000e+00    4.81814732e-06    8.39210737e-06
1        1.23284674e+03    2.43112085e-08    1.98018679e-09    0.00000000e+00    0.00000000e+00    0.00000000e+00    1.13577999e-10    1.79301872e-09    0.00000000e+00    0.00000000e+00    1.13688151e-09    8.08910935e-10    1.98018679e-09    0.00000000e+00    0.00000000e+00    0.00000000e+00    7.59888193e-06    0.00000000e+00    0.00000000e+00    4.81814732e-06    8.39210737e-06
2        1.51991108e+03    2.43112085e-08    1.71564106e-09    0.00000000e+00    0.00000000e+00    0.00000000e+00    9.84043927e-11    1.55347796e-09    0.00000000e+00    0.00000000e+00    9.84998287e-10    7.00843386e-10    1.71564106e-09    0.00000000e+00    0.00000000e+00    0.00000000e+00    7.59888193e-06    0.00000000e+00    0.00000000e+00    4.81814732e-06    8.39210737e-06
3        1.87381742e+03    2.43112085e-08    1.48841646e-09    0.00000000e+00    0.00000000e+00    0.00000000e+00    8.53714224e-11    1.34773072e-09    0.00000000e+00    0.00000000e+00    8.54542185e-10    6.08021604e-10    1.48841646e-09    0.00000000e+00    0.00000000e+00    0.00000000e+00    7.59888193e-06    0.00000000e+00    0.00000000e+00    4.81814732e-06    8.39210737e-06
4        2.31012970e+03    2.43112085e-08    1.29240796e-09    0.00000000e+00    0.00000000e+00    0.00000000e+00    7.41289209e-11    1.17024903e-09    0.00000000e+00    0.00000000e+00    7.42008138e-10    5.27951675e-10    1.29240796e-09    0.00000000e+00    0.00000000e+00    0.00000000e+00    7.59888193e-06    0.00000000e+00    0.00000000e+00    4.81814732e-06    8.39210737e-06
5        2.84803587e+03    2.43112085e-08    1.12284970e-09    0.00000000e+00    0.00000000e+00    0.00000000e+00    6.44035313e-11    1.01671749e-09    0.00000000e+00    0.00000000e+00    6.44659921e-10    4.58686729e-10    1.12284970e-09    0.00000000e+00    0.00000000e+00    0.00000000e+00    7.59888193e-06    0.00000000e+00    0.00000000e+00    4.81814732e-06    8.39210737e-06
6        3.51119173e+03    2.43112085e-08    9.75900371e-10    0.00000000e+00    0.00000000e+00    0.00000000e+00    5.59749271e-11    8.83657867e-10    0.00000000e+00    0.00000000e+00    5.60292135e-10    3.98657584e-10    9.75900371e-10    0.00000000e+00    0.00000000e+00    0.00000000e+00    7.59888193e-06    0.00000000e+00    0.00000000e+00    4.81814732e-06    8.39210737e-06
7        4.32876128e+03    2.43112085e-08    8.48390094e-10    0.00000000e+00    0.00000000e+00    0.00000000e+00    4.86612928e-11    7.68199914e-10    0.00000000e+00    0.00000000e+00    4.87084862e-10    3.46569338e-10    8.48390094e-10    0.00000000e+00    0.00000000e+00    0.00000000e+00    7.59888193e-06    0.00000000e+00    0.00000000e+00    4.81814732e-06    8.39210737e-06
8        5.33669923e+03    2.43112085e-08    7.37658749e-10    0.00000000e+00    0.00000000e+00    0.00000000e+00    4.23100513e-11    6.67934941e-10    0.00000000e+00    0.00000000e+00    4.23510850e-10    3.01335324e-10    7.37658749e-10    0.00000000e+00    0.00000000e+00    0.00000000e+00    7.59888193e-06    0.00000000e+00    0.00000000e+00    4.81814732e-06    8.39210737e-06
9        6.57933225e+03    2.43112085e-08    6.41447753e-10    0.00000000e+00    0.00000000e+00    0.00000000e+00    3.67916565e-11    5.80817847e-10    0.00000000e+00    0.00000000e+00    3.68273383e-10    2.62032907e-10    6.41447753e-10    0.00000000e+00    0.00000000e+00    0.00000000e+00    7.59888193e-06    0.00000000e+00    0.00000000e+00    4.81814732e-06    8.39210737e-06
10       8.11130831e+03    2.43112085e-08    5.57824064e-10    0.00000000e+00    0.00000000e+00    0.00000000e+00    3.19952346e-11    5.05098304e-10    0.00000000e+00    0.00000000e+00    3.20262647e-10    2.27872435e-10    5.57824064e-10    0.00000000e+00    0.00000000e+00    0.00000000e+00    7.59888193e-06    0.00000000e+00    0.00000000e+00    4.81814732e-06    8.39210737e-06
11       1.00000000e+04    2.43112085e-08    4.85124316e-10    0.00000000e+00    0.00000000e+00    0.00000000e+00    2.78253795e-11    4.39270166e-10    0.00000000e+00    0.00000000e+00    2.78523656e-10    1.98174418e-10    4.85124316e-10    0.00000000e+00    0.00000000e+00    0.00000000e+00    7.59888193e-06    0.00000000e+00    0.00000000e+00    4.81814732e-06    8.39210737e-06
12       1.23284674e+04    2.43112085e-08    4.21912013e-10    0.00000000e+00    0.00000000e+00    0.00000000e+00    2.41996979e-11    3.82032716e-10    0.00000000e+00    0.00000000e+00    2.42231676e-10    1.72352044e-10    4.21912013e-10    0.00000000e+00    0.00000000e+00    0.00000000e+00    7.59888193e-06    0.00000000e+00    0.00000000e+00    4.81814732e-06    8.39210737e-06
13       1.51991108e+04    2.43112085e-08    3.66943604e-10    0.00000000e+00    0.00000000e+00    0.00000000e+00    2.10468631e-11    3.32259944e-10    0.00000000e+00    0.00000000e+00    2.10672751e-10    1.49897320e-10    3.66943604e-10    0.00000000e+00    0.00000000e+00    0.00000000e+00    7.59888193e-06    0.00000000e+00    0.00000000e+00    4.81814732e-06    8.39210737e-06
14       1.87381742e+04    2.43112085e-08    3.19140853e-10    0.00000000e+00    0.00000000e+00    0.00000000e+00    1.83050304e-11    2.88975528e-10    0.00000000e+00    0.00000000e+00    1.83227833e-10    1.30369785e-10    3.19140853e-10    0.00000000e+00    0.00000000e+00    0.00000000e+00    7.59888193e-06    0.00000000e+00    0.00000000e+00    4.81814732e-06    8.39210737e-06
15       2.31012970e+04    2.43112085e-08    2.77567872e-10    0.00000000e+00    0.00000000e+00    0.00000000e+00    1.59205200e-11    2.51332042e-10    0.00000000e+00    0.00000000e+00    1.59359603e-10    1.13387125e-10    2.77567872e-10    0.00000000e+00    0.00000000e+00    0.00000000e+00    7.59888193e-06    0.00000000e+00    0.00000000e+00    4.81814732e-06    8.39210737e-06
16       2.84803587e+04    2.43112085e-08    2.41411766e-10    0.00000000e+00    0.00000000e+00    0.00000000e+00    1.38467065e-11    2.18593427e-10    0.00000000e+00    0.00000000e+00    1.38601355e-10    9.86172712e-11    2.41411766e-10    0.00000000e+00    0.00000000e+00    0.00000000e+00    7.59888193e-06    0.00000000e+00    0.00000000e+00    4.81814732e-06    8.39210737e-06
17       3.51119173e+04    2.43112085e-08    2.09966148e-10    0.00000000e+00    0.00000000e+00    0.00000000e+00    1.20430734e-11    1.90120061e-10    0.00000000e+00    0.00000000e+00    1.20547532e-10    8.57716624e-11    2.09966148e-10    0.00000000e+00    0.00000000e+00    0.00000000e+00    7.59888193e-06    0.00000000e+00    0.00000000e+00    4.81814732e-06    8.39210737e-06
18       4.32876128e+04    2.43112085e-08    1.82616992e-10    0.00000000e+00    0.00000000e+00    0.00000000e+00    1.04744020e-11    1.65355959e-10    0.00000000e+00    0.00000000e+00    1.04845605e-10    7.45994683e-11    1.82616992e-10    0.00000000e+00    0.00000000e+00    0.00000000e+00    7.59888193e-06    0.00000000e+00    0.00000000e+00    4.81814732e-06    8.39210737e-06
19       5.33669923e+04    2.43112085e-08    1.58830457e-10    0.00000000e+00    0.00000000e+00    0.00000000e+00    9.11007262e-12    1.43817737e-10    0.00000000e+00    0.00000000e+00    9.11890789e-11    6.48826131e-11    1.58830457e-10    0.00000000e+00    0.00000000e+00    0.00000000e+00    7.59888193e-06    0.00000000e+00    0.00000000e+00    4.81814732e-06    8.39210737e-06
20       6.57933225e+04    2.43112085e-08    1.38142351e-10    0.00000000e+00    0.00000000e+00    0.00000000e+00    7.92346050e-12    1.25085079e-10    0.00000000e+00    0.00000000e+00    7.93114495e-11    5.64314736e-11    1.38142351e-10    0.00000000e+00    0.00000000e+00    0.00000000e+00    7.59888193e-06    0.00000000e+00    0.00000000e+00    4.81814732e-06    8.39210737e-06
21       8.11130831e+04    2.43112085e-08    1.20149012e-10    0.00000000e+00    0.00000000e+00    0.00000000e+00    6.89141268e-12    1.08792478e-10    0.00000000e+00    0.00000000e+00    6.89809621e-11    4.90811524e-11    1.20149012e-10    0.00000000e+00    0.00000000e+00    0.00000000e+00    7.59888193e-06    0.00000000e+00    0.00000000e+00    4.81814732e-06    8.39210737e-06
22       1.00000000e+05    2.43112085e-08    1.04499392e-10    0.00000000e+00    0.00000000e+00    0.00000000e+00    5.99379404e-12    9.46220661e-11    0.00000000e+00    0.00000000e+00    5.99960703e-11    4.26882459e-11    1.04499392e-10    0.00000000e+00    0.00000000e+00    0.00000000e+00    7.59888193e-06    0.00000000e+00    0.00000000e+00    4.81814732e-06    8.39210737e-06
23       1.23284674e+05    2.43112085e-08    9.08881891e-11    0.00000000e+00    0.00000000e+00    0.00000000e+00    5.21309338e-12    8.22974001e-11    0.00000000e+00    0.00000000e+00    5.21814922e-11    3.71280378e-11    9.08881891e-11    0.00000000e+00    0.00000000e+00    0.00000000e+00    7.59888193e-06    0.00000000e+00    0.00000000e+00    4.81814732e-06    8.39210737e-06
24       1.51991108e+05    2.43112085e-08    7.90498818e-11    0.00000000e+00    0.00000000e+00    0.00000000e+00    4.53408104e-12    7.15780544e-11    0.00000000e+00    0.00000000e+00    4.53847835e-11    3.22920616e-11    7.90498818e-11    0.00000000e+00    0.00000000e+00    0.00000000e+00    7.59888193e-06    0.00000000e+00    0.00000000e+00    4.81814732e-06    8.39210737e-06
25       1.87381742e+05    2.43112085e-08    6.87535386e-11    0.00000000e+00    0.00000000e+00    0.00000000e+00    3.94351148e-12    6.22549259e-11    0.00000000e+00    0.00000000e+00    3.94733603e-11    2.80859813e-11    6.87535386e-11    0.00000000e+00    0.00000000e+00    0.00000000e+00    7.59888193e-06    0.00000000e+00    0.00000000e+00    4.81814732e-06    8.39210737e-06
26       2.31012970e+05    2.43112085e-08    5.97983118e-11    0.00000000e+00    0.00000000e+00    0.00000000e+00    3.42986461e-12    5.41461508e-11    0.00000000e+00    0.00000000e+00    3.43319101e-11    2.44277502e-11    5.97983118e-11    0.00000000e+00    0.00000000e+00    0.00000000e+00    7.59888193e-06    0.00000000e+00    0.00000000e+00    4.81814732e-06    8.39210737e-06
27       2.84803587e+05    2.43112085e-08    5.20095164e-11    0.00000000e+00    0.00000000e+00    0.00000000e+00    2.98312100e-12    4.70935556e-11    0.00000000e+00    0.00000000e+00    2.98601414e-11    2.12460091e-11    5.20095164e-11    0.00000000e+00    0.00000000e+00    0.00000000e+00    7.59888193e-06    0.00000000e+00    0.00000000e+00    4.81814732e-06    8.39210737e-06
28       3.51119173e+05    2.43112085e-08    4.52352218e-11    0.00000000e+00    0.00000000e+00    0.00000000e+00    2.59456633e-12    4.09595701e-11    0.00000000e+00    0.00000000e+00    2.59708263e-11    1.84786939e-11    4.52352218e-11    0.00000000e+00    0.00000000e+00    0.00000000e+00    7.59888193e-06    0.00000000e+00    0.00000000e+00    4.81814732e-06    8.39210737e-06
29       4.32876128e+05    2.43112085e-08    3.93432872e-11    0.00000000e+00    0.00000000e+00    0.00000000e+00    2.25662137e-12    3.56245435e-11    0.00000000e+00    0.00000000e+00    2.25880992e-11    1.60718248e-11    3.93432872e-11    0.00000000e+00    0.00000000e+00    0.00000000e+00    7.59888193e-06    0.00000000e+00    0.00000000e+00    4.81814732e-06    8.39210737e-06
30       5.33669923e+05    2.43112085e-08    3.42187838e-11    0.00000000e+00    0.00000000e+00    0.00000000e+00    1.96269413e-12    3.09844103e-11    0.00000000e+00    0.00000000e+00    1.96459762e-11    1.39784532e-11    3.42187838e-11    0.00000000e+00    0.00000000e+00    0.00000000e+00    7.59888193e-06    0.00000000e+00    0.00000000e+00    4.81814732e-06    8.39210737e-06
31       6.57933225e+05    2.43112085e-08    2.97617525e-11    0.00000000e+00    0.00000000e+00    0.00000000e+00    1.70705123e-12    2.69486594e-11    0.00000000e+00    0.00000000e+00    1.70870678e-11    1.21577455e-11    2.97617525e-11    0.00000000e+00    0.00000000e+00    0.00000000e+00    7.59888193e-06    0.00000000e+00    0.00000000e+00    4.81814732e-06    8.39210737e-06
32       8.11130831e+05    2.43112085e-08    2.58852542e-11    0.00000000e+00    0.00000000e+00    0.00000000e+00    1.48470608e-12    2.34385693e-11    0.00000000e+00    0.00000000e+00    1.48614600e-11    1.05741869e-11    2.58852542e-11    0.00000000e+00    0.00000000e+00    0.00000000e+00    7.59888193e-06    0.00000000e+00    0.00000000e+00    4.81814732e-06    8.39210737e-06
33       1.00000000e+06    2.43112085e-08    2.25136738e-11    0.00000000e+00    0.00000000e+00    0.00000000e+00    1.29132162e-12    2.03856721e-11    0.00000000e+00    0.00000000e+00    1.29257399e-11    9.19688840e-12    2.25136738e-11    0.00000000e+00    0.00000000e+00    0.00000000e+00    7.59888193e-06    0.00000000e+00    0.00000000e+00    4.81814732e-06    8.39210737e-06
34       1.23284674e+06    2.43112085e-08    1.95812452e-11    0.00000000e+00    0.00000000e+00    0.00000000e+00    1.12312569e-12    1.77304179e-11    0.00000000e+00    0.00000000e+00    1.12421493e-11    7.99898447e-12    1.95812452e-11    0.00000000e+00    0.00000000e+00    0.00000000e+00    7.59888193e-06    0.00000000e+00    0.00000000e+00    4.81814732e-06    8.39210737e-06
35       1.51991108e+06    2.43112085e-08    1.70307684e-11    0.00000000e+00    0.00000000e+00    0.00000000e+00    9.76837445e-13    1.54210132e-11    0.00000000e+00    0.00000000e+00    9.77784812e-12    6.95710873e-12    1.70307684e-11    0.00000000e+00    0.00000000e+00    0.00000000e+00    7.59888193e-06    0.00000000e+00    0.00000000e+00    4.81814732e-06    8.39210737e-06
36       1.87381742e+06    2.43112085e-08    1.48124938e-11    0.00000000e+00    0.00000000e+00    0.00000000e+00    8.49603393e-13    1.34124108e-11    0.00000000e+00    0.00000000e+00    8.50427363e-12    6.05093837e-12    1.48124938e-11    0.00000000e+00    0.00000000e+00    0.00000000e+00    7.59888193e-06    0.00000000e+00    0.00000000e+00    4.81814732e-06    8.39210737e-06
37       2.31012970e+06    2.43112085e-08    1.28831517e-11    0.00000000e+00    0.00000000e+00    0.00000000e+00    7.38941704e-13    1.16654309e-11    0.00000000e+00    0.00000000e+00    7.39658350e-12    5.26279760e-12    1.28831517e-11    0.00000000e+00    0.00000000e+00    0.00000000e+00    7.59888193e-06    0.00000000e+00    0.00000000e+00    4.81814732e-06    8.39210737e-06
38       2.84803587e+06    2.43112085e-08    1.12051083e-11    0.00000000e+00    0.00000000e+00    0.00000000e+00    6.42693812e-13    1.01459969e-11    0.00000000e+00    0.00000000e+00    6.43317111e-12    4.57731296e-12    1.12051083e-11    0.00000000e+00    0.00000000e+00    0.00000000e+00    7.59888193e-06    0.00000000e+00    0.00000000e+00    4.81814732e-06    8.39210737e-06
39       3.51119173e+06    2.43112085e-08    9.74563179e-12    0.00000000e+00    0.00000000e+00    0.00000000e+00    5.58982306e-13    8.82447067e-12    0.00000000e+00    0.00000000e+00    5.59524415e-12    3.98111338e-12    9.74563179e-12    0.00000000e+00    0.00000000e+00    0.00000000e+00    7.59888193e-06    0.00000000e+00    0.00000000e+00    4.81814732e-06    8.39210737e-06
40       4.32876128e+06    2.43112085e-08    8.47625353e-12    0.00000000e+00    0.00000000e+00    0.00000000e+00    4.86174307e-13    7.67507456e-12    0.00000000e+00    0.00000000e+00    4.86645802e-12    3.46256939e-12    8.47625353e-12    0.00000000e+00    0.00000000e+00    0.00000000e+00    7.59888193e-06    0.00000000e+00    0.00000000e+00    4.81814732e-06    8.39210737e-06
41       5.33669923e+06    2.43112085e-08    7.37221305e-12    0.00000000e+00    0.00000000e+00    0.00000000e+00    4.22849625e-13    6.67538844e-12    0.00000000e+00    0.00000000e+00    4.23259701e-12    3.01156627e-12    7.37221305e-12    0.00000000e+00    0.00000000e+00    0.00000000e+00    7.59888193e-06    0.00000000e+00    0.00000000e+00    4.81814732e-06    8.39210737e-06
42       6.57933225e+06    2.43112084e-08    6.41197494e-12    0.00000000e+00    0.00000000e+00    0.00000000e+00    3.67773048e-13    5.80591243e-12    0.00000000e+00    0.00000000e+00    3.68129703e-12    2.61930676e-12    6.41197494e-12    0.00000000e+00    0.00000000e+00    0.00000000e+00    7.59888192e-06    0.00000000e+00    0.00000000e+00    4.81814732e-06    8.39210736e-06
43       8.11130831e+06    2.43112084e-08    5.57680881e-12    0.00000000e+00    0.00000000e+00    0.00000000e+00    3.19870253e-13    5.04968655e-12    0.00000000e+00    0.00000000e+00    3.20180442e-12    2.27813944e-12    5.57680881e-12    0.00000000e+00    0.00000000e+00    0.00000000e+00    7.59888192e-06    0.00000000e+00    0.00000000e+00    4.81814731e-06    8.39210735e-06
44       1.00000000e+07    2.43112084e-08    4.85042390e-12    0.00000000e+00    0.00000000e+00    0.00000000e+00    2.78206848e-13    4.39195984e-12    0.00000000e+00    0.00000000e+00    2.78476620e-12    1.98140951e-12    4.85042390e-12    0.00000000e+00    0.00000000e+00    0.00000000e+00    7.59888191e-06    0.00000000e+00    0.00000000e+00    4.81814731e-06    8.39210734e-06
45       1.23284674e+07    2.43112083e-08    4.21865135e-12    0.00000000e+00    0.00000000e+00    0.00000000e+00    2.41970149e-13    3.81990269e-12    0.00000000e+00    0.00000000e+00    2.42204762e-12    1.72332895e-12    4.21865135e-12    0.00000000e+00    0.00000000e+00    0.00000000e+00    7.59888189e-06    0.00000000e+00    0.00000000e+00    4.81814730e-06    8.39210733e-06
46       1.51991108e+07    2.43112082e-08    3.66916781e-12    0.00000000e+00    0.00000000e+00    0.00000000e+00    2.10453321e-13    3.32235655e-12    0.00000000e+00    0.00000000e+00    2.10657350e-12    1.49886363e-12    3.66916781e-12    0.00000000e+00    0.00000000e+00    0.00000000e+00    7.59888187e-06    0.00000000e+00    0.00000000e+00    4.81814728e-06    8.39210731e-06
47       1.87381742e+07    2.43112081e-08    3.19125504e-12    0.00000000e+00    0.00000000e+00    0.00000000e+00    1.83041601e-13    2.88961630e-12    0.00000000e+00    0.00000000e+00    1.83219020e-12    1.30363515e-12    3.19125504e-12    0.00000000e+00    0.00000000e+00    0.00000000e+00    7.59888184e-06    0.00000000e+00    0.00000000e+00    4.81814726e-06    8.39210727e-06
48       2.31012970e+07    2.43112078e-08    2.77559089e-12    0.00000000e+00    0.00000000e+00    0.00000000e+00    1.59200295e-13    2.51324089e-12    0.00000000e+00    0.00000000e+00    1.59354560e-12    1.13383537e-12    2.77559089e-12    0.00000000e+00    0.00000000e+00    0.00000000e+00    7.59888179e-06    0.00000000e+00    0.00000000e+00    4.81814723e-06    8.39210722e-06
