Index       FREQ        {SQRT(ABS(ONOISE))} {SQRT(ABS(INOISE))} {SQRT(ABS(DNO(RSOURCE)))} {SQRT(ABS(DNO(M1,WHITE_G_GP_RGATE)))} {SQRT(ABS(DNO(M1,WHITE_S_SI_RSOURCE)))} {SQRT(ABS(DNO(M1,WHITE_D_DI_RDRAIN)))} {SQRT(ABS(DNO(M1,WHITE_BP_BI_RBULK)))} {SQRT(ABS(DNO(M1,WHITE_BS_BI_RJUNS)))} {SQRT(ABS(DNO(M1,WHITE_BD_BI_RJUND)))} {SQRT(ABS(DNO(M1,WHITE_B_BI_RWELL)))} {SQRT(ABS(DNO(M1,WHITE_NOI2_GND_IGIG)))} {SQRT(ABS(DNO(M1,WHITE_DI_SI_IDID)))} {SQRT(ABS(DNO(M1,FLICKER_DI_SI_FLICKER)))} {SQRT(ABS(DNO(M1,WHITE_GP_SI_IGS)))} {SQRT(ABS(DNO(M1,WHITE_GP_DI_IGD)))} {SQRT(ABS(DNO(M1,WHITE_BS_SI_IBS)))} {SQRT(ABS(DNO(M1,WHITE_BD_DI_IBD)))} {SQRT(ABS(DNO(M1,WHITE_DI_SI_IDIDEDGE)))} {SQRT(ABS(DNO(M1)))} {SQRT(ABS(DNO(RLOAD)))} {SQRT(ABS(DNI(RSOURCE)))} {SQRT(ABS(DNI(M1,WHITE_G_GP_RGATE)))} {SQRT(ABS(DNI(M1,WHITE_S_SI_RSOURCE)))} {SQRT(ABS(DNI(M1,WHITE_D_DI_RDRAIN)))} {SQRT(ABS(DNI(M1,WHITE_BP_BI_RBULK)))} {SQRT(ABS(DNI(M1,WHITE_BS_BI_RJUNS)))} {SQRT(ABS(DNI(M1,WHITE_BD_BI_RJUND)))} {SQRT(ABS(DNI(M1,WHITE_B_BI_RWELL)))} {SQRT(ABS(DNI(M1,WHITE_NOI2_GND_IGIG)))} {SQRT(ABS(DNI(M1,WHITE_DI_SI_IDID)))} {SQRT(ABS(DNI(M1,FLICKER_DI_SI_FLICKER)))} {SQRT(ABS(DNI(M1,WHITE_GP_SI_IGS)))} {SQRT(ABS(DNI(M1,WHITE_GP_DI_IGD)))} {SQRT(ABS(DNI(M1,WHITE_BS_SI_IBS)))} {SQRT(ABS(DNI(M1,WHITE_BD_DI_IBD)))} {SQRT(ABS(DNI(M1,WHITE_DI_SI_IDIDEDGE)))} {SQRT(ABS(DNI(M1)))} {SQRT(ABS(DNI(RLOAD)))}
0        1.00000000e+02    1.90276360e-09    3.33127216e-05    2.32547340e-11    0.00000000e+00    0.00000000e+00    0.00000000e+00    0.00000000e+00    0.00000000e+00    0.00000000e+00    0.00000000e+00    5.03976205e-12    1.56288579e-09    6.70795742e-10    7.24254080e-12    4.65485979e-11    0.00000000e+00    8.13064496e-10    0.00000000e+00    1.88570873e-09    2.53122718e-10    4.07133331e-07    0.00000000e+00    0.00000000e+00    0.00000000e+00    0.00000000e+00    0.00000000e+00    0.00000000e+00    0.00000000e+00    8.82338671e-08    2.73622952e-05    1.17439875e-05    1.26799118e-07    8.14951730e-07    0.00000000e+00    1.42347643e-05    0.00000000e+00    3.30141328e-05    4.43155768e-06
1        1.25892541e+02    1.87828747e-09    3.28842047e-05    2.32547340e-11    0.00000000e+00    0.00000000e+00    0.00000000e+00    0.00000000e+00    0.00000000e+00    0.00000000e+00    0.00000000e+00    5.03976205e-12    1.56288579e-09    5.97847334e-10    7.24254080e-12    4.65485979e-11    0.00000000e+00    8.13064496e-10    0.00000000e+00    1.86100831e-09    2.53122718e-10    4.07133331e-07    0.00000000e+00    0.00000000e+00    0.00000000e+00    0.00000000e+00    0.00000000e+00    0.00000000e+00    0.00000000e+00    8.82338671e-08    2.73622952e-05    1.04668399e-05    1.26799118e-07    8.14951730e-07    0.00000000e+00    1.42347643e-05    0.00000000e+00    3.25816890e-05    4.43155768e-06
2        1.58489319e+02    1.85861570e-09    3.25398003e-05    2.32547340e-11    0.00000000e+00    0.00000000e+00    0.00000000e+00    0.00000000e+00    0.00000000e+00    0.00000000e+00    0.00000000e+00    5.03976205e-12    1.56288579e-09    5.32831998e-10    7.24254080e-12    4.65485979e-11    0.00000000e+00    8.13064496e-10    0.00000000e+00    1.84115193e-09    2.53122718e-10    4.07133331e-07    0.00000000e+00    0.00000000e+00    0.00000000e+00    0.00000000e+00    0.00000000e+00    0.00000000e+00    0.00000000e+00    8.82338671e-08    2.73622952e-05    9.32858084e-06    1.26799118e-07    8.14951730e-07    0.00000000e+00    1.42347643e-05    0.00000000e+00    3.22340525e-05    4.43155768e-06
3        1.99526231e+02    1.84284021e-09    3.22636103e-05    2.32547340e-11    0.00000000e+00    0.00000000e+00    0.00000000e+00    0.00000000e+00    0.00000000e+00    0.00000000e+00    0.00000000e+00    5.03976205e-12    1.56288579e-09    4.74887018e-10    7.24254080e-12    4.65485979e-11    0.00000000e+00    8.13064496e-10    0.00000000e+00    1.82522551e-09    2.53122718e-10    4.07133331e-07    0.00000000e+00    0.00000000e+00    0.00000000e+00    0.00000000e+00    0.00000000e+00    0.00000000e+00    0.00000000e+00    8.82338671e-08    2.73622952e-05    8.31410642e-06    1.26799118e-07    8.14951730e-07    0.00000000e+00    1.42347643e-05    0.00000000e+00    3.19552200e-05    4.43155768e-06
4        2.51188643e+02    1.83021240e-09    3.20425282e-05    2.32547340e-11    0.00000000e+00    0.00000000e+00    0.00000000e+00    0.00000000e+00    0.00000000e+00    0.00000000e+00    0.00000000e+00    5.03976205e-12    1.56288579e-09    4.23243500e-10    7.24254080e-12    4.65485979e-11    0.00000000e+00    8.13064496e-10    0.00000000e+00    1.81247498e-09    2.53122718e-10    4.07133331e-07    0.00000000e+00    0.00000000e+00    0.00000000e+00    0.00000000e+00    0.00000000e+00    0.00000000e+00    0.00000000e+00    8.82338671e-08    2.73622952e-05    7.40995515e-06    1.26799118e-07    8.14951730e-07    0.00000000e+00    1.42347643e-05    0.00000000e+00    3.17319895e-05    4.43155768e-06
5        3.16227766e+02    1.82011934e-09    3.18658235e-05    2.32547340e-11    0.00000000e+00    0.00000000e+00    0.00000000e+00    0.00000000e+00    0.00000000e+00    0.00000000e+00    0.00000000e+00    5.03976205e-12    1.56288579e-09    3.77216166e-10    7.24254080e-12    4.65485979e-11    0.00000000e+00    8.13064496e-10    0.00000000e+00    1.80228258e-09    2.53122718e-10    4.07133331e-07    0.00000000e+00    0.00000000e+00    0.00000000e+00    0.00000000e+00    0.00000000e+00    0.00000000e+00    0.00000000e+00    8.82338671e-08    2.73622952e-05    6.60412948e-06    1.26799118e-07    8.14951730e-07    0.00000000e+00    1.42347643e-05    0.00000000e+00    3.15535457e-05    4.43155768e-06
6        3.98107171e+02    1.81206207e-09    3.17247605e-05    2.32547340e-11    0.00000000e+00    0.00000000e+00    0.00000000e+00    0.00000000e+00    0.00000000e+00    0.00000000e+00    0.00000000e+00    5.03976205e-12    1.56288579e-09    3.36194262e-10    7.24254081e-12    4.65485979e-11    0.00000000e+00    8.13064496e-10    0.00000000e+00    1.79414522e-09    2.53122718e-10    4.07133331e-07    0.00000000e+00    0.00000000e+00    0.00000000e+00    0.00000000e+00    0.00000000e+00    0.00000000e+00    0.00000000e+00    8.82338670e-08    2.73622952e-05    5.88593659e-06    1.26799118e-07    8.14951730e-07    0.00000000e+00    1.42347643e-05    0.00000000e+00    3.14110803e-05    4.43155768e-06
7        5.01187234e+02    1.80563634e-09    3.16122616e-05    2.32547340e-11    0.00000000e+00    0.00000000e+00    0.00000000e+00    0.00000000e+00    0.00000000e+00    0.00000000e+00    0.00000000e+00    5.03976205e-12    1.56288579e-09    2.99633452e-10    7.24254081e-12    4.65485979e-11    0.00000000e+00    8.13064496e-10    0.00000000e+00    1.78765508e-09    2.53122718e-10    4.07133331e-07    0.00000000e+00    0.00000000e+00    0.00000000e+00    0.00000000e+00    0.00000000e+00    0.00000000e+00    0.00000000e+00    8.82338670e-08    2.73622951e-05    5.24584651e-06    1.26799118e-07    8.14951729e-07    0.00000000e+00    1.42347643e-05    0.00000000e+00    3.12974540e-05    4.43155768e-06
8        6.30957344e+02    1.80051585e-09    3.15226144e-05    2.32547341e-11    0.00000000e+00    0.00000000e+00    0.00000000e+00    0.00000000e+00    0.00000000e+00    0.00000000e+00    0.00000000e+00    5.03976205e-12    1.56288579e-09    2.67048595e-10    7.24254081e-12    4.65485979e-11    0.00000000e+00    8.13064496e-10    0.00000000e+00    1.78248294e-09    2.53122718e-10    4.07133331e-07    0.00000000e+00    0.00000000e+00    0.00000000e+00    0.00000000e+00    0.00000000e+00    0.00000000e+00    0.00000000e+00    8.82338669e-08    2.73622951e-05    4.67536562e-06    1.26799118e-07    8.14951729e-07    0.00000000e+00    1.42347642e-05    0.00000000e+00    3.12069025e-05    4.43155768e-06
9        7.94328235e+02    1.79643810e-09    3.14512231e-05    2.32547341e-11    0.00000000e+00    0.00000000e+00    0.00000000e+00    0.00000000e+00    0.00000000e+00    0.00000000e+00    0.00000000e+00    5.03976205e-12    1.56288579e-09    2.38007311e-10    7.24254082e-12    4.65485979e-11    0.00000000e+00    8.13064496e-10    0.00000000e+00    1.77836384e-09    2.53122718e-10    4.07133331e-07    0.00000000e+00    0.00000000e+00    0.00000000e+00    0.00000000e+00    0.00000000e+00    0.00000000e+00    0.00000000e+00    8.82338669e-08    2.73622951e-05    4.16692399e-06    1.26799118e-07    8.14951728e-07    0.00000000e+00    1.42347642e-05    0.00000000e+00    3.11347871e-05    4.43155767e-06
10       1.00000000e+03    1.79319242e-09    3.13943991e-05    2.32547341e-11    0.00000000e+00    0.00000000e+00    0.00000000e+00    0.00000000e+00    0.00000000e+00    0.00000000e+00    0.00000000e+00    5.03976205e-12    1.56288579e-09    2.12124239e-10    7.24254083e-12    4.65485979e-11    0.00000000e+00    8.13064496e-10    0.00000000e+00    1.77508512e-09    2.53122718e-10    4.07133331e-07    0.00000000e+00    0.00000000e+00    0.00000000e+00    0.00000000e+00    0.00000000e+00    0.00000000e+00    0.00000000e+00    8.82338667e-08    2.73622950e-05    3.71377491e-06    1.26799118e-07    8.14951726e-07    0.00000000e+00    1.42347642e-05    0.00000000e+00    3.10773846e-05    4.43155766e-06
11       1.25892541e+03    1.79061010e-09    3.13491888e-05    2.32547342e-11    0.00000000e+00    0.00000000e+00    0.00000000e+00    0.00000000e+00    0.00000000e+00    0.00000000e+00    0.00000000e+00    5.03976205e-12    1.56288579e-09    1.89055927e-10    7.24254085e-12    4.65485978e-11    0.00000000e+00    8.13064496e-10    0.00000000e+00    1.77247641e-09    2.53122718e-10    4.07133331e-07    0.00000000e+00    0.00000000e+00    0.00000000e+00    0.00000000e+00    0.00000000e+00    0.00000000e+00    0.00000000e+00    8.82338665e-08    2.73622950e-05    3.30990536e-06    1.26799118e-07    8.14951724e-07    0.00000000e+00    1.42347642e-05    0.00000000e+00    3.10317125e-05    4.43155765e-06
12       1.58489319e+03    1.78855622e-09    3.13132304e-05    2.32547343e-11    0.00000000e+00    0.00000000e+00    0.00000000e+00    0.00000000e+00    0.00000000e+00    0.00000000e+00    0.00000000e+00    5.03976205e-12    1.56288579e-09    1.68496272e-10    7.24254088e-12    4.65485978e-11    0.00000000e+00    8.13064496e-10    0.00000000e+00    1.77040150e-09    2.53122718e-10    4.07133331e-07    0.00000000e+00    0.00000000e+00    0.00000000e+00    0.00000000e+00    0.00000000e+00    0.00000000e+00    0.00000000e+00    8.82338662e-08    2.73622949e-05    2.94995625e-06    1.26799118e-07    8.14951720e-07    0.00000000e+00    1.42347641e-05    0.00000000e+00    3.09953858e-05    4.43155763e-06
13       1.99526231e+03    1.78692309e-09    3.12846381e-05    2.32547344e-11    0.00000000e+00    0.00000000e+00    0.00000000e+00    0.00000000e+00    0.00000000e+00    0.00000000e+00    0.00000000e+00    5.03976206e-12    1.56288579e-09    1.50172461e-10    7.24254093e-12    4.65485978e-11    0.00000000e+00    8.13064496e-10    0.00000000e+00    1.76875161e-09    2.53122718e-10    4.07133331e-07    0.00000000e+00    0.00000000e+00    0.00000000e+00    0.00000000e+00    0.00000000e+00    0.00000000e+00    0.00000000e+00    8.82338657e-08    2.73622947e-05    2.62915125e-06    1.26799118e-07    8.14951714e-07    0.00000000e+00    1.42347640e-05    0.00000000e+00    3.09665000e-05    4.43155760e-06
14       2.51188643e+03    1.78562479e-09    3.12619076e-05    2.32547347e-11    0.00000000e+00    0.00000000e+00    0.00000000e+00    0.00000000e+00    0.00000000e+00    0.00000000e+00    0.00000000e+00    5.03976207e-12    1.56288579e-09    1.33841346e-10    7.24254101e-12    4.65485977e-11    0.00000000e+00    8.13064496e-10    0.00000000e+00    1.76743995e-09    2.53122718e-10    4.07133331e-07    0.00000000e+00    0.00000000e+00    0.00000000e+00    0.00000000e+00    0.00000000e+00    0.00000000e+00    0.00000000e+00    8.82338649e-08    2.73622944e-05    2.34323350e-06    1.26799118e-07    8.14951704e-07    0.00000000e+00    1.42347639e-05    0.00000000e+00    3.09435358e-05    4.43155756e-06
15       3.16227766e+03    1.78459283e-09    3.12438401e-05    2.32547351e-11    0.00000000e+00    0.00000000e+00    0.00000000e+00    0.00000000e+00    0.00000000e+00    0.00000000e+00    0.00000000e+00    5.03976208e-12    1.56288579e-09    1.19286226e-10    7.24254113e-12    4.65485976e-11    0.00000000e+00    8.13064496e-10    0.00000000e+00    1.76639737e-09    2.53122718e-10    4.07133331e-07    0.00000000e+00    0.00000000e+00    0.00000000e+00    0.00000000e+00    0.00000000e+00    0.00000000e+00    0.00000000e+00    8.82338636e-08    2.73622939e-05    2.08840902e-06    1.26799118e-07    8.14951688e-07    0.00000000e+00    1.42347636e-05    0.00000000e+00    3.09252823e-05    4.43155748e-06
16       3.98107171e+03    1.78377270e-09    3.12294807e-05    2.32547357e-11    0.00000000e+00    0.00000000e+00    0.00000000e+00    0.00000000e+00    0.00000000e+00    0.00000000e+00    0.00000000e+00    5.03976210e-12    1.56288579e-09    1.06313960e-10    7.24254133e-12    4.65485974e-11    0.00000000e+00    8.13064496e-10    0.00000000e+00    1.76556879e-09    2.53122718e-10    4.07133331e-07    0.00000000e+00    0.00000000e+00    0.00000000e+00    0.00000000e+00    0.00000000e+00    0.00000000e+00    0.00000000e+00    8.82338616e-08    2.73622932e-05    1.86129644e-06    1.26799118e-07    8.14951663e-07    0.00000000e+00    1.42347632e-05    0.00000000e+00    3.09107749e-05    4.43155736e-06
17       5.01187234e+03    1.78312097e-09    3.12180692e-05    2.32547367e-11    0.00000000e+00    0.00000000e+00    0.00000000e+00    0.00000000e+00    0.00000000e+00    0.00000000e+00    0.00000000e+00    5.03976213e-12    1.56288579e-09    9.47524170e-11    7.24254164e-12    4.65485972e-11    0.00000000e+00    8.13064496e-10    0.00000000e+00    1.76491034e-09    2.53122718e-10    4.07133331e-07    0.00000000e+00    0.00000000e+00    0.00000000e+00    0.00000000e+00    0.00000000e+00    0.00000000e+00    0.00000000e+00    8.82338584e-08    2.73622920e-05    1.65888213e-06    1.26799118e-07    8.14951624e-07    0.00000000e+00    1.42347626e-05    0.00000000e+00    3.08992458e-05    4.43155717e-06
18       6.30957344e+03    1.78260312e-09    3.12090008e-05    2.32547383e-11    0.00000000e+00    0.00000000e+00    0.00000000e+00    0.00000000e+00    0.00000000e+00    0.00000000e+00    0.00000000e+00    5.03976218e-12    1.56288579e-09    8.44481806e-11    7.24254213e-12    4.65485968e-11    0.00000000e+00    8.13064496e-10    0.00000000e+00    1.76438714e-09    2.53122718e-10    4.07133331e-07    0.00000000e+00    0.00000000e+00    0.00000000e+00    0.00000000e+00    0.00000000e+00    0.00000000e+00    0.00000000e+00    8.82338532e-08    2.73622902e-05    1.47848016e-06    1.26799118e-07    8.14951561e-07    0.00000000e+00    1.42347617e-05    0.00000000e+00    3.08900838e-05    4.43155687e-06
19       7.94328235e+03    1.78219166e-09    3.12017939e-05    2.32547408e-11    0.00000000e+00    0.00000000e+00    0.00000000e+00    0.00000000e+00    0.00000000e+00    0.00000000e+00    0.00000000e+00    5.03976226e-12    1.56288579e-09    7.52645201e-11    7.24254290e-12    4.65485961e-11    0.00000000e+00    8.13064496e-10    0.00000000e+00    1.76397144e-09    2.53122718e-10    4.07133331e-07    0.00000000e+00    0.00000000e+00    0.00000000e+00    0.00000000e+00    0.00000000e+00    0.00000000e+00    0.00000000e+00    8.82338452e-08    2.73622872e-05    1.31769668e-06    1.26799118e-07    8.14951463e-07    0.00000000e+00    1.42347601e-05    0.00000000e+00    3.08828025e-05    4.43155640e-06
20       1.00000000e+04    1.78186477e-09    3.11960654e-05    2.32547447e-11    0.00000000e+00    0.00000000e+00    0.00000000e+00    0.00000000e+00    0.00000000e+00    0.00000000e+00    0.00000000e+00    5.03976238e-12    1.56288579e-09    6.70795742e-11    7.24254413e-12    4.65485951e-11    0.00000000e+00    8.13064496e-10    0.00000000e+00    1.76364116e-09    2.53122718e-10    4.07133331e-07    0.00000000e+00    0.00000000e+00    0.00000000e+00    0.00000000e+00    0.00000000e+00    0.00000000e+00    0.00000000e+00    8.82338323e-08    2.73622826e-05    1.17439821e-06    1.26799118e-07    8.14951306e-07    0.00000000e+00    1.42347577e-05    0.00000000e+00    3.08770150e-05    4.43155564e-06
21       1.25892541e+04    1.78160506e-09    3.11915102e-05    2.32547510e-11    0.00000000e+00    0.00000000e+00    0.00000000e+00    0.00000000e+00    0.00000000e+00    0.00000000e+00    0.00000000e+00    5.03976257e-12    1.56288579e-09    5.97847334e-11    7.24254608e-12    4.65485934e-11    0.00000000e+00    8.13064496e-10    0.00000000e+00    1.76337877e-09    2.53122718e-10    4.07133331e-07    0.00000000e+00    0.00000000e+00    0.00000000e+00    0.00000000e+00    0.00000000e+00    0.00000000e+00    0.00000000e+00    8.82338120e-08    2.73622752e-05    1.04668322e-06    1.26799118e-07    8.14951057e-07    0.00000000e+00    1.42347539e-05    0.00000000e+00    3.08724129e-05    4.43155445e-06
22       1.58489319e+04    1.78139874e-09    3.11878848e-05    2.32547609e-11    0.00000000e+00    0.00000000e+00    0.00000000e+00    0.00000000e+00    0.00000000e+00    0.00000000e+00    0.00000000e+00    5.03976288e-12    1.56288579e-09    5.32831997e-11    7.24254917e-12    4.65485908e-11    0.00000000e+00    8.13064496e-10    0.00000000e+00    1.76317032e-09    2.53122717e-10    4.07133331e-07    0.00000000e+00    0.00000000e+00    0.00000000e+00    0.00000000e+00    0.00000000e+00    0.00000000e+00    0.00000000e+00    8.82337798e-08    2.73622635e-05    9.32857005e-07    1.26799118e-07    8.14950664e-07    0.00000000e+00    1.42347478e-05    0.00000000e+00    3.08687502e-05    4.43155256e-06
23       1.99526231e+04    1.78123484e-09    3.11849942e-05    2.32547766e-11    0.00000000e+00    0.00000000e+00    0.00000000e+00    0.00000000e+00    0.00000000e+00    0.00000000e+00    0.00000000e+00    5.03976338e-12    1.56288578e-09    4.74887017e-11    7.24255407e-12    4.65485866e-11    0.00000000e+00    8.13064496e-10    0.00000000e+00    1.76300472e-09    2.53122717e-10    4.07133331e-07    0.00000000e+00    0.00000000e+00    0.00000000e+00    0.00000000e+00    0.00000000e+00    0.00000000e+00    0.00000000e+00    8.82337287e-08    2.73622450e-05    8.31409119e-07    1.26799118e-07    8.14950040e-07    0.00000000e+00    1.42347382e-05    0.00000000e+00    3.08658302e-05    4.43154956e-06
24       2.51188643e+04    1.78110463e-09    3.11826812e-05    2.32548015e-11    0.00000000e+00    0.00000000e+00    0.00000000e+00    0.00000000e+00    0.00000000e+00    0.00000000e+00    0.00000000e+00    5.03976415e-12    1.56288578e-09    4.23243500e-11    7.24256184e-12    4.65485801e-11    0.00000000e+00    8.13064495e-10    0.00000000e+00    1.76287317e-09    2.53122717e-10    4.07133331e-07    0.00000000e+00    0.00000000e+00    0.00000000e+00    0.00000000e+00    0.00000000e+00    0.00000000e+00    0.00000000e+00    8.82336478e-08    2.73622157e-05    7.40993362e-07    1.26799118e-07    8.14949051e-07    0.00000000e+00    1.42347229e-05    0.00000000e+00    3.08634940e-05    4.43154481e-06
25       3.16227766e+04    1.78100120e-09    3.11808174e-05    2.32548410e-11    0.00000000e+00    0.00000000e+00    0.00000000e+00    0.00000000e+00    0.00000000e+00    0.00000000e+00    0.00000000e+00    5.03976539e-12    1.56288578e-09    3.77216166e-11    7.24257414e-12    4.65485696e-11    0.00000000e+00    8.13064495e-10    0.00000000e+00    1.76276867e-09    2.53122717e-10    4.07133331e-07    0.00000000e+00    0.00000000e+00    0.00000000e+00    0.00000000e+00    0.00000000e+00    0.00000000e+00    0.00000000e+00    8.82335195e-08    2.73621692e-05    6.60409907e-07    1.26799118e-07    8.14947484e-07    0.00000000e+00    1.42346987e-05    0.00000000e+00    3.08616120e-05    4.43153728e-06
