Index        TIME             V(1)          {V(2)-0.1}          I(I1)        {I(L1)+11.0}
0       0.00000000e+00   -6.60000000e+01  -3.61000000e+01  1.00000000e+01   1.30000000e+01   
1       1.00000000e-02   -6.49514563e+01  -3.50514563e+01  1.00000000e+01   1.26504854e+01   
2       1.03125000e-02   -6.49187200e+01  -3.50187200e+01  1.00000000e+01   1.26395733e+01   
3       1.03515625e-02   -6.49146285e+01  -3.50146285e+01  1.00000000e+01   1.26382095e+01   
4       1.04296875e-02   -6.49064473e+01  -3.50064473e+01  1.00000000e+01   1.26354824e+01   
5       1.04890134e-02   -6.49002358e+01  -3.50002358e+01  1.00000000e+01   1.26334119e+01   
6       1.05483393e-02   -6.48940254e+01  -3.49940254e+01  1.00000000e+01   1.26313418e+01   
7       1.06076652e-02   -6.48878162e+01  -3.49878162e+01  1.00000000e+01   1.26292721e+01   
8       1.07263170e-02   -6.48754003e+01  -3.49754003e+01  1.00000000e+01   1.26251334e+01   
9       1.08040176e-02   -6.48672726e+01  -3.49672726e+01  1.00000000e+01   1.26224242e+01   
10      1.08817182e-02   -6.48591469e+01  -3.49591469e+01  1.00000000e+01   1.26197156e+01   
11      1.09594188e-02   -6.48510231e+01  -3.49510231e+01  1.00000000e+01   1.26170077e+01   
12      1.11148200e-02   -6.48347798e+01  -3.49347798e+01  1.00000000e+01   1.26115933e+01   
13      1.11925572e-02   -6.48266578e+01  -3.49266578e+01  1.00000000e+01   1.26088859e+01   
14      1.12702944e-02   -6.48185377e+01  -3.49185377e+01  1.00000000e+01   1.26061792e+01   
15      1.13480316e-02   -6.48104195e+01  -3.49104195e+01  1.00000000e+01   1.26034732e+01   
16      1.15035060e-02   -6.47941876e+01  -3.48941876e+01  1.00000000e+01   1.25980625e+01   
17      1.15812789e-02   -6.47860713e+01  -3.48860713e+01  1.00000000e+01   1.25953571e+01   
18      1.16590518e-02   -6.47779570e+01  -3.48779570e+01  1.00000000e+01   1.25926523e+01   
19      1.17368248e-02   -6.47698445e+01  -3.48698445e+01  1.00000000e+01   1.25899482e+01   
20      1.18923706e-02   -6.47536240e+01  -3.48536240e+01  1.00000000e+01   1.25845413e+01   
21      1.19701794e-02   -6.47455135e+01  -3.48455135e+01  1.00000000e+01   1.25818378e+01   
22      1.20479881e-02   -6.47374049e+01  -3.48374049e+01  1.00000000e+01   1.25791350e+01   
23      1.21257968e-02   -6.47292982e+01  -3.48292982e+01  1.00000000e+01   1.25764327e+01   
24      1.22814143e-02   -6.47130891e+01  -3.48130891e+01  1.00000000e+01   1.25710297e+01   
25      1.23592588e-02   -6.47049843e+01  -3.48049843e+01  1.00000000e+01   1.25683281e+01   
26      1.24371034e-02   -6.46968814e+01  -3.47968814e+01  1.00000000e+01   1.25656271e+01   
27      1.25149480e-02   -6.46887804e+01  -3.47887804e+01  1.00000000e+01   1.25629268e+01   
28      1.26706371e-02   -6.46725829e+01  -3.47725829e+01  1.00000000e+01   1.25575276e+01   
29      1.27485175e-02   -6.46644838e+01  -3.47644838e+01  1.00000000e+01   1.25548279e+01   
30      1.28263980e-02   -6.46563866e+01  -3.47563866e+01  1.00000000e+01   1.25521289e+01   
31      1.29042784e-02   -6.46482914e+01  -3.47482914e+01  1.00000000e+01   1.25494305e+01   
32      1.30600393e-02   -6.46321052e+01  -3.47321052e+01  1.00000000e+01   1.25440351e+01   
33      1.31379556e-02   -6.46240119e+01  -3.47240119e+01  1.00000000e+01   1.25413373e+01   
34      1.32158720e-02   -6.46159205e+01  -3.47159205e+01  1.00000000e+01   1.25386402e+01   
35      1.32937883e-02   -6.46078309e+01  -3.47078309e+01  1.00000000e+01   1.25359436e+01   
36      1.34496210e-02   -6.45916562e+01  -3.46916562e+01  1.00000000e+01   1.25305521e+01   
37      1.35275734e-02   -6.45835686e+01  -3.46835686e+01  1.00000000e+01   1.25278562e+01   
38      1.36055257e-02   -6.45754829e+01  -3.46754829e+01  1.00000000e+01   1.25251610e+01   
39      1.36834780e-02   -6.45673991e+01  -3.46673991e+01  1.00000000e+01   1.25224664e+01   
40      1.38393826e-02   -6.45512358e+01  -3.46512358e+01  1.00000000e+01   1.25170786e+01   
41      1.39173709e-02   -6.45431540e+01  -3.46431540e+01  1.00000000e+01   1.25143847e+01   
42      1.39953592e-02   -6.45350740e+01  -3.46350740e+01  1.00000000e+01   1.25116913e+01   
43      1.40733476e-02   -6.45269959e+01  -3.46269959e+01  1.00000000e+01   1.25089986e+01   
44      1.42293242e-02   -6.45108440e+01  -3.46108440e+01  1.00000000e+01   1.25036147e+01   
45      1.43073485e-02   -6.45027679e+01  -3.46027679e+01  1.00000000e+01   1.25009226e+01   
46      1.43853729e-02   -6.44946936e+01  -3.45946936e+01  1.00000000e+01   1.24982312e+01   
47      1.44633973e-02   -6.44866212e+01  -3.45866212e+01  1.00000000e+01   1.24955404e+01   
48      1.46194460e-02   -6.44704808e+01  -3.45704808e+01  1.00000000e+01   1.24901603e+01   
49      1.46975064e-02   -6.44624104e+01  -3.45624104e+01  1.00000000e+01   1.24874701e+01   
50      1.47755669e-02   -6.44543418e+01  -3.45543418e+01  1.00000000e+01   1.24847806e+01   
51      1.48536273e-02   -6.44462751e+01  -3.45462751e+01  1.00000000e+01   1.24820917e+01   
52      1.50097482e-02   -6.44301462e+01  -3.45301462e+01  1.00000000e+01   1.24767154e+01   
53      1.50878448e-02   -6.44220815e+01  -3.45220815e+01  1.00000000e+01   1.24740272e+01   
54      1.51659413e-02   -6.44140186e+01  -3.45140186e+01  1.00000000e+01   1.24713395e+01   
55      1.52440379e-02   -6.44059577e+01  -3.45059577e+01  1.00000000e+01   1.24686526e+01   
56      1.54002310e-02   -6.43898401e+01  -3.44898401e+01  1.00000000e+01   1.24632800e+01   
57      1.54783638e-02   -6.43817811e+01  -3.44817811e+01  1.00000000e+01   1.24605937e+01   
58      1.55564965e-02   -6.43737240e+01  -3.44737240e+01  1.00000000e+01   1.24579080e+01   
59      1.56346293e-02   -6.43656687e+01  -3.44656687e+01  1.00000000e+01   1.24552229e+01   
60      1.57908947e-02   -6.43495626e+01  -3.44495626e+01  1.00000000e+01   1.24498542e+01   
61      1.58690637e-02   -6.43415093e+01  -3.44415093e+01  1.00000000e+01   1.24471698e+01   
62      1.59472327e-02   -6.43334579e+01  -3.44334579e+01  1.00000000e+01   1.24444860e+01   
63      1.60254016e-02   -6.43254083e+01  -3.44254083e+01  1.00000000e+01   1.24418028e+01   
64      1.61817395e-02   -6.43093136e+01  -3.44093136e+01  1.00000000e+01   1.24364379e+01   
65      1.62599447e-02   -6.43012660e+01  -3.44012660e+01  1.00000000e+01   1.24337553e+01   
66      1.63381499e-02   -6.42932203e+01  -3.43932203e+01  1.00000000e+01   1.24310734e+01   
67      1.64163551e-02   -6.42851765e+01  -3.43851765e+01  1.00000000e+01   1.24283922e+01   
68      1.65727656e-02   -6.42690932e+01  -3.43690932e+01  1.00000000e+01   1.24230311e+01   
69      1.66510071e-02   -6.42610513e+01  -3.43610513e+01  1.00000000e+01   1.24203504e+01   
70      1.67292486e-02   -6.42530113e+01  -3.43530113e+01  1.00000000e+01   1.24176704e+01   
71      1.68074901e-02   -6.42449731e+01  -3.43449731e+01  1.00000000e+01   1.24149910e+01   
72      1.69639731e-02   -6.42289013e+01  -3.43289013e+01  1.00000000e+01   1.24096338e+01   
73      1.70422509e-02   -6.42208650e+01  -3.43208650e+01  1.00000000e+01   1.24069550e+01   
74      1.71205288e-02   -6.42128307e+01  -3.43128307e+01  1.00000000e+01   1.24042769e+01   
75      1.71988066e-02   -6.42047983e+01  -3.43047983e+01  1.00000000e+01   1.24015994e+01   
76      1.73553623e-02   -6.41887378e+01  -3.42887378e+01  1.00000000e+01   1.23962459e+01   
77      1.74336765e-02   -6.41807073e+01  -3.42807073e+01  1.00000000e+01   1.23935691e+01   
78      1.75119908e-02   -6.41726787e+01  -3.42726787e+01  1.00000000e+01   1.23908929e+01   
79      1.75903050e-02   -6.41646520e+01  -3.42646520e+01  1.00000000e+01   1.23882173e+01   
80      1.77469334e-02   -6.41486029e+01  -3.42486029e+01  1.00000000e+01   1.23828676e+01   
81      1.78252841e-02   -6.41405781e+01  -3.42405781e+01  1.00000000e+01   1.23801927e+01   
82      1.79036347e-02   -6.41325552e+01  -3.42325552e+01  1.00000000e+01   1.23775184e+01   
83      1.79819854e-02   -6.41245341e+01  -3.42245341e+01  1.00000000e+01   1.23748447e+01   
84      1.81386867e-02   -6.41084964e+01  -3.42084964e+01  1.00000000e+01   1.23694988e+01   
85      1.82170738e-02   -6.41004773e+01  -3.42004773e+01  1.00000000e+01   1.23668258e+01   
86      1.82954610e-02   -6.40924601e+01  -3.41924601e+01  1.00000000e+01   1.23641534e+01   
87      1.83738481e-02   -6.40844448e+01  -3.41844448e+01  1.00000000e+01   1.23614816e+01   
88      1.85306223e-02   -6.40684185e+01  -3.41684185e+01  1.00000000e+01   1.23561395e+01   
89      1.86090459e-02   -6.40604050e+01  -3.41604050e+01  1.00000000e+01   1.23534683e+01   
90      1.86874696e-02   -6.40523935e+01  -3.41523935e+01  1.00000000e+01   1.23507978e+01   
91      1.87658932e-02   -6.40443838e+01  -3.41443838e+01  1.00000000e+01   1.23481279e+01   
92      1.89227405e-02   -6.40283689e+01  -3.41283689e+01  1.00000000e+01   1.23427896e+01   
93      1.90012007e-02   -6.40203612e+01  -3.41203612e+01  1.00000000e+01   1.23401204e+01   
94      1.90796608e-02   -6.40123554e+01  -3.41123554e+01  1.00000000e+01   1.23374518e+01   
95      1.91581210e-02   -6.40043514e+01  -3.41043514e+01  1.00000000e+01   1.23347838e+01   
96      1.93150414e-02   -6.39883479e+01  -3.40883479e+01  1.00000000e+01   1.23294493e+01   
97      1.93935382e-02   -6.39803458e+01  -3.40803458e+01  1.00000000e+01   1.23267819e+01   
98      1.94720350e-02   -6.39723457e+01  -3.40723457e+01  1.00000000e+01   1.23241152e+01   
99      1.95505318e-02   -6.39643474e+01  -3.40643474e+01  1.00000000e+01   1.23214491e+01   
100     1.97075253e-02   -6.39483552e+01  -3.40483552e+01  1.00000000e+01   1.23161184e+01   
101     1.97860588e-02   -6.39403589e+01  -3.40403589e+01  1.00000000e+01   1.23134530e+01   
102     1.98645922e-02   -6.39323644e+01  -3.40323644e+01  1.00000000e+01   1.23107881e+01   
103     1.99431256e-02   -6.39243718e+01  -3.40243718e+01  1.00000000e+01   1.23081239e+01   
104     2.01001924e-02   -6.39083910e+01  -3.40083910e+01  1.00000000e+01   1.23027970e+01   
105     2.01787626e-02   -6.39004003e+01  -3.40004003e+01  1.00000000e+01   1.23001334e+01   
106     2.02573327e-02   -6.38924115e+01  -3.39924115e+01  1.00000000e+01   1.22974705e+01   
107     2.03359028e-02   -6.38844246e+01  -3.39844246e+01  1.00000000e+01   1.22948082e+01   
108     2.04930430e-02   -6.38684552e+01  -3.39684552e+01  1.00000000e+01   1.22894851e+01   
109     2.05716498e-02   -6.38604702e+01  -3.39604702e+01  1.00000000e+01   1.22868234e+01   
110     2.06502566e-02   -6.38524871e+01  -3.39524871e+01  1.00000000e+01   1.22841624e+01   
111     2.07288635e-02   -6.38445059e+01  -3.39445059e+01  1.00000000e+01   1.22815020e+01   
112     2.08860771e-02   -6.38285478e+01  -3.39285478e+01  1.00000000e+01   1.22761826e+01   
113     2.09647207e-02   -6.38205685e+01  -3.39205685e+01  1.00000000e+01   1.22735228e+01   
114     2.10433644e-02   -6.38125911e+01  -3.39125911e+01  1.00000000e+01   1.22708637e+01   
115     2.11220080e-02   -6.38046155e+01  -3.39046155e+01  1.00000000e+01   1.22682052e+01   
116     2.12792952e-02   -6.37886688e+01  -3.38886688e+01  1.00000000e+01   1.22628896e+01   
117     2.13579756e-02   -6.37806952e+01  -3.38806952e+01  1.00000000e+01   1.22602317e+01   
118     2.14366560e-02   -6.37727234e+01  -3.38727234e+01  1.00000000e+01   1.22575745e+01   
119     2.15153364e-02   -6.37647535e+01  -3.38647535e+01  1.00000000e+01   1.22549178e+01   
120     2.16726972e-02   -6.37488182e+01  -3.38488182e+01  1.00000000e+01   1.22496061e+01   
121     2.17514145e-02   -6.37408502e+01  -3.38408502e+01  1.00000000e+01   1.22469501e+01   
122     2.18301318e-02   -6.37328841e+01  -3.38328841e+01  1.00000000e+01   1.22442947e+01   
123     2.19088491e-02   -6.37249199e+01  -3.38249199e+01  1.00000000e+01   1.22416400e+01   
124     2.20662836e-02   -6.37089959e+01  -3.38089959e+01  1.00000000e+01   1.22363320e+01   
125     2.21450378e-02   -6.37010336e+01  -3.38010336e+01  1.00000000e+01   1.22336779e+01   
126     2.22237920e-02   -6.36930732e+01  -3.37930732e+01  1.00000000e+01   1.22310244e+01   
127     2.23025461e-02   -6.36851147e+01  -3.37851147e+01  1.00000000e+01   1.22283716e+01   
128     2.24600545e-02   -6.36692020e+01  -3.37692020e+01  1.00000000e+01   1.22230673e+01   
129     2.25388456e-02   -6.36612454e+01  -3.37612454e+01  1.00000000e+01   1.22204151e+01   
130     2.26176367e-02   -6.36532906e+01  -3.37532906e+01  1.00000000e+01   1.22177635e+01   
131     2.26964278e-02   -6.36453378e+01  -3.37453378e+01  1.00000000e+01   1.22151126e+01   
132     2.28540101e-02   -6.36294364e+01  -3.37294364e+01  1.00000000e+01   1.22098121e+01   
133     2.29328382e-02   -6.36214855e+01  -3.37214855e+01  1.00000000e+01   1.22071618e+01   
134     2.30116663e-02   -6.36135364e+01  -3.37135364e+01  1.00000000e+01   1.22045121e+01   
135     2.30904944e-02   -6.36055892e+01  -3.37055892e+01  1.00000000e+01   1.22018631e+01   
136     2.32481506e-02   -6.35896992e+01  -3.36896992e+01  1.00000000e+01   1.21965664e+01   
137     2.33270157e-02   -6.35817539e+01  -3.36817539e+01  1.00000000e+01   1.21939180e+01   
138     2.34058809e-02   -6.35738105e+01  -3.36738105e+01  1.00000000e+01   1.21912702e+01   
139     2.34847460e-02   -6.35658690e+01  -3.36658690e+01  1.00000000e+01   1.21886230e+01   
140     2.36424763e-02   -6.35499903e+01  -3.36499903e+01  1.00000000e+01   1.21833301e+01   
141     2.37213785e-02   -6.35420507e+01  -3.36420507e+01  1.00000000e+01   1.21806836e+01   
142     2.38002807e-02   -6.35341129e+01  -3.36341129e+01  1.00000000e+01   1.21780376e+01   
143     2.38791829e-02   -6.35261771e+01  -3.36261771e+01  1.00000000e+01   1.21753924e+01   
144     2.40369873e-02   -6.35103097e+01  -3.36103097e+01  1.00000000e+01   1.21701032e+01   
145     2.41159266e-02   -6.35023758e+01  -3.36023758e+01  1.00000000e+01   1.21674586e+01   
146     2.41948660e-02   -6.34944437e+01  -3.35944437e+01  1.00000000e+01   1.21648146e+01   
147     2.42738053e-02   -6.34865135e+01  -3.35865135e+01  1.00000000e+01   1.21621712e+01   
148     2.44316840e-02   -6.34706574e+01  -3.35706574e+01  1.00000000e+01   1.21568858e+01   
149     2.45106605e-02   -6.34627291e+01  -3.35627291e+01  1.00000000e+01   1.21542430e+01   
150     2.45896369e-02   -6.34548027e+01  -3.35548027e+01  1.00000000e+01   1.21516009e+01   
151     2.46686134e-02   -6.34468781e+01  -3.35468781e+01  1.00000000e+01   1.21489594e+01   
152     2.48265664e-02   -6.34310334e+01  -3.35310334e+01  1.00000000e+01   1.21436778e+01   
153     2.49055801e-02   -6.34231108e+01  -3.35231108e+01  1.00000000e+01   1.21410369e+01   
154     2.49845938e-02   -6.34151900e+01  -3.35151900e+01  1.00000000e+01   1.21383967e+01   
155     2.50636075e-02   -6.34072711e+01  -3.35072711e+01  1.00000000e+01   1.21357570e+01   
156     2.52216349e-02   -6.33914377e+01  -3.34914377e+01  1.00000000e+01   1.21304792e+01   
157     2.53006859e-02   -6.33835207e+01  -3.34835207e+01  1.00000000e+01   1.21278402e+01   
158     2.53797368e-02   -6.33756056e+01  -3.34756056e+01  1.00000000e+01   1.21252019e+01   
159     2.54587878e-02   -6.33676923e+01  -3.34676923e+01  1.00000000e+01   1.21225641e+01   
160     2.56168897e-02   -6.33518702e+01  -3.34518702e+01  1.00000000e+01   1.21172901e+01   
161     2.56959779e-02   -6.33439589e+01  -3.34439589e+01  1.00000000e+01   1.21146530e+01   
162     2.57750662e-02   -6.33360494e+01  -3.34360494e+01  1.00000000e+01   1.21120165e+01   
163     2.58541544e-02   -6.33281418e+01  -3.34281418e+01  1.00000000e+01   1.21093806e+01   
164     2.60123309e-02   -6.33123310e+01  -3.34123310e+01  1.00000000e+01   1.21041103e+01   
165     2.60914565e-02   -6.33044253e+01  -3.34044253e+01  1.00000000e+01   1.21014751e+01   
166     2.61705821e-02   -6.32965215e+01  -3.33965215e+01  1.00000000e+01   1.20988405e+01   
167     2.62497076e-02   -6.32886195e+01  -3.33886195e+01  1.00000000e+01   1.20962065e+01   
168     2.64079588e-02   -6.32728200e+01  -3.33728200e+01  1.00000000e+01   1.20909400e+01   
169     2.64871218e-02   -6.32649200e+01  -3.33649200e+01  1.00000000e+01   1.20883067e+01   
170     2.65662847e-02   -6.32570218e+01  -3.33570218e+01  1.00000000e+01   1.20856739e+01   
171     2.66454477e-02   -6.32491255e+01  -3.33491255e+01  1.00000000e+01   1.20830418e+01   
172     2.68037736e-02   -6.32333373e+01  -3.33333373e+01  1.00000000e+01   1.20777791e+01   
173     2.68829740e-02   -6.32254429e+01  -3.33254429e+01  1.00000000e+01   1.20751476e+01   
174     2.69621744e-02   -6.32175503e+01  -3.33175503e+01  1.00000000e+01   1.20725168e+01   
175     2.70413748e-02   -6.32096597e+01  -3.33096597e+01  1.00000000e+01   1.20698866e+01   
176     2.71997756e-02   -6.31938827e+01  -3.32938827e+01  1.00000000e+01   1.20646276e+01   
177     2.72790135e-02   -6.31859940e+01  -3.32859940e+01  1.00000000e+01   1.20619980e+01   
178     2.73582514e-02   -6.31781071e+01  -3.32781071e+01  1.00000000e+01   1.20593690e+01   
179     2.74374892e-02   -6.31702221e+01  -3.32702221e+01  1.00000000e+01   1.20567407e+01   
180     2.75959650e-02   -6.31544564e+01  -3.32544564e+01  1.00000000e+01   1.20514855e+01   
181     2.76752404e-02   -6.31465733e+01  -3.32465733e+01  1.00000000e+01   1.20488578e+01   
182     2.77545157e-02   -6.31386921e+01  -3.32386921e+01  1.00000000e+01   1.20462307e+01   
183     2.78337911e-02   -6.31308127e+01  -3.32308127e+01  1.00000000e+01   1.20436042e+01   
184     2.79923419e-02   -6.31150583e+01  -3.32150583e+01  1.00000000e+01   1.20383528e+01   
185     2.80716548e-02   -6.31071808e+01  -3.32071808e+01  1.00000000e+01   1.20357269e+01   
186     2.81509678e-02   -6.30993052e+01  -3.31993052e+01  1.00000000e+01   1.20331017e+01   
187     2.82302807e-02   -6.30914315e+01  -3.31914315e+01  1.00000000e+01   1.20304772e+01   
188     2.83889066e-02   -6.30756884e+01  -3.31756884e+01  1.00000000e+01   1.20252295e+01   
189     2.84682572e-02   -6.30678165e+01  -3.31678165e+01  1.00000000e+01   1.20226055e+01   
190     2.85476077e-02   -6.30599466e+01  -3.31599466e+01  1.00000000e+01   1.20199822e+01   
191     2.86269583e-02   -6.30520784e+01  -3.31520784e+01  1.00000000e+01   1.20173595e+01   
192     2.87856594e-02   -6.30363466e+01  -3.31363466e+01  1.00000000e+01   1.20121155e+01   
193     2.88650476e-02   -6.30284804e+01  -3.31284804e+01  1.00000000e+01   1.20094935e+01   
194     2.89444358e-02   -6.30206161e+01  -3.31206161e+01  1.00000000e+01   1.20068720e+01   
195     2.90238240e-02   -6.30127536e+01  -3.31127536e+01  1.00000000e+01   1.20042512e+01   
196     2.91826004e-02   -6.29970330e+01  -3.30970330e+01  1.00000000e+01   1.19990110e+01   
197     2.92620263e-02   -6.29891724e+01  -3.30891724e+01  1.00000000e+01   1.19963908e+01   
198     2.93414522e-02   -6.29813137e+01  -3.30813137e+01  1.00000000e+01   1.19937712e+01   
199     2.94208781e-02   -6.29734569e+01  -3.30734569e+01  1.00000000e+01   1.19911523e+01   
200     2.95797299e-02   -6.29577476e+01  -3.30577476e+01  1.00000000e+01   1.19859159e+01   
201     2.96591936e-02   -6.29498926e+01  -3.30498926e+01  1.00000000e+01   1.19832975e+01   
202     2.97386572e-02   -6.29420395e+01  -3.30420395e+01  1.00000000e+01   1.19806798e+01   
203     2.98181208e-02   -6.29341883e+01  -3.30341883e+01  1.00000000e+01   1.19780628e+01   
204     2.99770481e-02   -6.29184903e+01  -3.30184903e+01  1.00000000e+01   1.19728301e+01   
205     3.00565495e-02   -6.29106409e+01  -3.30106409e+01  1.00000000e+01   1.19702136e+01   
206     3.01360510e-02   -6.29027935e+01  -3.30027935e+01  1.00000000e+01   1.19675978e+01   
207     3.02155524e-02   -6.28949479e+01  -3.29949479e+01  1.00000000e+01   1.19649826e+01   
208     3.03745553e-02   -6.28792611e+01  -3.29792611e+01  1.00000000e+01   1.19597537e+01   
209     3.04540945e-02   -6.28714174e+01  -3.29714174e+01  1.00000000e+01   1.19571391e+01   
210     3.05336338e-02   -6.28635755e+01  -3.29635755e+01  1.00000000e+01   1.19545252e+01   
