Title: * Noise simulation for Xyce.
Date: Mon Jul 23 02:29:22 2018
Plotname: Step Analysis: Step 1 of 2 params:  name = V_BASE:DCV0 value = 0.7  DC operating point
Flags: real
No. Variables: 41
No. Points: 1                 
Variables:
	0	frequency	frequency
	1	BASE	voltage
	2	COLL	voltage
	3	DUMMY	voltage
	4	E:X1:_BASE#branch	current
	5	E:X1:_COLL#branch	current
	6	E:X1:_EMIT#branch	current
	7	E:X1:_SUBS#branch	current
	8	EMIT	voltage
	9	HN#branch	current
	10	N#COLL	voltage
	11	Q:X1:1#bi	voltage
	12	Q:X1:1#bp	voltage
	13	Q:X1:1#ci	voltage
	14	Q:X1:1#ei	voltage
	15	Q:X1:1#n1	voltage
	16	Q:X1:1#n2	voltage
	17	Q:X1:1#xf	voltage
	18	Q:X1:1#xf1	voltage
	19	Q:X1:1#xf2	voltage
	20	SUBS	voltage
	21	THERM	voltage
	22	V:X1:_BASE#branch	current
	23	V:X1:_COLL#branch	current
	24	V:X1:_EMIT#branch	current
	25	V:X1:_SUBS#branch	current
	26	V:X1:_THERM#branch	current
	27	V_BASE#branch	current
	28	V_COLL#branch	current
	29	V_EMIT#branch	current
	30	V_SUBS#branch	current
	31	VIN#branch	current
	32	X1:BASE	voltage
	33	X1:BASE#V	voltage
	34	X1:COLL	voltage
	35	X1:COLL#V	voltage
	36	X1:EMIT	voltage
	37	X1:EMIT#V	voltage
	38	X1:SUBS	voltage
	39	X1:SUBS#V	voltage
	40	X1:THERM	voltage
Values:
0	0.00000000e+00
	7.00000000e-01
	1.00000000e+00
	0.00000000e+00
	-1.35092324e-07
	-3.23424613e-05
	3.24775536e-05
	2.05727162e-43
	0.00000000e+00
	0.00000000e+00
	-3.23424613e-05
	6.99999450e-01
	6.99999653e-01
	9.99919695e-01
	4.90443745e-05
	0.00000000e+00
	0.00000000e+00
	0.00000000e+00
	0.00000000e+00
	0.00000000e+00
	0.00000000e+00
	3.60189164e-02
	1.35092324e-07
	3.23424613e-05
	-3.24775536e-05
	-2.05727162e-43
	0.00000000e+00
	1.35092324e-07
	3.23424613e-05
	-3.24775536e-05
	-2.05727162e-43
	0.00000000e+00
	7.00000000e-01
	7.00000000e-01
	1.00000000e+00
	1.00000000e+00
	0.00000000e+00
	0.00000000e+00
	0.00000000e+00
	0.00000000e+00
	3.60189164e-02

Plotname: Step Analysis: Step 1 of 2 params:  name = V_BASE:DCV0 value = 0.7  Noise Analysis
Flags: complex
No. Variables: 41
No. Points: 17                
Variables:
	0	frequency	frequency
	1	BASE	voltage
	2	COLL	voltage
	3	DUMMY	voltage
	4	E:X1:_BASE#branch	current
	5	E:X1:_COLL#branch	current
	6	E:X1:_EMIT#branch	current
	7	E:X1:_SUBS#branch	current
	8	EMIT	voltage
	9	HN#branch	current
	10	N#COLL	voltage
	11	Q:X1:1#bi	voltage
	12	Q:X1:1#bp	voltage
	13	Q:X1:1#ci	voltage
	14	Q:X1:1#ei	voltage
	15	Q:X1:1#n1	voltage
	16	Q:X1:1#n2	voltage
	17	Q:X1:1#xf	voltage
	18	Q:X1:1#xf1	voltage
	19	Q:X1:1#xf2	voltage
	20	SUBS	voltage
	21	THERM	voltage
	22	V:X1:_BASE#branch	current
	23	V:X1:_COLL#branch	current
	24	V:X1:_EMIT#branch	current
	25	V:X1:_SUBS#branch	current
	26	V:X1:_THERM#branch	current
	27	V_BASE#branch	current
	28	V_COLL#branch	current
	29	V_EMIT#branch	current
	30	V_SUBS#branch	current
	31	VIN#branch	current
	32	X1:BASE	voltage
	33	X1:BASE#V	voltage
	34	X1:COLL	voltage
	35	X1:COLL#V	voltage
	36	X1:EMIT	voltage
	37	X1:EMIT#V	voltage
	38	X1:SUBS	voltage
	39	X1:SUBS#V	voltage
	40	X1:THERM	voltage
Values:
0	1.00000000e+03, 0.00000000e+00
	0.00000000e+00, 0.00000000e+00
	0.00000000e+00, 0.00000000e+00
	1.00000000e+00, 0.00000000e+00
	0.00000000e+00, 0.00000000e+00
	0.00000000e+00, 0.00000000e+00
	0.00000000e+00, 0.00000000e+00
	0.00000000e+00, 0.00000000e+00
	0.00000000e+00, 0.00000000e+00
	-0.00000000e+00, -0.00000000e+00
	-0.00000000e+00, -0.00000000e+00
	0.00000000e+00, 0.00000000e+00
	0.00000000e+00, 0.00000000e+00
	0.00000000e+00, 0.00000000e+00
	0.00000000e+00, 0.00000000e+00
	0.00000000e+00, 0.00000000e+00
	0.00000000e+00, 0.00000000e+00
	0.00000000e+00, 0.00000000e+00
	0.00000000e+00, 0.00000000e+00
	0.00000000e+00, 0.00000000e+00
	0.00000000e+00, 0.00000000e+00
	-0.00000000e+00, -0.00000000e+00
	-0.00000000e+00, -0.00000000e+00
	-0.00000000e+00, -0.00000000e+00
	-0.00000000e+00, -0.00000000e+00
	-0.00000000e+00, -0.00000000e+00
	-0.00000000e+00, -0.00000000e+00
	0.00000000e+00, 0.00000000e+00
	0.00000000e+00, 0.00000000e+00
	0.00000000e+00, 0.00000000e+00
	0.00000000e+00, 0.00000000e+00
	-1.00000000e+00, 0.00000000e+00
	-0.00000000e+00, -0.00000000e+00
	0.00000000e+00, 0.00000000e+00
	-0.00000000e+00, -0.00000000e+00
	0.00000000e+00, 0.00000000e+00
	-0.00000000e+00, -0.00000000e+00
	0.00000000e+00, 0.00000000e+00
	-0.00000000e+00, -0.00000000e+00
	0.00000000e+00, 0.00000000e+00
	0.00000000e+00, 0.00000000e+00

1	3.16227766e+03, 0.00000000e+00
	0.00000000e+00, 0.00000000e+00
	0.00000000e+00, 0.00000000e+00
	1.00000000e+00, 0.00000000e+00
	0.00000000e+00, 0.00000000e+00
	0.00000000e+00, 0.00000000e+00
	0.00000000e+00, 0.00000000e+00
	0.00000000e+00, 0.00000000e+00
	0.00000000e+00, 0.00000000e+00
	-0.00000000e+00, -0.00000000e+00
	-0.00000000e+00, -0.00000000e+00
	0.00000000e+00, 0.00000000e+00
	0.00000000e+00, 0.00000000e+00
	0.00000000e+00, 0.00000000e+00
	0.00000000e+00, 0.00000000e+00
	0.00000000e+00, 0.00000000e+00
	0.00000000e+00, 0.00000000e+00
	0.00000000e+00, 0.00000000e+00
	0.00000000e+00, 0.00000000e+00
	0.00000000e+00, 0.00000000e+00
	0.00000000e+00, 0.00000000e+00
	-0.00000000e+00, -0.00000000e+00
	-0.00000000e+00, -0.00000000e+00
	-0.00000000e+00, -0.00000000e+00
	-0.00000000e+00, -0.00000000e+00
	-0.00000000e+00, -0.00000000e+00
	-0.00000000e+00, -0.00000000e+00
	0.00000000e+00, 0.00000000e+00
	0.00000000e+00, 0.00000000e+00
	0.00000000e+00, 0.00000000e+00
	0.00000000e+00, 0.00000000e+00
	-1.00000000e+00, 0.00000000e+00
	-0.00000000e+00, -0.00000000e+00
	0.00000000e+00, 0.00000000e+00
	-0.00000000e+00, -0.00000000e+00
	0.00000000e+00, 0.00000000e+00
	-0.00000000e+00, -0.00000000e+00
	0.00000000e+00, 0.00000000e+00
	-0.00000000e+00, -0.00000000e+00
	0.00000000e+00, 0.00000000e+00
	0.00000000e+00, 0.00000000e+00

2	1.00000000e+04, 0.00000000e+00
	0.00000000e+00, 0.00000000e+00
	0.00000000e+00, 0.00000000e+00
	1.00000000e+00, 0.00000000e+00
	0.00000000e+00, 0.00000000e+00
	0.00000000e+00, 0.00000000e+00
	0.00000000e+00, 0.00000000e+00
	0.00000000e+00, 0.00000000e+00
	0.00000000e+00, 0.00000000e+00
	-0.00000000e+00, -0.00000000e+00
	-0.00000000e+00, -0.00000000e+00
	0.00000000e+00, 0.00000000e+00
	0.00000000e+00, 0.00000000e+00
	0.00000000e+00, 0.00000000e+00
	0.00000000e+00, 0.00000000e+00
	0.00000000e+00, 0.00000000e+00
	0.00000000e+00, 0.00000000e+00
	0.00000000e+00, 0.00000000e+00
	0.00000000e+00, 0.00000000e+00
	0.00000000e+00, 0.00000000e+00
	0.00000000e+00, 0.00000000e+00
	-0.00000000e+00, -0.00000000e+00
	-0.00000000e+00, -0.00000000e+00
	-0.00000000e+00, -0.00000000e+00
	-0.00000000e+00, -0.00000000e+00
	-0.00000000e+00, -0.00000000e+00
	-0.00000000e+00, -0.00000000e+00
	0.00000000e+00, 0.00000000e+00
	0.00000000e+00, 0.00000000e+00
	0.00000000e+00, 0.00000000e+00
	0.00000000e+00, 0.00000000e+00
	-1.00000000e+00, 0.00000000e+00
	-0.00000000e+00, -0.00000000e+00
	0.00000000e+00, 0.00000000e+00
	-0.00000000e+00, -0.00000000e+00
	0.00000000e+00, 0.00000000e+00
	-0.00000000e+00, -0.00000000e+00
	0.00000000e+00, 0.00000000e+00
	-0.00000000e+00, -0.00000000e+00
	0.00000000e+00, 0.00000000e+00
	0.00000000e+00, 0.00000000e+00

3	3.16227766e+04, 0.00000000e+00
	0.00000000e+00, 0.00000000e+00
	0.00000000e+00, 0.00000000e+00
	1.00000000e+00, 0.00000000e+00
	0.00000000e+00, 0.00000000e+00
	0.00000000e+00, 0.00000000e+00
	0.00000000e+00, 0.00000000e+00
	0.00000000e+00, 0.00000000e+00
	0.00000000e+00, 0.00000000e+00
	-0.00000000e+00, -0.00000000e+00
	-0.00000000e+00, -0.00000000e+00
	0.00000000e+00, 0.00000000e+00
	0.00000000e+00, 0.00000000e+00
	0.00000000e+00, 0.00000000e+00
	0.00000000e+00, 0.00000000e+00
	0.00000000e+00, 0.00000000e+00
	0.00000000e+00, 0.00000000e+00
	0.00000000e+00, 0.00000000e+00
	0.00000000e+00, 0.00000000e+00
	0.00000000e+00, 0.00000000e+00
	0.00000000e+00, 0.00000000e+00
	-0.00000000e+00, -0.00000000e+00
	-0.00000000e+00, -0.00000000e+00
	-0.00000000e+00, -0.00000000e+00
	-0.00000000e+00, -0.00000000e+00
	-0.00000000e+00, -0.00000000e+00
	-0.00000000e+00, -0.00000000e+00
	0.00000000e+00, 0.00000000e+00
	0.00000000e+00, 0.00000000e+00
	0.00000000e+00, 0.00000000e+00
	0.00000000e+00, 0.00000000e+00
	-1.00000000e+00, 0.00000000e+00
	-0.00000000e+00, -0.00000000e+00
	0.00000000e+00, 0.00000000e+00
	-0.00000000e+00, -0.00000000e+00
	0.00000000e+00, 0.00000000e+00
	-0.00000000e+00, -0.00000000e+00
	0.00000000e+00, 0.00000000e+00
	-0.00000000e+00, -0.00000000e+00
	0.00000000e+00, 0.00000000e+00
	0.00000000e+00, 0.00000000e+00

4	1.00000000e+05, 0.00000000e+00
	0.00000000e+00, 0.00000000e+00
	0.00000000e+00, 0.00000000e+00
	1.00000000e+00, 0.00000000e+00
	0.00000000e+00, 0.00000000e+00
	0.00000000e+00, 0.00000000e+00
	0.00000000e+00, 0.00000000e+00
	0.00000000e+00, 0.00000000e+00
	0.00000000e+00, 0.00000000e+00
	-0.00000000e+00, -0.00000000e+00
	-0.00000000e+00, -0.00000000e+00
	0.00000000e+00, 0.00000000e+00
	0.00000000e+00, 0.00000000e+00
	0.00000000e+00, 0.00000000e+00
	0.00000000e+00, 0.00000000e+00
	0.00000000e+00, 0.00000000e+00
	0.00000000e+00, 0.00000000e+00
	0.00000000e+00, 0.00000000e+00
	0.00000000e+00, 0.00000000e+00
	0.00000000e+00, 0.00000000e+00
	0.00000000e+00, 0.00000000e+00
	-0.00000000e+00, -0.00000000e+00
	-0.00000000e+00, -0.00000000e+00
	-0.00000000e+00, -0.00000000e+00
	-0.00000000e+00, -0.00000000e+00
	-0.00000000e+00, -0.00000000e+00
	-0.00000000e+00, -0.00000000e+00
	0.00000000e+00, 0.00000000e+00
	0.00000000e+00, 0.00000000e+00
	0.00000000e+00, 0.00000000e+00
	0.00000000e+00, 0.00000000e+00
	-1.00000000e+00, 0.00000000e+00
	-0.00000000e+00, -0.00000000e+00
	0.00000000e+00, 0.00000000e+00
	-0.00000000e+00, -0.00000000e+00
	0.00000000e+00, 0.00000000e+00
	-0.00000000e+00, -0.00000000e+00
	0.00000000e+00, 0.00000000e+00
	-0.00000000e+00, -0.00000000e+00
	0.00000000e+00, 0.00000000e+00
	-0.00000000e+00, 0.00000000e+00

5	3.16227766e+05, 0.00000000e+00
	0.00000000e+00, 0.00000000e+00
	0.00000000e+00, 0.00000000e+00
	1.00000000e+00, 0.00000000e+00
	0.00000000e+00, 0.00000000e+00
	0.00000000e+00, 0.00000000e+00
	0.00000000e+00, 0.00000000e+00
	0.00000000e+00, 0.00000000e+00
	0.00000000e+00, 0.00000000e+00
	-0.00000000e+00, -0.00000000e+00
	-0.00000000e+00, -0.00000000e+00
	0.00000000e+00, 0.00000000e+00
	0.00000000e+00, 0.00000000e+00
	0.00000000e+00, 0.00000000e+00
	0.00000000e+00, 0.00000000e+00
	0.00000000e+00, 0.00000000e+00
	0.00000000e+00, 0.00000000e+00
	0.00000000e+00, 0.00000000e+00
	0.00000000e+00, 0.00000000e+00
	0.00000000e+00, 0.00000000e+00
	0.00000000e+00, 0.00000000e+00
	-0.00000000e+00, -0.00000000e+00
	-0.00000000e+00, -0.00000000e+00
	-0.00000000e+00, -0.00000000e+00
	-0.00000000e+00, -0.00000000e+00
	-0.00000000e+00, -0.00000000e+00
	-0.00000000e+00, -0.00000000e+00
	0.00000000e+00, 0.00000000e+00
	0.00000000e+00, 0.00000000e+00
	0.00000000e+00, 0.00000000e+00
	0.00000000e+00, 0.00000000e+00
	-1.00000000e+00, 0.00000000e+00
	-0.00000000e+00, -0.00000000e+00
	0.00000000e+00, 0.00000000e+00
	-0.00000000e+00, -0.00000000e+00
	0.00000000e+00, 0.00000000e+00
	-0.00000000e+00, -0.00000000e+00
	0.00000000e+00, 0.00000000e+00
	-0.00000000e+00, -0.00000000e+00
	0.00000000e+00, 0.00000000e+00
	-0.00000000e+00, 0.00000000e+00

6	1.00000000e+06, 0.00000000e+00
	0.00000000e+00, 0.00000000e+00
	0.00000000e+00, 0.00000000e+00
	1.00000000e+00, 0.00000000e+00
	0.00000000e+00, 0.00000000e+00
	0.00000000e+00, 0.00000000e+00
	0.00000000e+00, 0.00000000e+00
	0.00000000e+00, 0.00000000e+00
	0.00000000e+00, 0.00000000e+00
	-0.00000000e+00, -0.00000000e+00
	-0.00000000e+00, -0.00000000e+00
	0.00000000e+00, 0.00000000e+00
	0.00000000e+00, 0.00000000e+00
	0.00000000e+00, 0.00000000e+00
	0.00000000e+00, 0.00000000e+00
	0.00000000e+00, 0.00000000e+00
	0.00000000e+00, 0.00000000e+00
	0.00000000e+00, 0.00000000e+00
	0.00000000e+00, 0.00000000e+00
	0.00000000e+00, 0.00000000e+00
	0.00000000e+00, 0.00000000e+00
	-0.00000000e+00, -0.00000000e+00
	-0.00000000e+00, -0.00000000e+00
	-0.00000000e+00, -0.00000000e+00
	-0.00000000e+00, -0.00000000e+00
	-0.00000000e+00, -0.00000000e+00
	-0.00000000e+00, -0.00000000e+00
	0.00000000e+00, 0.00000000e+00
	0.00000000e+00, 0.00000000e+00
	0.00000000e+00, 0.00000000e+00
	0.00000000e+00, 0.00000000e+00
	-1.00000000e+00, 0.00000000e+00
	-0.00000000e+00, -0.00000000e+00
	0.00000000e+00, 0.00000000e+00
	-0.00000000e+00, -0.00000000e+00
	0.00000000e+00, 0.00000000e+00
	-0.00000000e+00, -0.00000000e+00
	0.00000000e+00, 0.00000000e+00
	-0.00000000e+00, -0.00000000e+00
	0.00000000e+00, 0.00000000e+00
	-0.00000000e+00, 0.00000000e+00

7	3.16227766e+06, 0.00000000e+00
	0.00000000e+00, 0.00000000e+00
	0.00000000e+00, 0.00000000e+00
	1.00000000e+00, 0.00000000e+00
	0.00000000e+00, 0.00000000e+00
	0.00000000e+00, 0.00000000e+00
	0.00000000e+00, 0.00000000e+00
	0.00000000e+00, 0.00000000e+00
	0.00000000e+00, 0.00000000e+00
	-0.00000000e+00, -0.00000000e+00
	-0.00000000e+00, -0.00000000e+00
	0.00000000e+00, 0.00000000e+00
	0.00000000e+00, 0.00000000e+00
	0.00000000e+00, 0.00000000e+00
	0.00000000e+00, 0.00000000e+00
	0.00000000e+00, 0.00000000e+00
	0.00000000e+00, 0.00000000e+00
	0.00000000e+00, 0.00000000e+00
	0.00000000e+00, 0.00000000e+00
	0.00000000e+00, 0.00000000e+00
	0.00000000e+00, 0.00000000e+00
	-0.00000000e+00, -0.00000000e+00
	-0.00000000e+00, -0.00000000e+00
	-0.00000000e+00, -0.00000000e+00
	-0.00000000e+00, -0.00000000e+00
	-0.00000000e+00, -0.00000000e+00
	-0.00000000e+00, -0.00000000e+00
	0.00000000e+00, 0.00000000e+00
	0.00000000e+00, 0.00000000e+00
	0.00000000e+00, 0.00000000e+00
	0.00000000e+00, 0.00000000e+00
	-1.00000000e+00, 0.00000000e+00
	-0.00000000e+00, -0.00000000e+00
	0.00000000e+00, 0.00000000e+00
	-0.00000000e+00, -0.00000000e+00
	0.00000000e+00, 0.00000000e+00
	-0.00000000e+00, -0.00000000e+00
	0.00000000e+00, 0.00000000e+00
	-0.00000000e+00, -0.00000000e+00
	0.00000000e+00, 0.00000000e+00
	-0.00000000e+00, 0.00000000e+00

8	1.00000000e+07, 0.00000000e+00
	0.00000000e+00, 0.00000000e+00
	0.00000000e+00, 0.00000000e+00
	1.00000000e+00, 0.00000000e+00
	0.00000000e+00, 0.00000000e+00
	0.00000000e+00, 0.00000000e+00
	0.00000000e+00, 0.00000000e+00
	0.00000000e+00, 0.00000000e+00
	0.00000000e+00, 0.00000000e+00
	-0.00000000e+00, -0.00000000e+00
	-0.00000000e+00, -0.00000000e+00
	0.00000000e+00, 0.00000000e+00
	0.00000000e+00, 0.00000000e+00
	0.00000000e+00, 0.00000000e+00
	0.00000000e+00, 0.00000000e+00
	0.00000000e+00, 0.00000000e+00
	0.00000000e+00, 0.00000000e+00
	0.00000000e+00, 0.00000000e+00
	0.00000000e+00, 0.00000000e+00
	0.00000000e+00, 0.00000000e+00
	0.00000000e+00, 0.00000000e+00
	-0.00000000e+00, -0.00000000e+00
	-0.00000000e+00, -0.00000000e+00
	-0.00000000e+00, -0.00000000e+00
	-0.00000000e+00, -0.00000000e+00
	-0.00000000e+00, -0.00000000e+00
	-0.00000000e+00, -0.00000000e+00
	0.00000000e+00, 0.00000000e+00
	0.00000000e+00, 0.00000000e+00
	0.00000000e+00, 0.00000000e+00
	0.00000000e+00, 0.00000000e+00
	-1.00000000e+00, 0.00000000e+00
	-0.00000000e+00, -0.00000000e+00
	0.00000000e+00, 0.00000000e+00
	-0.00000000e+00, -0.00000000e+00
	0.00000000e+00, 0.00000000e+00
	-0.00000000e+00, -0.00000000e+00
	0.00000000e+00, 0.00000000e+00
	-0.00000000e+00, -0.00000000e+00
	0.00000000e+00, 0.00000000e+00
	-0.00000000e+00, 0.00000000e+00

9	3.16227766e+07, 0.00000000e+00
	0.00000000e+00, 0.00000000e+00
	0.00000000e+00, 0.00000000e+00
	1.00000000e+00, 0.00000000e+00
	0.00000000e+00, 0.00000000e+00
	0.00000000e+00, 0.00000000e+00
	0.00000000e+00, 0.00000000e+00
	0.00000000e+00, 0.00000000e+00
	0.00000000e+00, 0.00000000e+00
	-0.00000000e+00, -0.00000000e+00
	-0.00000000e+00, -0.00000000e+00
	0.00000000e+00, 0.00000000e+00
	0.00000000e+00, 0.00000000e+00
	0.00000000e+00, 0.00000000e+00
	0.00000000e+00, 0.00000000e+00
	0.00000000e+00, 0.00000000e+00
	0.00000000e+00, 0.00000000e+00
	0.00000000e+00, 0.00000000e+00
	0.00000000e+00, 0.00000000e+00
	0.00000000e+00, 0.00000000e+00
	0.00000000e+00, 0.00000000e+00
	-0.00000000e+00, -0.00000000e+00
	-0.00000000e+00, -0.00000000e+00
	-0.00000000e+00, -0.00000000e+00
	-0.00000000e+00, -0.00000000e+00
	-0.00000000e+00, -0.00000000e+00
	-0.00000000e+00, -0.00000000e+00
	0.00000000e+00, 0.00000000e+00
	0.00000000e+00, 0.00000000e+00
	0.00000000e+00, 0.00000000e+00
	0.00000000e+00, 0.00000000e+00
	-1.00000000e+00, 0.00000000e+00
	-0.00000000e+00, -0.00000000e+00
	0.00000000e+00, 0.00000000e+00
	-0.00000000e+00, -0.00000000e+00
	0.00000000e+00, 0.00000000e+00
	-0.00000000e+00, -0.00000000e+00
	0.00000000e+00, 0.00000000e+00
	-0.00000000e+00, -0.00000000e+00
	0.00000000e+00, 0.00000000e+00
	0.00000000e+00, 0.00000000e+00

10	1.00000000e+08, 0.00000000e+00
	0.00000000e+00, 0.00000000e+00
	0.00000000e+00, 0.00000000e+00
	1.00000000e+00, 0.00000000e+00
	0.00000000e+00, 0.00000000e+00
	0.00000000e+00, 0.00000000e+00
	0.00000000e+00, 0.00000000e+00
	0.00000000e+00, 0.00000000e+00
	0.00000000e+00, 0.00000000e+00
	-0.00000000e+00, -0.00000000e+00
	-0.00000000e+00, -0.00000000e+00
	0.00000000e+00, 0.00000000e+00
	0.00000000e+00, 0.00000000e+00
	0.00000000e+00, 0.00000000e+00
	0.00000000e+00, 0.00000000e+00
	0.00000000e+00, 0.00000000e+00
	0.00000000e+00, 0.00000000e+00
	0.00000000e+00, 0.00000000e+00
	0.00000000e+00, 0.00000000e+00
	0.00000000e+00, 0.00000000e+00
	0.00000000e+00, 0.00000000e+00
	-0.00000000e+00, -0.00000000e+00
	-0.00000000e+00, -0.00000000e+00
	-0.00000000e+00, -0.00000000e+00
	-0.00000000e+00, -0.00000000e+00
	-0.00000000e+00, -0.00000000e+00
	-0.00000000e+00, -0.00000000e+00
	0.00000000e+00, 0.00000000e+00
	0.00000000e+00, 0.00000000e+00
	0.00000000e+00, 0.00000000e+00
	0.00000000e+00, 0.00000000e+00
	-1.00000000e+00, 0.00000000e+00
	-0.00000000e+00, -0.00000000e+00
	0.00000000e+00, 0.00000000e+00
	-0.00000000e+00, -0.00000000e+00
	0.00000000e+00, 0.00000000e+00
	-0.00000000e+00, -0.00000000e+00
	0.00000000e+00, 0.00000000e+00
	-0.00000000e+00, -0.00000000e+00
	0.00000000e+00, 0.00000000e+00
	0.00000000e+00, 0.00000000e+00

11	3.16227766e+08, 0.00000000e+00
	0.00000000e+00, 0.00000000e+00
	0.00000000e+00, 0.00000000e+00
	1.00000000e+00, 0.00000000e+00
	0.00000000e+00, 0.00000000e+00
	0.00000000e+00, 0.00000000e+00
	0.00000000e+00, 0.00000000e+00
	0.00000000e+00, 0.00000000e+00
	0.00000000e+00, 0.00000000e+00
	-0.00000000e+00, -0.00000000e+00
	-0.00000000e+00, -0.00000000e+00
	0.00000000e+00, 0.00000000e+00
	0.00000000e+00, 0.00000000e+00
	0.00000000e+00, 0.00000000e+00
	0.00000000e+00, 0.00000000e+00
	0.00000000e+00, 0.00000000e+00
	0.00000000e+00, 0.00000000e+00
	0.00000000e+00, 0.00000000e+00
	0.00000000e+00, 0.00000000e+00
	0.00000000e+00, 0.00000000e+00
	0.00000000e+00, 0.00000000e+00
	-0.00000000e+00, -0.00000000e+00
	-0.00000000e+00, -0.00000000e+00
	-0.00000000e+00, -0.00000000e+00
	-0.00000000e+00, -0.00000000e+00
	-0.00000000e+00, -0.00000000e+00
	-0.00000000e+00, -0.00000000e+00
	0.00000000e+00, 0.00000000e+00
	0.00000000e+00, 0.00000000e+00
	0.00000000e+00, 0.00000000e+00
	0.00000000e+00, 0.00000000e+00
	-1.00000000e+00, 0.00000000e+00
	-0.00000000e+00, -0.00000000e+00
	0.00000000e+00, 0.00000000e+00
	-0.00000000e+00, -0.00000000e+00
	0.00000000e+00, 0.00000000e+00
	-0.00000000e+00, -0.00000000e+00
	0.00000000e+00, 0.00000000e+00
	-0.00000000e+00, -0.00000000e+00
	0.00000000e+00, 0.00000000e+00
	0.00000000e+00, 0.00000000e+00

12	1.00000000e+09, 0.00000000e+00
	0.00000000e+00, 0.00000000e+00
	0.00000000e+00, 0.00000000e+00
	1.00000000e+00, 0.00000000e+00
	0.00000000e+00, 0.00000000e+00
	0.00000000e+00, 0.00000000e+00
	0.00000000e+00, 0.00000000e+00
	0.00000000e+00, 0.00000000e+00
	0.00000000e+00, 0.00000000e+00
	-0.00000000e+00, -0.00000000e+00
	-0.00000000e+00, -0.00000000e+00
	0.00000000e+00, 0.00000000e+00
	0.00000000e+00, 0.00000000e+00
	0.00000000e+00, 0.00000000e+00
	0.00000000e+00, 0.00000000e+00
	0.00000000e+00, 0.00000000e+00
	0.00000000e+00, 0.00000000e+00
	0.00000000e+00, 0.00000000e+00
	0.00000000e+00, 0.00000000e+00
	0.00000000e+00, 0.00000000e+00
	0.00000000e+00, 0.00000000e+00
	-0.00000000e+00, -0.00000000e+00
	-0.00000000e+00, -0.00000000e+00
	-0.00000000e+00, -0.00000000e+00
	-0.00000000e+00, -0.00000000e+00
	-0.00000000e+00, -0.00000000e+00
	-0.00000000e+00, -0.00000000e+00
	0.00000000e+00, 0.00000000e+00
	0.00000000e+00, 0.00000000e+00
