Index       TIME            {V(4)+1}         {V(11)-0.5}   
0        0.00000000e+00    1.00000000e+00   -5.00794646e-01
1        5.00000000e-12    1.02000000e+00   -5.00794646e-01
2        1.50000000e-11    1.06000000e+00   -5.00794646e-01
3        3.50000000e-11    1.14000000e+00   -5.00794645e-01
4        7.50000000e-11    1.30000000e+00   -5.00794645e-01
5        1.55000000e-10    1.62000000e+00   -5.00794645e-01
6        3.15000000e-10    2.26000000e+00   -5.00794645e-01
7        6.35000000e-10    3.54000000e+00   -5.00794645e-01
8        1.00000000e-09    5.00000000e+00   -5.00794645e-01
9        1.06400000e-09    5.00000000e+00   -5.00794645e-01
10       1.19200000e-09    5.00000000e+00   -5.00794645e-01
11       1.44800000e-09    5.00000000e+00   -5.00794645e-01
12       1.96000000e-09    5.00000000e+00   -5.00794645e-01
13       2.98400000e-09    5.00000000e+00   -5.00794644e-01
14       5.03200000e-09    5.00000000e+00   -5.00794641e-01
15       9.12800000e-09    5.00000000e+00   -5.00794631e-01
16       1.73200000e-08    5.00000000e+00   -5.00794599e-01
17       3.37040000e-08    5.00000000e+00   -5.00794551e-01
18       6.64720000e-08    5.00000000e+00   -5.00795962e-01
19       1.32008000e-07    5.00000000e+00   -5.00841449e-01
20       2.63080000e-07    5.00000000e+00   -5.01680000e-01
21       5.25224000e-07    5.00000000e+00   -5.08713887e-01
22       7.87368000e-07    5.00000000e+00   -5.20696325e-01
23       1.31165600e-06    5.00000000e+00   -5.39162775e-01
24       1.83594400e-06    5.00000000e+00   -5.47720154e-01
25       2.88452000e-06    5.00000000e+00   -5.60486073e-01
26       4.98167200e-06    5.00000000e+00   -5.88082086e-01
27       6.91436040e-06    5.00000000e+00   -6.18348056e-01
28       7.24489794e-06    5.00000000e+00   -6.23565380e-01
29       7.90597302e-06    5.00000000e+00   -6.33337454e-01
30       8.56704811e-06    5.00000000e+00   -6.41510255e-01
31       9.22812319e-06    5.00000000e+00   -6.48945738e-01
32       9.88919827e-06    5.00000000e+00   -6.56803732e-01
33       1.05502734e-05    5.00000000e+00   -6.64838124e-01
34       1.18724235e-05    5.00000000e+00   -6.81486008e-01
35       1.31945737e-05    5.00000000e+00   -6.99027221e-01
36       1.45167239e-05    5.00000000e+00   -7.17382448e-01
37       1.49457693e-05    5.00000000e+00   -7.23898481e-01
38       1.58038602e-05    5.00000000e+00   -7.64103830e-01
39       1.66619511e-05    5.00000000e+00   -9.24181036e-01
40       1.75200420e-05    5.00000000e+00   -1.25164426e+00
41       1.83781329e-05    5.00000000e+00   -1.66752143e+00
42       1.92362237e-05    5.00000000e+00   -2.10232152e+00
43       2.09524055e-05    5.00000000e+00   -2.99104703e+00
44       2.31730850e-05    5.00000000e+00   -4.08223807e+00
45       2.40093230e-05    5.00000000e+00   -4.38870355e+00
46       2.48455609e-05    5.00000000e+00   -4.54721033e+00
47       2.55981750e-05    5.00000000e+00   -4.61126147e+00
48       2.63507892e-05    5.00000000e+00   -4.64887906e+00
49       2.78560174e-05    5.00000000e+00   -4.65582140e+00
50       3.08664740e-05    5.00000000e+00   -4.65283850e+00
51       3.38769305e-05    5.00000000e+00   -4.65471517e+00
52       3.98978436e-05    5.00000000e+00   -4.65340632e+00
53       5.19396698e-05    5.00000000e+00   -4.65450939e+00
54       7.60233222e-05    5.00000000e+00   -4.65349477e+00
55       1.24190627e-04    5.00000000e+00   -4.65446830e+00
56       2.20525236e-04    5.00000000e+00   -4.65351458e+00
57       4.13194455e-04    5.00000000e+00   -4.65445857e+00
58       6.13194455e-04    5.00000000e+00   -4.65352088e+00
59       8.13194455e-04    5.00000000e+00   -4.65445243e+00
60       1.00000100e-03    5.00000000e+00   -4.65352719e+00
61       1.00000110e-03    4.60000000e+00   -4.65352735e+00
62       1.00000118e-03    4.28016771e+00   -4.65352748e+00
63       1.00000126e-03    3.96033542e+00   -4.65352761e+00
64       1.00000142e-03    3.32067084e+00   -4.65352786e+00
65       1.00000174e-03    2.04134169e+00   -4.65352838e+00
66       1.00000200e-03    1.00000000e+00   -4.65352879e+00
67       1.00000206e-03    1.00000000e+00   -4.65352889e+00
68       1.00000219e-03    1.00000000e+00   -4.65352910e+00
69       1.00000245e-03    1.00000000e+00   -4.65352951e+00
70       1.00000296e-03    1.00000000e+00   -4.65353032e+00
71       1.00000398e-03    1.00000000e+00   -4.65353195e+00
72       1.00000603e-03    1.00000000e+00   -4.65353518e+00
73       1.00001012e-03    1.00000000e+00   -4.65354155e+00
74       1.00001831e-03    1.00000000e+00   -4.65355394e+00
75       1.00003469e-03    1.00000000e+00   -4.65357737e+00
76       1.00006744e-03    1.00000000e+00   -4.65361803e+00
77       1.00013294e-03    1.00000000e+00   -4.65364065e+00
78       1.00026394e-03    1.00000000e+00   -4.65286373e+00
79       1.00052595e-03    1.00000000e+00   -4.64543352e+00
80       1.00078796e-03    1.00000000e+00   -4.63217785e+00
81       1.00131197e-03    1.00000000e+00   -4.60942927e+00
82       1.00183598e-03    1.00000000e+00   -4.59584697e+00
83       1.00288401e-03    1.00000000e+00   -4.57384235e+00
84       1.00498006e-03    1.00000000e+00   -4.53213062e+00
85       1.00704160e-03    1.00000000e+00   -4.49435292e+00
86       1.00739720e-03    1.00000000e+00   -4.48803117e+00
87       1.00810841e-03    1.00000000e+00   -4.47651610e+00
88       1.00881961e-03    1.00000000e+00   -4.46726489e+00
89       1.00953082e-03    1.00000000e+00   -4.45902849e+00
90       1.01024202e-03    1.00000000e+00   -4.45073568e+00
91       1.01095323e-03    1.00000000e+00   -4.44277324e+00
92       1.01237564e-03    1.00000000e+00   -4.42758834e+00
93       1.01379805e-03    1.00000000e+00   -4.41334082e+00
94       1.01664288e-03    1.00000000e+00   -4.09739435e+00
95       1.01911604e-03    1.00000000e+00   -3.20753738e+00
96       1.02115923e-03    1.00000000e+00   -2.14109959e+00
97       1.02320242e-03    1.00000000e+00   -1.08038250e+00
98       1.02524561e-03    1.00000000e+00   -4.57825532e-01
99       1.02693607e-03    1.00000000e+00   -4.73116431e-01
100      1.02862654e-03    1.00000000e+00   -5.26331611e-01
101      1.03031700e-03    1.00000000e+00   -4.86579114e-01
102      1.03200747e-03    1.00000000e+00   -5.06705105e-01
103      1.03369793e-03    1.00000000e+00   -4.99408872e-01
104      1.03538840e-03    1.00000000e+00   -5.00142610e-01
105      1.03876933e-03    1.00000000e+00   -5.01883243e-01
106      1.04215026e-03    1.00000000e+00   -4.99480173e-01
107      1.04891213e-03    1.00000000e+00   -5.02160312e-01
108      1.05567399e-03    1.00000000e+00   -4.99403076e-01
109      1.06919771e-03    1.00000000e+00   -5.02188208e-01
110      1.09624517e-03    1.00000000e+00   -4.99400126e-01
111      1.12329262e-03    1.00000000e+00   -5.02186513e-01
112      1.17738752e-03    1.00000000e+00   -4.99402767e-01
113      1.28557733e-03    1.00000000e+00   -5.02184709e-01
114      1.39376713e-03    1.00000000e+00   -4.99404187e-01
115      1.59376713e-03    1.00000000e+00   -5.02183544e-01
116      1.79376713e-03    1.00000000e+00   -4.99405068e-01
117      1.99376713e-03    1.00000000e+00   -5.02182634e-01
118      2.00000000e-03    1.00000000e+00   -4.99429234e-01
119      2.00000006e-03    1.23441591e+00   -4.99429887e-01
120      2.00000011e-03    1.44539024e+00   -4.99430475e-01
121      2.00000016e-03    1.65636456e+00   -4.99431062e-01
122      2.00000027e-03    2.07831321e+00   -4.99432238e-01
123      2.00000048e-03    2.92221050e+00   -4.99434586e-01
124      2.00000090e-03    4.61000508e+00   -4.99439276e-01
125      2.00000100e-03    5.00000000e+00   -4.99440359e-01
126      2.00000108e-03    5.00000000e+00   -4.99441295e-01
127      2.00000125e-03    5.00000000e+00   -4.99443167e-01
128      2.00000159e-03    5.00000000e+00   -4.99446907e-01
129      2.00000227e-03    5.00000000e+00   -4.99454371e-01
130      2.00000362e-03    5.00000000e+00   -4.99469230e-01
131      2.00000632e-03    5.00000000e+00   -4.99498678e-01
132      2.00001172e-03    5.00000000e+00   -4.99556470e-01
133      2.00002252e-03    5.00000000e+00   -4.99667559e-01
134      2.00004412e-03    5.00000000e+00   -4.99871659e-01
135      2.00008733e-03    5.00000000e+00   -5.00214799e-01
136      2.00017375e-03    5.00000000e+00   -5.00808512e-01
137      2.00034658e-03    5.00000000e+00   -5.03284640e-01
138      2.00069224e-03    5.00000000e+00   -5.15814652e-01
139      2.00103790e-03    5.00000000e+00   -5.31226107e-01
140      2.00172922e-03    5.00000000e+00   -5.48056437e-01
141      2.00242054e-03    5.00000000e+00   -5.55896548e-01
142      2.00380318e-03    5.00000000e+00   -5.73308671e-01
143      2.00656846e-03    5.00000000e+00   -6.12490051e-01
144      2.00696680e-03    5.00000000e+00   -6.18791029e-01
145      2.00776348e-03    5.00000000e+00   -6.30749506e-01
146      2.00856017e-03    5.00000000e+00   -6.40957046e-01
147      2.00935685e-03    5.00000000e+00   -6.50068040e-01
148      2.01015353e-03    5.00000000e+00   -6.59532282e-01
149      2.01174689e-03    5.00000000e+00   -6.79457079e-01
150      2.01334026e-03    5.00000000e+00   -7.00535823e-01
151      2.01652699e-03    5.00000000e+00   -1.04352567e+00
152      2.01700025e-03    5.00000000e+00   -1.17847390e+00
153      2.01747352e-03    5.00000000e+00   -1.33293090e+00
154      2.01842005e-03    5.00000000e+00   -1.73093117e+00
155      2.01936659e-03    5.00000000e+00   -2.19370256e+00
156      2.02125966e-03    5.00000000e+00   -3.16464220e+00
157      2.02315272e-03    5.00000000e+00   -4.12934793e+00
158      2.02504579e-03    5.00000000e+00   -4.68894916e+00
159      2.02667954e-03    5.00000000e+00   -4.67682826e+00
160      2.02831328e-03    5.00000000e+00   -4.63339269e+00
161      2.02994703e-03    5.00000000e+00   -4.66532744e+00
162      2.03158078e-03    5.00000000e+00   -4.64922496e+00
163      2.03321452e-03    5.00000000e+00   -4.65524020e+00
164      2.03648201e-03    5.00000000e+00   -4.65366435e+00
165      2.03974950e-03    5.00000000e+00   -4.65372031e+00
166      2.04628449e-03    5.00000000e+00   -4.65445470e+00
167      2.05935445e-03    5.00000000e+00   -4.65344087e+00
168      2.07242442e-03    5.00000000e+00   -4.65460490e+00
169      2.09856435e-03    5.00000000e+00   -4.65334001e+00
170      2.15084420e-03    5.00000000e+00   -4.65465200e+00
171      2.25540392e-03    5.00000000e+00   -4.65331705e+00
172      2.45540392e-03    5.00000000e+00   -4.65466379e+00
173      2.65540392e-03    5.00000000e+00   -4.65330853e+00
174      2.85540392e-03    5.00000000e+00   -4.65467092e+00
175      3.00000100e-03    5.00000000e+00   -4.65330015e+00
176      3.00000110e-03    4.60000000e+00   -4.65330129e+00
177      3.00000118e-03    4.28016874e+00   -4.65330219e+00
178      3.00000126e-03    3.96033748e+00   -4.65330310e+00
179      3.00000142e-03    3.32067496e+00   -4.65330491e+00
180      3.00000174e-03    2.04134992e+00   -4.65330853e+00
181      3.00000200e-03    1.00000000e+00   -4.65331147e+00
182      3.00000206e-03    1.00000000e+00   -4.65331219e+00
183      3.00000219e-03    1.00000000e+00   -4.65331363e+00
184      3.00000245e-03    1.00000000e+00   -4.65331651e+00
185      3.00000296e-03    1.00000000e+00   -4.65332225e+00
186      3.00000398e-03    1.00000000e+00   -4.65333367e+00
187      3.00000603e-03    1.00000000e+00   -4.65335625e+00
188      3.00001012e-03    1.00000000e+00   -4.65340037e+00
189      3.00001831e-03    1.00000000e+00   -4.65348456e+00
190      3.00003469e-03    1.00000000e+00   -4.65363728e+00
191      3.00006744e-03    1.00000000e+00   -4.65388419e+00
192      3.00013294e-03    1.00000000e+00   -4.65415174e+00
193      3.00026394e-03    1.00000000e+00   -4.65347043e+00
194      3.00052595e-03    1.00000000e+00   -4.64577837e+00
195      3.00078795e-03    1.00000000e+00   -4.63229877e+00
196      3.00131196e-03    1.00000000e+00   -4.60941177e+00
197      3.00183598e-03    1.00000000e+00   -4.59580824e+00
198      3.00288400e-03    1.00000000e+00   -4.57380028e+00
199      3.00498005e-03    1.00000000e+00   -4.53208950e+00
200      3.00704160e-03    1.00000000e+00   -4.49431140e+00
201      3.00739720e-03    1.00000000e+00   -4.48798961e+00
202      3.00810841e-03    1.00000000e+00   -4.47647448e+00
203      3.00881962e-03    1.00000000e+00   -4.46722326e+00
204      3.00953083e-03    1.00000000e+00   -4.45898684e+00
205      3.01024204e-03    1.00000000e+00   -4.45069403e+00
206      3.01095325e-03    1.00000000e+00   -4.44273159e+00
207      3.01237566e-03    1.00000000e+00   -4.42754669e+00
208      3.01379808e-03    1.00000000e+00   -4.41329918e+00
209      3.01664292e-03    1.00000000e+00   -4.09734099e+00
210      3.01911606e-03    1.00000000e+00   -3.20748244e+00
211      3.02115925e-03    1.00000000e+00   -2.14104554e+00
212      3.02320244e-03    1.00000000e+00   -1.08033740e+00
213      3.02524562e-03    1.00000000e+00   -4.57815752e-01
214      3.02693609e-03    1.00000000e+00   -4.73121647e-01
215      3.02862656e-03    1.00000000e+00   -5.26329474e-01
216      3.03031703e-03    1.00000000e+00   -4.86579806e-01
217      3.03200749e-03    1.00000000e+00   -5.06705046e-01
218      3.03369796e-03    1.00000000e+00   -4.99408676e-01
219      3.03538843e-03    1.00000000e+00   -5.00142872e-01
220      3.03876936e-03    1.00000000e+00   -5.01882978e-01
221      3.04215030e-03    1.00000000e+00   -4.99480426e-01
222      3.04891217e-03    1.00000000e+00   -5.02160066e-01
223      3.05567404e-03    1.00000000e+00   -4.99403313e-01
224      3.06919777e-03    1.00000000e+00   -5.02187975e-01
225      3.09624525e-03    1.00000000e+00   -4.99400356e-01
226      3.12329273e-03    1.00000000e+00   -5.02186284e-01
227      3.17738768e-03    1.00000000e+00   -4.99402994e-01
228      3.28557759e-03    1.00000000e+00   -5.02184482e-01
229      3.39376750e-03    1.00000000e+00   -4.99404412e-01
230      3.59376750e-03    1.00000000e+00   -5.02183317e-01
231      3.79376750e-03    1.00000000e+00   -4.99405293e-01
232      3.99376750e-03    1.00000000e+00   -5.02182408e-01
233      4.00000000e-03    1.00000000e+00   -4.99429450e-01
234      4.00000006e-03    1.23441591e+00   -4.99430103e-01
235      4.00000011e-03    1.44539024e+00   -4.99430690e-01
236      4.00000016e-03    1.65636456e+00   -4.99431278e-01
237      4.00000027e-03    2.07831321e+00   -4.99432453e-01
238      4.00000048e-03    2.92221051e+00   -4.99434801e-01
239      4.00000090e-03    4.61000509e+00   -4.99439490e-01
240      4.00000100e-03    5.00000000e+00   -4.99440573e-01
241      4.00000108e-03    5.00000000e+00   -4.99441509e-01
242      4.00000125e-03    5.00000000e+00   -4.99443380e-01
243      4.00000159e-03    5.00000000e+00   -4.99447120e-01
244      4.00000227e-03    5.00000000e+00   -4.99454582e-01
245      4.00000362e-03    5.00000000e+00   -4.99469439e-01
246      4.00000632e-03    5.00000000e+00   -4.99498881e-01
247      4.00001172e-03    5.00000000e+00   -4.99556662e-01
248      4.00002252e-03    5.00000000e+00   -4.99667731e-01
249      4.00004412e-03    5.00000000e+00   -4.99871797e-01
250      4.00008733e-03    5.00000000e+00   -5.00214886e-01
251      4.00017375e-03    5.00000000e+00   -5.00808539e-01
252      4.00034658e-03    5.00000000e+00   -5.03284631e-01
253      4.00069224e-03    5.00000000e+00   -5.15814647e-01
254      4.00103790e-03    5.00000000e+00   -5.31226107e-01
255      4.00172922e-03    5.00000000e+00   -5.48056438e-01
256      4.00242054e-03    5.00000000e+00   -5.55896550e-01
257      4.00380318e-03    5.00000000e+00   -5.73308672e-01
258      4.00656846e-03    5.00000000e+00   -6.12490053e-01
259      4.00696680e-03    5.00000000e+00   -6.18791030e-01
260      4.00776348e-03    5.00000000e+00   -6.30749508e-01
261      4.00856017e-03    5.00000000e+00   -6.40957048e-01
262      4.00935685e-03    5.00000000e+00   -6.50068042e-01
263      4.01015353e-03    5.00000000e+00   -6.59532284e-01
264      4.01174689e-03    5.00000000e+00   -6.79457080e-01
265      4.01334026e-03    5.00000000e+00   -7.00535824e-01
266      4.01652699e-03    5.00000000e+00   -1.04352568e+00
267      4.01700025e-03    5.00000000e+00   -1.17847391e+00
268      4.01747352e-03    5.00000000e+00   -1.33293091e+00
269      4.01842005e-03    5.00000000e+00   -1.73093118e+00
270      4.01936659e-03    5.00000000e+00   -2.19370258e+00
271      4.02125966e-03    5.00000000e+00   -3.16464222e+00
272      4.02315272e-03    5.00000000e+00   -4.12934795e+00
273      4.02504579e-03    5.00000000e+00   -4.68894916e+00
274      4.02667954e-03    5.00000000e+00   -4.67682826e+00
275      4.02831328e-03    5.00000000e+00   -4.63339269e+00
276      4.02994703e-03    5.00000000e+00   -4.66532744e+00
277      4.03158078e-03    5.00000000e+00   -4.64922496e+00
278      4.03321452e-03    5.00000000e+00   -4.65524020e+00
279      4.03648201e-03    5.00000000e+00   -4.65366435e+00
280      4.03974950e-03    5.00000000e+00   -4.65372031e+00
281      4.04628449e-03    5.00000000e+00   -4.65445470e+00
282      4.05935445e-03    5.00000000e+00   -4.65344087e+00
283      4.07242442e-03    5.00000000e+00   -4.65460490e+00
284      4.09856435e-03    5.00000000e+00   -4.65334001e+00
285      4.15084420e-03    5.00000000e+00   -4.65465200e+00
286      4.25540392e-03    5.00000000e+00   -4.65331705e+00
287      4.45540392e-03    5.00000000e+00   -4.65466379e+00
288      4.65540392e-03    5.00000000e+00   -4.65330853e+00
289      4.85540392e-03    5.00000000e+00   -4.65467092e+00
290      5.00000100e-03    5.00000000e+00   -4.65330015e+00
291      5.00000110e-03    4.60000000e+00   -4.65330129e+00
292      5.00000118e-03    4.28016874e+00   -4.65330219e+00
293      5.00000126e-03    3.96033748e+00   -4.65330310e+00
294      5.00000142e-03    3.32067496e+00   -4.65330491e+00
295      5.00000174e-03    2.04134992e+00   -4.65330853e+00
296      5.00000200e-03    9.99999997e-01   -4.65331147e+00
297      5.00000206e-03    1.00000000e+00   -4.65331219e+00
298      5.00000219e-03    1.00000000e+00   -4.65331363e+00
299      5.00000245e-03    1.00000000e+00   -4.65331651e+00
300      5.00000296e-03    1.00000000e+00   -4.65332225e+00
301      5.00000398e-03    1.00000000e+00   -4.65333367e+00
302      5.00000603e-03    1.00000000e+00   -4.65335625e+00
303      5.00001012e-03    1.00000000e+00   -4.65340037e+00
304      5.00001831e-03    1.00000000e+00   -4.65348456e+00
305      5.00003469e-03    1.00000000e+00   -4.65363728e+00
306      5.00006744e-03    1.00000000e+00   -4.65388419e+00
307      5.00013294e-03    1.00000000e+00   -4.65415174e+00
308      5.00026394e-03    1.00000000e+00   -4.65347043e+00
309      5.00052595e-03    1.00000000e+00   -4.64577837e+00
310      5.00078795e-03    1.00000000e+00   -4.63229877e+00
311      5.00131196e-03    1.00000000e+00   -4.60941177e+00
312      5.00183598e-03    1.00000000e+00   -4.59580824e+00
313      5.00288400e-03    1.00000000e+00   -4.57380028e+00
314      5.00498005e-03    1.00000000e+00   -4.53208950e+00
315      5.00704160e-03    1.00000000e+00   -4.49431140e+00
316      5.00739720e-03    1.00000000e+00   -4.48798961e+00
317      5.00810841e-03    1.00000000e+00   -4.47647448e+00
318      5.00881962e-03    1.00000000e+00   -4.46722326e+00
319      5.00953083e-03    1.00000000e+00   -4.45898684e+00
320      5.01024204e-03    1.00000000e+00   -4.45069403e+00
321      5.01095325e-03    1.00000000e+00   -4.44273159e+00
322      5.01237566e-03    1.00000000e+00   -4.42754669e+00
323      5.01379808e-03    1.00000000e+00   -4.41329918e+00
324      5.01664292e-03    1.00000000e+00   -4.09734099e+00
325      5.01911606e-03    1.00000000e+00   -3.20748244e+00
326      5.02115925e-03    1.00000000e+00   -2.14104554e+00
327      5.02320244e-03    1.00000000e+00   -1.08033740e+00
328      5.02524562e-03    1.00000000e+00   -4.57815752e-01
329      5.02693609e-03    1.00000000e+00   -4.73121647e-01
330      5.02862656e-03    1.00000000e+00   -5.26329474e-01
331      5.03031703e-03    1.00000000e+00   -4.86579806e-01
