#H
SOURCE='Xyce' VERSION='7.0'
TITLE='* ErrorTest2DC.cir'
SUBTITLE='Xyce data ' 
TIME='01:54:46 PM' DATE='May 25, 2017' TEMPERATURE='2.70000000e+01'
ANALYSIS='DC Sweep' SERIALNO='12345'
ALLVALUES='NO' COMPLEXVALUES='NO' NODES='6'
SWEEPVAR='vsrc1' SWEEPMODE='VAR_STEP'
XBEGIN='1.00000000e+00' XEND='5.00000000e+00'
FORMAT='0 VOLTSorAMPS;EFLOAT : NODEorBRANCH;NODE  '  
DGTLDATA='NO'  SWEEP2PARM='vsrc2' SWEEP2VALUE='2.00000000e+00' 
#N
'VSRC1:DCV0' 'VSRC2:DCV0' 'RLOAD1A:R' 'V(1A)' 'V(2A)' 'V(1B)' 
#C 1.00000000e+00 6
1.00000000e+00:1   2.00000000e+00:2   1.00000000e-01:3   1.00000000e+00:4
2.00000000e+00:5   1.25000000e+00:6   
#C 2.00000000e+00 6
2.00000000e+00:1   2.00000000e+00:2   1.00000000e-01:3   2.00000000e+00:4
2.00000000e+00:5   1.87500000e+00:6   
#C 3.00000000e+00 6
3.00000000e+00:1   2.00000000e+00:2   1.00000000e-01:3   3.00000000e+00:4
2.00000000e+00:5   2.50000000e+00:6   
#C 4.00000000e+00 6
4.00000000e+00:1   2.00000000e+00:2   1.00000000e-01:3   4.00000000e+00:4
2.00000000e+00:5   3.12500000e+00:6   
#C 5.00000000e+00 6
5.00000000e+00:1   2.00000000e+00:2   1.00000000e-01:3   5.00000000e+00:4
2.00000000e+00:5   3.75000000e+00:6   
#C 1.00000000e+00 6
1.00000000e+00:1   5.00000000e+00:2   1.00000000e-01:3   1.00000000e+00:4
5.00000000e+00:5   2.18750000e+00:6   
#C 2.00000000e+00 6
2.00000000e+00:1   5.00000000e+00:2   1.00000000e-01:3   2.00000000e+00:4
5.00000000e+00:5   2.81250000e+00:6   
#C 3.00000000e+00 6
3.00000000e+00:1   5.00000000e+00:2   1.00000000e-01:3   3.00000000e+00:4
5.00000000e+00:5   3.43750000e+00:6   
#C 4.00000000e+00 6
4.00000000e+00:1   5.00000000e+00:2   1.00000000e-01:3   4.00000000e+00:4
5.00000000e+00:5   4.06250000e+00:6   
#C 5.00000000e+00 6
5.00000000e+00:1   5.00000000e+00:2   1.00000000e-01:3   5.00000000e+00:4
5.00000000e+00:5   4.68750000e+00:6   
#;
