Index     FREQ           Re(V(1))         Im(V(1))
0	1.000000e+00,		-9.998421e+02,	1.256439e+01	
1	1.258925e+00,		-9.997498e+02,	1.581616e+01	
2	1.584893e+00,		-9.996035e+02,	1.990846e+01	
3	1.995262e+00,		-9.993717e+02,	2.505745e+01	
4	2.511886e+00,		-9.990046e+02,	3.153388e+01	
5	3.162278e+00,		-9.984234e+02,	3.967570e+01	
6	3.981072e+00,		-9.975035e+02,	4.990273e+01	
7	5.011872e+00,		-9.960491e+02,	6.273221e+01	
8	6.309573e+00,		-9.937526e+02,	7.879309e+01	
9	7.943282e+00,		-9.901346e+02,	9.883348e+01	
10	1.000000e+01,		-9.844541e+02,	1.237102e+02	
11	1.258925e+01,		-9.755835e+02,	1.543385e+02	
12	1.584893e+01,		-9.618473e+02,	1.915649e+02	
13	1.995262e+01,		-9.408519e+02,	2.359017e+02	
14	2.511886e+01,		-9.093912e+02,	2.870520e+02	
15	3.162278e+01,		-8.636222e+02,	3.431893e+02	
16	3.981072e+01,		-7.998232e+02,	4.001325e+02	
17	5.011872e+01,		-7.159933e+02,	4.509400e+02	
18	6.309573e+01,		-6.139996e+02,	4.868307e+02	
19	7.943282e+01,		-5.009097e+02,	4.999992e+02	
20	1.000000e+02,		-3.877266e+02,	4.872317e+02	
21	1.258925e+02,		-2.854889e+02,	4.516470e+02	
22	1.584893e+02,		-2.013445e+02,	4.010048e+02	
23	1.995262e+02,		-1.372372e+02,	3.440975e+02	
24	2.511886e+02,		-9.121026e+01,	2.879079e+02	
25	3.162278e+02,		-5.955441e+01,	2.366594e+02	
26	3.981072e+02,		-3.842071e+01,	1.922097e+02	
27	5.011872e+02,		-2.459049e+01,	1.548735e+02	
28	6.309573e+02,		-1.565765e+01,	1.241470e+02	
29	7.943282e+02,		-9.936724e+00,	9.918662e+01	
30	1.000000e+03,		-6.292725e+00,	7.907671e+01	
31	1.258925e+03,		-3.979683e+00,	6.295907e+01	
32	1.584893e+03,		-2.514703e+00,	5.008373e+01	
33	1.995262e+03,		-1.588144e+00,	3.981987e+01	
34	2.511886e+03,		-1.002639e+00,	3.164860e+01	
35	3.162278e+03,		-6.328566e-01,	2.514868e+01	
36	3.981072e+03,		-3.993988e-01,	1.998097e+01	
37	5.011872e+03,		-2.520408e-01,	1.587379e+01	
38	6.309573e+03,		-1.590418e-01,	1.261017e+01	
39	7.943282e+03,		-1.003545e-01,	1.001720e+01	
40	1.000000e+04,		-6.332173e-02,	7.957243e+00	
41	1.258925e+04,		-3.995424e-02,	6.320811e+00	
42	1.584893e+04,		-2.520980e-02,	5.020872e+00	
43	1.995262e+04,		-1.590645e-02,	3.988258e+00	
44	2.511886e+04,		-1.003635e-02,	3.168004e+00	
45	3.162278e+04,		-6.332534e-03,	2.516445e+00	
46	3.981072e+04,		-3.995568e-03,	1.998888e+00	
47	5.011872e+04,		-2.521037e-03,	1.587775e+00	
48	6.309573e+04,		-1.590668e-03,	1.261216e+00	
49	7.943282e+04,		-1.003644e-03,	1.001820e+00	
50	1.000000e+05,		-6.332570e-04,	7.957742e-01	
