Index       FREQ         Re(V(CATHODE))    Im(V(CATHODE))       Re(V(4))          Im(V(4))        Re(V(1,REF))      Im(V(1,REF))   
0        1.00000000e+02    9.52149969e-01   -1.41048855e-07    9.52112381e+02   -5.98243957e+00   -4.73704096e-01    1.55094727e-06
1        1.00230524e+02    9.52149969e-01   -1.41374007e-07    9.52112207e+02   -5.99622942e+00   -4.73704096e-01    1.55452258e-06
2        1.00461579e+02    9.52149969e-01   -1.41699907e-07    9.52112033e+02   -6.01005106e+00   -4.73704096e-01    1.55810612e-06
3        1.00693167e+02    9.52149969e-01   -1.42026559e-07    9.52111858e+02   -6.02390455e+00   -4.73704096e-01    1.56169793e-06
4        1.00925289e+02    9.52149969e-01   -1.42353964e-07    9.52111682e+02   -6.03778997e+00   -4.73704096e-01    1.56529801e-06
5        1.01157945e+02    9.52149969e-01   -1.42682124e-07    9.52111505e+02   -6.05170739e+00   -4.73704096e-01    1.56890640e-06
6        1.01391139e+02    9.52149969e-01   -1.43011040e-07    9.52111328e+02   -6.06565689e+00   -4.73704096e-01    1.57252310e-06
7        1.01624869e+02    9.52149969e-01   -1.43340715e-07    9.52111149e+02   -6.07963853e+00   -4.73704096e-01    1.57614814e-06
8        1.01859139e+02    9.52149969e-01   -1.43671149e-07    9.52110970e+02   -6.09365240e+00   -4.73704096e-01    1.57978154e-06
9        1.02093948e+02    9.52149969e-01   -1.44002346e-07    9.52110790e+02   -6.10769856e+00   -4.73704096e-01    1.58342331e-06
10       1.02329299e+02    9.52149969e-01   -1.44334305e-07    9.52110609e+02   -6.12177710e+00   -4.73704096e-01    1.58707348e-06
11       1.02565193e+02    9.52149969e-01   -1.44667030e-07    9.52110428e+02   -6.13588808e+00   -4.73704096e-01    1.59073206e-06
12       1.02801630e+02    9.52149969e-01   -1.45000522e-07    9.52110245e+02   -6.15003159e+00   -4.73704096e-01    1.59439907e-06
13       1.03038612e+02    9.52149969e-01   -1.45334783e-07    9.52110062e+02   -6.16420769e+00   -4.73704096e-01    1.59807454e-06
14       1.03276141e+02    9.52149969e-01   -1.45669814e-07    9.52109878e+02   -6.17841646e+00   -4.73704096e-01    1.60175849e-06
15       1.03514217e+02    9.52149969e-01   -1.46005618e-07    9.52109692e+02   -6.19265797e+00   -4.73704096e-01    1.60545092e-06
16       1.03752842e+02    9.52149969e-01   -1.46342195e-07    9.52109507e+02   -6.20693231e+00   -4.73704096e-01    1.60915187e-06
17       1.03992017e+02    9.52149969e-01   -1.46679549e-07    9.52109320e+02   -6.22123955e+00   -4.73704096e-01    1.61286135e-06
18       1.04231743e+02    9.52149969e-01   -1.47017680e-07    9.52109132e+02   -6.23557976e+00   -4.73704096e-01    1.61657937e-06
19       1.04472022e+02    9.52149969e-01   -1.47356591e-07    9.52108944e+02   -6.24995302e+00   -4.73704096e-01    1.62030598e-06
20       1.04712855e+02    9.52149969e-01   -1.47696283e-07    9.52108754e+02   -6.26435940e+00   -4.73704096e-01    1.62404117e-06
21       1.04954243e+02    9.52149969e-01   -1.48036758e-07    9.52108564e+02   -6.27879899e+00   -4.73704096e-01    1.62778497e-06
22       1.05196187e+02    9.52149969e-01   -1.48378018e-07    9.52108373e+02   -6.29327185e+00   -4.73704096e-01    1.63153740e-06
23       1.05438690e+02    9.52149969e-01   -1.48720065e-07    9.52108181e+02   -6.30777807e+00   -4.73704096e-01    1.63529848e-06
24       1.05681751e+02    9.52149969e-01   -1.49062900e-07    9.52107988e+02   -6.32231772e+00   -4.73704096e-01    1.63906823e-06
25       1.05925373e+02    9.52149969e-01   -1.49406525e-07    9.52107794e+02   -6.33689088e+00   -4.73704096e-01    1.64284668e-06
26       1.06169556e+02    9.52149969e-01   -1.49750943e-07    9.52107600e+02   -6.35149762e+00   -4.73704096e-01    1.64663383e-06
27       1.06414302e+02    9.52149969e-01   -1.50096154e-07    9.52107404e+02   -6.36613803e+00   -4.73704096e-01    1.65042971e-06
28       1.06659612e+02    9.52149969e-01   -1.50442162e-07    9.52107208e+02   -6.38081217e+00   -4.73704096e-01    1.65423435e-06
29       1.06905488e+02    9.52149969e-01   -1.50788967e-07    9.52107010e+02   -6.39552014e+00   -4.73704096e-01    1.65804775e-06
30       1.07151931e+02    9.52149969e-01   -1.51136571e-07    9.52106812e+02   -6.41026200e+00   -4.73704096e-01    1.66186994e-06
31       1.07398941e+02    9.52149969e-01   -1.51484977e-07    9.52106613e+02   -6.42503784e+00   -4.73704096e-01    1.66570095e-06
32       1.07646521e+02    9.52149969e-01   -1.51834186e-07    9.52106413e+02   -6.43984772e+00   -4.73704096e-01    1.66954079e-06
33       1.07894672e+02    9.52149969e-01   -1.52184200e-07    9.52106212e+02   -6.45469174e+00   -4.73704096e-01    1.67338948e-06
34       1.08143395e+02    9.52149969e-01   -1.52535021e-07    9.52106010e+02   -6.46956997e+00   -4.73704096e-01    1.67724704e-06
35       1.08392691e+02    9.52149969e-01   -1.52886650e-07    9.52105807e+02   -6.48448249e+00   -4.73704096e-01    1.68111349e-06
36       1.08642562e+02    9.52149969e-01   -1.53239090e-07    9.52105603e+02   -6.49942937e+00   -4.73704096e-01    1.68498886e-06
37       1.08893009e+02    9.52149969e-01   -1.53592343e-07    9.52105398e+02   -6.51441071e+00   -4.73704096e-01    1.68887316e-06
38       1.09144034e+02    9.52149969e-01   -1.53946410e-07    9.52105192e+02   -6.52942656e+00   -4.73704096e-01    1.69276641e-06
39       1.09395637e+02    9.52149969e-01   -1.54301293e-07    9.52104986e+02   -6.54447702e+00   -4.73704096e-01    1.69666864e-06
40       1.09647820e+02    9.52149969e-01   -1.54656994e-07    9.52104778e+02   -6.55956217e+00   -4.73704096e-01    1.70057987e-06
41       1.09900584e+02    9.52149969e-01   -1.55013515e-07    9.52104570e+02   -6.57468208e+00   -4.73704096e-01    1.70450011e-06
42       1.10153931e+02    9.52149969e-01   -1.55370858e-07    9.52104360e+02   -6.58983684e+00   -4.73704096e-01    1.70842939e-06
43       1.10407862e+02    9.52149969e-01   -1.55729025e-07    9.52104150e+02   -6.60502652e+00   -4.73704096e-01    1.71236772e-06
44       1.10662378e+02    9.52149969e-01   -1.56088018e-07    9.52103938e+02   -6.62025121e+00   -4.73704096e-01    1.71631514e-06
45       1.10917482e+02    9.52149969e-01   -1.56447838e-07    9.52103726e+02   -6.63551099e+00   -4.73704096e-01    1.72027165e-06
46       1.11173173e+02    9.52149969e-01   -1.56808487e-07    9.52103512e+02   -6.65080593e+00   -4.73704096e-01    1.72423729e-06
47       1.11429453e+02    9.52149969e-01   -1.57169968e-07    9.52103298e+02   -6.66613612e+00   -4.73704096e-01    1.72821207e-06
48       1.11686325e+02    9.52149969e-01   -1.57532282e-07    9.52103082e+02   -6.68150164e+00   -4.73704096e-01    1.73219601e-06
49       1.11943788e+02    9.52149969e-01   -1.57895432e-07    9.52102866e+02   -6.69690257e+00   -4.73704096e-01    1.73618913e-06
50       1.12201845e+02    9.52149969e-01   -1.58259418e-07    9.52102648e+02   -6.71233899e+00   -4.73704096e-01    1.74019146e-06
51       1.12460497e+02    9.52149969e-01   -1.58624244e-07    9.52102430e+02   -6.72781098e+00   -4.73704096e-01    1.74420302e-06
52       1.12719746e+02    9.52149969e-01   -1.58989910e-07    9.52102211e+02   -6.74331864e+00   -4.73704096e-01    1.74822382e-06
53       1.12979591e+02    9.52149969e-01   -1.59356420e-07    9.52101990e+02   -6.75886203e+00   -4.73704096e-01    1.75225389e-06
54       1.13240036e+02    9.52149969e-01   -1.59723774e-07    9.52101769e+02   -6.77444124e+00   -4.73704096e-01    1.75629326e-06
55       1.13501082e+02    9.52149969e-01   -1.60091976e-07    9.52101546e+02   -6.79005635e+00   -4.73704096e-01    1.76034193e-06
56       1.13762729e+02    9.52149969e-01   -1.60461026e-07    9.52101323e+02   -6.80570745e+00   -4.73704096e-01    1.76439994e-06
57       1.14024979e+02    9.52149969e-01   -1.60830927e-07    9.52101098e+02   -6.82139462e+00   -4.73704096e-01    1.76846730e-06
58       1.14287833e+02    9.52149969e-01   -1.61201680e-07    9.52100873e+02   -6.83711794e+00   -4.73704096e-01    1.77254404e-06
59       1.14551294e+02    9.52149969e-01   -1.61573288e-07    9.52100646e+02   -6.85287749e+00   -4.73704096e-01    1.77663017e-06
60       1.14815362e+02    9.52149969e-01   -1.61945753e-07    9.52100418e+02   -6.86867336e+00   -4.73704096e-01    1.78072573e-06
61       1.15080039e+02    9.52149969e-01   -1.62319077e-07    9.52100190e+02   -6.88450563e+00   -4.73704096e-01    1.78483072e-06
62       1.15345326e+02    9.52149969e-01   -1.62693261e-07    9.52099960e+02   -6.90037439e+00   -4.73704096e-01    1.78894518e-06
63       1.15611224e+02    9.52149969e-01   -1.63068308e-07    9.52099729e+02   -6.91627972e+00   -4.73704096e-01    1.79306913e-06
64       1.15877736e+02    9.52149969e-01   -1.63444219e-07    9.52099497e+02   -6.93222171e+00   -4.73704096e-01    1.79720258e-06
65       1.16144861e+02    9.52149969e-01   -1.63820997e-07    9.52099264e+02   -6.94820043e+00   -4.73704096e-01    1.80134556e-06
66       1.16412603e+02    9.52149969e-01   -1.64198643e-07    9.52099030e+02   -6.96421597e+00   -4.73704096e-01    1.80549809e-06
67       1.16680962e+02    9.52149969e-01   -1.64577160e-07    9.52098795e+02   -6.98026842e+00   -4.73704096e-01    1.80966019e-06
68       1.16949939e+02    9.52149969e-01   -1.64956550e-07    9.52098559e+02   -6.99635787e+00   -4.73704096e-01    1.81383189e-06
69       1.17219537e+02    9.52149969e-01   -1.65336814e-07    9.52098322e+02   -7.01248439e+00   -4.73704096e-01    1.81801321e-06
70       1.17489755e+02    9.52149969e-01   -1.65717954e-07    9.52098083e+02   -7.02864808e+00   -4.73704096e-01    1.82220416e-06
71       1.17760597e+02    9.52149969e-01   -1.66099974e-07    9.52097844e+02   -7.04484901e+00   -4.73704096e-01    1.82640477e-06
72       1.18032064e+02    9.52149969e-01   -1.66482874e-07    9.52097603e+02   -7.06108728e+00   -4.73704096e-01    1.83061507e-06
73       1.18304156e+02    9.52149969e-01   -1.66866656e-07    9.52097361e+02   -7.07736297e+00   -4.73704096e-01    1.83483507e-06
74       1.18576875e+02    9.52149969e-01   -1.67251324e-07    9.52097119e+02   -7.09367617e+00   -4.73704096e-01    1.83906481e-06
75       1.18850223e+02    9.52149969e-01   -1.67636878e-07    9.52096875e+02   -7.11002696e+00   -4.73704096e-01    1.84330429e-06
76       1.19124201e+02    9.52149969e-01   -1.68023321e-07    9.52096630e+02   -7.12641543e+00   -4.73704096e-01    1.84755354e-06
77       1.19398810e+02    9.52149969e-01   -1.68410654e-07    9.52096383e+02   -7.14284167e+00   -4.73704096e-01    1.85181259e-06
78       1.19674053e+02    9.52149969e-01   -1.68798881e-07    9.52096136e+02   -7.15930576e+00   -4.73704096e-01    1.85608146e-06
79       1.19949930e+02    9.52149969e-01   -1.69188003e-07    9.52095888e+02   -7.17580779e+00   -4.73704096e-01    1.86036017e-06
80       1.20226443e+02    9.52149969e-01   -1.69578021e-07    9.52095638e+02   -7.19234785e+00   -4.73704096e-01    1.86464875e-06
81       1.20503594e+02    9.52149969e-01   -1.69968939e-07    9.52095387e+02   -7.20892603e+00   -4.73704096e-01    1.86894721e-06
82       1.20781384e+02    9.52149969e-01   -1.70360758e-07    9.52095135e+02   -7.22554241e+00   -4.73704096e-01    1.87325557e-06
83       1.21059813e+02    9.52149969e-01   -1.70753480e-07    9.52094882e+02   -7.24219708e+00   -4.73704096e-01    1.87757387e-06
84       1.21338885e+02    9.52149969e-01   -1.71147107e-07    9.52094628e+02   -7.25889013e+00   -4.73704096e-01    1.88190213e-06
85       1.21618600e+02    9.52149969e-01   -1.71541642e-07    9.52094373e+02   -7.27562165e+00   -4.73704096e-01    1.88624036e-06
86       1.21898960e+02    9.52149969e-01   -1.71937086e-07    9.52094116e+02   -7.29239172e+00   -4.73704096e-01    1.89058859e-06
87       1.22179966e+02    9.52149969e-01   -1.72333442e-07    9.52093858e+02   -7.30920044e+00   -4.73704096e-01    1.89494685e-06
88       1.22461620e+02    9.52149969e-01   -1.72730712e-07    9.52093599e+02   -7.32604789e+00   -4.73704096e-01    1.89931515e-06
89       1.22743923e+02    9.52149969e-01   -1.73128897e-07    9.52093339e+02   -7.34293417e+00   -4.73704096e-01    1.90369353e-06
90       1.23026877e+02    9.52149969e-01   -1.73528001e-07    9.52093078e+02   -7.35985936e+00   -4.73704096e-01    1.90808199e-06
91       1.23310483e+02    9.52149969e-01   -1.73928024e-07    9.52092815e+02   -7.37682356e+00   -4.73704096e-01    1.91248058e-06
92       1.23594743e+02    9.52149969e-01   -1.74328969e-07    9.52092551e+02   -7.39382684e+00   -4.73704096e-01    1.91688930e-06
93       1.23879659e+02    9.52149969e-01   -1.74730839e-07    9.52092286e+02   -7.41086931e+00   -4.73704096e-01    1.92130819e-06
94       1.24165231e+02    9.52149969e-01   -1.75133635e-07    9.52092020e+02   -7.42795105e+00   -4.73704096e-01    1.92573726e-06
95       1.24451461e+02    9.52149969e-01   -1.75537360e-07    9.52091753e+02   -7.44507216e+00   -4.73704096e-01    1.93017654e-06
96       1.24738351e+02    9.52149969e-01   -1.75942015e-07    9.52091484e+02   -7.46223271e+00   -4.73704096e-01    1.93462606e-06
97       1.25025903e+02    9.52149969e-01   -1.76347604e-07    9.52091214e+02   -7.47943282e+00   -4.73704096e-01    1.93908583e-06
98       1.25314117e+02    9.52149969e-01   -1.76754127e-07    9.52090943e+02   -7.49667256e+00   -4.73704096e-01    1.94355589e-06
99       1.25602996e+02    9.52149969e-01   -1.77161587e-07    9.52090670e+02   -7.51395202e+00   -4.73704096e-01    1.94803625e-06
100      1.25892541e+02    9.52149969e-01   -1.77569987e-07    9.52090397e+02   -7.53127130e+00   -4.73704096e-01    1.95252693e-06
101      1.26182753e+02    9.52149969e-01   -1.77979328e-07    9.52090122e+02   -7.54863050e+00   -4.73704096e-01    1.95702797e-06
102      1.26473635e+02    9.52149969e-01   -1.78389613e-07    9.52089845e+02   -7.56602969e+00   -4.73704096e-01    1.96153939e-06
103      1.26765187e+02    9.52149969e-01   -1.78800843e-07    9.52089568e+02   -7.58346898e+00   -4.73704096e-01    1.96606120e-06
104      1.27057411e+02    9.52149969e-01   -1.79213022e-07    9.52089289e+02   -7.60094846e+00   -4.73704096e-01    1.97059344e-06
105      1.27350308e+02    9.52149969e-01   -1.79626150e-07    9.52089009e+02   -7.61846821e+00   -4.73704096e-01    1.97513613e-06
106      1.27643881e+02    9.52149969e-01   -1.80040231e-07    9.52088728e+02   -7.63602834e+00   -4.73704096e-01    1.97968929e-06
107      1.27938130e+02    9.52149969e-01   -1.80455267e-07    9.52088445e+02   -7.65362893e+00   -4.73704096e-01    1.98425294e-06
108      1.28233058e+02    9.52149969e-01   -1.80871259e-07    9.52088161e+02   -7.67127008e+00   -4.73704096e-01    1.98882712e-06
109      1.28528666e+02    9.52149969e-01   -1.81288210e-07    9.52087876e+02   -7.68895188e+00   -4.73704096e-01    1.99341184e-06
110      1.28824955e+02    9.52149969e-01   -1.81706123e-07    9.52087589e+02   -7.70667442e+00   -4.73704096e-01    1.99800713e-06
111      1.29121927e+02    9.52149969e-01   -1.82124999e-07    9.52087301e+02   -7.72443781e+00   -4.73704096e-01    2.00261301e-06
112      1.29419584e+02    9.52149969e-01   -1.82544840e-07    9.52087012e+02   -7.74224212e+00   -4.73704096e-01    2.00722951e-06
113      1.29717927e+02    9.52149969e-01   -1.82965650e-07    9.52086721e+02   -7.76008747e+00   -4.73704096e-01    2.01185665e-06
114      1.30016958e+02    9.52149969e-01   -1.83387429e-07    9.52086430e+02   -7.77797393e+00   -4.73704096e-01    2.01649446e-06
115      1.30316678e+02    9.52149969e-01   -1.83810181e-07    9.52086136e+02   -7.79590161e+00   -4.73704096e-01    2.02114296e-06
116      1.30617089e+02    9.52149969e-01   -1.84233907e-07    9.52085842e+02   -7.81387060e+00   -4.73704096e-01    2.02580218e-06
117      1.30918192e+02    9.52149969e-01   -1.84658610e-07    9.52085546e+02   -7.83188100e+00   -4.73704096e-01    2.03047213e-06
118      1.31219990e+02    9.52149969e-01   -1.85084292e-07    9.52085248e+02   -7.84993290e+00   -4.73704096e-01    2.03515285e-06
119      1.31522483e+02    9.52149969e-01   -1.85510955e-07    9.52084950e+02   -7.86802639e+00   -4.73704096e-01    2.03984437e-06
120      1.31825674e+02    9.52149969e-01   -1.85938602e-07    9.52084650e+02   -7.88616158e+00   -4.73704096e-01    2.04454669e-06
121      1.32129563e+02    9.52149969e-01   -1.86367235e-07    9.52084348e+02   -7.90433856e+00   -4.73704096e-01    2.04925986e-06
122      1.32434154e+02    9.52149969e-01   -1.86796856e-07    9.52084045e+02   -7.92255742e+00   -4.73704096e-01    2.05398389e-06
123      1.32739446e+02    9.52149969e-01   -1.87227467e-07    9.52083741e+02   -7.94081827e+00   -4.73704096e-01    2.05871881e-06
124      1.33045442e+02    9.52149969e-01   -1.87659071e-07    9.52083435e+02   -7.95912119e+00   -4.73704096e-01    2.06346465e-06
125      1.33352143e+02    9.52149969e-01   -1.88091669e-07    9.52083128e+02   -7.97746628e+00   -4.73704096e-01    2.06822143e-06
126      1.33659552e+02    9.52149969e-01   -1.88525265e-07    9.52082820e+02   -7.99585365e+00   -4.73704096e-01    2.07298917e-06
127      1.33967669e+02    9.52149969e-01   -1.88959861e-07    9.52082510e+02   -8.01428339e+00   -4.73704096e-01    2.07776790e-06
128      1.34276496e+02    9.52149969e-01   -1.89395458e-07    9.52082198e+02   -8.03275559e+00   -4.73704096e-01    2.08255765e-06
129      1.34586035e+02    9.52149969e-01   -1.89832060e-07    9.52081886e+02   -8.05127036e+00   -4.73704096e-01    2.08735844e-06
130      1.34896288e+02    9.52149969e-01   -1.90269668e-07    9.52081571e+02   -8.06982779e+00   -4.73704096e-01    2.09217030e-06
131      1.35207256e+02    9.52149969e-01   -1.90708285e-07    9.52081256e+02   -8.08842799e+00   -4.73704096e-01    2.09699325e-06
132      1.35518941e+02    9.52149969e-01   -1.91147913e-07    9.52080938e+02   -8.10707104e+00   -4.73704096e-01    2.10182732e-06
133      1.35831345e+02    9.52149969e-01   -1.91588554e-07    9.52080620e+02   -8.12575705e+00   -4.73704096e-01    2.10667253e-06
134      1.36144468e+02    9.52149969e-01   -1.92030212e-07    9.52080300e+02   -8.14448611e+00   -4.73704096e-01    2.11152892e-06
135      1.36458314e+02    9.52149969e-01   -1.92472887e-07    9.52079978e+02   -8.16325834e+00   -4.73704096e-01    2.11639649e-06
136      1.36772883e+02    9.52149969e-01   -1.92916583e-07    9.52079655e+02   -8.18207381e+00   -4.73704096e-01    2.12127529e-06
137      1.37088177e+02    9.52149969e-01   -1.93361301e-07    9.52079331e+02   -8.20093265e+00   -4.73704096e-01    2.12616534e-06
138      1.37404198e+02    9.52149969e-01   -1.93807045e-07    9.52079005e+02   -8.21983493e+00   -4.73704096e-01    2.13106665e-06
139      1.37720947e+02    9.52149969e-01   -1.94253817e-07    9.52078677e+02   -8.23878078e+00   -4.73704096e-01    2.13597927e-06
140      1.38038426e+02    9.52149969e-01   -1.94701618e-07    9.52078348e+02   -8.25777027e+00   -4.73704096e-01    2.14090321e-06
141      1.38356638e+02    9.52149969e-01   -1.95150451e-07    9.52078017e+02   -8.27680353e+00   -4.73704096e-01    2.14583850e-06
142      1.38675583e+02    9.52149969e-01   -1.95600320e-07    9.52077685e+02   -8.29588064e+00   -4.73704096e-01    2.15078517e-06
143      1.38995263e+02    9.52149969e-01   -1.96051225e-07    9.52077352e+02   -8.31500170e+00   -4.73704096e-01    2.15574324e-06
144      1.39315680e+02    9.52149969e-01   -1.96503170e-07    9.52077017e+02   -8.33416683e+00   -4.73704096e-01    2.16071274e-06
145      1.39636836e+02    9.52149969e-01   -1.96956156e-07    9.52076680e+02   -8.35337611e+00   -4.73704096e-01    2.16569370e-06
146      1.39958732e+02    9.52149969e-01   -1.97410187e-07    9.52076342e+02   -8.37262966e+00   -4.73704096e-01    2.17068614e-06
147      1.40281370e+02    9.52149969e-01   -1.97865264e-07    9.52076002e+02   -8.39192757e+00   -4.73704096e-01    2.17569009e-06
148      1.40604752e+02    9.52149969e-01   -1.98321391e-07    9.52075660e+02   -8.41126994e+00   -4.73704096e-01    2.18070557e-06
149      1.40928880e+02    9.52149969e-01   -1.98778569e-07    9.52075317e+02   -8.43065688e+00   -4.73704096e-01    2.18573262e-06
