Index    TIME    v(5)quad_pce_mean    v(5)quad_pce_meanPlus    v(5)quad_pce_meanMinus    v(5)quad_pce_stddev    v(5)quad_pce_variance    v(2)quad_pce_mean    v(2)quad_pce_meanPlus    v(2)quad_pce_meanMinus    v(2)quad_pce_stddev    v(2)quad_pce_variance    
0   0.00000000e+00   2.49218000e+00   2.50039800e+00   2.48396200e+00   8.21804900e-03   6.75363300e-05   2.49218000e+00   2.50039800e+00   2.48396200e+00   8.21804900e-03   6.75363300e-05   
1   5.00000000e-12   2.49218000e+00   2.50039800e+00   2.48396200e+00   8.21795900e-03   6.75348400e-05   2.49218000e+00   2.50039800e+00   2.48396200e+00   8.21795900e-03   6.75348400e-05   
2   1.50000000e-11   2.49218000e+00   2.50039800e+00   2.48396200e+00   8.21790500e-03   6.75339600e-05   2.49218000e+00   2.50039800e+00   2.48396200e+00   8.21790500e-03   6.75339600e-05   
3   3.50000000e-11   2.49218000e+00   2.50039800e+00   2.48396200e+00   8.21793100e-03   6.75343900e-05   2.49218000e+00   2.50039800e+00   2.48396200e+00   8.21793100e-03   6.75343800e-05   
4   7.50000000e-11   2.49218000e+00   2.50039900e+00   2.48396200e+00   8.21822900e-03   6.75392900e-05   2.49218000e+00   2.50039900e+00   2.48396200e+00   8.21822900e-03   6.75392900e-05   
5   1.55000000e-10   2.49218000e+00   2.50039900e+00   2.48396100e+00   8.21889400e-03   6.75502200e-05   2.49218000e+00   2.50039900e+00   2.48396100e+00   8.21889400e-03   6.75502200e-05   
6   2.55000000e-10   2.49218000e+00   2.50040000e+00   2.48396000e+00   8.21980900e-03   6.75652600e-05   2.49218000e+00   2.50040000e+00   2.48396000e+00   8.21980900e-03   6.75652600e-05   
7   3.55000000e-10   2.49218000e+00   2.50040100e+00   2.48395900e+00   8.22069300e-03   6.75797900e-05   2.49218000e+00   2.50040100e+00   2.48395900e+00   8.22069300e-03   6.75797900e-05   
8   4.55000000e-10   2.49218000e+00   2.50040200e+00   2.48395800e+00   8.22154700e-03   6.75938300e-05   2.49218000e+00   2.50040200e+00   2.48395800e+00   8.22154700e-03   6.75938300e-05   
9   5.55000000e-10   2.49218000e+00   2.50040200e+00   2.48395800e+00   8.22233400e-03   6.76067800e-05   2.49218000e+00   2.50040200e+00   2.48395800e+00   8.22233400e-03   6.76067800e-05   
10   6.55000000e-10   2.49218000e+00   2.50040300e+00   2.48395700e+00   8.22306600e-03   6.76188100e-05   2.49218000e+00   2.50040300e+00   2.48395700e+00   8.22306600e-03   6.76188100e-05   
11   7.55000000e-10   2.49218000e+00   2.50040300e+00   2.48395600e+00   8.22372100e-03   6.76296000e-05   2.49218000e+00   2.50040300e+00   2.48395600e+00   8.22372100e-03   6.76295900e-05   
12   8.55000000e-10   2.49218000e+00   2.50040400e+00   2.48395500e+00   8.22430800e-03   6.76392400e-05   2.49218000e+00   2.50040400e+00   2.48395500e+00   8.22430800e-03   6.76392400e-05   
13   9.55000000e-10   2.49218000e+00   2.50040400e+00   2.48395500e+00   8.22481600e-03   6.76475900e-05   2.49218000e+00   2.50040400e+00   2.48395500e+00   8.22481500e-03   6.76475900e-05   
14   1.00000000e-09   2.49218000e+00   2.50040500e+00   2.48395500e+00   8.22502000e-03   6.76509600e-05   2.49218000e+00   2.50040500e+00   2.48395500e+00   8.22502000e-03   6.76509500e-05   
15   1.01000000e-09   2.49246300e+00   2.50068400e+00   2.48424300e+00   8.22055500e-03   6.75775300e-05   2.49371000e+00   2.50195300e+00   2.48546700e+00   8.24300600e-03   6.79471500e-05   
16   1.02000000e-09   2.49293100e+00   2.50114400e+00   2.48471800e+00   8.21297400e-03   6.74529500e-05   2.49539400e+00   2.50365600e+00   2.48713200e+00   8.26227100e-03   6.82651200e-05   
17   1.03000000e-09   2.49345900e+00   2.50166300e+00   2.48525400e+00   8.20440500e-03   6.73122600e-05   2.49696200e+00   2.50524400e+00   2.48868000e+00   8.28188000e-03   6.85895400e-05   
18   1.05000000e-09   2.49465600e+00   2.50283800e+00   2.48647300e+00   8.18241900e-03   6.69519800e-05   2.49906000e+00   2.50738000e+00   2.49074000e+00   8.31976900e-03   6.92185600e-05   
19   1.09000000e-09   2.49700500e+00   2.50513100e+00   2.48887800e+00   8.12677700e-03   6.60445000e-05   2.50095800e+00   2.50935700e+00   2.49255900e+00   8.39902900e-03   7.05436900e-05   
20   1.17000000e-09   2.50165400e+00   2.50965200e+00   2.49365700e+00   7.99750000e-03   6.39600000e-05   2.50251000e+00   2.51105400e+00   2.49396700e+00   8.54341700e-03   7.29899700e-05   
21   1.25000000e-09   2.50663500e+00   2.51451200e+00   2.49875800e+00   7.87686000e-03   6.20449300e-05   2.50264100e+00   2.51131500e+00   2.49396700e+00   8.67429500e-03   7.52434000e-05   
22   1.41000000e-09   2.51839400e+00   2.52616100e+00   2.51062800e+00   7.76683500e-03   6.03237200e-05   2.50073100e+00   2.50971600e+00   2.49174600e+00   8.98468000e-03   8.07244800e-05   
23   1.73000000e-09   2.55203000e+00   2.56063400e+00   2.54342700e+00   8.60362300e-03   7.40223300e-05   2.49005600e+00   2.50071300e+00   2.47939800e+00   1.06576800e-02   1.13586200e-04   
24   1.85467800e-09   2.56805700e+00   2.57825900e+00   2.55785600e+00   1.02013100e-02   1.04066700e-04   2.49204200e+00   2.50494400e+00   2.47914000e+00   1.29019000e-02   1.66459000e-04   
25   1.87352000e-09   2.57018200e+00   2.58067400e+00   2.55969000e+00   1.04923500e-02   1.10089400e-04   2.49911500e+00   2.51271100e+00   2.48551900e+00   1.35959900e-02   1.84850900e-04   
26   1.89236200e-09   2.57218300e+00   2.58298800e+00   2.56137700e+00   1.08054200e-02   1.16757100e-04   2.50762100e+00   2.52206600e+00   2.49317600e+00   1.44448400e-02   2.08653300e-04   
27   1.91120400e-09   2.57392400e+00   2.58508500e+00   2.56276200e+00   1.11616700e-02   1.24582900e-04   2.51765100e+00   2.53317300e+00   2.50212900e+00   1.55220400e-02   2.40933600e-04   
28   1.94888900e-09   2.57619500e+00   2.58820900e+00   2.56418200e+00   1.20136400e-02   1.44327600e-04   2.54022800e+00   2.55844500e+00   2.52201000e+00   1.82175200e-02   3.31877900e-04   
29   2.00000000e-09   2.57621300e+00   2.58977400e+00   2.56265100e+00   1.35614700e-02   1.83913500e-04   2.57845800e+00   2.60183300e+00   2.55508200e+00   2.33755000e-02   5.46413900e-04   
30   2.00753700e-09   2.57575600e+00   2.58959600e+00   2.56191600e+00   1.38401400e-02   1.91549400e-04   2.58368600e+00   2.60802700e+00   2.55934600e+00   2.43405700e-02   5.92463500e-04   
31   2.01432000e-09   2.57516900e+00   2.58926300e+00   2.56107500e+00   1.40936700e-02   1.98631600e-04   2.58725000e+00   2.61241000e+00   2.56209000e+00   2.51596600e-02   6.33008500e-04   
32   2.02788700e-09   2.57359100e+00   2.58819000e+00   2.55899200e+00   1.45993200e-02   2.13140200e-04   2.59046900e+00   2.61691500e+00   2.56402400e+00   2.64454900e-02   6.99364100e-04   
33   2.05501900e-09   2.56799800e+00   2.58361900e+00   2.55237700e+00   1.56209400e-02   2.44013700e-04   2.57803300e+00   2.60471300e+00   2.55135400e+00   2.66796600e-02   7.11804400e-04   
34   2.08215200e-09   2.56021900e+00   2.57694900e+00   2.54348900e+00   1.67299900e-02   2.79892400e-04   2.55793700e+00   2.58388600e+00   2.53198800e+00   2.59488200e-02   6.73341400e-04   
35   2.10928500e-09   2.55168700e+00   2.56968100e+00   2.53369300e+00   1.79942100e-02   3.23791600e-04   2.53988600e+00   2.56546000e+00   2.51431300e+00   2.55731300e-02   6.53984900e-04   
36   2.13641800e-09   2.54277400e+00   2.56222200e+00   2.52332600e+00   1.94480700e-02   3.78227600e-04   2.52243500e+00   2.54771800e+00   2.49715300e+00   2.52826700e-02   6.39213600e-04   
37   2.19068400e-09   2.52461100e+00   2.54767800e+00   2.50154400e+00   2.30669200e-02   5.32082900e-04   2.49116100e+00   2.51605500e+00   2.46626700e+00   2.48938500e-02   6.19703800e-04   
38   2.29921500e-09   2.48947900e+00   2.52655500e+00   2.45240300e+00   3.70763000e-02   1.37465200e-03   2.44091500e+00   2.46570500e+00   2.41612500e+00   2.47899300e-02   6.14540500e-04   
39   2.40774600e-09   2.45754500e+00   2.52298200e+00   2.39210800e+00   6.54373900e-02   4.28205200e-03   2.40763200e+00   2.43381000e+00   2.38145500e+00   2.61777200e-02   6.85272800e-04   
40   2.51627800e-09   2.43228400e+00   2.51273600e+00   2.35183200e+00   8.04516900e-02   6.47247400e-03   2.38873900e+00   2.41657600e+00   2.36090100e+00   2.78374700e-02   7.74925000e-04   
41   2.61395600e-09   2.41407400e+00   2.49936700e+00   2.32878000e+00   8.52934800e-02   7.27497700e-03   2.38262300e+00   2.41109800e+00   2.35414800e+00   2.84750700e-02   8.10829400e-04   
42   2.71163400e-09   2.39829600e+00   2.48750000e+00   2.30909100e+00   8.92045200e-02   7.95744600e-03   2.38449100e+00   2.41383400e+00   2.35514800e+00   2.93430500e-02   8.61014900e-04   
43   2.80931300e-09   2.38396300e+00   2.47381200e+00   2.29411400e+00   8.98490200e-02   8.07284600e-03   2.39332400e+00   2.42343400e+00   2.36321400e+00   3.01101800e-02   9.06622900e-04   
44   2.90699100e-09   2.36894700e+00   2.45932700e+00   2.27856600e+00   9.03807100e-02   8.16867200e-03   2.40729900e+00   2.43849100e+00   2.37610600e+00   3.11928000e-02   9.72990600e-04   
45   3.00466900e-09   2.34962500e+00   2.43886500e+00   2.26038500e+00   8.92397600e-02   7.96373500e-03   2.42514200e+00   2.45723600e+00   2.39304800e+00   3.20941900e-02   1.03003700e-03   
46   3.10234700e-09   2.31923500e+00   2.40731600e+00   2.23115400e+00   8.80809100e-02   7.75824600e-03   2.44413900e+00   2.47688600e+00   2.41139100e+00   3.27473900e-02   1.07239100e-03   
47   3.20002600e-09   2.28119100e+00   2.36594300e+00   2.19644000e+00   8.47515300e-02   7.18282300e-03   2.46259400e+00   2.49594500e+00   2.42924400e+00   3.33505400e-02   1.11225800e-03   
48   3.29770400e-09   2.24805200e+00   2.32951300e+00   2.16659000e+00   8.14613800e-02   6.63595700e-03   2.48014700e+00   2.51411900e+00   2.44617600e+00   3.39712900e-02   1.15404800e-03   
49   3.39538200e-09   2.22167000e+00   2.30020000e+00   2.14314000e+00   7.85298100e-02   6.16693000e-03   2.49726300e+00   2.53198100e+00   2.46254500e+00   3.47179200e-02   1.20533400e-03   
50   3.49306100e-09   2.20003200e+00   2.27655500e+00   2.12350800e+00   7.65234700e-02   5.85584200e-03   2.51371300e+00   2.54905000e+00   2.47837500e+00   3.53376400e-02   1.24874900e-03   
51   3.68841700e-09   2.16733400e+00   2.24052500e+00   2.09414400e+00   7.31904600e-02   5.35684300e-03   2.54561100e+00   2.58250400e+00   2.50871700e+00   3.68935500e-02   1.36113400e-03   
52   3.88377400e-09   2.14425200e+00   2.21542800e+00   2.07307700e+00   7.11755900e-02   5.06596500e-03   2.57618500e+00   2.61454100e+00   2.53783000e+00   3.83552400e-02   1.47112500e-03   
53   4.07913000e-09   2.12750800e+00   2.19697300e+00   2.05804400e+00   6.94648900e-02   4.82537100e-03   2.60555100e+00   2.64551000e+00   2.56559200e+00   3.99591700e-02   1.59673500e-03   
54   4.46984300e-09   2.10438300e+00   2.17180900e+00   2.03695700e+00   6.74258700e-02   4.54624700e-03   2.65933800e+00   2.70194500e+00   2.61673000e+00   4.26075600e-02   1.81540400e-03   
55   4.86055600e-09   2.08947000e+00   2.15528700e+00   2.02365300e+00   6.58170900e-02   4.33188900e-03   2.70605300e+00   2.75078600e+00   2.66131900e+00   4.47333300e-02   2.00107100e-03   
56   5.25126900e-09   2.07800400e+00   2.14278600e+00   2.01322200e+00   6.47821300e-02   4.19672400e-03   2.74547600e+00   2.79138100e+00   2.69957200e+00   4.59043600e-02   2.10721000e-03   
57   6.03269500e-09   2.05921000e+00   2.12184100e+00   1.99657900e+00   6.26308500e-02   3.92262300e-03   2.80613600e+00   2.85247500e+00   2.75979600e+00   4.63396100e-02   2.14736000e-03   
58   6.81412200e-09   2.04271400e+00   2.10368600e+00   1.98174300e+00   6.09715800e-02   3.71753300e-03   2.84745800e+00   2.89178400e+00   2.80313100e+00   4.43267700e-02   1.96486300e-03   
59   7.59554800e-09   2.02808900e+00   2.08739000e+00   1.96878700e+00   5.93014600e-02   3.51666300e-03   2.87573900e+00   2.91671700e+00   2.83476200e+00   4.09778500e-02   1.67918400e-03   
60   9.15840000e-09   2.00613400e+00   2.06346800e+00   1.94880100e+00   5.73339100e-02   3.28717700e-03   2.91111300e+00   2.94280700e+00   2.87941800e+00   3.16942200e-02   1.00452300e-03   
61   1.07212500e-08   1.99391400e+00   2.05053400e+00   1.93729300e+00   5.66202800e-02   3.20585600e-03   2.93150000e+00   2.95298900e+00   2.91001000e+00   2.14895900e-02   4.61802500e-04   
62   1.20000000e-08   1.98850900e+00   2.04600500e+00   1.93101300e+00   5.74959400e-02   3.30578300e-03   2.94229600e+00   2.95708500e+00   2.92750600e+00   1.47897000e-02   2.18735200e-04   
63   1.20269000e-08   1.98509600e+00   2.04306300e+00   1.92712900e+00   5.79672400e-02   3.36020100e-03   2.92798300e+00   2.94208700e+00   2.91387900e+00   1.41038400e-02   1.98918300e-04   
64   1.20511100e-08   1.98037500e+00   2.03929700e+00   1.92145400e+00   5.89217400e-02   3.47177200e-03   2.90866800e+00   2.92202400e+00   2.89531300e+00   1.33552000e-02   1.78361400e-04   
65   1.20753200e-08   1.97513100e+00   2.03525500e+00   1.91500600e+00   6.01244100e-02   3.61494500e-03   2.88685000e+00   2.89946700e+00   2.87423300e+00   1.26171400e-02   1.59192200e-04   
66   1.21237500e-08   1.96356400e+00   2.02747900e+00   1.89965000e+00   6.39142800e-02   4.08503600e-03   2.83332800e+00   2.84467200e+00   2.82198300e+00   1.13444500e-02   1.28696500e-04   
67   1.21721700e-08   1.95333500e+00   2.02271300e+00   1.88395800e+00   6.93776700e-02   4.81326100e-03   2.77231900e+00   2.78293000e+00   2.76170800e+00   1.06110900e-02   1.12595200e-04   
68   1.22205900e-08   1.94639300e+00   2.02249600e+00   1.87029000e+00   7.61029200e-02   5.79165400e-03   2.71390600e+00   2.72460600e+00   2.70320600e+00   1.07001000e-02   1.14492100e-04   
69   1.22690100e-08   1.94232300e+00   2.02577100e+00   1.85887500e+00   8.34483800e-02   6.96363100e-03   2.70497500e+00   2.72057500e+00   2.68937600e+00   1.55996700e-02   2.43349700e-04   
70   1.23076300e-08   1.94125800e+00   2.03077800e+00   1.85173800e+00   8.95201300e-02   8.01385300e-03   2.71261700e+00   2.73365300e+00   2.69158100e+00   2.10360600e-02   4.42516000e-04   
71   1.23462500e-08   1.94075800e+00   2.03633800e+00   1.84517900e+00   9.55796800e-02   9.13547400e-03   2.71658900e+00   2.74235100e+00   2.69082800e+00   2.57616300e-02   6.63661400e-04   
72   1.23848600e-08   1.93879600e+00   2.04020800e+00   1.83738500e+00   1.01411600e-01   1.02843200e-02   2.72506800e+00   2.75589800e+00   2.69423900e+00   3.08295600e-02   9.50461600e-04   
73   1.24234800e-08   1.93548400e+00   2.04249200e+00   1.82847700e+00   1.07007600e-01   1.14506300e-02   2.73241000e+00   2.76795200e+00   2.69686800e+00   3.55421400e-02   1.26324300e-03   
74   1.25007100e-08   1.92480700e+00   2.04245300e+00   1.80716200e+00   1.17645500e-01   1.38404600e-02   2.75252200e+00   2.79676800e+00   2.70827600e+00   4.42462900e-02   1.95773500e-03   
75   1.25779500e-08   1.90967900e+00   2.03938300e+00   1.77997400e+00   1.29704500e-01   1.68232600e-02   2.77365900e+00   2.81711700e+00   2.73020100e+00   4.34582300e-02   1.88861800e-03   
76   1.26551800e-08   1.89148000e+00   2.03250500e+00   1.75045500e+00   1.41025000e-01   1.98880400e-02   2.79622400e+00   2.84267400e+00   2.74977500e+00   4.64498200e-02   2.15758600e-03   
77   1.27246900e-08   1.87352400e+00   2.02262700e+00   1.72442200e+00   1.49102400e-01   2.22315100e-02   2.81473400e+00   2.86525900e+00   2.76420900e+00   5.05245700e-02   2.55273200e-03   
78   1.27942000e-08   1.85449800e+00   2.01158500e+00   1.69741100e+00   1.57086800e-01   2.46762800e-02   2.83357400e+00   2.88795100e+00   2.77919800e+00   5.43761200e-02   2.95676200e-03   
79   1.28637100e-08   1.83478000e+00   2.00106400e+00   1.66849500e+00   1.66284400e-01   2.76504900e-02   2.84964800e+00   2.91379200e+00   2.78550500e+00   6.41434500e-02   4.11438300e-03   
80   1.29332200e-08   1.81462900e+00   1.99283300e+00   1.63642500e+00   1.78204200e-01   3.17567200e-02   2.86464300e+00   2.94454500e+00   2.78474100e+00   7.99023200e-02   6.38438000e-03   
81   1.30000000e-08   1.79586300e+00   1.98171700e+00   1.61000900e+00   1.85853800e-01   3.45416500e-02   2.87715900e+00   2.97028600e+00   2.78403200e+00   9.31266500e-02   8.67257300e-03   
82   1.30069500e-08   1.79423700e+00   1.98006600e+00   1.60840800e+00   1.85829000e-01   3.45324000e-02   2.87951500e+00   2.97359000e+00   2.78544000e+00   9.40750400e-02   8.85011300e-03   
83   1.30139000e-08   1.79285300e+00   1.97830500e+00   1.60740100e+00   1.85451800e-01   3.43923500e-02   2.88219100e+00   2.97722900e+00   2.78715400e+00   9.50374000e-02   9.03210700e-03   
84   1.30208500e-08   1.79158000e+00   1.97645100e+00   1.60670900e+00   1.84870900e-01   3.41772400e-02   2.88494600e+00   2.98091500e+00   2.78897600e+00   9.59696000e-02   9.21016300e-03   
85   1.30347600e-08   1.78950000e+00   1.97224800e+00   1.60675200e+00   1.82747900e-01   3.33968000e-02   2.89042800e+00   2.98754200e+00   2.79331400e+00   9.71142400e-02   9.43117600e-03   
86   1.30486600e-08   1.78774200e+00   1.96764000e+00   1.60784300e+00   1.79898800e-01   3.23635600e-02   2.89546300e+00   2.99281500e+00   2.79811100e+00   9.73521600e-02   9.47744300e-03   
87   1.30764600e-08   1.78453300e+00   1.95820800e+00   1.61085700e+00   1.73675200e-01   3.01630700e-02   2.90466400e+00   3.00109500e+00   2.80823300e+00   9.64313100e-02   9.29899700e-03   
88   1.31042700e-08   1.78155200e+00   1.94893100e+00   1.61417400e+00   1.67378100e-01   2.80154200e-02   2.91318400e+00   3.00745000e+00   2.81891900e+00   9.42657400e-02   8.88603000e-03   
89   1.31598700e-08   1.77607400e+00   1.93143700e+00   1.62071100e+00   1.55362800e-01   2.41375900e-02   2.92843900e+00   3.01703400e+00   2.83984300e+00   8.85953500e-02   7.84913600e-03   
90   1.32154800e-08   1.77135500e+00   1.91557800e+00   1.62713100e+00   1.44223600e-01   2.08004600e-02   2.94143100e+00   3.02377000e+00   2.85909200e+00   8.23389200e-02   6.77969700e-03   
91   1.33267000e-08   1.76463400e+00   1.88954900e+00   1.63972000e+00   1.24914500e-01   1.56036200e-02   2.96164300e+00   3.03165300e+00   2.89163400e+00   7.00095900e-02   4.90134200e-03   
92   1.34379200e-08   1.76132700e+00   1.87045700e+00   1.65219600e+00   1.09130500e-01   1.19094600e-02   2.97583200e+00   3.03425700e+00   2.91740700e+00   5.84248400e-02   3.41346200e-03   
93   1.35491300e-08   1.76065300e+00   1.85699000e+00   1.66431500e+00   9.63371700e-02   9.28085000e-03   2.98568000e+00   3.03417000e+00   2.93718900e+00   4.84907400e-02   2.35135200e-03   
94   1.37715700e-08   1.76400600e+00   1.84359300e+00   1.68441900e+00   7.95871800e-02   6.33411900e-03   2.99714900e+00   3.03309100e+00   2.96120600e+00   3.59422800e-02   1.29184800e-03   
95   1.39940000e-08   1.77124500e+00   1.84311300e+00   1.69937800e+00   7.18673200e-02   5.16491200e-03   3.00167200e+00   3.03249400e+00   2.97084900e+00   3.08225100e-02   9.50027200e-04   
96   1.42164300e-08   1.78099700e+00   1.85034600e+00   1.71164900e+00   6.93485700e-02   4.80922400e-03   3.00228400e+00   3.03173100e+00   2.97283700e+00   2.94465900e-02   8.67101700e-04   
97   1.44388700e-08   1.79300500e+00   1.86135200e+00   1.72465700e+00   6.83478000e-02   4.67142200e-03   3.00056700e+00   3.02929600e+00   2.97183800e+00   2.87292000e-02   8.25367200e-04   
98   1.46613000e-08   1.80687000e+00   1.87433800e+00   1.73940100e+00   6.74686100e-02   4.55201300e-03   2.99747700e+00   3.02516700e+00   2.96978800e+00   2.76891500e-02   7.66689000e-04   
99   1.51061700e-08   1.83733800e+00   1.90238400e+00   1.77229100e+00   6.50462900e-02   4.23102000e-03   2.99044900e+00   3.01391500e+00   2.96698400e+00   2.34652500e-02   5.50617900e-04   
100   1.55510400e-08   1.86774400e+00   1.92466500e+00   1.81082300e+00   5.69210200e-02   3.24000300e-03   2.98591000e+00   3.00439500e+00   2.96742500e+00   1.84849700e-02   3.41694200e-04   
101   1.59959000e-08   1.89453900e+00   1.93799300e+00   1.85108600e+00   4.34533100e-02   1.88819000e-03   2.98468900e+00   3.01232000e+00   2.95705800e+00   2.76312600e-02   7.63486700e-04   
