Index    TIME    V(5)mean    V(5)meanPlus    V(5)meanMinus    V(5)meanPlusTwoSigma    V(5)meanMinusTwoSigma    V(5)stddev    V(5)variance    V(5)quad_pce_mean    V(5)quad_pce_meanPlus    V(5)quad_pce_meanMinus    V(5)quad_pce_meanPlusTwoSigma    V(5)quad_pce_meanMinusTwoSigma    V(5)quad_pce_stddev    V(5)quad_pce_variance    V(2)mean    V(2)meanPlus    V(2)meanMinus    V(2)meanPlusTwoSigma    V(2)meanMinusTwoSigma    V(2)stddev    V(2)variance    V(2)quad_pce_mean    V(2)quad_pce_meanPlus    V(2)quad_pce_meanMinus    V(2)quad_pce_meanPlusTwoSigma    V(2)quad_pce_meanMinusTwoSigma    V(2)quad_pce_stddev    V(2)quad_pce_variance    
0   0.00000000e+00   2.49058200e+00   2.50511300e+00   2.47605000e+00   2.51964400e+00   2.46151900e+00   1.45314000e-02   2.11161500e-04   2.49218000e+00   2.50039800e+00   2.48396200e+00   2.50861600e+00   2.47574400e+00   8.21804900e-03   6.75363300e-05   2.49058200e+00   2.50511300e+00   2.47605000e+00   2.51964400e+00   2.46151900e+00   1.45314000e-02   2.11161500e-04   2.49218000e+00   2.50039800e+00   2.48396200e+00   2.50861600e+00   2.47574400e+00   8.21804900e-03   6.75363300e-05   
1   5.00000000e-12   2.49058200e+00   2.50511300e+00   2.47605000e+00   2.51964400e+00   2.46151900e+00   1.45312400e-02   2.11156900e-04   2.49218000e+00   2.50039800e+00   2.48396200e+00   2.50861600e+00   2.47574400e+00   8.21795900e-03   6.75348400e-05   2.49058200e+00   2.50511300e+00   2.47605000e+00   2.51964400e+00   2.46151900e+00   1.45312400e-02   2.11156900e-04   2.49218000e+00   2.50039800e+00   2.48396200e+00   2.50861600e+00   2.47574400e+00   8.21795900e-03   6.75348400e-05   
2   1.50000000e-11   2.49058200e+00   2.50511300e+00   2.47605100e+00   2.51964400e+00   2.46151900e+00   1.45311400e-02   2.11154100e-04   2.49218000e+00   2.50039800e+00   2.48396200e+00   2.50861600e+00   2.47574500e+00   8.21790500e-03   6.75339600e-05   2.49058200e+00   2.50511300e+00   2.47605100e+00   2.51964400e+00   2.46151900e+00   1.45311400e-02   2.11154100e-04   2.49218000e+00   2.50039800e+00   2.48396200e+00   2.50861600e+00   2.47574500e+00   8.21790500e-03   6.75339600e-05   
3   3.50000000e-11   2.49058200e+00   2.50511300e+00   2.47605100e+00   2.51964400e+00   2.46151900e+00   1.45311900e-02   2.11155500e-04   2.49218000e+00   2.50039800e+00   2.48396200e+00   2.50861600e+00   2.47574500e+00   8.21793100e-03   6.75343900e-05   2.49058200e+00   2.50511300e+00   2.47605100e+00   2.51964400e+00   2.46151900e+00   1.45311900e-02   2.11155500e-04   2.49218000e+00   2.50039800e+00   2.48396200e+00   2.50861600e+00   2.47574500e+00   8.21793100e-03   6.75343800e-05   
4   7.50000000e-11   2.49058200e+00   2.50511300e+00   2.47605000e+00   2.51964500e+00   2.46151800e+00   1.45317200e-02   2.11170800e-04   2.49218000e+00   2.50039900e+00   2.48396200e+00   2.50861700e+00   2.47574400e+00   8.21822900e-03   6.75392900e-05   2.49058200e+00   2.50511300e+00   2.47605000e+00   2.51964500e+00   2.46151800e+00   1.45317200e-02   2.11170800e-04   2.49218000e+00   2.50039900e+00   2.48396200e+00   2.50861700e+00   2.47574400e+00   8.21822900e-03   6.75392900e-05   
5   1.55000000e-10   2.49058100e+00   2.50511400e+00   2.47604800e+00   2.51964700e+00   2.46151600e+00   1.45328900e-02   2.11204900e-04   2.49218000e+00   2.50039900e+00   2.48396100e+00   2.50861800e+00   2.47574200e+00   8.21889400e-03   6.75502200e-05   2.49058100e+00   2.50511400e+00   2.47604800e+00   2.51964700e+00   2.46151600e+00   1.45328900e-02   2.11204800e-04   2.49218000e+00   2.50039900e+00   2.48396100e+00   2.50861800e+00   2.47574200e+00   8.21889400e-03   6.75502200e-05   
6   2.55000000e-10   2.49058100e+00   2.50511600e+00   2.47604700e+00   2.51965000e+00   2.46151200e+00   1.45345000e-02   2.11251800e-04   2.49218000e+00   2.50040000e+00   2.48396000e+00   2.50862000e+00   2.47574100e+00   8.21980900e-03   6.75652600e-05   2.49058100e+00   2.50511600e+00   2.47604700e+00   2.51965000e+00   2.46151200e+00   1.45345000e-02   2.11251800e-04   2.49218000e+00   2.50040000e+00   2.48396000e+00   2.50862000e+00   2.47574100e+00   8.21980900e-03   6.75652600e-05   
7   3.55000000e-10   2.49058100e+00   2.50511700e+00   2.47604500e+00   2.51965300e+00   2.46150900e+00   1.45360600e-02   2.11297100e-04   2.49218000e+00   2.50040100e+00   2.48395900e+00   2.50862100e+00   2.47573900e+00   8.22069300e-03   6.75797900e-05   2.49058100e+00   2.50511700e+00   2.47604500e+00   2.51965300e+00   2.46150900e+00   1.45360600e-02   2.11297100e-04   2.49218000e+00   2.50040100e+00   2.48395900e+00   2.50862100e+00   2.47573900e+00   8.22069300e-03   6.75797900e-05   
8   4.55000000e-10   2.49058000e+00   2.50511800e+00   2.47604300e+00   2.51965600e+00   2.46150500e+00   1.45375700e-02   2.11340900e-04   2.49218000e+00   2.50040200e+00   2.48395800e+00   2.50862300e+00   2.47573700e+00   8.22154700e-03   6.75938300e-05   2.49058000e+00   2.50511800e+00   2.47604300e+00   2.51965600e+00   2.46150500e+00   1.45375700e-02   2.11340900e-04   2.49218000e+00   2.50040200e+00   2.48395800e+00   2.50862300e+00   2.47573700e+00   8.22154700e-03   6.75938300e-05   
9   5.55000000e-10   2.49058000e+00   2.50511900e+00   2.47604100e+00   2.51965800e+00   2.46150200e+00   1.45389600e-02   2.11381400e-04   2.49218000e+00   2.50040200e+00   2.48395800e+00   2.50862500e+00   2.47573500e+00   8.22233400e-03   6.76067800e-05   2.49058000e+00   2.50511900e+00   2.47604100e+00   2.51965800e+00   2.46150200e+00   1.45389600e-02   2.11381400e-04   2.49218000e+00   2.50040200e+00   2.48395800e+00   2.50862500e+00   2.47573500e+00   8.22233400e-03   6.76067800e-05   
10   6.55000000e-10   2.49058000e+00   2.50512000e+00   2.47604000e+00   2.51966000e+00   2.46149900e+00   1.45402500e-02   2.11418900e-04   2.49218000e+00   2.50040300e+00   2.48395700e+00   2.50862600e+00   2.47573400e+00   8.22306600e-03   6.76188100e-05   2.49058000e+00   2.50512000e+00   2.47604000e+00   2.51966000e+00   2.46149900e+00   1.45402500e-02   2.11418900e-04   2.49218000e+00   2.50040300e+00   2.48395700e+00   2.50862600e+00   2.47573400e+00   8.22306600e-03   6.76188100e-05   
11   7.55000000e-10   2.49058000e+00   2.50512100e+00   2.47603800e+00   2.51966300e+00   2.46149700e+00   1.45414100e-02   2.11452600e-04   2.49218000e+00   2.50040300e+00   2.48395600e+00   2.50862700e+00   2.47573200e+00   8.22372100e-03   6.76296000e-05   2.49058000e+00   2.50512100e+00   2.47603800e+00   2.51966300e+00   2.46149700e+00   1.45414100e-02   2.11452600e-04   2.49218000e+00   2.50040300e+00   2.48395600e+00   2.50862700e+00   2.47573200e+00   8.22372100e-03   6.76295900e-05   
12   8.55000000e-10   2.49058000e+00   2.50512200e+00   2.47603700e+00   2.51966400e+00   2.46149500e+00   1.45424400e-02   2.11482700e-04   2.49218000e+00   2.50040400e+00   2.48395500e+00   2.50862800e+00   2.47573100e+00   8.22430800e-03   6.76392400e-05   2.49058000e+00   2.50512200e+00   2.47603700e+00   2.51966400e+00   2.46149500e+00   1.45424400e-02   2.11482700e-04   2.49218000e+00   2.50040400e+00   2.48395500e+00   2.50862800e+00   2.47573100e+00   8.22430800e-03   6.76392400e-05   
13   9.55000000e-10   2.49057900e+00   2.50512300e+00   2.47603600e+00   2.51966600e+00   2.46149300e+00   1.45433400e-02   2.11508700e-04   2.49218000e+00   2.50040400e+00   2.48395500e+00   2.50862900e+00   2.47573000e+00   8.22481600e-03   6.76475900e-05   2.49057900e+00   2.50512300e+00   2.47603600e+00   2.51966600e+00   2.46149300e+00   1.45433400e-02   2.11508700e-04   2.49218000e+00   2.50040400e+00   2.48395500e+00   2.50862900e+00   2.47573000e+00   8.22481500e-03   6.76475900e-05   
14   1.00000000e-09   2.49057900e+00   2.50512300e+00   2.47603600e+00   2.51966700e+00   2.46149200e+00   1.45437000e-02   2.11519300e-04   2.49218000e+00   2.50040500e+00   2.48395500e+00   2.50863000e+00   2.47573000e+00   8.22502000e-03   6.76509600e-05   2.49057900e+00   2.50512300e+00   2.47603600e+00   2.51966700e+00   2.46149200e+00   1.45437000e-02   2.11519200e-04   2.49218000e+00   2.50040500e+00   2.48395500e+00   2.50863000e+00   2.47573000e+00   8.22502000e-03   6.76509500e-05   
15   1.01000000e-09   2.49086500e+00   2.50540200e+00   2.47632900e+00   2.51993800e+00   2.46179300e+00   1.45361700e-02   2.11300100e-04   2.49246300e+00   2.50068400e+00   2.48424300e+00   2.50890400e+00   2.47602200e+00   8.22055500e-03   6.75775300e-05   2.49210800e+00   2.50668400e+00   2.47753300e+00   2.52125900e+00   2.46295700e+00   1.45754000e-02   2.12442200e-04   2.49371000e+00   2.50195300e+00   2.48546700e+00   2.51019600e+00   2.47722400e+00   8.24300600e-03   6.79471500e-05   
16   1.02000000e-09   2.49133700e+00   2.50586000e+00   2.47681400e+00   2.52038300e+00   2.46229100e+00   1.45230600e-02   2.10919300e-04   2.49293100e+00   2.50114400e+00   2.48471800e+00   2.50935700e+00   2.47650500e+00   8.21297400e-03   6.74529500e-05   2.49378700e+00   2.50839400e+00   2.47917900e+00   2.52300200e+00   2.46457200e+00   1.46074400e-02   2.13377200e-04   2.49539400e+00   2.50365600e+00   2.48713200e+00   2.51191800e+00   2.47886900e+00   8.26227100e-03   6.82651200e-05   
17   1.03000000e-09   2.49186900e+00   2.50637700e+00   2.47736100e+00   2.52088500e+00   2.46285300e+00   1.45079600e-02   2.10481000e-04   2.49345900e+00   2.50166300e+00   2.48525400e+00   2.50986700e+00   2.47705000e+00   8.20440500e-03   6.73122600e-05   2.49535000e+00   2.50998800e+00   2.48071100e+00   2.52462700e+00   2.46607200e+00   1.46387500e-02   2.14293000e-04   2.49696200e+00   2.50524400e+00   2.48868000e+00   2.51352600e+00   2.48039800e+00   8.28188000e-03   6.85895400e-05   
18   1.05000000e-09   2.49307700e+00   2.50754500e+00   2.47860900e+00   2.52201300e+00   2.46414100e+00   1.44680700e-02   2.09325100e-04   2.49465600e+00   2.50283800e+00   2.48647300e+00   2.51102100e+00   2.47829100e+00   8.18241900e-03   6.69519800e-05   2.49744300e+00   2.51214100e+00   2.48274600e+00   2.52683900e+00   2.46804800e+00   1.46977500e-02   2.16023800e-04   2.49906000e+00   2.50738000e+00   2.49074000e+00   2.51570000e+00   2.48242100e+00   8.31976900e-03   6.92185600e-05   
19   1.09000000e-09   2.49545000e+00   2.50981400e+00   2.48108700e+00   2.52417800e+00   2.46672300e+00   1.43637200e-02   2.06316600e-04   2.49700500e+00   2.50513100e+00   2.48887800e+00   2.51325800e+00   2.48075100e+00   8.12677700e-03   6.60445000e-05   2.49934300e+00   2.51416800e+00   2.48451700e+00   2.52899400e+00   2.46969100e+00   1.48257200e-02   2.19802000e-04   2.50095800e+00   2.50935700e+00   2.49255900e+00   2.51775600e+00   2.48415900e+00   8.39902900e-03   7.05436900e-05   
20   1.17000000e-09   2.50015200e+00   2.51426300e+00   2.48604000e+00   2.52837500e+00   2.47192900e+00   1.41114900e-02   1.99134200e-04   2.50165400e+00   2.50965200e+00   2.49365700e+00   2.51764900e+00   2.48565900e+00   7.99750000e-03   6.39600000e-05   2.50088400e+00   2.51595200e+00   2.48581600e+00   2.53102100e+00   2.47074700e+00   1.50683700e-02   2.27055700e-04   2.50251000e+00   2.51105400e+00   2.49396700e+00   2.51959700e+00   2.48542400e+00   8.54341700e-03   7.29899700e-05   
21   1.25000000e-09   2.50518500e+00   2.51904500e+00   2.49132600e+00   2.53290400e+00   2.47746600e+00   1.38594100e-02   1.92083300e-04   2.50663500e+00   2.51451200e+00   2.49875800e+00   2.52238900e+00   2.49088200e+00   7.87686000e-03   6.20449300e-05   2.50099600e+00   2.51629100e+00   2.48570000e+00   2.53158700e+00   2.47040500e+00   1.52954100e-02   2.33949600e-04   2.50264100e+00   2.51131500e+00   2.49396700e+00   2.51998900e+00   2.48529200e+00   8.67429500e-03   7.52434000e-05   
22   1.41000000e-09   2.51703800e+00   2.53056500e+00   2.50351200e+00   2.54409100e+00   2.48998500e+00   1.35265600e-02   1.82967900e-04   2.51839400e+00   2.52616100e+00   2.51062800e+00   2.53392800e+00   2.50286100e+00   7.76683500e-03   6.03237200e-05   2.49903500e+00   2.51488100e+00   2.48318900e+00   2.53072700e+00   2.46734300e+00   1.58460300e-02   2.51096800e-04   2.50073100e+00   2.50971600e+00   2.49174600e+00   2.51870000e+00   2.48276200e+00   8.98468000e-03   8.07244800e-05   
23   1.73000000e-09   2.55076700e+00   2.56508800e+00   2.53644700e+00   2.57940800e+00   2.52212700e+00   1.43202700e-02   2.05070100e-04   2.55203000e+00   2.56063400e+00   2.54342700e+00   2.56923800e+00   2.53482300e+00   8.60362300e-03   7.40223300e-05   2.48802400e+00   2.50678600e+00   2.46926200e+00   2.52554800e+00   2.45050000e+00   1.87619700e-02   3.52011700e-04   2.49005600e+00   2.50071300e+00   2.47939800e+00   2.51137100e+00   2.46874000e+00   1.06576800e-02   1.13586200e-04   
24   1.85467800e-09   2.56663000e+00   2.58330800e+00   2.54995300e+00   2.59998500e+00   2.53327500e+00   1.66774500e-02   2.78137400e-04   2.56805700e+00   2.57825900e+00   2.55785600e+00   2.58846000e+00   2.54765500e+00   1.02013100e-02   1.04066700e-04   2.48954400e+00   2.51223600e+00   2.46685100e+00   2.53492900e+00   2.44415900e+00   2.26924900e-02   5.14949000e-04   2.49204200e+00   2.50494400e+00   2.47914000e+00   2.51784500e+00   2.46623800e+00   1.29019000e-02   1.66459000e-04   
25   1.87352000e-09   2.56871900e+00   2.58584400e+00   2.55159400e+00   2.60297000e+00   2.53446800e+00   1.71253600e-02   2.93277900e-04   2.57018200e+00   2.58067400e+00   2.55969000e+00   2.59116700e+00   2.54919700e+00   1.04923500e-02   1.10089400e-04   2.49646100e+00   2.52036400e+00   2.47255800e+00   2.54426700e+00   2.44865500e+00   2.39030800e-02   5.71357000e-04   2.49911500e+00   2.51271100e+00   2.48551900e+00   2.52630700e+00   2.47192300e+00   1.35959900e-02   1.84850900e-04   
26   1.89236200e-09   2.57067800e+00   2.58829300e+00   2.55306400e+00   2.60590700e+00   2.53545000e+00   1.76143300e-02   3.10264500e-04   2.57218300e+00   2.58298800e+00   2.56137700e+00   2.59379400e+00   2.55057200e+00   1.08054200e-02   1.16757100e-04   2.50478200e+00   2.53017100e+00   2.47939300e+00   2.55556100e+00   2.45400400e+00   2.53892600e-02   6.44614400e-04   2.50762100e+00   2.52206600e+00   2.49317600e+00   2.53651100e+00   2.47873100e+00   1.44448400e-02   2.08653300e-04   
27   1.91120400e-09   2.57236800e+00   2.59055100e+00   2.55418400e+00   2.60873500e+00   2.53600100e+00   1.81834100e-02   3.30636500e-04   2.57392400e+00   2.58508500e+00   2.56276200e+00   2.59624700e+00   2.55160000e+00   1.11616700e-02   1.24582900e-04   2.51458300e+00   2.54186800e+00   2.48729800e+00   2.56915400e+00   2.46001300e+00   2.72852400e-02   7.44484300e-04   2.51765100e+00   2.53317300e+00   2.50212900e+00   2.54869500e+00   2.48660700e+00   1.55220400e-02   2.40933600e-04   
28   1.94888900e-09   2.57450100e+00   2.59408800e+00   2.55491300e+00   2.61367500e+00   2.53532600e+00   1.95873200e-02   3.83663100e-04   2.57619500e+00   2.58820900e+00   2.56418200e+00   2.60022300e+00   2.55216800e+00   1.20136400e-02   1.44327600e-04   2.53663000e+00   2.56866600e+00   2.50459300e+00   2.60070300e+00   2.47255600e+00   3.20366200e-02   1.02634500e-03   2.54022800e+00   2.55844500e+00   2.52201000e+00   2.57666300e+00   2.50379300e+00   1.82175200e-02   3.31877900e-04   
29   2.00000000e-09   2.57425400e+00   2.59651000e+00   2.55199900e+00   2.61876500e+00   2.52974300e+00   2.22555800e-02   4.95310700e-04   2.57621300e+00   2.58977400e+00   2.56265100e+00   2.60333600e+00   2.54909000e+00   1.35614700e-02   1.83913500e-04   2.57419000e+00   2.61525500e+00   2.53312400e+00   2.65632000e+00   2.49205900e+00   4.10651900e-02   1.68635000e-03   2.57845800e+00   2.60183300e+00   2.55508200e+00   2.62520900e+00   2.53170700e+00   2.33755000e-02   5.46413900e-04   
30   2.00753700e-09   2.57373900e+00   2.59649300e+00   2.55098600e+00   2.61924600e+00   2.52823300e+00   2.27531500e-02   5.17705900e-04   2.57575600e+00   2.58959600e+00   2.56191600e+00   2.60343600e+00   2.54807600e+00   1.38401400e-02   1.91549400e-04   2.57924500e+00   2.62195300e+00   2.53653600e+00   2.66466200e+00   2.49382700e+00   4.27086400e-02   1.82402800e-03   2.58368600e+00   2.60802700e+00   2.55934600e+00   2.63236700e+00   2.53500500e+00   2.43405700e-02   5.92463500e-04   
31   2.01432000e-09   2.57309200e+00   2.59630500e+00   2.54987900e+00   2.61951900e+00   2.52666500e+00   2.32132700e-02   5.38855800e-04   2.57516900e+00   2.58926300e+00   2.56107500e+00   2.60335600e+00   2.54698200e+00   1.40936700e-02   1.98631600e-04   2.58263100e+00   2.62671800e+00   2.53854400e+00   2.67080500e+00   2.49445600e+00   4.40872800e-02   1.94368800e-03   2.58725000e+00   2.61241000e+00   2.56209000e+00   2.63756900e+00   2.53693100e+00   2.51596600e-02   6.33008500e-04   
32   2.02788700e-09   2.57138600e+00   2.59552700e+00   2.54724400e+00   2.61966900e+00   2.52310300e+00   2.41415100e-02   5.82812700e-04   2.57359100e+00   2.58819000e+00   2.55899200e+00   2.60279000e+00   2.54439200e+00   1.45993200e-02   2.13140200e-04   2.58560100e+00   2.63182500e+00   2.53937600e+00   2.67805000e+00   2.49315200e+00   4.62244300e-02   2.13669800e-03   2.59046900e+00   2.61691500e+00   2.56402400e+00   2.64336000e+00   2.53757800e+00   2.64454900e-02   6.99364100e-04   
33   2.05501900e-09   2.56553000e+00   2.59155500e+00   2.53950500e+00   2.61758100e+00   2.51347900e+00   2.60254000e-02   6.77321400e-04   2.56799800e+00   2.58361900e+00   2.55237700e+00   2.59924000e+00   2.53675600e+00   1.56209400e-02   2.44013700e-04   2.57304500e+00   2.61968400e+00   2.52640600e+00   2.66632300e+00   2.47976700e+00   4.66390900e-02   2.17520500e-03   2.57803300e+00   2.60471300e+00   2.55135400e+00   2.63139300e+00   2.52467400e+00   2.66796600e-02   7.11804400e-04   
34   2.08215200e-09   2.55748200e+00   2.58553800e+00   2.52942600e+00   2.61359400e+00   2.50136900e+00   2.80562700e-02   7.87154000e-04   2.56021900e+00   2.57694900e+00   2.54348900e+00   2.59367900e+00   2.52675900e+00   1.67299900e-02   2.79892400e-04   2.55294200e+00   2.59833300e+00   2.50755100e+00   2.64372400e+00   2.46216000e+00   4.53910500e-02   2.06034700e-03   2.55793700e+00   2.58388600e+00   2.53198800e+00   2.60983500e+00   2.50604000e+00   2.59488200e-02   6.73341400e-04   
35   2.10928500e-09   2.54864400e+00   2.57903100e+00   2.51825800e+00   2.60941700e+00   2.48787100e+00   3.03864600e-02   9.23337000e-04   2.55168700e+00   2.56968100e+00   2.53369300e+00   2.58767600e+00   2.51569900e+00   1.79942100e-02   3.23791600e-04   2.53495100e+00   2.57961600e+00   2.49028600e+00   2.62428000e+00   2.44562200e+00   4.46646500e-02   1.99493100e-03   2.53988600e+00   2.56546000e+00   2.51431300e+00   2.59103300e+00   2.48874000e+00   2.55731300e-02   6.53984900e-04   
36   2.13641800e-09   2.53937800e+00   2.57244900e+00   2.50630700e+00   2.60552000e+00   2.47323600e+00   3.30711500e-02   1.09370100e-03   2.54277400e+00   2.56222200e+00   2.52332600e+00   2.58167000e+00   2.50387800e+00   1.94480700e-02   3.78227600e-04   2.51764800e+00   2.56169900e+00   2.47359800e+00   2.60574900e+00   2.42954700e+00   4.40505500e-02   1.94045100e-03   2.52243500e+00   2.54771800e+00   2.49715300e+00   2.57300100e+00   2.47187000e+00   2.52826700e-02   6.39213600e-04   
37   2.19068400e-09   2.52033000e+00   2.56003800e+00   2.48062100e+00   2.59974700e+00   2.44091200e+00   3.97088600e-02   1.57679300e-03   2.52461100e+00   2.54767800e+00   2.50154400e+00   2.57074500e+00   2.47847700e+00   2.30669200e-02   5.32082900e-04   2.48667600e+00   2.52980100e+00   2.44355000e+00   2.57292600e+00   2.40042500e+00   4.31252000e-02   1.85978300e-03   2.49116100e+00   2.51605500e+00   2.46626700e+00   2.54094800e+00   2.44137300e+00   2.48938500e-02   6.19703800e-04   
