Title: **************************************************************************************
Date: Thu Jul 13 02:48:15 2017
Plotname: Transient Analysis
Flags: real
No. Variables: 5
No. Points: 45                
Variables:
	0	time	time
	1	V(1)	voltage
	2	V(2)	voltage
	3	V1#branch	current
	4	V2#branch	current
Values:
0	0.00000000e+00
	1.00000000e+00
	2.00000000e+00
	-1.00000000e+00
	-2.00000000e+00

1	1.00000000e-10
	1.00000000e+00
	2.00000000e+00
	-1.00000000e+00
	-2.00000000e+00

2	3.00000000e-10
	1.00000000e+00
	2.00000000e+00
	-1.00000000e+00
	-2.00000000e+00

3	7.00000000e-10
	1.00000000e+00
	2.00000000e+00
	-1.00000000e+00
	-2.00000000e+00

4	1.50000000e-09
	1.00000000e+00
	2.00000000e+00
	-1.00000000e+00
	-2.00000000e+00

5	3.10000000e-09
	1.00000000e+00
	2.00000000e+00
	-1.00000000e+00
	-2.00000000e+00

6	6.30000000e-09
	1.00000001e+00
	2.00000001e+00
	-1.00000001e+00
	-2.00000001e+00

7	1.27000000e-08
	1.00000001e+00
	2.00000001e+00
	-1.00000001e+00
	-2.00000001e+00

8	2.55000000e-08
	1.00000003e+00
	2.00000003e+00
	-1.00000003e+00
	-2.00000003e+00

9	5.11000000e-08
	1.00000005e+00
	2.00000005e+00
	-1.00000005e+00
	-2.00000005e+00

10	1.02300000e-07
	1.00000010e+00
	2.00000010e+00
	-1.00000010e+00
	-2.00000010e+00

11	2.04700000e-07
	1.00000020e+00
	2.00000020e+00
	-1.00000020e+00
	-2.00000020e+00

12	4.09500000e-07
	1.00000041e+00
	2.00000041e+00
	-1.00000041e+00
	-2.00000041e+00

13	8.19100000e-07
	1.00000082e+00
	2.00000082e+00
	-1.00000082e+00
	-2.00000082e+00

14	1.63830000e-06
	1.00000164e+00
	2.00000164e+00
	-1.00000164e+00
	-2.00000164e+00

15	3.27670000e-06
	1.00000328e+00
	2.00000328e+00
	-1.00000328e+00
	-2.00000328e+00

16	6.55350000e-06
	1.00000655e+00
	2.00000655e+00
	-1.00000655e+00
	-2.00000655e+00

17	1.31071000e-05
	1.00001311e+00
	2.00001311e+00
	-1.00001311e+00
	-2.00001311e+00

18	2.62143000e-05
	1.00002621e+00
	2.00002621e+00
	-1.00002621e+00
	-2.00002621e+00

19	5.24287000e-05
	1.00005243e+00
	2.00005243e+00
	-1.00005243e+00
	-2.00005243e+00

20	1.04857500e-04
	1.00010486e+00
	2.00010486e+00
	-1.00010486e+00
	-2.00010486e+00

21	2.09715100e-04
	1.00020972e+00
	2.00020972e+00
	-1.00020972e+00
	-2.00020972e+00

22	4.19430300e-04
	1.00041943e+00
	2.00041943e+00
	-1.00041943e+00
	-2.00041943e+00

23	8.38860700e-04
	1.00083886e+00
	2.00083886e+00
	-1.00083886e+00
	-2.00083886e+00

24	1.67772150e-03
	1.00167772e+00
	2.00167772e+00
	-1.00167772e+00
	-2.00167772e+00

25	3.35544310e-03
	1.00335544e+00
	2.00335544e+00
	-1.00335544e+00
	-2.00335544e+00

26	6.71088630e-03
	1.00671089e+00
	2.00671089e+00
	-1.00671089e+00
	-2.00671089e+00

27	1.34217727e-02
	1.01342177e+00
	2.01342177e+00
	-1.01342177e+00
	-2.01342177e+00

28	2.68435455e-02
	1.02684355e+00
	2.02684355e+00
	-1.02684355e+00
	-2.02684355e+00

29	5.36870911e-02
	1.05368709e+00
	2.05368709e+00
	-1.05368709e+00
	-2.05368709e+00

30	1.07374182e-01
	1.10737418e+00
	2.10737418e+00
	-1.10737418e+00
	-2.10737418e+00

31	2.07374182e-01
	1.20737418e+00
	2.20737418e+00
	-1.20737418e+00
	-2.20737418e+00

32	3.07374182e-01
	1.30737418e+00
	2.30737418e+00
	-1.30737418e+00
	-2.30737418e+00

33	4.07374182e-01
	1.40737418e+00
	2.40737418e+00
	-1.40737418e+00
	-2.40737418e+00

34	5.07374182e-01
	1.50737418e+00
	2.50737418e+00
	-1.50737418e+00
	-2.50737418e+00

35	6.00000000e-01
	1.60000000e+00
	2.60000000e+00
	-1.60000000e+00
	-2.60000000e+00

36	6.04164060e-01
	1.59375391e+00
	2.59375391e+00
	-1.59375391e+00
	-2.59375391e+00

37	6.07668130e-01
	1.58849781e+00
	2.58849781e+00
	-1.58849781e+00
	-2.58849781e+00

38	6.14676268e-01
	1.57798560e+00
	2.57798560e+00
	-1.57798560e+00
	-2.57798560e+00

39	6.28692545e-01
	1.55696118e+00
	2.55696118e+00
	-1.55696118e+00
	-2.55696118e+00

40	6.56725099e-01
	1.51491235e+00
	2.51491235e+00
	-1.51491235e+00
	-2.51491235e+00

41	7.12790206e-01
	1.43081469e+00
	2.43081469e+00
	-1.43081469e+00
	-2.43081469e+00

42	8.12790206e-01
	1.28081469e+00
	2.28081469e+00
	-1.28081469e+00
	-2.28081469e+00

43	9.12790206e-01
	1.13081469e+00
	2.13081469e+00
	-1.13081469e+00
	-2.13081469e+00

44	1.00000000e+00
	1.00000000e+00
	2.00000000e+00
	-1.00000000e+00
	-2.00000000e+00

