Index       TIME            {1/I(R1)}           I(V2)      
0        0.00000000e+00    1.00554516e+01    9.94485419e-02
1        1.50000000e-04    1.00841939e+01    9.91650909e-02
2        3.00000000e-04    1.01262884e+01    9.87528655e-02
3        4.50000000e-04    1.01879348e+01    9.81553196e-02
4        6.00000000e-04    1.02769948e+01    9.73047104e-02
5        7.50000000e-04    1.04047039e+01    9.61103754e-02
6        9.00000000e-04    1.05862612e+01    9.44620558e-02
7        1.05000000e-03    1.08414812e+01    9.22383187e-02
8        1.20000000e-03    1.11969844e+01    8.93097609e-02
9        1.35000000e-03    1.16875803e+01    8.55609098e-02
10       1.50000000e-03    1.23580733e+01    8.09187629e-02
11       1.65000000e-03    1.32653105e+01    7.53845905e-02
12       1.80000000e-03    1.44809513e+01    6.90562366e-02
13       1.95000000e-03    1.60946592e+01    6.21324120e-02
14       2.10000000e-03    1.82127868e+01    5.49064792e-02
15       2.25000000e-03    2.09685675e+01    4.76904300e-02
16       2.40000000e-03    2.45163470e+01    4.07891111e-02
17       2.55000000e-03    2.90467727e+01    3.44272325e-02
18       2.70000000e-03    3.47623680e+01    2.87667400e-02
19       2.85000000e-03    4.19053293e+01    2.38633132e-02
20       3.00000000e-03    5.07411755e+01    1.97078604e-02
21       3.15000000e-03    6.15586938e+01    1.62446592e-02
22       3.30000000e-03    7.46646643e+01    1.33932163e-02
23       3.45000000e-03    9.03762533e+01    1.10648535e-02
24       3.60000000e-03    1.09010919e+02    9.17339298e-03
25       3.75000000e-03    1.30873804e+02    7.64094855e-03
26       3.90000000e-03    1.56242757e+02    6.40029668e-03
27       4.05000000e-03    1.85351337e+02    5.39515937e-03
28       4.20000000e-03    2.18370341e+02    4.57937647e-03
29       4.35000000e-03    2.55388661e+02    3.91560062e-03
30       4.50000000e-03    2.96225435e+02    3.37580735e-03
31       4.65000000e-03    3.40933809e+02    2.93312066e-03
32       4.80000000e-03    3.89517809e+02    2.56727671e-03
33       4.95000000e-03    4.41012683e+02    2.26750849e-03
34       5.10000000e-03    4.95421642e+02    2.01848267e-03
35       5.25000000e-03    5.51493545e+02    1.81325785e-03
36       5.40000000e-03    6.08917556e+02    1.64225845e-03
37       5.55000000e-03    6.64597792e+02    1.50466946e-03
38       5.70000000e-03    7.22353885e+02    1.38436301e-03
39       5.85000000e-03    7.76398672e+02    1.28799808e-03
40       6.00000000e-03    8.26544311e+02    1.20985649e-03
41       6.15000000e-03    8.73450210e+02    1.14488495e-03
42       6.30000000e-03    9.15822319e+02    1.09191486e-03
43       6.45000000e-03    9.50276326e+02    1.05232549e-03
44       6.60000000e-03    9.76553999e+02    1.02400891e-03
45       6.75000000e-03    9.95716357e+02    1.00430207e-03
46       6.90000000e-03    1.00717161e+03    9.92879455e-04
47       7.05000000e-03    1.00860040e+03    9.91472939e-04
48       7.20000000e-03    1.00015257e+03    9.99847455e-04
49       7.35000000e-03    9.83880440e+02    1.01638366e-03
50       7.50000000e-03    9.60293466e+02    1.04134833e-03
51       7.65000000e-03    9.28077990e+02    1.07749565e-03
52       7.80000000e-03    8.87836352e+02    1.12633370e-03
53       7.95000000e-03    8.42705531e+02    1.18665413e-03
54       8.10000000e-03    7.93952649e+02    1.25952096e-03
55       8.25000000e-03    7.40697250e+02    1.35007927e-03
56       8.40000000e-03    6.83553741e+02    1.46294276e-03
57       8.55000000e-03    6.26182818e+02    1.59697770e-03
58       8.70000000e-03    5.69826787e+02    1.75491925e-03
59       8.85000000e-03    5.13484931e+02    1.94747682e-03
60       9.00000000e-03    4.57301442e+02    2.18674141e-03
61       9.15000000e-03    4.04617157e+02    2.47147206e-03
62       9.30000000e-03    3.56194709e+02    2.80745327e-03
63       9.45000000e-03    3.11014896e+02    3.21528008e-03
64       9.60000000e-03    2.68409794e+02    3.72564647e-03
65       9.75000000e-03    2.30200854e+02    4.34403254e-03
66       9.90000000e-03    1.95795678e+02    5.10736503e-03
67       1.00500000e-02    1.65230937e+02    6.05213539e-03
68       1.02000000e-02    1.38946762e+02    7.19700112e-03
69       1.03500000e-02    1.15882464e+02    8.62943338e-03
70       1.05000000e-02    9.62349331e+01    1.03912370e-02
71       1.06500000e-02    7.96306128e+01    1.25579845e-02
72       1.08000000e-02    6.56443476e+01    1.52336041e-02
73       1.09500000e-02    5.41104127e+01    1.84807313e-02
74       1.11000000e-02    4.46566225e+01    2.23930952e-02
75       1.12500000e-02    3.69787816e+01    2.70425351e-02
76       1.14000000e-02    3.08137787e+01    3.24530143e-02
77       1.15500000e-02    2.59136306e+01    3.85897297e-02
78       1.17000000e-02    2.20579587e+01    4.53351108e-02
79       1.18500000e-02    1.90544165e+01    5.24812711e-02
80       1.20000000e-02    1.67379836e+01    5.97443530e-02
81       1.21500000e-02    1.49721161e+01    6.67908257e-02
82       1.23000000e-02    1.36326892e+01    7.33530989e-02
83       1.24500000e-02    1.26317588e+01    7.91655396e-02
84       1.26000000e-02    1.18899176e+01    8.41048721e-02
85       1.27500000e-02    1.13448167e+01    8.81459815e-02
86       1.29000000e-02    1.09480845e+01    9.13401795e-02
87       1.30500000e-02    1.06621238e+01    9.37899445e-02
88       1.32000000e-02    1.04585079e+01    9.56159343e-02
89       1.33500000e-02    1.03148948e+01    9.69471834e-02
90       1.35000000e-02    1.02142575e+01    9.79023686e-02
91       1.36500000e-02    1.01444153e+01    9.85764059e-02
92       1.38000000e-02    1.00964167e+01    9.90450404e-02
93       1.39500000e-02    1.00642654e+01    9.93614495e-02
94       1.41000000e-02    1.00419339e+01    9.95824125e-02
95       1.42500000e-02    1.00274103e+01    9.97266465e-02
96       1.44000000e-02    1.00176465e+01    9.98238458e-02
97       1.45500000e-02    1.00116067e+01    9.98840680e-02
98       1.47000000e-02    1.00074115e+01    9.99259401e-02
99       1.48500000e-02    1.00050856e+01    9.99491700e-02
100      1.50000000e-02    1.00027608e+01    9.99723999e-02
End of Xyce(TM) Simulation
