Index         TIME             V(N03529)           V(NCLK)           V(NMYVDD)           V(NRF)        V(X_DFF:N285734)  V(X_DFF:X_U8A:PREB) V(X_DFF:X_U8A:CLRB)   V(X_DFF:INVVRF)
0       0.0000000000e+00   1.1999699996e+01   0.0000000000e+00   1.2000000000e+01   0.0000000000e+00   1.4984827862e-04   1.1650485437e+01   1.1650485437e+01   1.1707317073e+01   
1       1.0000000000e-08   1.1999699996e+01   0.0000000000e+00   1.2000000000e+01   0.0000000000e+00   1.4984827862e-04   1.1650485437e+01   1.1650485437e+01   1.1707317073e+01   
2       3.0000000000e-08   1.1999699996e+01   0.0000000000e+00   1.2000000000e+01   0.0000000000e+00   1.4984827862e-04   1.1650485437e+01   1.1650485437e+01   1.1707317073e+01   
3       7.0000000000e-08   1.1999699996e+01   0.0000000000e+00   1.2000000000e+01   0.0000000000e+00   1.4984827862e-04   1.1650485437e+01   1.1650485437e+01   1.1707317073e+01   
4       1.5000000000e-07   1.1999699996e+01   0.0000000000e+00   1.2000000000e+01   0.0000000000e+00   1.4984827862e-04   1.1650485437e+01   1.1650485437e+01   1.1707317073e+01   
5       3.1000000000e-07   1.1999699996e+01   0.0000000000e+00   1.2000000000e+01   0.0000000000e+00   1.4984827862e-04   1.1650485437e+01   1.1650485437e+01   1.1707317073e+01   
6       6.3000000000e-07   1.1999699996e+01   0.0000000000e+00   1.2000000000e+01   0.0000000000e+00   1.4984827862e-04   1.1650485437e+01   1.1650485437e+01   1.1707317073e+01   
7       1.2700000000e-06   1.1999699996e+01   0.0000000000e+00   1.2000000000e+01   0.0000000000e+00   1.4984827862e-04   1.1650485437e+01   1.1650485437e+01   1.1707317073e+01   
8       2.2700000000e-06   1.1999699996e+01   0.0000000000e+00   1.2000000000e+01   0.0000000000e+00   1.4984827862e-04   1.1650485437e+01   1.1650485437e+01   1.1707317073e+01   
9       3.2700000000e-06   1.1999699996e+01   0.0000000000e+00   1.2000000000e+01   0.0000000000e+00   1.4984827862e-04   1.1650485437e+01   1.1650485437e+01   1.1707317073e+01   
10      4.2700000000e-06   1.1999699996e+01   0.0000000000e+00   1.2000000000e+01   0.0000000000e+00   1.4984827862e-04   1.1650485437e+01   1.1650485437e+01   1.1707317073e+01   
11      5.2700000000e-06   1.1999699996e+01   0.0000000000e+00   1.2000000000e+01   0.0000000000e+00   1.4984827862e-04   1.1650485437e+01   1.1650485437e+01   1.1707317073e+01   
12      6.2700000000e-06   1.1999699996e+01   0.0000000000e+00   1.2000000000e+01   0.0000000000e+00   1.4984827862e-04   1.1650485437e+01   1.1650485437e+01   1.1707317073e+01   
13      7.2700000000e-06   1.1999699996e+01   0.0000000000e+00   1.2000000000e+01   0.0000000000e+00   1.4984827862e-04   1.1650485437e+01   1.1650485437e+01   1.1707317073e+01   
14      8.2700000000e-06   1.1999699996e+01   0.0000000000e+00   1.2000000000e+01   0.0000000000e+00   1.4984827862e-04   1.1650485437e+01   1.1650485437e+01   1.1707317073e+01   
15      9.2700000000e-06   1.1999699996e+01   0.0000000000e+00   1.2000000000e+01   0.0000000000e+00   1.4984827862e-04   1.1650485437e+01   1.1650485437e+01   1.1707317073e+01   
16      1.0000000000e-05   1.1999699996e+01   0.0000000000e+00   1.2000000000e+01   0.0000000000e+00   1.4984827862e-04   1.1650485437e+01   1.1650485437e+01   1.1707317073e+01   
17      1.0000006250e-05   1.1999699996e+01   7.5000000005e-02   1.2000000000e+01   7.5000000005e-02   1.4984827862e-04   1.1650485437e+01   1.1650485437e+01   1.1707317073e+01   
18      1.0000012500e-05   1.1999699996e+01   1.5000000001e-01   1.2000000000e+01   1.5000000001e-01   1.4984827862e-04   1.1650485437e+01   1.1650485437e+01   1.1707317073e+01   
19      1.0000018750e-05   1.1999699996e+01   2.2500000002e-01   1.2000000000e+01   2.2500000002e-01   1.4984827862e-04   1.1650485437e+01   1.1650485437e+01   1.1707317073e+01   
20      1.0000031250e-05   1.1999699996e+01   3.7500000001e-01   1.2000000000e+01   3.7500000001e-01   1.4984827862e-04   1.1650485437e+01   1.1650485437e+01   1.1707317073e+01   
21      1.0000056250e-05   1.1999699996e+01   6.7500000001e-01   1.2000000000e+01   6.7500000001e-01   1.4984827862e-04   1.1650485437e+01   1.1650485437e+01   1.1707317073e+01   
22      1.0000106250e-05   1.1999699996e+01   1.2750000000e+00   1.2000000000e+01   1.2750000000e+00   1.4984827862e-04   1.1650485437e+01   1.1650485437e+01   1.1707317073e+01   
23      1.0000206250e-05   1.1999699996e+01   2.4750000000e+00   1.2000000000e+01   2.4750000000e+00   1.4984827862e-04   1.1650485437e+01   1.1650485437e+01   1.1707317073e+01   
24      1.0000406250e-05   1.1999699996e+01   4.8750000000e+00   1.2000000000e+01   4.8750000000e+00   1.4984827862e-04   1.1650485437e+01   1.1650485437e+01   1.1707317073e+01   
25      1.0000806250e-05   1.1999699996e+01   9.6750000000e+00   1.2000000000e+01   9.6750000000e+00   1.4984827862e-04   1.1650485437e+01   1.1650485437e+01   1.1707317073e+01   
26      1.0001000000e-05   1.1999699996e+01   1.2000000000e+01   1.2000000000e+01   1.2000000000e+01   1.4984827862e-04   1.1650485437e+01   1.1650485437e+01   1.1707317073e+01   
27      1.0001080000e-05   1.1999699996e+01   1.2000000000e+01   1.2000000000e+01   1.2000000000e+01   1.4984827862e-04   1.1650485437e+01   1.1650485437e+01   1.1707317073e+01   
28      1.0001160000e-05   1.1999699996e+01   1.2000000000e+01   1.2000000000e+01   1.2000000000e+01   1.4984827862e-04   1.1650485437e+01   1.1650485437e+01   1.1707317073e+01   
29      1.0001240000e-05   1.1999699996e+01   1.2000000000e+01   1.2000000000e+01   1.2000000000e+01   1.4984827862e-04   1.1650485437e+01   1.1650485437e+01   1.1707317073e+01   
30      1.0001400000e-05   1.1999699996e+01   1.2000000000e+01   1.2000000000e+01   1.2000000000e+01   1.4984827862e-04   1.1650485437e+01   1.1650485437e+01   1.1707317073e+01   
31      1.0001720000e-05   1.1999699996e+01   1.2000000000e+01   1.2000000000e+01   1.2000000000e+01   1.4984827862e-04   1.1650485437e+01   1.1650485437e+01   1.1707317073e+01   
32      1.0002360000e-05   1.1999699996e+01   1.2000000000e+01   1.2000000000e+01   1.2000000000e+01   1.4984827862e-04   1.1650485437e+01   1.1650485437e+01   1.1707317073e+01   
33      1.0003640000e-05   1.1999699996e+01   1.2000000000e+01   1.2000000000e+01   1.2000000000e+01   1.4984827862e-04   1.1650485437e+01   1.1650485437e+01   1.1707317073e+01   
34      1.0006200000e-05   1.1999699996e+01   1.2000000000e+01   1.2000000000e+01   1.2000000000e+01   1.4984827862e-04   1.1650485437e+01   1.1650485437e+01   1.1707317073e+01   
35      1.0011320000e-05   1.1999699996e+01   1.2000000000e+01   1.2000000000e+01   1.2000000000e+01   1.4984827862e-04   1.1650485437e+01   1.1650485437e+01   1.1707317073e+01   
36      1.0021560000e-05   1.1999699996e+01   1.2000000000e+01   1.2000000000e+01   1.2000000000e+01   1.4984827862e-04   1.1650485437e+01   1.1650485437e+01   1.1707317073e+01   
37      1.0042040000e-05   1.1999699996e+01   1.2000000000e+01   1.2000000000e+01   1.2000000000e+01   1.4984827862e-04   1.1650485437e+01   1.1650485437e+01   1.1707317073e+01   
38      1.0083000000e-05   1.1999699996e+01   1.2000000000e+01   1.2000000000e+01   1.2000000000e+01   1.4984827862e-04   1.1650485437e+01   1.1650485437e+01   1.1707317073e+01   
39      1.0125150000e-05   1.1999699996e+01   1.2000000000e+01   1.2000000000e+01   1.2000000000e+01   1.4984827862e-04   1.1650485437e+01   1.1650485437e+01   1.1707317073e+01   
40      1.0125155625e-05   1.1999699996e+01   1.2000000000e+01   1.2000000000e+01   1.2000000000e+01   1.4984827862e-04   1.1650485437e+01   1.1649088333e+01   1.1705765688e+01   
41      1.0125166875e-05   1.1999699996e+01   1.2000000000e+01   1.2000000000e+01   1.2000000000e+01   1.4984827862e-04   1.1650485437e+01   1.1643216740e+01   1.1699836849e+01   
42      1.0125189375e-05   1.1999699996e+01   1.2000000000e+01   1.2000000000e+01   1.2000000000e+01   1.4984827862e-04   1.1650485437e+01   1.1628144240e+01   1.1685433993e+01   
43      1.0125206250e-05   1.1999699996e+01   1.2000000000e+01   1.2000000000e+01   1.2000000000e+01   1.4984827862e-04   1.1650485437e+01   1.1614053064e+01   1.1672801365e+01   
44      1.0125210750e-05   1.1999699996e+01   1.2000000000e+01   1.2000000000e+01   1.2000000000e+01   1.4984827862e-04   1.1650485437e+01   1.1610203843e+01   1.1669455157e+01   
45      1.0125219750e-05   1.1999699996e+01   1.2000000000e+01   1.2000000000e+01   1.2000000000e+01   1.4984827862e-04   1.1650485437e+01   1.1602469775e+01   1.1662766130e+01   
46      1.0125237750e-05   1.1999699996e+01   1.2000000000e+01   1.2000000000e+01   1.2000000000e+01   1.4984827862e-04   1.1650485437e+01   1.1586959887e+01   1.1649391469e+01   
47      1.0125273750e-05   1.1999699996e+01   1.2000000000e+01   1.2000000000e+01   1.2000000000e+01   1.4984827862e-04   1.1650485437e+01   1.1555836933e+01   1.1622648625e+01   
48      1.0125345750e-05   1.1999699996e+01   1.2000000000e+01   1.2000000000e+01   1.2000000000e+01   1.4984827862e-04   1.1650485437e+01   1.1493638208e+01   1.1569155693e+01   
49      1.0125489750e-05   1.1999699996e+01   1.2000000000e+01   1.2000000000e+01   1.2000000000e+01   1.4984827862e-04   1.1650485437e+01   1.1369752129e+01   1.1462132905e+01   
50      1.0125777750e-05   1.1999699996e+01   1.2000000000e+01   1.2000000000e+01   1.2000000000e+01   1.4984827862e-04   1.1650485437e+01   1.1123975073e+01   1.1247942053e+01   
51      1.0126353750e-05   1.1999699996e+01   1.2000000000e+01   1.2000000000e+01   1.2000000000e+01   1.4984827862e-04   1.1650485437e+01   1.0640039922e+01   1.0818975510e+01   
52      1.0127505750e-05   1.1999699996e+01   1.2000000000e+01   1.2000000000e+01   1.2000000000e+01   1.4984827862e-04   1.1650485437e+01   9.6998522174e+00   9.9586902689e+00   
53      1.0129809750e-05   1.1999699996e+01   1.2000000000e+01   1.2000000000e+01   1.2000000000e+01   1.4984827862e-04   1.1650485437e+01   7.9094141948e+00   8.2285888546e+00   
54      1.0132113750e-05   1.1999699996e+01   1.2000000000e+01   1.2000000000e+01   1.2000000000e+01   1.4984827862e-04   1.1650485437e+01   6.2030204207e+00   6.4855489065e+00   
55      1.0134417750e-05   1.1999699996e+01   1.2000000000e+01   1.2000000000e+01   1.2000000000e+01   1.4984827862e-04   1.1650485437e+01   4.5385772088e+00   4.7292730296e+00   
56      1.0139025750e-05   1.1999699996e+01   1.2000000000e+01   1.2000000000e+01   1.2000000000e+01   1.4984827862e-04   1.1650485437e+01   1.1672162012e+00   1.1757802731e+00   
57      1.0139041950e-05   1.1999699996e+01   1.2000000000e+01   1.2000000000e+01   1.2000000000e+01   1.0116274417e+01   1.1650485437e+01   1.1550782366e+00   1.1631895735e+00   
58      1.0139042820e-05   1.1999699996e+01   1.2000000000e+01   1.2000000000e+01   1.2000000000e+01   1.0537152052e+01   1.1650485437e+01   1.1544265751e+00   1.1625137500e+00   
59      1.0139043689e-05   1.1999699996e+01   1.2000000000e+01   1.2000000000e+01   1.2000000000e+01   1.0904706973e+01   1.1650485437e+01   1.1537748430e+00   1.1618379249e+00   
60      1.0139045428e-05   1.1999699996e+01   1.2000000000e+01   1.2000000000e+01   1.2000000000e+01   1.1391832703e+01   1.1650485437e+01   1.1524709602e+00   1.1604862651e+00   
61      1.0139046983e-05   1.1999699996e+01   1.2000000000e+01   1.2000000000e+01   1.2000000000e+01   1.1637314369e+01   1.1650485437e+01   1.1513047110e+00   1.1592777513e+00   
62      1.0139048538e-05   1.1999699996e+01   1.2000000000e+01   1.2000000000e+01   1.2000000000e+01   1.1781666178e+01   1.1650485437e+01   1.1501380361e+00   1.1580692276e+00   
63      1.0139051648e-05   1.1999699996e+01   1.2000000000e+01   1.2000000000e+01   1.2000000000e+01   1.1922437564e+01   1.1650485437e+01   1.1478034561e+00   1.1556521505e+00   
64      1.0139054758e-05   1.1999699996e+01   1.2000000000e+01   1.2000000000e+01   1.2000000000e+01   1.1967033615e+01   1.1650485437e+01   1.1454672962e+00   1.1532350349e+00   
65      1.0139057868e-05   1.1999699996e+01   1.2000000000e+01   1.2000000000e+01   1.2000000000e+01   1.1981161541e+01   1.1650485437e+01   1.1431296337e+00   1.1508178819e+00   
66      1.0139060977e-05   1.1999699996e+01   1.2000000000e+01   1.2000000000e+01   1.2000000000e+01   1.1985637236e+01   1.1650485437e+01   1.1407905415e+00   1.1484006923e+00   
67      1.0139067197e-05   1.1999699996e+01   1.2000000000e+01   1.2000000000e+01   1.2000000000e+01   1.1987750964e+01   1.1650485437e+01   1.1361083712e+00   1.1435662073e+00   
68      1.0139079636e-05   1.1999699996e+01   1.2000000000e+01   1.2000000000e+01   1.2000000000e+01   1.1987699178e+01   1.1650485437e+01   1.1267298516e+00   1.1338968348e+00   
69      1.0139104515e-05   1.1999699996e+01   1.2000000000e+01   1.2000000000e+01   1.2000000000e+01   1.1987720801e+01   1.1650485437e+01   1.1079273132e+00   1.1145565978e+00   
70      1.0139154272e-05   1.1999699996e+01   1.2000000000e+01   1.2000000000e+01   1.2000000000e+01   1.1987706152e+01   1.1650485437e+01   1.0701985446e+00   1.0758706686e+00   
71      1.0139253787e-05   1.1999699996e+01   1.2000000000e+01   1.2000000000e+01   1.2000000000e+01   1.1987718305e+01   1.1650485437e+01   9.9446091630e-01   9.9847840430e-01   
72      1.0139452816e-05   1.1999699996e+01   1.2000000000e+01   1.2000000000e+01   1.2000000000e+01   1.1987707218e+01   1.1650485437e+01   8.4230808452e-01   8.4361406453e-01   
73      1.0139850874e-05   1.1999699996e+01   1.2000000000e+01   1.2000000000e+01   1.2000000000e+01   1.1987717811e+01   1.1650485437e+01   5.3552551490e-01   5.3356593808e-01   
74      1.0140198304e-05   1.1999699996e+01   1.2000000000e+01   1.2000000000e+01   1.2000000000e+01   1.1987712639e+01   1.1650485437e+01   3.0108893981e-01   2.9926235207e-01   
75      1.0140325338e-05   1.1999699996e+01   1.2000000000e+01   1.2000000000e+01   1.2000000000e+01   1.1987712596e+01   1.1650485437e+01   2.9227280930e-01   2.9315218115e-01   
76      1.0140439669e-05   1.1999699996e+01   1.2000000000e+01   1.2000000000e+01   1.2000000000e+01   1.1987712595e+01   1.1650485437e+01   2.9137632697e-01   2.9271982102e-01   
77      1.0140554000e-05   1.1999699996e+01   1.2000000000e+01   1.2000000000e+01   1.2000000000e+01   1.1987712595e+01   1.1650485437e+01   2.9119431347e-01   2.9265678981e-01   
78      1.0140782662e-05   1.1999699996e+01   1.2000000000e+01   1.2000000000e+01   1.2000000000e+01   1.1987712595e+01   1.1650485437e+01   2.9131463252e-01   2.9270495391e-01   
79      1.0141239986e-05   1.1999699996e+01   1.2000000000e+01   1.2000000000e+01   1.2000000000e+01   1.1987712595e+01   1.1650485437e+01   2.9121592580e-01   2.9266270245e-01   
80      1.0142154633e-05   1.1999699996e+01   1.2000000000e+01   1.2000000000e+01   1.2000000000e+01   1.1987712595e+01   1.1650485437e+01   2.9130549383e-01   2.9270230634e-01   
81      1.0143983928e-05   1.1999699996e+01   1.2000000000e+01   1.2000000000e+01   1.2000000000e+01   1.1987712595e+01   1.1650485437e+01   2.9122013708e-01   2.9266395638e-01   
82      1.0147642518e-05   1.1999699996e+01   1.2000000000e+01   1.2000000000e+01   1.2000000000e+01   1.1987712595e+01   1.1650485437e+01   2.9130347134e-01   2.9270169600e-01   
83      1.0154959697e-05   1.1999699996e+01   1.2000000000e+01   1.2000000000e+01   1.2000000000e+01   1.1987712595e+01   1.1650485437e+01   2.9122112827e-01   2.9266425749e-01   
84      1.0169594056e-05   1.1999699996e+01   1.2000000000e+01   1.2000000000e+01   1.2000000000e+01   1.1987712595e+01   1.1650485437e+01   2.9130298066e-01   2.9270154645e-01   
85      1.0198862773e-05   1.1999699996e+01   1.2000000000e+01   1.2000000000e+01   1.2000000000e+01   1.1987712595e+01   1.1650485437e+01   2.9122137239e-01   2.9266433202e-01   
86      1.0257400208e-05   1.1999699996e+01   1.2000000000e+01   1.2000000000e+01   1.2000000000e+01   1.1987712595e+01   1.1650485437e+01   2.9130285891e-01   2.9270150925e-01   
87      1.0374475078e-05   1.1999699996e+01   1.2000000000e+01   1.2000000000e+01   1.2000000000e+01   1.1987712595e+01   1.1650485437e+01   2.9122143320e-01   2.9266435061e-01   
88      1.0608624818e-05   1.1999699996e+01   1.2000000000e+01   1.2000000000e+01   1.2000000000e+01   1.1987712595e+01   1.1650485437e+01   2.9130282852e-01   2.9270149996e-01   
89      1.1076924298e-05   1.1999699996e+01   1.2000000000e+01   1.2000000000e+01   1.2000000000e+01   1.1987712595e+01   1.1650485437e+01   2.9122144838e-01   2.9266435525e-01   
90      1.2013523257e-05   1.1999699996e+01   1.2000000000e+01   1.2000000000e+01   1.2000000000e+01   1.1987712595e+01   1.1650485437e+01   2.9130282093e-01   2.9270149764e-01   
91      1.3713523257e-05   1.1999699996e+01   1.2000000000e+01   1.2000000000e+01   1.2000000000e+01   1.1987712595e+01   1.1650485437e+01   2.9122145231e-01   2.9266435645e-01   
92      1.5413523257e-05   1.1999699996e+01   1.2000000000e+01   1.2000000000e+01   1.2000000000e+01   1.1987712595e+01   1.1650485437e+01   2.9130281814e-01   2.9270149678e-01   
93      1.7001000000e-05   1.1999699996e+01   1.2000000000e+01   1.2000000000e+01   1.2000000000e+01   1.1987712595e+01   1.1650485437e+01   2.9122145519e-01   2.9266435733e-01   
94      1.7001006250e-05   1.1999699996e+01   1.1925000000e+01   1.2000000000e+01   1.1925000000e+01   1.1987712595e+01   1.1650485437e+01   2.9123367127e-01   2.9267160828e-01   
95      1.7001012500e-05   1.1999699996e+01   1.1850000000e+01   1.2000000000e+01   1.1850000000e+01   1.1987712595e+01   1.1650485437e+01   2.9124221897e-01   2.9267602790e-01   
96      1.7001018750e-05   1.1999699996e+01   1.1775000000e+01   1.2000000000e+01   1.1775000000e+01   1.1987712595e+01   1.1650485437e+01   2.9124925652e-01   2.9267937531e-01   
97      1.7001031250e-05   1.1999699996e+01   1.1625000000e+01   1.2000000000e+01   1.1625000000e+01   1.1987712595e+01   1.1650485437e+01   2.9125699167e-01   2.9268214888e-01   
98      1.7001056250e-05   1.1999699996e+01   1.1325000000e+01   1.2000000000e+01   1.1325000000e+01   1.1987712595e+01   1.1650485437e+01   2.9126174376e-01   2.9268302274e-01   
99      1.7001106250e-05   1.1999699996e+01   1.0725000000e+01   1.2000000000e+01   1.0725000000e+01   1.1987712595e+01   1.1650485437e+01   2.9126223938e-01   2.9268288476e-01   
100     1.7001206250e-05   1.1999699996e+01   9.5250000001e+00   1.2000000000e+01   9.5250000001e+00   1.1987712595e+01   1.1650485437e+01   2.9126207914e-01   2.9268295516e-01   
101     1.7001406250e-05   1.1999699996e+01   7.1250000000e+00   1.2000000000e+01   7.1250000000e+00   1.1987712595e+01   1.1650485437e+01   2.9126217827e-01   2.9268290354e-01   
102     1.7001806250e-05   1.1999699996e+01   2.3250000000e+00   1.2000000000e+01   2.3250000000e+00   1.1987712595e+01   1.1650485437e+01   2.9126209932e-01   2.9268294796e-01   
103     1.7002000000e-05   1.1999699996e+01   1.4345857835e-11   1.2000000000e+01   1.4345857835e-11   1.1987712595e+01   1.1650485437e+01   2.9126216296e-01   2.9268290957e-01   
104     1.7002080000e-05   1.1999699996e+01   0.0000000000e+00   1.2000000000e+01   0.0000000000e+00   1.1987712595e+01   1.1650485437e+01   2.9126214009e-01   2.9268292495e-01   
105     1.7002160000e-05   1.1999699996e+01   0.0000000000e+00   1.2000000000e+01   0.0000000000e+00   1.1987712595e+01   1.1650485437e+01   2.9126213656e-01   2.9268292663e-01   
106     1.7002240000e-05   1.1999699996e+01   0.0000000000e+00   1.2000000000e+01   0.0000000000e+00   1.1987712595e+01   1.1650485437e+01   2.9126213562e-01   2.9268292695e-01   
107     1.7002400000e-05   1.1999699996e+01   0.0000000000e+00   1.2000000000e+01   0.0000000000e+00   1.1987712595e+01   1.1650485437e+01   2.9126213613e-01   2.9268292673e-01   
108     1.7002720000e-05   1.1999699996e+01   0.0000000000e+00   1.2000000000e+01   0.0000000000e+00   1.1987712595e+01   1.1650485437e+01   2.9126213575e-01   2.9268292692e-01   
109     1.7003360000e-05   1.1999699996e+01   0.0000000000e+00   1.2000000000e+01   0.0000000000e+00   1.1987712595e+01   1.1650485437e+01   2.9126213608e-01   2.9268292675e-01   
