Index      TIME           V(1)           V(2)           V(3)           I(VMON)
0       0.00000000e+00   4.00000000e+02   4.15000000e+01   1.50000000e+00   1.00000000e+01   
1       1.00000000e-05   3.99744048e+02   4.26412796e+01   1.68900554e+00   1.02380685e+01   
2       1.04513815e-05   3.99732483e+02   4.26929635e+01   1.69771318e+00   1.02488126e+01   
3       1.09027630e-05   3.99720906e+02   4.27446602e+01   1.70644121e+00   1.02595547e+01   
4       1.18055259e-05   3.99697702e+02   4.28480945e+01   1.72396868e+00   1.02810315e+01   
5       1.36110519e-05   3.99651188e+02   4.30551329e+01   1.75926131e+00   1.03239679e+01   
6       1.72221037e-05   3.99557576e+02   4.34698791e+01   1.83088432e+00   1.04097487e+01   
7       2.08331556e-05   3.99463206e+02   4.38855305e+01   1.90389299e+00   1.04954094e+01   
8       2.80552593e-05   3.99272156e+02   4.47195616e+01   2.05411495e+00   1.06663617e+01   
9       3.80552593e-05   3.99002547e+02   4.58804974e+01   2.27149415e+00   1.09022508e+01   
10      4.80552593e-05   3.98727058e+02   4.70486585e+01   2.49993025e+00   1.11371821e+01   
11      5.80552593e-05   3.98445709e+02   4.82241901e+01   2.73960417e+00   1.13711465e+01   
12      6.80552593e-05   3.98158524e+02   4.94072313e+01   2.99069055e+00   1.16041352e+01   
13      7.80552593e-05   3.97865526e+02   5.05979166e+01   3.25335962e+00   1.18361393e+01   
14      8.80552593e-05   3.97566741e+02   5.17963760e+01   3.52777739e+00   1.20671497e+01   
15      9.80552593e-05   3.97262194e+02   5.30027350e+01   3.81410566e+00   1.22971573e+01   
16      1.08055259e-04   3.96951909e+02   5.42171146e+01   4.11250203e+00   1.25261531e+01   
17      1.18055259e-04   3.96635912e+02   5.54396312e+01   4.42311981e+00   1.27541279e+01   
18      1.28055259e-04   3.96314228e+02   5.66703971e+01   4.74610807e+00   1.29810722e+01   
19      1.38055259e-04   3.95986884e+02   5.79095195e+01   5.08161154e+00   1.32069770e+01   
20      1.48055259e-04   3.95653905e+02   5.91571014e+01   5.42977061e+00   1.34318327e+01   
21      1.58055259e-04   3.95315319e+02   6.04132412e+01   5.79072129e+00   1.36556300e+01   
22      1.68055259e-04   3.94971150e+02   6.16780325e+01   6.16459517e+00   1.38783593e+01   
23      1.78055259e-04   3.94621427e+02   6.29515645e+01   6.55151938e+00   1.41000113e+01   
24      1.88055259e-04   3.94266177e+02   6.42339216e+01   6.95161657e+00   1.43205763e+01   
25      1.98055259e-04   3.93905426e+02   6.55251837e+01   7.36500488e+00   1.45400447e+01   
26      2.08055259e-04   3.93539202e+02   6.68254258e+01   7.79179787e+00   1.47584070e+01   
27      2.18055259e-04   3.93167533e+02   6.81347183e+01   8.23210456e+00   1.49756534e+01   
28      2.28055259e-04   3.92790447e+02   6.94531269e+01   8.68602933e+00   1.51917744e+01   
29      2.38055259e-04   3.92407973e+02   7.07807125e+01   9.15367193e+00   1.54067602e+01   
30      2.48055259e-04   3.92020138e+02   7.21175315e+01   9.63512744e+00   1.56206010e+01   
31      2.58055259e-04   3.91626972e+02   7.34636351e+01   1.01304862e+01   1.58332872e+01   
32      2.68055259e-04   3.91228503e+02   7.48190702e+01   1.06398340e+01   1.60448090e+01   
33      2.78055259e-04   3.90824760e+02   7.61838785e+01   1.11632516e+01   1.62551567e+01   
34      2.88055259e-04   3.90415774e+02   7.75580971e+01   1.17008153e+01   1.64643205e+01   
35      2.98055259e-04   3.90001574e+02   7.89417583e+01   1.22525963e+01   1.66722905e+01   
36      3.08055259e-04   3.89582190e+02   8.03348896e+01   1.28186612e+01   1.68790571e+01   
37      3.18055259e-04   3.89157651e+02   8.17375136e+01   1.33990716e+01   1.70846105e+01   
38      3.28055259e-04   3.88727990e+02   8.31496480e+01   1.39938845e+01   1.72889409e+01   
39      3.38055259e-04   3.88293235e+02   8.45713059e+01   1.46031518e+01   1.74920385e+01   
40      3.48055259e-04   3.87853419e+02   8.60024953e+01   1.52269205e+01   1.76938937e+01   
41      3.58055259e-04   3.87408571e+02   8.74432196e+01   1.58652328e+01   1.78944967e+01   
42      3.68055259e-04   3.86958725e+02   8.88934771e+01   1.65181259e+01   1.80938378e+01   
43      3.78055259e-04   3.86503911e+02   9.03532616e+01   1.71856321e+01   1.82919074e+01   
44      3.88055259e-04   3.86044162e+02   9.18225616e+01   1.78677789e+01   1.84886957e+01   
45      3.98055259e-04   3.85579509e+02   9.33013612e+01   1.85645884e+01   1.86841932e+01   
46      4.08055259e-04   3.85109984e+02   9.47896395e+01   1.92760782e+01   1.88783903e+01   
47      4.18055259e-04   3.84635622e+02   9.62873706e+01   2.00022608e+01   1.90712774e+01   
48      4.28055259e-04   3.84156453e+02   9.77945240e+01   2.07431435e+01   1.92628451e+01   
49      4.38055259e-04   3.83672513e+02   9.93110645e+01   2.14987289e+01   1.94530839e+01   
50      4.48055259e-04   3.83183833e+02   1.00836952e+02   2.22690144e+01   1.96419843e+01   
51      4.58055259e-04   3.82690447e+02   1.02372141e+02   2.30539926e+01   1.98295370e+01   
52      4.68055259e-04   3.82192390e+02   1.03916582e+02   2.38536510e+01   2.00157327e+01   
53      4.78055259e-04   3.81689694e+02   1.05470221e+02   2.46679720e+01   2.02005622e+01   
54      4.88055259e-04   3.81182396e+02   1.07032998e+02   2.54969332e+01   2.03840162e+01   
55      4.98055259e-04   3.80670528e+02   1.08604850e+02   2.63405072e+01   2.05660856e+01   
56      5.08055259e-04   3.80154126e+02   1.10185707e+02   2.71986615e+01   2.07467614e+01   
57      5.18055259e-04   3.79633225e+02   1.11775497e+02   2.80713589e+01   2.09260345e+01   
58      5.28055259e-04   3.79107860e+02   1.13374141e+02   2.89585569e+01   2.11038961e+01   
59      5.38055259e-04   3.78578066e+02   1.14981557e+02   2.98602082e+01   2.12803373e+01   
60      5.48055259e-04   3.78043878e+02   1.16597658e+02   3.07762608e+01   2.14553493e+01   
61      5.58055259e-04   3.77505334e+02   1.18222352e+02   3.17066574e+01   2.16289236e+01   
62      5.68055259e-04   3.76962468e+02   1.19855542e+02   3.26513361e+01   2.18010514e+01   
63      5.78055259e-04   3.76415318e+02   1.21497127e+02   3.36102300e+01   2.19717243e+01   
64      5.88055259e-04   3.75863918e+02   1.23147003e+02   3.45832673e+01   2.21409339e+01   
65      5.98055259e-04   3.75308308e+02   1.24805059e+02   3.55703715e+01   2.23086719e+01   
66      6.08055259e-04   3.74748522e+02   1.26471181e+02   3.65714612e+01   2.24749300e+01   
67      6.18055259e-04   3.74184598e+02   1.28145251e+02   3.75864503e+01   2.26397002e+01   
68      6.28055259e-04   3.73616574e+02   1.29827146e+02   3.86152478e+01   2.28029745e+01   
69      6.38055259e-04   3.73044487e+02   1.31516738e+02   3.96577581e+01   2.29647449e+01   
70      6.48055259e-04   3.72468375e+02   1.33213896e+02   4.07138808e+01   2.31250037e+01   
71      6.58055259e-04   3.71888275e+02   1.34918484e+02   4.17835111e+01   2.32837432e+01   
72      6.68055259e-04   3.71304225e+02   1.36630363e+02   4.28665392e+01   2.34409559e+01   
73      6.78055259e-04   3.70716265e+02   1.38349388e+02   4.39628510e+01   2.35966343e+01   
74      6.88055259e-04   3.70124432e+02   1.40075412e+02   4.50723276e+01   2.37507711e+01   
75      6.98055259e-04   3.69528765e+02   1.41808282e+02   4.61948460e+01   2.39033591e+01   
76      7.08055259e-04   3.68929303e+02   1.43547844e+02   4.73302783e+01   2.40543913e+01   
77      7.18055259e-04   3.68326085e+02   1.45293935e+02   4.84784923e+01   2.42038608e+01   
78      7.28055259e-04   3.67719149e+02   1.47046395e+02   4.96393516e+01   2.43517607e+01   
79      7.38055259e-04   3.67108536e+02   1.48805053e+02   5.08127154e+01   2.44980845e+01   
80      7.48055259e-04   3.66494284e+02   1.50569740e+02   5.19984384e+01   2.46428255e+01   
81      7.58055259e-04   3.65876434e+02   1.52340281e+02   5.31963713e+01   2.47859775e+01   
82      7.68055259e-04   3.65255025e+02   1.54116497e+02   5.44063606e+01   2.49275342e+01   
83      7.78055259e-04   3.64630098e+02   1.55898206e+02   5.56282486e+01   2.50674895e+01   
84      7.88055259e-04   3.64001691e+02   1.57685223e+02   5.68618736e+01   2.52058374e+01   
85      7.98055259e-04   3.63369846e+02   1.59477359e+02   5.81070699e+01   2.53425723e+01   
86      8.08055259e-04   3.62734603e+02   1.61274422e+02   5.93636678e+01   2.54776884e+01   
87      8.18055259e-04   3.62096002e+02   1.63076215e+02   6.06314937e+01   2.56111804e+01   
88      8.28055259e-04   3.61454084e+02   1.64882542e+02   6.19103702e+01   2.57430429e+01   
89      8.38055259e-04   3.60808891e+02   1.66693199e+02   6.32001161e+01   2.58732706e+01   
90      8.48055259e-04   3.60160462e+02   1.68507982e+02   6.45005467e+01   2.60018588e+01   
91      8.58055259e-04   3.59508839e+02   1.70326683e+02   6.58114735e+01   2.61288025e+01   
92      8.68055259e-04   3.58854063e+02   1.72149092e+02   6.71327043e+01   2.62540970e+01   
93      8.78055259e-04   3.58196175e+02   1.73974995e+02   6.84640437e+01   2.63777379e+01   
94      8.88055259e-04   3.57535217e+02   1.75804176e+02   6.98052927e+01   2.64997209e+01   
95      8.98055259e-04   3.56871231e+02   1.77636416e+02   7.11562491e+01   2.66200418e+01   
96      9.08055259e-04   3.56204257e+02   1.79471494e+02   7.25167072e+01   2.67386967e+01   
97      9.18055259e-04   3.55534338e+02   1.81309185e+02   7.38864583e+01   2.68556817e+01   
98      9.28055259e-04   3.54861515e+02   1.83149264e+02   7.52652905e+01   2.69709933e+01   
99      9.38055259e-04   3.54185830e+02   1.84991501e+02   7.66529889e+01   2.70846280e+01   
100     9.48055259e-04   3.53507325e+02   1.86835666e+02   7.80493357e+01   2.71965825e+01   
101     9.58055259e-04   3.52826043e+02   1.88681525e+02   7.94541100e+01   2.73068538e+01   
102     9.68055259e-04   3.52142025e+02   1.90528844e+02   8.08670883e+01   2.74154389e+01   
103     9.78055259e-04   3.51455313e+02   1.92377386e+02   8.22880443e+01   2.75223353e+01   
104     9.88055259e-04   3.50765950e+02   1.94226910e+02   8.37167491e+01   2.76275403e+01   
105     9.98055259e-04   3.50073978e+02   1.96077178e+02   8.51529712e+01   2.77310517e+01   
106     1.00805526e-03   3.49379440e+02   1.97927946e+02   8.65964768e+01   2.78328673e+01   
107     1.01805526e-03   3.48682377e+02   1.99778961e+02   8.80470203e+01   2.79329851e+01   
108     1.02805526e-03   3.47982833e+02   2.01630002e+02   8.95043882e+01   2.80314034e+01   
109     1.03805526e-03   3.47280850e+02   2.03480807e+02   9.09683245e+01   2.81281206e+01   
110     1.04805526e-03   3.46576470e+02   2.05331115e+02   9.24385733e+01   2.82231354e+01   
111     1.05805526e-03   3.45869735e+02   2.07180693e+02   9.39149070e+01   2.83164466e+01   
112     1.06805526e-03   3.45160690e+02   2.09029286e+02   9.53970737e+01   2.84080532e+01   
113     1.07805526e-03   3.44449375e+02   2.10876642e+02   9.68848248e+01   2.84979543e+01   
114     1.08805526e-03   3.43735835e+02   2.12722508e+02   9.83779099e+01   2.85861495e+01   
115     1.09805526e-03   3.43020111e+02   2.14566630e+02   9.98760769e+01   2.86726384e+01   
116     1.10805526e-03   3.42302245e+02   2.16408755e+02   1.01379072e+02   2.87574207e+01   
117     1.11805526e-03   3.41582282e+02   2.18248626e+02   1.02886640e+02   2.88404964e+01   
118     1.12805526e-03   3.40860263e+02   2.20085988e+02   1.04398525e+02   2.89218657e+01   
119     1.13805526e-03   3.40136232e+02   2.21920586e+02   1.05914469e+02   2.90015291e+01   
120     1.14805526e-03   3.39410229e+02   2.23752161e+02   1.07434213e+02   2.90794872e+01   
121     1.15805526e-03   3.38682300e+02   2.25580459e+02   1.08957496e+02   2.91557407e+01   
122     1.16805526e-03   3.37952485e+02   2.27405221e+02   1.10484059e+02   2.92302906e+01   
123     1.17805526e-03   3.37220828e+02   2.29226191e+02   1.12013638e+02   2.93031382e+01   
124     1.18805526e-03   3.36487371e+02   2.31043111e+02   1.13545972e+02   2.93742849e+01   
125     1.19805526e-03   3.35752156e+02   2.32855725e+02   1.15080796e+02   2.94437322e+01   
126     1.20805526e-03   3.35015227e+02   2.34663775e+02   1.16617847e+02   2.95114819e+01   
127     1.21805526e-03   3.34276624e+02   2.36467005e+02   1.18156861e+02   2.95775361e+01   
128     1.22805526e-03   3.33536392e+02   2.38265159e+02   1.19697571e+02   2.96418970e+01   
129     1.23805526e-03   3.32794572e+02   2.40057981e+02   1.21239713e+02   2.97045668e+01   
130     1.24805526e-03   3.32051206e+02   2.41845216e+02   1.22783022e+02   2.97655483e+01   
131     1.25805526e-03   3.31306337e+02   2.43626609e+02   1.24327232e+02   2.98248443e+01   
132     1.26805526e-03   3.30560006e+02   2.45401907e+02   1.25872076e+02   2.98824576e+01   
133     1.27805526e-03   3.29812256e+02   2.47170856e+02   1.27417290e+02   2.99383916e+01   
134     1.28805526e-03   3.29063128e+02   2.48933206e+02   1.28962608e+02   2.99926496e+01   
135     1.29805526e-03   3.28312665e+02   2.50688705e+02   1.30507764e+02   3.00452351e+01   
136     1.30805526e-03   3.27560908e+02   2.52437102e+02   1.32052494e+02   3.00961519e+01   
137     1.31805526e-03   3.26807899e+02   2.54178150e+02   1.33596534e+02   3.01454041e+01   
138     1.32805526e-03   3.26053680e+02   2.55911601e+02   1.35139618e+02   3.01929958e+01   
139     1.33805526e-03   3.25298291e+02   2.57637210e+02   1.36681485e+02   3.02389312e+01   
140     1.34805526e-03   3.24541774e+02   2.59354731e+02   1.38221871e+02   3.02832151e+01   
141     1.35805526e-03   3.23784171e+02   2.61063922e+02   1.39760514e+02   3.03258520e+01   
142     1.36805526e-03   3.23025523e+02   2.62764541e+02   1.41297153e+02   3.03668470e+01   
143     1.37805526e-03   3.22265870e+02   2.64456350e+02   1.42831530e+02   3.04062051e+01   
144     1.38805526e-03   3.21505253e+02   2.66139110e+02   1.44363383e+02   3.04439317e+01   
145     1.39805526e-03   3.20743714e+02   2.67812585e+02   1.45892457e+02   3.04800321e+01   
146     1.40805526e-03   3.19981292e+02   2.69476542e+02   1.47418494e+02   3.05145122e+01   
147     1.41805526e-03   3.19218029e+02   2.71130749e+02   1.48941238e+02   3.05473776e+01   
148     1.42805526e-03   3.18453964e+02   2.72774975e+02   1.50460437e+02   3.05786346e+01   
149     1.43805526e-03   3.17689137e+02   2.74408994e+02   1.51975838e+02   3.06082892e+01   
150     1.44805526e-03   3.16923589e+02   2.76032581e+02   1.53487190e+02   3.06363478e+01   
151     1.45805526e-03   3.16157360e+02   2.77645511e+02   1.54994243e+02   3.06628171e+01   
152     1.46805526e-03   3.15390488e+02   2.79247566e+02   1.56496751e+02   3.06877037e+01   
153     1.47805526e-03   3.14623014e+02   2.80838527e+02   1.57994469e+02   3.07110145e+01   
154     1.48805526e-03   3.13854977e+02   2.82418178e+02   1.59487151e+02   3.07327567e+01   
155     1.49805526e-03   3.13086415e+02   2.83986307e+02   1.60974557e+02   3.07529375e+01   
156     1.50805526e-03   3.12317369e+02   2.85542704e+02   1.62456447e+02   3.07715643e+01   
157     1.51805526e-03   3.11547876e+02   2.87087161e+02   1.63932582e+02   3.07886447e+01   
158     1.52805526e-03   3.10777975e+02   2.88619474e+02   1.65402729e+02   3.08041863e+01   
159     1.53805526e-03   3.10007705e+02   2.90139442e+02   1.66866653e+02   3.08181972e+01   
160     1.54805526e-03   3.09237103e+02   2.91646866e+02   1.68324124e+02   3.08306854e+01   
161     1.55805526e-03   3.08466209e+02   2.93141550e+02   1.69774914e+02   3.08416591e+01   
162     1.56805526e-03   3.07695058e+02   2.94623302e+02   1.71218795e+02   3.08511267e+01   
163     1.57805526e-03   3.06923690e+02   2.96091932e+02   1.72655546e+02   3.08590966e+01   
164     1.58805526e-03   3.06152141e+02   2.97547255e+02   1.74084944e+02   3.08655777e+01   
165     1.59805526e-03   3.05380448e+02   2.98989087e+02   1.75506772e+02   3.08705786e+01   
166     1.60805526e-03   3.04608649e+02   3.00417248e+02   1.76920814e+02   3.08741085e+01   
167     1.61805526e-03   3.03836779e+02   3.01831563e+02   1.78326858e+02   3.08761763e+01   
168     1.62805526e-03   3.03064876e+02   3.03231858e+02   1.79724693e+02   3.08767913e+01   
169     1.63805526e-03   3.02292976e+02   3.04617964e+02   1.81114112e+02   3.08759630e+01   
170     1.64805526e-03   3.01521114e+02   3.05989714e+02   1.82494911e+02   3.08737009e+01   
171     1.65805526e-03   3.00749327e+02   3.07346947e+02   1.83866889e+02   3.08700146e+01   
172     1.66805526e-03   2.99977649e+02   3.08689494e+02   1.85229839e+02   3.08649139e+01   
173     1.67805526e-03   2.99206116e+02   3.10005982e+02   1.86572327e+02   3.08584137e+01   
174     1.68805526e-03   2.98434763e+02   3.11286682e+02   1.87884542e+02   3.08505350e+01   
175     1.69805526e-03   2.97663624e+02   3.12532071e+02   1.89166869e+02   3.08413006e+01   
176     1.70805526e-03   2.96892731e+02   3.13742631e+02   1.90419696e+02   3.08307336e+01   
177     1.71805526e-03   2.96122120e+02   3.14918833e+02   1.91643405e+02   3.08188572e+01   
178     1.72805526e-03   2.95351821e+02   3.16061145e+02   1.92838368e+02   3.08056942e+01   
179     1.73805526e-03   2.94581867e+02   3.17170022e+02   1.94004953e+02   3.07912674e+01   
180     1.74805526e-03   2.93812289e+02   3.18245915e+02   1.95143519e+02   3.07755990e+01   
181     1.75805526e-03   2.93043118e+02   3.19289265e+02   1.96254420e+02   3.07587113e+01   
182     1.76805526e-03   2.92274384e+02   3.20300507e+02   1.97338003e+02   3.07406260e+01   
183     1.77805526e-03   2.91506116e+02   3.21280080e+02   1.98394621e+02   3.07213647e+01   
184     1.78805526e-03   2.90738345e+02   3.22228384e+02   1.99424590e+02   3.07009487e+01   
185     1.79805526e-03   2.89971097e+02   3.23145848e+02   2.00428252e+02   3.06793990e+01   
186     1.80805526e-03   2.89204403e+02   3.24032880e+02   2.01405934e+02   3.06567365e+01   
187     1.81805526e-03   2.88438288e+02   3.24889887e+02   2.02357960e+02   3.06329816e+01   
188     1.82805526e-03   2.87672781e+02   3.25717267e+02   2.03284648e+02   3.06081546e+01   
189     1.83805526e-03   2.86907907e+02   3.26515415e+02   2.04186313e+02   3.05822756e+01   
190     1.84805526e-03   2.86143693e+02   3.27284722e+02   2.05063265e+02   3.05553644e+01   
191     1.85805526e-03   2.85380164e+02   3.28025573e+02   2.05915811e+02   3.05274405e+01   
192     1.86805526e-03   2.84617346e+02   3.28738349e+02   2.06744257e+02   3.04985232e+01   
193     1.87805526e-03   2.83855263e+02   3.29423427e+02   2.07548901e+02   3.04686315e+01   
194     1.88805526e-03   2.83093939e+02   3.30081180e+02   2.08330042e+02   3.04377845e+01   
195     1.89805526e-03   2.82333397e+02   3.30711976e+02   2.09087974e+02   3.04060005e+01   
196     1.90805526e-03   2.81573662e+02   3.31316180e+02   2.09822988e+02   3.03732981e+01   
197     1.91805526e-03   2.80814755e+02   3.31894154e+02   2.10535373e+02   3.03396953e+01   
198     1.92805526e-03   2.80056699e+02   3.32446255e+02   2.11225414e+02   3.03052101e+01   
199     1.93805526e-03   2.79299516e+02   3.32972837e+02   2.11893396e+02   3.02698603e+01   
200     1.94805526e-03   2.78543228e+02   3.33474250e+02   2.12539597e+02   3.02336632e+01   
201     1.95805526e-03   2.77787854e+02   3.33950841e+02   2.13164296e+02   3.01966362e+01   
202     1.96805526e-03   2.77033416e+02   3.34402955e+02   2.13767770e+02   3.01587963e+01   
203     1.97805526e-03   2.76279934e+02   3.34830931e+02   2.14350290e+02   3.01201603e+01   
204     1.98805526e-03   2.75527428e+02   3.35235107e+02   2.14912128e+02   3.00807449e+01   
205     1.99805526e-03   2.74775916e+02   3.35615818e+02   2.15453552e+02   3.00405665e+01   
206     2.00805526e-03   2.74025419e+02   3.35973393e+02   2.15974828e+02   2.99996412e+01   
207     2.01805526e-03   2.73275953e+02   3.36308161e+02   2.16476221e+02   2.99579852e+01   
208     2.02805526e-03   2.72527537e+02   3.36620448e+02   2.16957991e+02   2.99156141e+01   
209     2.03805526e-03   2.71780190e+02   3.36910574e+02   2.17420399e+02   2.98725435e+01   
210     2.04805526e-03   2.71033928e+02   3.37178858e+02   2.17863703e+02   2.98287889e+01   
