Index              V(1)           V(2)           V(3)           V(4)
0       0.00000000e+00   0.00000000e+00   0.00000000e+00   0.00000000e+00   
1       1.00000000e-01   0.00000000e+00   1.00000000e+00   5.00000000e-01   
2       2.00000000e-01   0.00000000e+00   2.00000000e+00   1.00000000e+00   
3       3.00000000e-01   0.00000000e+00   3.00000000e+00   1.50000000e+00   
4       4.00000000e-01   0.00000000e+00   4.00000000e+00   2.00000000e+00   
5       5.00000000e-01   0.00000000e+00   5.00000000e+00   2.50000000e+00   
6       6.00000000e-01   0.00000000e+00   6.00000000e+00   3.00000000e+00   
7       7.00000000e-01   0.00000000e+00   7.00000000e+00   3.50000000e+00   
8       8.00000000e-01   0.00000000e+00   8.00000000e+00   4.00000000e+00   
9       9.00000000e-01   0.00000000e+00   9.00000000e+00   4.50000000e+00   
10      1.00000000e+00   0.00000000e+00   1.00000000e+01   5.00000000e+00   
11      1.10000000e+00   0.00000000e+00   1.10000000e+01   5.50000000e+00   
12      1.20000000e+00   0.00000000e+00   1.20000000e+01   6.00000000e+00   
13      1.30000000e+00   0.00000000e+00   1.30000000e+01   6.50000000e+00   
14      1.40000000e+00   0.00000000e+00   1.40000000e+01   7.00000000e+00   
15      1.50000000e+00   0.00000000e+00   1.50000000e+01   7.50000000e+00   
16      1.60000000e+00   0.00000000e+00   1.60000000e+01   8.00000000e+00   
17      1.70000000e+00   0.00000000e+00   1.70000000e+01   8.50000000e+00   
18      1.80000000e+00   0.00000000e+00   1.80000000e+01   9.00000000e+00   
19      1.90000000e+00   0.00000000e+00   1.90000000e+01   9.50000000e+00   
20      2.00000000e+00   0.00000000e+00   2.00000000e+01   1.00000000e+01   
21      2.10000000e+00   0.00000000e+00   2.10000000e+01   1.05000000e+01   
22      2.20000000e+00   0.00000000e+00   2.20000000e+01   1.10000000e+01   
23      2.30000000e+00   0.00000000e+00   2.30000000e+01   1.15000000e+01   
24      2.40000000e+00   0.00000000e+00   2.40000000e+01   1.20000000e+01   
25      2.50000000e+00   0.00000000e+00   2.50000000e+01   1.25000000e+01   
26      2.60000000e+00   0.00000000e+00   2.60000000e+01   1.30000000e+01   
27      2.70000000e+00   0.00000000e+00   2.70000000e+01   1.35000000e+01   
28      2.80000000e+00   0.00000000e+00   2.80000000e+01   1.40000000e+01   
29      2.90000000e+00   0.00000000e+00   2.90000000e+01   1.45000000e+01   
30      3.00000000e+00   0.00000000e+00   3.00000000e+01   1.50000000e+01   
31      3.10000000e+00   0.00000000e+00   3.10000000e+01   1.55000000e+01   
32      3.20000000e+00   0.00000000e+00   3.20000000e+01   1.60000000e+01   
33      3.30000000e+00   0.00000000e+00   3.30000000e+01   1.65000000e+01   
34      3.40000000e+00   0.00000000e+00   3.40000000e+01   1.70000000e+01   
35      3.50000000e+00   0.00000000e+00   3.50000000e+01   1.75000000e+01   
36      3.60000000e+00   0.00000000e+00   3.60000000e+01   1.80000000e+01   
37      3.70000000e+00   0.00000000e+00   3.70000000e+01   1.85000000e+01   
38      3.80000000e+00   0.00000000e+00   3.80000000e+01   1.90000000e+01   
39      3.90000000e+00   0.00000000e+00   3.90000000e+01   1.95000000e+01   
40      4.00000000e+00   0.00000000e+00   4.00000000e+01   2.00000000e+01   
41      4.10000000e+00   0.00000000e+00   4.10000000e+01   2.05000000e+01   
42      4.20000000e+00   0.00000000e+00   4.20000000e+01   2.10000000e+01   
43      4.30000000e+00   0.00000000e+00   4.30000000e+01   2.15000000e+01   
44      4.40000000e+00   0.00000000e+00   4.40000000e+01   2.20000000e+01   
45      4.50000000e+00   0.00000000e+00   4.50000000e+01   2.25000000e+01   
46      4.60000000e+00   0.00000000e+00   4.60000000e+01   2.30000000e+01   
47      4.70000000e+00   0.00000000e+00   4.70000000e+01   2.35000000e+01   
48      4.80000000e+00   0.00000000e+00   4.80000000e+01   2.40000000e+01   
49      4.90000000e+00   0.00000000e+00   4.90000000e+01   2.45000000e+01   
50      5.00000000e+00   0.00000000e+00   5.00000000e+01   2.50000000e+01   
51      0.00000000e+00   1.00000000e-01   1.00000000e-02   5.00000000e-03   
52      1.00000000e-01   1.00000000e-01   1.01000000e+00   5.05000000e-01   
53      2.00000000e-01   1.00000000e-01   2.01000000e+00   1.00500000e+00   
54      3.00000000e-01   1.00000000e-01   3.01000000e+00   1.50500000e+00   
55      4.00000000e-01   1.00000000e-01   4.01000000e+00   2.00500000e+00   
56      5.00000000e-01   1.00000000e-01   5.01000000e+00   2.50500000e+00   
57      6.00000000e-01   1.00000000e-01   6.01000000e+00   3.00500000e+00   
58      7.00000000e-01   1.00000000e-01   7.01000000e+00   3.50500000e+00   
59      8.00000000e-01   1.00000000e-01   8.01000000e+00   4.00500000e+00   
60      9.00000000e-01   1.00000000e-01   9.01000000e+00   4.50500000e+00   
61      1.00000000e+00   1.00000000e-01   1.00100000e+01   5.00500000e+00   
62      1.10000000e+00   1.00000000e-01   1.10100000e+01   5.50500000e+00   
63      1.20000000e+00   1.00000000e-01   1.20100000e+01   6.00500000e+00   
64      1.30000000e+00   1.00000000e-01   1.30100000e+01   6.50500000e+00   
65      1.40000000e+00   1.00000000e-01   1.40100000e+01   7.00500000e+00   
66      1.50000000e+00   1.00000000e-01   1.50100000e+01   7.50500000e+00   
67      1.60000000e+00   1.00000000e-01   1.60100000e+01   8.00500000e+00   
68      1.70000000e+00   1.00000000e-01   1.70100000e+01   8.50500000e+00   
69      1.80000000e+00   1.00000000e-01   1.80100000e+01   9.00500000e+00   
70      1.90000000e+00   1.00000000e-01   1.90100000e+01   9.50500000e+00   
71      2.00000000e+00   1.00000000e-01   2.00100000e+01   1.00050000e+01   
72      2.10000000e+00   1.00000000e-01   2.10100000e+01   1.05050000e+01   
73      2.20000000e+00   1.00000000e-01   2.20100000e+01   1.10050000e+01   
74      2.30000000e+00   1.00000000e-01   2.30100000e+01   1.15050000e+01   
75      2.40000000e+00   1.00000000e-01   2.40100000e+01   1.20050000e+01   
76      2.50000000e+00   1.00000000e-01   2.50100000e+01   1.25050000e+01   
77      2.60000000e+00   1.00000000e-01   2.60100000e+01   1.30050000e+01   
78      2.70000000e+00   1.00000000e-01   2.70100000e+01   1.35050000e+01   
79      2.80000000e+00   1.00000000e-01   2.80100000e+01   1.40050000e+01   
80      2.90000000e+00   1.00000000e-01   2.90100000e+01   1.45050000e+01   
81      3.00000000e+00   1.00000000e-01   3.00100000e+01   1.50050000e+01   
82      3.10000000e+00   1.00000000e-01   3.10100000e+01   1.55050000e+01   
83      3.20000000e+00   1.00000000e-01   3.20100000e+01   1.60050000e+01   
84      3.30000000e+00   1.00000000e-01   3.30100000e+01   1.65050000e+01   
85      3.40000000e+00   1.00000000e-01   3.40100000e+01   1.70050000e+01   
86      3.50000000e+00   1.00000000e-01   3.50100000e+01   1.75050000e+01   
87      3.60000000e+00   1.00000000e-01   3.60100000e+01   1.80050000e+01   
88      3.70000000e+00   1.00000000e-01   3.70100000e+01   1.85050000e+01   
89      3.80000000e+00   1.00000000e-01   3.80100000e+01   1.90050000e+01   
90      3.90000000e+00   1.00000000e-01   3.90100000e+01   1.95050000e+01   
91      4.00000000e+00   1.00000000e-01   4.00100000e+01   2.00050000e+01   
92      4.10000000e+00   1.00000000e-01   4.10100000e+01   2.05050000e+01   
93      4.20000000e+00   1.00000000e-01   4.20100000e+01   2.10050000e+01   
94      4.30000000e+00   1.00000000e-01   4.30100000e+01   2.15050000e+01   
95      4.40000000e+00   1.00000000e-01   4.40100000e+01   2.20050000e+01   
96      4.50000000e+00   1.00000000e-01   4.50100000e+01   2.25050000e+01   
97      4.60000000e+00   1.00000000e-01   4.60100000e+01   2.30050000e+01   
98      4.70000000e+00   1.00000000e-01   4.70100000e+01   2.35050000e+01   
99      4.80000000e+00   1.00000000e-01   4.80100000e+01   2.40050000e+01   
100     4.90000000e+00   1.00000000e-01   4.90100000e+01   2.45050000e+01   
101     5.00000000e+00   1.00000000e-01   5.00100000e+01   2.50050000e+01   
102     0.00000000e+00   2.00000000e-01   4.00000000e-02   2.00000000e-02   
103     1.00000000e-01   2.00000000e-01   1.04000000e+00   5.20000000e-01   
104     2.00000000e-01   2.00000000e-01   2.04000000e+00   1.02000000e+00   
105     3.00000000e-01   2.00000000e-01   3.04000000e+00   1.52000000e+00   
106     4.00000000e-01   2.00000000e-01   4.04000000e+00   2.02000000e+00   
107     5.00000000e-01   2.00000000e-01   5.04000000e+00   2.52000000e+00   
108     6.00000000e-01   2.00000000e-01   6.04000000e+00   3.02000000e+00   
109     7.00000000e-01   2.00000000e-01   7.04000000e+00   3.52000000e+00   
110     8.00000000e-01   2.00000000e-01   8.04000000e+00   4.02000000e+00   
111     9.00000000e-01   2.00000000e-01   9.04000000e+00   4.52000000e+00   
112     1.00000000e+00   2.00000000e-01   1.00400000e+01   5.02000000e+00   
113     1.10000000e+00   2.00000000e-01   1.10400000e+01   5.52000000e+00   
114     1.20000000e+00   2.00000000e-01   1.20400000e+01   6.02000000e+00   
115     1.30000000e+00   2.00000000e-01   1.30400000e+01   6.52000000e+00   
116     1.40000000e+00   2.00000000e-01   1.40400000e+01   7.02000000e+00   
117     1.50000000e+00   2.00000000e-01   1.50400000e+01   7.52000000e+00   
118     1.60000000e+00   2.00000000e-01   1.60400000e+01   8.02000000e+00   
119     1.70000000e+00   2.00000000e-01   1.70400000e+01   8.52000000e+00   
120     1.80000000e+00   2.00000000e-01   1.80400000e+01   9.02000000e+00   
121     1.90000000e+00   2.00000000e-01   1.90400000e+01   9.52000000e+00   
122     2.00000000e+00   2.00000000e-01   2.00400000e+01   1.00200000e+01   
123     2.10000000e+00   2.00000000e-01   2.10400000e+01   1.05200000e+01   
124     2.20000000e+00   2.00000000e-01   2.20400000e+01   1.10200000e+01   
125     2.30000000e+00   2.00000000e-01   2.30400000e+01   1.15200000e+01   
126     2.40000000e+00   2.00000000e-01   2.40400000e+01   1.20200000e+01   
127     2.50000000e+00   2.00000000e-01   2.50400000e+01   1.25200000e+01   
128     2.60000000e+00   2.00000000e-01   2.60400000e+01   1.30200000e+01   
129     2.70000000e+00   2.00000000e-01   2.70400000e+01   1.35200000e+01   
130     2.80000000e+00   2.00000000e-01   2.80400000e+01   1.40200000e+01   
131     2.90000000e+00   2.00000000e-01   2.90400000e+01   1.45200000e+01   
132     3.00000000e+00   2.00000000e-01   3.00400000e+01   1.50200000e+01   
133     3.10000000e+00   2.00000000e-01   3.10400000e+01   1.55200000e+01   
134     3.20000000e+00   2.00000000e-01   3.20400000e+01   1.60200000e+01   
135     3.30000000e+00   2.00000000e-01   3.30400000e+01   1.65200000e+01   
136     3.40000000e+00   2.00000000e-01   3.40400000e+01   1.70200000e+01   
137     3.50000000e+00   2.00000000e-01   3.50400000e+01   1.75200000e+01   
138     3.60000000e+00   2.00000000e-01   3.60400000e+01   1.80200000e+01   
139     3.70000000e+00   2.00000000e-01   3.70400000e+01   1.85200000e+01   
140     3.80000000e+00   2.00000000e-01   3.80400000e+01   1.90200000e+01   
141     3.90000000e+00   2.00000000e-01   3.90400000e+01   1.95200000e+01   
142     4.00000000e+00   2.00000000e-01   4.00400000e+01   2.00200000e+01   
143     4.10000000e+00   2.00000000e-01   4.10400000e+01   2.05200000e+01   
144     4.20000000e+00   2.00000000e-01   4.20400000e+01   2.10200000e+01   
145     4.30000000e+00   2.00000000e-01   4.30400000e+01   2.15200000e+01   
146     4.40000000e+00   2.00000000e-01   4.40400000e+01   2.20200000e+01   
147     4.50000000e+00   2.00000000e-01   4.50400000e+01   2.25200000e+01   
148     4.60000000e+00   2.00000000e-01   4.60400000e+01   2.30200000e+01   
149     4.70000000e+00   2.00000000e-01   4.70400000e+01   2.35200000e+01   
150     4.80000000e+00   2.00000000e-01   4.80400000e+01   2.40200000e+01   
151     4.90000000e+00   2.00000000e-01   4.90400000e+01   2.45200000e+01   
152     5.00000000e+00   2.00000000e-01   5.00400000e+01   2.50200000e+01   
153     0.00000000e+00   3.00000000e-01   9.00000000e-02   4.50000000e-02   
154     1.00000000e-01   3.00000000e-01   1.09000000e+00   5.45000000e-01   
155     2.00000000e-01   3.00000000e-01   2.09000000e+00   1.04500000e+00   
156     3.00000000e-01   3.00000000e-01   3.09000000e+00   1.54500000e+00   
157     4.00000000e-01   3.00000000e-01   4.09000000e+00   2.04500000e+00   
158     5.00000000e-01   3.00000000e-01   5.09000000e+00   2.54500000e+00   
159     6.00000000e-01   3.00000000e-01   6.09000000e+00   3.04500000e+00   
160     7.00000000e-01   3.00000000e-01   7.09000000e+00   3.54500000e+00   
161     8.00000000e-01   3.00000000e-01   8.09000000e+00   4.04500000e+00   
162     9.00000000e-01   3.00000000e-01   9.09000000e+00   4.54500000e+00   
163     1.00000000e+00   3.00000000e-01   1.00900000e+01   5.04500000e+00   
164     1.10000000e+00   3.00000000e-01   1.10900000e+01   5.54500000e+00   
165     1.20000000e+00   3.00000000e-01   1.20900000e+01   6.04500000e+00   
166     1.30000000e+00   3.00000000e-01   1.30900000e+01   6.54500000e+00   
167     1.40000000e+00   3.00000000e-01   1.40900000e+01   7.04500000e+00   
168     1.50000000e+00   3.00000000e-01   1.50900000e+01   7.54500000e+00   
169     1.60000000e+00   3.00000000e-01   1.60900000e+01   8.04500000e+00   
170     1.70000000e+00   3.00000000e-01   1.70900000e+01   8.54500000e+00   
171     1.80000000e+00   3.00000000e-01   1.80900000e+01   9.04500000e+00   
172     1.90000000e+00   3.00000000e-01   1.90900000e+01   9.54500000e+00   
173     2.00000000e+00   3.00000000e-01   2.00900000e+01   1.00450000e+01   
174     2.10000000e+00   3.00000000e-01   2.10900000e+01   1.05450000e+01   
175     2.20000000e+00   3.00000000e-01   2.20900000e+01   1.10450000e+01   
176     2.30000000e+00   3.00000000e-01   2.30900000e+01   1.15450000e+01   
177     2.40000000e+00   3.00000000e-01   2.40900000e+01   1.20450000e+01   
178     2.50000000e+00   3.00000000e-01   2.50900000e+01   1.25450000e+01   
179     2.60000000e+00   3.00000000e-01   2.60900000e+01   1.30450000e+01   
180     2.70000000e+00   3.00000000e-01   2.70900000e+01   1.35450000e+01   
181     2.80000000e+00   3.00000000e-01   2.80900000e+01   1.40450000e+01   
182     2.90000000e+00   3.00000000e-01   2.90900000e+01   1.45450000e+01   
183     3.00000000e+00   3.00000000e-01   3.00900000e+01   1.50450000e+01   
184     3.10000000e+00   3.00000000e-01   3.10900000e+01   1.55450000e+01   
185     3.20000000e+00   3.00000000e-01   3.20900000e+01   1.60450000e+01   
186     3.30000000e+00   3.00000000e-01   3.30900000e+01   1.65450000e+01   
187     3.40000000e+00   3.00000000e-01   3.40900000e+01   1.70450000e+01   
188     3.50000000e+00   3.00000000e-01   3.50900000e+01   1.75450000e+01   
189     3.60000000e+00   3.00000000e-01   3.60900000e+01   1.80450000e+01   
190     3.70000000e+00   3.00000000e-01   3.70900000e+01   1.85450000e+01   
191     3.80000000e+00   3.00000000e-01   3.80900000e+01   1.90450000e+01   
192     3.90000000e+00   3.00000000e-01   3.90900000e+01   1.95450000e+01   
193     4.00000000e+00   3.00000000e-01   4.00900000e+01   2.00450000e+01   
194     4.10000000e+00   3.00000000e-01   4.10900000e+01   2.05450000e+01   
195     4.20000000e+00   3.00000000e-01   4.20900000e+01   2.10450000e+01   
196     4.30000000e+00   3.00000000e-01   4.30900000e+01   2.15450000e+01   
197     4.40000000e+00   3.00000000e-01   4.40900000e+01   2.20450000e+01   
198     4.50000000e+00   3.00000000e-01   4.50900000e+01   2.25450000e+01   
199     4.60000000e+00   3.00000000e-01   4.60900000e+01   2.30450000e+01   
200     4.70000000e+00   3.00000000e-01   4.70900000e+01   2.35450000e+01   
201     4.80000000e+00   3.00000000e-01   4.80900000e+01   2.40450000e+01   
202     4.90000000e+00   3.00000000e-01   4.90900000e+01   2.45450000e+01   
203     5.00000000e+00   3.00000000e-01   5.00900000e+01   2.50450000e+01   
204     0.00000000e+00   4.00000000e-01   1.60000000e-01   8.00000000e-02   
205     1.00000000e-01   4.00000000e-01   1.16000000e+00   5.80000000e-01   
206     2.00000000e-01   4.00000000e-01   2.16000000e+00   1.08000000e+00   
207     3.00000000e-01   4.00000000e-01   3.16000000e+00   1.58000000e+00   
208     4.00000000e-01   4.00000000e-01   4.16000000e+00   2.08000000e+00   
209     5.00000000e-01   4.00000000e-01   5.16000000e+00   2.58000000e+00   
210     6.00000000e-01   4.00000000e-01   6.16000000e+00   3.08000000e+00   
211     7.00000000e-01   4.00000000e-01   7.16000000e+00   3.58000000e+00   
212     8.00000000e-01   4.00000000e-01   8.16000000e+00   4.08000000e+00   
213     9.00000000e-01   4.00000000e-01   9.16000000e+00   4.58000000e+00   
214     1.00000000e+00   4.00000000e-01   1.01600000e+01   5.08000000e+00   
215     1.10000000e+00   4.00000000e-01   1.11600000e+01   5.58000000e+00   
216     1.20000000e+00   4.00000000e-01   1.21600000e+01   6.08000000e+00   
217     1.30000000e+00   4.00000000e-01   1.31600000e+01   6.58000000e+00   
218     1.40000000e+00   4.00000000e-01   1.41600000e+01   7.08000000e+00   
219     1.50000000e+00   4.00000000e-01   1.51600000e+01   7.58000000e+00   
220     1.60000000e+00   4.00000000e-01   1.61600000e+01   8.08000000e+00   
221     1.70000000e+00   4.00000000e-01   1.71600000e+01   8.58000000e+00   
222     1.80000000e+00   4.00000000e-01   1.81600000e+01   9.08000000e+00   
223     1.90000000e+00   4.00000000e-01   1.91600000e+01   9.58000000e+00   
224     2.00000000e+00   4.00000000e-01   2.01600000e+01   1.00800000e+01   
225     2.10000000e+00   4.00000000e-01   2.11600000e+01   1.05800000e+01   
226     2.20000000e+00   4.00000000e-01   2.21600000e+01   1.10800000e+01   
227     2.30000000e+00   4.00000000e-01   2.31600000e+01   1.15800000e+01   
228     2.40000000e+00   4.00000000e-01   2.41600000e+01   1.20800000e+01   
229     2.50000000e+00   4.00000000e-01   2.51600000e+01   1.25800000e+01   
230     2.60000000e+00   4.00000000e-01   2.61600000e+01   1.30800000e+01   
231     2.70000000e+00   4.00000000e-01   2.71600000e+01   1.35800000e+01   
232     2.80000000e+00   4.00000000e-01   2.81600000e+01   1.40800000e+01   
233     2.90000000e+00   4.00000000e-01   2.91600000e+01   1.45800000e+01   
234     3.00000000e+00   4.00000000e-01   3.01600000e+01   1.50800000e+01   
235     3.10000000e+00   4.00000000e-01   3.11600000e+01   1.55800000e+01   
236     3.20000000e+00   4.00000000e-01   3.21600000e+01   1.60800000e+01   
237     3.30000000e+00   4.00000000e-01   3.31600000e+01   1.65800000e+01   
238     3.40000000e+00   4.00000000e-01   3.41600000e+01   1.70800000e+01   
239     3.50000000e+00   4.00000000e-01   3.51600000e+01   1.75800000e+01   
240     3.60000000e+00   4.00000000e-01   3.61600000e+01   1.80800000e+01   
241     3.70000000e+00   4.00000000e-01   3.71600000e+01   1.85800000e+01   
242     3.80000000e+00   4.00000000e-01   3.81600000e+01   1.90800000e+01   
243     3.90000000e+00   4.00000000e-01   3.91600000e+01   1.95800000e+01   
244     4.00000000e+00   4.00000000e-01   4.01600000e+01   2.00800000e+01   
245     4.10000000e+00   4.00000000e-01   4.11600000e+01   2.05800000e+01   
246     4.20000000e+00   4.00000000e-01   4.21600000e+01   2.10800000e+01   
247     4.30000000e+00   4.00000000e-01   4.31600000e+01   2.15800000e+01   
248     4.40000000e+00   4.00000000e-01   4.41600000e+01   2.20800000e+01   
249     4.50000000e+00   4.00000000e-01   4.51600000e+01   2.25800000e+01   
250     4.60000000e+00   4.00000000e-01   4.61600000e+01   2.30800000e+01   
251     4.70000000e+00   4.00000000e-01   4.71600000e+01   2.35800000e+01   
252     4.80000000e+00   4.00000000e-01   4.81600000e+01   2.40800000e+01   
253     4.90000000e+00   4.00000000e-01   4.91600000e+01   2.45800000e+01   
254     5.00000000e+00   4.00000000e-01   5.01600000e+01   2.50800000e+01   
255     0.00000000e+00   5.00000000e-01   2.50000000e-01   1.25000000e-01   
256     1.00000000e-01   5.00000000e-01   1.25000000e+00   6.25000000e-01   
257     2.00000000e-01   5.00000000e-01   2.25000000e+00   1.12500000e+00   
