Index       FREQ          {LOG(INOISE)}     {LOG(ONOISE)}    {LOG(DNI(D1))}    {LOG(DNO(D2))}    {LOG(DNI(D2))}    {LOG(DNO(D2))}   {LOG(DNO(D1,FLICKER_A_AIK_FLICKER))} {LOG(DNO(D1,WHITE_AIK_K_THERMAL))} {LOG(DNO(D1,WHITE_A_AIK_SHOT))}
0        1.00000000e+02   -1.59300521e+01   -1.65461083e+01   -1.85617189e+01   -2.11357727e+01   -2.05197165e+01   -2.11357727e+01   -1.00000000e+50   -1.00000000e+50   -1.91777751e+01
1        1.58489319e+02   -1.61888286e+01   -1.67406302e+01   -1.85617189e+01   -2.10715181e+01   -2.05197165e+01   -2.10715181e+01   -1.00000000e+50   -1.00000000e+50   -1.91135206e+01
2        2.51188643e+02   -1.63590687e+01   -1.68823870e+01   -1.85617189e+01   -2.10430348e+01   -2.05197165e+01   -2.10430348e+01   -1.00000000e+50   -1.00000000e+50   -1.90850372e+01
3        3.98107171e+02   -1.64511536e+01   -1.69625913e+01   -1.85617189e+01   -2.10311542e+01   -2.05197165e+01   -2.10311542e+01   -1.00000000e+50   -1.00000000e+50   -1.90731566e+01
4        6.30957344e+02   -1.64940390e+01   -1.70006551e+01   -1.85617189e+01   -2.10263325e+01   -2.05197165e+01   -2.10263325e+01   -1.00000000e+50   -1.00000000e+50   -1.90683349e+01
5        1.00000000e+03   -1.65123647e+01   -1.70170462e+01   -1.85617189e+01   -2.10243980e+01   -2.05197165e+01   -2.10243980e+01   -1.00000000e+50   -1.00000000e+50   -1.90664004e+01
6        1.58489319e+03   -1.65198811e+01   -1.70237900e+01   -1.85617189e+01   -2.10236254e+01   -2.05197165e+01   -2.10236254e+01   -1.00000000e+50   -1.00000000e+50   -1.90656278e+01
7        2.51188643e+03   -1.65229100e+01   -1.70265109e+01   -1.85617189e+01   -2.10233175e+01   -2.05197165e+01   -2.10233175e+01   -1.00000000e+50   -1.00000000e+50   -1.90653199e+01
8        3.98107171e+03   -1.65241217e+01   -1.70276000e+01   -1.85617189e+01   -2.10231948e+01   -2.05197165e+01   -2.10231948e+01   -1.00000000e+50   -1.00000000e+50   -1.90651972e+01
9        6.30957344e+03   -1.65246050e+01   -1.70280345e+01   -1.85617189e+01   -2.10231460e+01   -2.05197165e+01   -2.10231460e+01   -1.00000000e+50   -1.00000000e+50   -1.90651484e+01
10       1.00000000e+04   -1.65247976e+01   -1.70282076e+01   -1.85617189e+01   -2.10231265e+01   -2.05197165e+01   -2.10231265e+01   -1.00000000e+50   -1.00000000e+50   -1.90651289e+01
11       1.58489319e+04   -1.65248743e+01   -1.70282766e+01   -1.85617189e+01   -2.10231188e+01   -2.05197165e+01   -2.10231188e+01   -1.00000000e+50   -1.00000000e+50   -1.90651212e+01
12       2.51188643e+04   -1.65249048e+01   -1.70283040e+01   -1.85617189e+01   -2.10231157e+01   -2.05197165e+01   -2.10231157e+01   -1.00000000e+50   -1.00000000e+50   -1.90651181e+01
13       3.98107171e+04   -1.65249170e+01   -1.70283150e+01   -1.85617189e+01   -2.10231145e+01   -2.05197165e+01   -2.10231145e+01   -1.00000000e+50   -1.00000000e+50   -1.90651169e+01
14       6.30957344e+04   -1.65249218e+01   -1.70283193e+01   -1.85617189e+01   -2.10231140e+01   -2.05197165e+01   -2.10231140e+01   -1.00000000e+50   -1.00000000e+50   -1.90651164e+01
15       1.00000000e+05   -1.65249238e+01   -1.70283210e+01   -1.85617189e+01   -2.10231138e+01   -2.05197165e+01   -2.10231138e+01   -1.00000000e+50   -1.00000000e+50   -1.90651162e+01
16       1.58489319e+05   -1.65249245e+01   -1.70283217e+01   -1.85617189e+01   -2.10231137e+01   -2.05197165e+01   -2.10231137e+01   -1.00000000e+50   -1.00000000e+50   -1.90651161e+01
17       2.51188643e+05   -1.65249248e+01   -1.70283220e+01   -1.85617189e+01   -2.10231137e+01   -2.05197165e+01   -2.10231137e+01   -1.00000000e+50   -1.00000000e+50   -1.90651161e+01
18       3.98107171e+05   -1.65249250e+01   -1.70283221e+01   -1.85617189e+01   -2.10231137e+01   -2.05197165e+01   -2.10231137e+01   -1.00000000e+50   -1.00000000e+50   -1.90651161e+01
19       6.30957344e+05   -1.65249250e+01   -1.70283222e+01   -1.85617189e+01   -2.10231137e+01   -2.05197165e+01   -2.10231137e+01   -1.00000000e+50   -1.00000000e+50   -1.90651161e+01
20       1.00000000e+06   -1.65249250e+01   -1.70283222e+01   -1.85617189e+01   -2.10231137e+01   -2.05197165e+01   -2.10231137e+01   -1.00000000e+50   -1.00000000e+50   -1.90651161e+01
21       1.58489319e+06   -1.65249250e+01   -1.70283222e+01   -1.85617189e+01   -2.10231137e+01   -2.05197165e+01   -2.10231137e+01   -1.00000000e+50   -1.00000000e+50   -1.90651161e+01
22       2.51188643e+06   -1.65249250e+01   -1.70283222e+01   -1.85617189e+01   -2.10231137e+01   -2.05197165e+01   -2.10231137e+01   -1.00000000e+50   -1.00000000e+50   -1.90651161e+01
23       3.98107171e+06   -1.65249250e+01   -1.70283222e+01   -1.85617189e+01   -2.10231137e+01   -2.05197165e+01   -2.10231137e+01   -1.00000000e+50   -1.00000000e+50   -1.90651161e+01
24       6.30957344e+06   -1.65249250e+01   -1.70283222e+01   -1.85617189e+01   -2.10231137e+01   -2.05197165e+01   -2.10231137e+01   -1.00000000e+50   -1.00000000e+50   -1.90651161e+01
25       1.00000000e+07   -1.65249250e+01   -1.70283222e+01   -1.85617189e+01   -2.10231137e+01   -2.05197165e+01   -2.10231137e+01   -1.00000000e+50   -1.00000000e+50   -1.90651161e+01
26       1.58489319e+07   -1.65249250e+01   -1.70283222e+01   -1.85617189e+01   -2.10231137e+01   -2.05197165e+01   -2.10231137e+01   -1.00000000e+50   -1.00000000e+50   -1.90651161e+01
27       2.51188643e+07   -1.65249250e+01   -1.70283222e+01   -1.85617189e+01   -2.10231137e+01   -2.05197165e+01   -2.10231137e+01   -1.00000000e+50   -1.00000000e+50   -1.90651161e+01
28       3.98107171e+07   -1.65249250e+01   -1.70283222e+01   -1.85617189e+01   -2.10231137e+01   -2.05197165e+01   -2.10231137e+01   -1.00000000e+50   -1.00000000e+50   -1.90651161e+01
29       6.30957344e+07   -1.65249250e+01   -1.70283223e+01   -1.85617189e+01   -2.10231137e+01   -2.05197165e+01   -2.10231137e+01   -1.00000000e+50   -1.00000000e+50   -1.90651162e+01
30       1.00000000e+08   -1.65249250e+01   -1.70283224e+01   -1.85617189e+01   -2.10231138e+01   -2.05197165e+01   -2.10231138e+01   -1.00000000e+50   -1.00000000e+50   -1.90651163e+01
End of Xyce(TM) Simulation
