Index       V(G)              V(D)        {N(M1:IDS)+N(M1:IDEDGE)+N(M1:IDB)-N(M1:IGD)} {((N(M2:IDS)+N(M2:IDEDGE)+N(M2:IDB)-N(M2:IGD))-(N(M1:IDS)+N(M1:IDEDGE)+N(M1:IDB)-N(M1:IGD)))/(V(G2)-V(G))}     N(M1:GM)      {N(M1:GM)-{((N(M2:IDS)+N(M2:IDEDGE)+N(M2:IDB)-N(M2:IGD))-(N(M1:IDS)+N(M1:IDEDGE)+N(M1:IDB)-N(M1:IGD)))/(V(G2)-V(G))}}     N(M1:VTH)         N(M1:VDS)         N(M1:VSB)         N(M1:VGS)        N(M1:VDSS)    
0       -1.00000000e+00    5.00000000e-02    3.39795692e-03   -9.97465994e-10   -9.88466664e-10    0.00000000e+00    4.28534715e-01    5.00000000e-02    1.00000000e+00   -1.00000000e+00    1.21141022e-01
1       -9.90000000e-01    5.00000000e-02    3.39795691e-03   -9.63735260e-10   -9.78955401e-10    0.00000000e+00    4.28534715e-01    5.00000000e-02    1.00000000e+00   -9.90000000e-01    1.21141022e-01
2       -9.80000000e-01    5.00000000e-02    3.39795690e-03   -9.73569294e-10   -9.69743523e-10    0.00000000e+00    4.28534715e-01    5.00000000e-02    1.00000000e+00   -9.80000000e-01    1.21141022e-01
3       -9.70000000e-01    5.00000000e-02    3.39795689e-03   -9.38896724e-10   -9.60727150e-10    0.00000000e+00    4.28534715e-01    5.00000000e-02    1.00000000e+00   -9.70000000e-01    1.21141022e-01
4       -9.60000000e-01    5.00000000e-02    3.39795688e-03   -9.48676899e-10   -9.51822730e-10    0.00000000e+00    4.28534715e-01    5.00000000e-02    1.00000000e+00   -9.60000000e-01    1.21141022e-01
5       -9.50000000e-01    5.00000000e-02    3.39795687e-03   -9.58662973e-10   -9.42963677e-10    0.00000000e+00    4.28534715e-01    5.00000000e-02    1.00000000e+00   -9.50000000e-01    1.21141022e-01
6       -9.40000000e-01    5.00000000e-02    3.39795687e-03   -9.22725253e-10   -9.34097500e-10    0.00000000e+00    4.28534715e-01    5.00000000e-02    1.00000000e+00   -9.40000000e-01    1.21141022e-01
7       -9.30000000e-01    5.00000000e-02    3.39795686e-03   -9.32647031e-10   -9.25183371e-10    0.00000000e+00    4.28534715e-01    5.00000000e-02    1.00000000e+00   -9.30000000e-01    1.21141022e-01
8       -9.20000000e-01    5.00000000e-02    3.39795685e-03   -8.95645274e-10   -9.16190066e-10    0.00000000e+00    4.28534715e-01    5.00000000e-02    1.00000000e+00   -9.20000000e-01    1.21141022e-01
9       -9.10000000e-01    5.00000000e-02    3.39795684e-03   -9.05487531e-10   -9.07094241e-10    0.00000000e+00    4.28534715e-01    5.00000000e-02    1.00000000e+00   -9.10000000e-01    1.21141022e-01
10      -9.00000000e-01    5.00000000e-02    3.39795683e-03   -9.15548505e-10   -8.97878982e-10    0.00000000e+00    4.28534715e-01    5.00000000e-02    1.00000000e+00   -9.00000000e-01    1.21141022e-01
11      -8.90000000e-01    5.00000000e-02    3.39795682e-03   -8.77107380e-10   -8.88532595e-10    0.00000000e+00    4.28534715e-01    5.00000000e-02    1.00000000e+00   -8.90000000e-01    1.21141022e-01
12      -8.80000000e-01    5.00000000e-02    3.39795681e-03   -8.87074510e-10   -8.79047609e-10    0.00000000e+00    4.28534715e-01    5.00000000e-02    1.00000000e+00   -8.80000000e-01    1.21141022e-01
13      -8.70000000e-01    5.00000000e-02    3.39795680e-03   -8.97270758e-10   -8.69419948e-10    0.00000000e+00    4.28534715e-01    5.00000000e-02    1.00000000e+00   -8.70000000e-01    1.21141022e-01
14      -8.60000000e-01    5.00000000e-02    3.39795679e-03   -8.57276132e-10   -8.59648249e-10    0.00000000e+00    4.28534715e-01    5.00000000e-02    1.00000000e+00   -8.60000000e-01    1.21141022e-01
15      -8.50000000e-01    5.00000000e-02    3.39795678e-03   -8.67361734e-10   -8.49733311e-10    0.00000000e+00    4.28534715e-01    5.00000000e-02    1.00000000e+00   -8.50000000e-01    1.21141022e-01
16      -8.40000000e-01    5.00000000e-02    3.39795678e-03   -8.26058795e-10   -8.39677642e-10    0.00000000e+00    4.28534715e-01    5.00000000e-02    1.00000000e+00   -8.40000000e-01    1.21141022e-01
17      -8.30000000e-01    5.00000000e-02    3.39795677e-03   -8.36011312e-10   -8.29485090e-10    0.00000000e+00    4.28534715e-01    5.00000000e-02    1.00000000e+00   -8.30000000e-01    1.21141022e-01
18      -8.20000000e-01    5.00000000e-02    3.39795676e-03   -8.46206572e-10   -8.19160552e-10    0.00000000e+00    4.28534715e-01    5.00000000e-02    1.00000000e+00   -8.20000000e-01    1.21141022e-01
19      -8.10000000e-01    5.00000000e-02    3.39795675e-03   -8.03112720e-10   -8.08709738e-10    0.00000000e+00    4.28534715e-01    5.00000000e-02    1.00000000e+00   -8.10000000e-01    1.21141022e-01
20      -8.00000000e-01    5.00000000e-02    3.39795674e-03   -8.13151630e-10   -7.98138977e-10    0.00000000e+00    4.28534715e-01    5.00000000e-02    1.00000000e+00   -8.00000000e-01    1.21141022e-01
21      -7.90000000e-01    5.00000000e-02    3.39795674e-03   -7.68548377e-10   -7.87455076e-10    0.00000000e+00    4.28534715e-01    5.00000000e-02    1.00000000e+00   -7.90000000e-01    1.21141022e-01
22      -7.80000000e-01    5.00000000e-02    3.39795673e-03   -7.78401562e-10   -7.76665193e-10    0.00000000e+00    4.28534715e-01    5.00000000e-02    1.00000000e+00   -7.80000000e-01    1.21141022e-01
23      -7.70000000e-01    5.00000000e-02    3.39795672e-03   -7.32188483e-10   -7.65776748e-10    0.00000000e+00    4.28534715e-01    5.00000000e-02    1.00000000e+00   -7.70000000e-01    1.21141022e-01
24      -7.60000000e-01    5.00000000e-02    3.39795671e-03   -7.98885815e-10   -7.54797349e-10    0.00000000e+00    4.28534715e-01    5.00000000e-02    1.00000000e+00   -7.60000000e-01    1.21141022e-01
25      -7.50000000e-01    5.00000000e-02    3.39795671e-03   -7.51713511e-10   -7.43734733e-10    0.00000000e+00    4.28534715e-01    5.00000000e-02    1.00000000e+00   -7.50000000e-01    1.21141022e-01
26      -7.40000000e-01    5.00000000e-02    3.39795670e-03   -7.61871802e-10   -7.32596721e-10    0.00000000e+00    4.28534715e-01    5.00000000e-02    1.00000000e+00   -7.40000000e-01    1.21141022e-01
27      -7.30000000e-01    5.00000000e-02    3.39795669e-03   -7.72308392e-10   -7.21391181e-10    0.00000000e+00    4.28534715e-01    5.00000000e-02    1.00000000e+00   -7.30000000e-01    1.21141022e-01
28      -7.20000000e-01    5.00000000e-02    3.39795668e-03   -7.22801444e-10   -7.10126004e-10    0.00000000e+00    4.28534715e-01    5.00000000e-02    1.00000000e+00   -7.20000000e-01    1.21141022e-01
29      -7.10000000e-01    5.00000000e-02    3.39795668e-03   -7.32981747e-10   -6.98809075e-10    0.00000000e+00    4.28534715e-01    5.00000000e-02    1.00000000e+00   -7.10000000e-01    1.21141022e-01
30      -7.00000000e-01    5.00000000e-02    3.39795667e-03   -6.81498506e-10   -6.87448260e-10    0.00000000e+00    4.28534715e-01    5.00000000e-02    1.00000000e+00   -7.00000000e-01    1.21141022e-01
31      -6.90000000e-01    5.00000000e-02    3.39795666e-03   -6.91375297e-10   -6.76051389e-10    0.00000000e+00    4.28534715e-01    5.00000000e-02    1.00000000e+00   -6.90000000e-01    1.21141022e-01
32      -6.80000000e-01    5.00000000e-02    3.39795666e-03   -6.37765983e-10   -6.64626244e-10    0.00000000e+00    4.28534715e-01    5.00000000e-02    1.00000000e+00   -6.80000000e-01    1.21141022e-01
33      -6.70000000e-01    5.00000000e-02    3.39795665e-03   -7.12013367e-10   -6.53180552e-10    0.00000000e+00    4.28534715e-01    5.00000000e-02    1.00000000e+00   -6.70000000e-01    1.21141022e-01
34      -6.60000000e-01    5.00000000e-02    3.39795664e-03   -6.57092227e-10   -6.41721971e-10    0.00000000e+00    4.28534715e-01    5.00000000e-02    1.00000000e+00   -6.60000000e-01    1.21141022e-01
35      -6.50000000e-01    5.00000000e-02    3.39795664e-03   -6.00481205e-10   -6.30258087e-10    0.00000000e+00    4.28534715e-01    5.00000000e-02    1.00000000e+00   -6.50000000e-01    1.21141022e-01
36      -6.40000000e-01    5.00000000e-02    3.39795663e-03   -6.09863724e-10   -6.18796410e-10    0.00000000e+00    4.28534715e-01    5.00000000e-02    1.00000000e+00   -6.40000000e-01    1.21141022e-01
37      -6.30000000e-01    5.00000000e-02    3.39795662e-03   -6.19544102e-10   -6.07344362e-10    0.00000000e+00    4.28534715e-01    5.00000000e-02    1.00000000e+00   -6.30000000e-01    1.21141022e-01
38      -6.20000000e-01    5.00000000e-02    3.39795662e-03   -5.59588222e-10   -5.95909278e-10    0.00000000e+00    4.28534715e-01    5.00000000e-02    1.00000000e+00   -6.20000000e-01    1.21141022e-01
39      -6.10000000e-01    5.00000000e-02    3.39795661e-03   -5.68761800e-10   -5.84498401e-10    0.00000000e+00    4.28534715e-01    5.00000000e-02    1.00000000e+00   -6.10000000e-01    1.21141022e-01
40      -6.00000000e-01    5.00000000e-02    3.39795661e-03   -5.78241154e-10   -5.73118877e-10    0.00000000e+00    4.28534715e-01    5.00000000e-02    1.00000000e+00   -6.00000000e-01    1.21141022e-01
41      -5.90000000e-01    5.00000000e-02    3.39795660e-03   -5.88041852e-10   -5.61777755e-10    0.00000000e+00    4.28534715e-01    5.00000000e-02    1.00000000e+00   -5.90000000e-01    1.21141022e-01
42      -5.80000000e-01    5.00000000e-02    3.39795660e-03   -5.23407942e-10   -5.50481984e-10    0.00000000e+00    4.28534715e-01    5.00000000e-02    1.00000000e+00   -5.80000000e-01    1.21141022e-01
43      -5.70000000e-01    5.00000000e-02    3.39795659e-03   -5.32590538e-10   -5.39238412e-10    0.00000000e+00    4.28534715e-01    5.00000000e-02    1.00000000e+00   -5.70000000e-01    1.21141022e-01
44      -5.60000000e-01    5.00000000e-02    3.39795658e-03   -5.42101084e-10   -5.28053785e-10    0.00000000e+00    4.28534715e-01    5.00000000e-02    1.00000000e+00   -5.60000000e-01    1.21141022e-01
45      -5.50000000e-01    5.00000000e-02    3.39795658e-03   -4.73106402e-10   -5.16934748e-10    0.00000000e+00    4.28534715e-01    5.00000000e-02    1.00000000e+00   -5.50000000e-01    1.21141022e-01
46      -5.40000000e-01    5.00000000e-02    3.39795657e-03   -5.62178904e-10   -5.05887845e-10    0.00000000e+00    4.28534715e-01    5.00000000e-02    1.00000000e+00   -5.40000000e-01    1.21141022e-01
47      -5.30000000e-01    5.00000000e-02    3.39795657e-03   -4.90959475e-10   -4.94919523e-10    0.00000000e+00    4.28534715e-01    5.00000000e-02    1.00000000e+00   -5.30000000e-01    1.21141022e-01
48      -5.20000000e-01    5.00000000e-02    3.39795656e-03   -4.17000837e-10   -4.84036130e-10    0.00000000e+00    4.28534715e-01    5.00000000e-02    1.00000000e+00   -5.20000000e-01    1.21141022e-01
49      -5.10000000e-01    5.00000000e-02    3.39795656e-03   -4.25177324e-10   -4.73243922e-10    0.00000000e+00    4.28534715e-01    5.00000000e-02    1.00000000e+00   -5.10000000e-01    1.21141022e-01
50      -5.00000000e-01    5.00000000e-02    3.39795655e-03   -4.33680867e-10   -4.62549061e-10    0.00000000e+00    4.28534715e-01    5.00000000e-02    1.00000000e+00   -5.00000000e-01    1.21141022e-01
51      -4.90000000e-01    5.00000000e-02    3.39795655e-03   -4.42531497e-10   -4.51957627e-10    0.00000000e+00    4.28534715e-01    5.00000000e-02    1.00000000e+00   -4.90000000e-01    1.21141022e-01
52      -4.80000000e-01    5.00000000e-02    3.39795655e-03   -4.51750904e-10   -4.41475610e-10    0.00000000e+00    4.28534715e-01    5.00000000e-02    1.00000000e+00   -4.80000000e-01    1.21141022e-01
53      -4.70000000e-01    5.00000000e-02    3.39795654e-03   -4.61362627e-10   -4.31108922e-10    0.00000000e+00    4.28534715e-01    5.00000000e-02    1.00000000e+00   -4.70000000e-01    1.21141022e-01
54      -4.60000000e-01    5.00000000e-02    3.39795654e-03   -3.77113800e-10   -4.20863395e-10    0.00000000e+00    4.28534715e-01    5.00000000e-02    1.00000000e+00   -4.60000000e-01    1.21141022e-01
55      -4.50000000e-01    5.00000000e-02    3.39795653e-03   -3.85494107e-10   -4.10744780e-10    0.00000000e+00    4.28534715e-01    5.00000000e-02    1.00000000e+00   -4.50000000e-01    1.21141022e-01
56      -4.40000000e-01    5.00000000e-02    3.39795653e-03   -3.94255338e-10   -4.00758741e-10    0.00000000e+00    4.28534715e-01    5.00000000e-02    1.00000000e+00   -4.40000000e-01    1.21141022e-01
57      -4.30000000e-01    5.00000000e-02    3.39795652e-03   -4.03424062e-10   -3.90910846e-10    0.00000000e+00    4.28534715e-01    5.00000000e-02    1.00000000e+00   -4.30000000e-01    1.21141022e-01
58      -4.20000000e-01    5.00000000e-02    3.39795652e-03   -4.13029398e-10   -3.81206551e-10    0.00000000e+00    4.28534715e-01    5.00000000e-02    1.00000000e+00   -4.20000000e-01    1.21141022e-01
59      -4.10000000e-01    5.00000000e-02    3.39795652e-03   -3.17327465e-10   -3.71651162e-10    0.00000000e+00    4.28534715e-01    5.00000000e-02    1.00000000e+00   -4.10000000e-01    1.21141022e-01
60      -4.00000000e-01    5.00000000e-02    3.39795651e-03   -3.25260652e-10   -3.62249793e-10    0.00000000e+00    4.28534715e-01    5.00000000e-02    1.00000000e+00   -4.00000000e-01    1.21141022e-01
61      -3.90000000e-01    5.00000000e-02    3.39795651e-03   -3.33600669e-10   -3.53007286e-10    0.00000000e+00    4.28534715e-01    5.00000000e-02    1.00000000e+00   -3.90000000e-01    1.21141022e-01
62      -3.80000000e-01    5.00000000e-02    3.39795651e-03   -3.42379635e-10   -3.43928106e-10    0.00000000e+00    4.28534715e-01    5.00000000e-02    1.00000000e+00   -3.80000000e-01    1.21141022e-01
63      -3.70000000e-01    5.00000000e-02    3.39795650e-03   -3.51633140e-10   -3.35016181e-10    0.00000000e+00    4.28534715e-01    5.00000000e-02    1.00000000e+00   -3.70000000e-01    1.21141022e-01
64      -3.60000000e-01    5.00000000e-02    3.39795650e-03   -2.40933815e-10   -3.26274677e-10    0.00000000e+00    4.28534715e-01    5.00000000e-02    1.00000000e+00   -3.60000000e-01    1.21141022e-01
65      -3.50000000e-01    5.00000000e-02    3.39795650e-03   -2.47817639e-10   -3.17705678e-10    0.00000000e+00    4.28534715e-01    5.00000000e-02    1.00000000e+00   -3.50000000e-01    1.21141022e-01
66      -3.40000000e-01    5.00000000e-02    3.39795649e-03   -2.55106393e-10   -3.09309736e-10    0.00000000e+00    4.28534715e-01    5.00000000e-02    1.00000000e+00   -3.40000000e-01    1.21141022e-01
67      -3.30000000e-01    5.00000000e-02    3.39795649e-03   -3.94255336e-10   -3.01085246e-10    0.00000000e+00    4.28534715e-01    5.00000000e-02    1.00000000e+00   -3.30000000e-01    1.21141022e-01
68      -3.20000000e-01    5.00000000e-02    3.39795649e-03   -5.42101088e-10   -2.93027573e-10    0.00000000e+00    4.28534715e-01    5.00000000e-02    1.00000000e+00   -3.20000000e-01    1.21141022e-01
69      -3.10000000e-01    5.00000000e-02    3.39795648e-03   -2.79794111e-10   -2.85127844e-10    0.00000000e+00    4.28534715e-01    5.00000000e-02    1.00000000e+00   -3.10000000e-01    1.21141022e-01
70      -3.00000000e-01    5.00000000e-02    3.39795648e-03   -2.89120577e-10   -2.77371270e-10    0.00000000e+00    4.28534715e-01    5.00000000e-02    1.00000000e+00   -3.00000000e-01    1.21141022e-01
71      -2.90000000e-01    5.00000000e-02    3.39795648e-03   -1.49545126e-10   -2.69734841e-10    0.00000000e+00    4.28534715e-01    5.00000000e-02    1.00000000e+00   -2.90000000e-01    1.21141022e-01
72      -2.80000000e-01    5.00000000e-02    3.39795648e-03   -4.64658072e-10   -2.62184130e-10    0.00000000e+00    4.28534715e-01    5.00000000e-02    1.00000000e+00   -2.80000000e-01    1.21141022e-01
73      -2.70000000e-01    5.00000000e-02    3.39795647e-03    1.60622544e-10   -2.54668892e-10    0.00000000e+00    4.28534715e-01    5.00000000e-02    1.00000000e+00   -2.70000000e-01    1.21141022e-01
74      -2.60000000e-01    5.00000000e-02    3.39795647e-03   -5.00401004e-10   -2.47117006e-10    0.00000000e+00    4.28534715e-01    5.00000000e-02    1.00000000e+00   -2.60000000e-01    1.21141022e-01
75      -2.50000000e-01    5.00000000e-02    3.39795647e-03   -3.46944693e-10   -2.39426136e-10    0.00000000e+00    4.28534715e-01    5.00000000e-02    1.00000000e+00   -2.50000000e-01    1.21141022e-01
76      -2.40000000e-01    5.00000000e-02    3.39795647e-03   -1.80700362e-10   -2.31452314e-10    0.00000000e+00    4.28534715e-01    5.00000000e-02    1.00000000e+00   -2.40000000e-01    1.21141022e-01
77      -2.30000000e-01    5.00000000e-02    3.39795646e-03    1.88556900e-10   -2.22994347e-10    0.00000000e+00    4.28534715e-01    5.00000000e-02    1.00000000e+00   -2.30000000e-01    1.21141022e-01
78      -2.20000000e-01    5.00000000e-02    3.39795646e-03   -1.97127669e-10   -2.13772724e-10    0.00000000e+00    4.28534715e-01    5.00000000e-02    1.00000000e+00   -2.20000000e-01    1.21141022e-01
79      -2.10000000e-01    5.00000000e-02    3.39795646e-03    2.06514699e-10   -2.03401364e-10    0.00000000e+00    4.28534715e-01    5.00000000e-02    1.00000000e+00   -2.10000000e-01    1.21141022e-01
80      -2.00000000e-01    5.00000000e-02    3.39795646e-03   -2.16840435e-10   -1.91350350e-10    0.00000000e+00    4.28534715e-01    5.00000000e-02    1.00000000e+00   -2.00000000e-01    1.21141022e-01
81      -1.90000000e-01    5.00000000e-02    3.39795646e-03    2.28253090e-10   -1.76897694e-10    0.00000000e+00    4.28534715e-01    5.00000000e-02    1.00000000e+00   -1.90000000e-01    1.21141022e-01
82      -1.80000000e-01    5.00000000e-02    3.39795645e-03   -2.40933815e-10   -1.59068198e-10    0.00000000e+00    4.28534715e-01    5.00000000e-02    1.00000000e+00   -1.80000000e-01    1.21141022e-01
83      -1.70000000e-01    5.00000000e-02    3.39795645e-03    2.55106393e-10   -1.36557413e-10    0.00000000e+00    4.28534715e-01    5.00000000e-02    1.00000000e+00   -1.70000000e-01    1.21141023e-01
84      -1.60000000e-01    5.00000000e-02    3.39795645e-03   -2.71050544e-10   -1.07638039e-10    0.00000000e+00    4.28534715e-01    5.00000000e-02    1.00000000e+00   -1.60000000e-01    1.21141023e-01
85      -1.50000000e-01    5.00000000e-02    3.39795645e-03   -2.89120577e-10   -7.00437650e-11    0.00000000e+00    4.28534715e-01    5.00000000e-02    1.00000000e+00   -1.50000000e-01    1.21141023e-01
86      -1.40000000e-01    5.00000000e-02    3.39795645e-03    3.09772048e-10   -2.08209348e-11    0.00000000e+00    4.28534715e-01    5.00000000e-02    1.00000000e+00   -1.40000000e-01    1.21141023e-01
87      -1.30000000e-01    5.00000000e-02    3.39795645e-03    0.00000000e+00    4.38687145e-11    0.00000000e+00    4.28534715e-01    5.00000000e-02    1.00000000e+00   -1.30000000e-01    1.21141024e-01
88      -1.20000000e-01    5.00000000e-02    3.39795645e-03    3.61400724e-10    1.29018923e-10    0.00000000e+00    4.28534715e-01    5.00000000e-02    1.00000000e+00   -1.20000000e-01    1.21141024e-01
89      -1.10000000e-01    5.00000000e-02    3.39795645e-03    3.94255338e-10    2.41155001e-10    0.00000000e+00    4.28534715e-01    5.00000000e-02    1.00000000e+00   -1.10000000e-01    1.21141025e-01
90      -1.00000000e-01    5.00000000e-02    3.39795646e-03    8.67361738e-10    3.88852057e-10    0.00000000e+00    4.28534715e-01    5.00000000e-02    1.00000000e+00   -1.00000000e-01    1.21141026e-01
91      -9.00000000e-02    5.00000000e-02    3.39795646e-03    9.63735259e-10    5.83438031e-10    0.00000000e+00    4.28534715e-01    5.00000000e-02    1.00000000e+00   -9.00000000e-02    1.21141028e-01
92      -8.00000000e-02    5.00000000e-02    3.39795647e-03    1.08420218e-09    8.39934161e-10    0.00000000e+00    4.28534715e-01    5.00000000e-02    1.00000000e+00   -8.00000000e-02    1.21141030e-01
93      -7.00000000e-02    5.00000000e-02    3.39795648e-03    1.85863229e-09    1.17830264e-09    0.00000000e+00    4.28534715e-01    5.00000000e-02    1.00000000e+00   -7.00000000e-02    1.21141033e-01
94      -6.00000000e-02    5.00000000e-02    3.39795649e-03    7.22801447e-10    1.62509706e-09    0.00000000e+00    4.28534715e-01    5.00000000e-02    1.00000000e+00   -6.00000000e-02    1.21141036e-01
