Index      V(G,GA)           V(D,DA)            TEMP           I(VDPROBE)        I(VGPROBE)        I(VSPROBE)        I(VBPROBE)    
0        1.00000000e+00   -5.00000000e-02    2.70000000e+01   -3.39795692e-03    9.60680580e-10   -3.21873083e-03    6.61668679e-03
1        9.90000000e-01   -5.00000000e-02    2.70000000e+01   -3.39795691e-03    9.41592290e-10   -3.21873082e-03    6.61668679e-03
2        9.80000000e-01   -5.00000000e-02    2.70000000e+01   -3.39795690e-03    9.22655882e-10   -3.21873081e-03    6.61668679e-03
3        9.70000000e-01   -5.00000000e-02    2.70000000e+01   -3.39795689e-03    9.03876158e-10   -3.21873080e-03    6.61668679e-03
4        9.60000000e-01   -5.00000000e-02    2.70000000e+01   -3.39795688e-03    8.85257778e-10   -3.21873079e-03    6.61668679e-03
5        9.50000000e-01   -5.00000000e-02    2.70000000e+01   -3.39795687e-03    8.66805258e-10   -3.21873078e-03    6.61668679e-03
6        9.40000000e-01   -5.00000000e-02    2.70000000e+01   -3.39795687e-03    8.48522970e-10   -3.21873077e-03    6.61668679e-03
7        9.30000000e-01   -5.00000000e-02    2.70000000e+01   -3.39795686e-03    8.30415134e-10   -3.21873077e-03    6.61668679e-03
8        9.20000000e-01   -5.00000000e-02    2.70000000e+01   -3.39795685e-03    8.12485822e-10   -3.21873076e-03    6.61668679e-03
9        9.10000000e-01   -5.00000000e-02    2.70000000e+01   -3.39795684e-03    7.94738955e-10   -3.21873075e-03    6.61668679e-03
10       9.00000000e-01   -5.00000000e-02    2.70000000e+01   -3.39795683e-03    7.77178296e-10   -3.21873074e-03    6.61668679e-03
11       8.90000000e-01   -5.00000000e-02    2.70000000e+01   -3.39795682e-03    7.59807458e-10   -3.21873073e-03    6.61668679e-03
12       8.80000000e-01   -5.00000000e-02    2.70000000e+01   -3.39795681e-03    7.42629894e-10   -3.21873072e-03    6.61668679e-03
13       8.70000000e-01   -5.00000000e-02    2.70000000e+01   -3.39795680e-03    7.25648900e-10   -3.21873071e-03    6.61668679e-03
14       8.60000000e-01   -5.00000000e-02    2.70000000e+01   -3.39795679e-03    7.08867613e-10   -3.21873071e-03    6.61668679e-03
15       8.50000000e-01   -5.00000000e-02    2.70000000e+01   -3.39795678e-03    6.92289009e-10   -3.21873070e-03    6.61668679e-03
16       8.40000000e-01   -5.00000000e-02    2.70000000e+01   -3.39795678e-03    6.75915906e-10   -3.21873069e-03    6.61668679e-03
17       8.30000000e-01   -5.00000000e-02    2.70000000e+01   -3.39795677e-03    6.59750958e-10   -3.21873068e-03    6.61668679e-03
18       8.20000000e-01   -5.00000000e-02    2.70000000e+01   -3.39795676e-03    6.43796659e-10   -3.21873067e-03    6.61668679e-03
19       8.10000000e-01   -5.00000000e-02    2.70000000e+01   -3.39795675e-03    6.28055341e-10   -3.21873067e-03    6.61668679e-03
20       8.00000000e-01   -5.00000000e-02    2.70000000e+01   -3.39795674e-03    6.12529173e-10   -3.21873066e-03    6.61668679e-03
21       7.90000000e-01   -5.00000000e-02    2.70000000e+01   -3.39795674e-03    5.97220162e-10   -3.21873065e-03    6.61668679e-03
22       7.80000000e-01   -5.00000000e-02    2.70000000e+01   -3.39795673e-03    5.82130154e-10   -3.21873065e-03    6.61668679e-03
23       7.70000000e-01   -5.00000000e-02    2.70000000e+01   -3.39795672e-03    5.67260832e-10   -3.21873064e-03    6.61668679e-03
24       7.60000000e-01   -5.00000000e-02    2.70000000e+01   -3.39795671e-03    5.52613717e-10   -3.21873063e-03    6.61668679e-03
25       7.50000000e-01   -5.00000000e-02    2.70000000e+01   -3.39795671e-03    5.38190173e-10   -3.21873062e-03    6.61668679e-03
26       7.40000000e-01   -5.00000000e-02    2.70000000e+01   -3.39795670e-03    5.23991400e-10   -3.21873062e-03    6.61668679e-03
27       7.30000000e-01   -5.00000000e-02    2.70000000e+01   -3.39795669e-03    5.10018441e-10   -3.21873061e-03    6.61668679e-03
28       7.20000000e-01   -5.00000000e-02    2.70000000e+01   -3.39795668e-03    4.96272181e-10   -3.21873060e-03    6.61668679e-03
29       7.10000000e-01   -5.00000000e-02    2.70000000e+01   -3.39795668e-03    4.82753345e-10   -3.21873060e-03    6.61668679e-03
30       7.00000000e-01   -5.00000000e-02    2.70000000e+01   -3.39795667e-03    4.69462506e-10   -3.21873059e-03    6.61668679e-03
31       6.90000000e-01   -5.00000000e-02    2.70000000e+01   -3.39795666e-03    4.56400080e-10   -3.21873058e-03    6.61668679e-03
32       6.80000000e-01   -5.00000000e-02    2.70000000e+01   -3.39795666e-03    4.43566331e-10   -3.21873058e-03    6.61668679e-03
33       6.70000000e-01   -5.00000000e-02    2.70000000e+01   -3.39795665e-03    4.30961370e-10   -3.21873057e-03    6.61668679e-03
34       6.60000000e-01   -5.00000000e-02    2.70000000e+01   -3.39795664e-03    4.18585159e-10   -3.21873057e-03    6.61668679e-03
35       6.50000000e-01   -5.00000000e-02    2.70000000e+01   -3.39795664e-03    4.06437512e-10   -3.21873056e-03    6.61668679e-03
36       6.40000000e-01   -5.00000000e-02    2.70000000e+01   -3.39795663e-03    3.94518094e-10   -3.21873056e-03    6.61668679e-03
37       6.30000000e-01   -5.00000000e-02    2.70000000e+01   -3.39795662e-03    3.82826429e-10   -3.21873055e-03    6.61668679e-03
38       6.20000000e-01   -5.00000000e-02    2.70000000e+01   -3.39795662e-03    3.71361895e-10   -3.21873054e-03    6.61668679e-03
39       6.10000000e-01   -5.00000000e-02    2.70000000e+01   -3.39795661e-03    3.60123729e-10   -3.21873054e-03    6.61668679e-03
40       6.00000000e-01   -5.00000000e-02    2.70000000e+01   -3.39795661e-03    3.49111030e-10   -3.21873053e-03    6.61668679e-03
41       5.90000000e-01   -5.00000000e-02    2.70000000e+01   -3.39795660e-03    3.38322760e-10   -3.21873053e-03    6.61668679e-03
42       5.80000000e-01   -5.00000000e-02    2.70000000e+01   -3.39795660e-03    3.27757744e-10   -3.21873052e-03    6.61668679e-03
43       5.70000000e-01   -5.00000000e-02    2.70000000e+01   -3.39795659e-03    3.17414674e-10   -3.21873052e-03    6.61668679e-03
44       5.60000000e-01   -5.00000000e-02    2.70000000e+01   -3.39795658e-03    3.07292110e-10   -3.21873051e-03    6.61668679e-03
45       5.50000000e-01   -5.00000000e-02    2.70000000e+01   -3.39795658e-03    2.97388482e-10   -3.21873051e-03    6.61668679e-03
46       5.40000000e-01   -5.00000000e-02    2.70000000e+01   -3.39795657e-03    2.87702091e-10   -3.21873050e-03    6.61668679e-03
47       5.30000000e-01   -5.00000000e-02    2.70000000e+01   -3.39795657e-03    2.78231111e-10   -3.21873050e-03    6.61668679e-03
48       5.20000000e-01   -5.00000000e-02    2.70000000e+01   -3.39795656e-03    2.68973590e-10   -3.21873050e-03    6.61668679e-03
49       5.10000000e-01   -5.00000000e-02    2.70000000e+01   -3.39795656e-03    2.59927449e-10   -3.21873049e-03    6.61668679e-03
50       5.00000000e-01   -5.00000000e-02    2.70000000e+01   -3.39795655e-03    2.51090486e-10   -3.21873049e-03    6.61668679e-03
51       4.90000000e-01   -5.00000000e-02    2.70000000e+01   -3.39795655e-03    2.42460373e-10   -3.21873048e-03    6.61668679e-03
52       4.80000000e-01   -5.00000000e-02    2.70000000e+01   -3.39795655e-03    2.34034658e-10   -3.21873048e-03    6.61668679e-03
53       4.70000000e-01   -5.00000000e-02    2.70000000e+01   -3.39795654e-03    2.25810762e-10   -3.21873048e-03    6.61668679e-03
54       4.60000000e-01   -5.00000000e-02    2.70000000e+01   -3.39795654e-03    2.17785979e-10   -3.21873047e-03    6.61668679e-03
55       4.50000000e-01   -5.00000000e-02    2.70000000e+01   -3.39795653e-03    2.09957475e-10   -3.21873047e-03    6.61668679e-03
56       4.40000000e-01   -5.00000000e-02    2.70000000e+01   -3.39795653e-03    2.02322280e-10   -3.21873046e-03    6.61668679e-03
57       4.30000000e-01   -5.00000000e-02    2.70000000e+01   -3.39795652e-03    1.94877288e-10   -3.21873046e-03    6.61668679e-03
58       4.20000000e-01   -5.00000000e-02    2.70000000e+01   -3.39795652e-03    1.87619252e-10   -3.21873046e-03    6.61668679e-03
59       4.10000000e-01   -5.00000000e-02    2.70000000e+01   -3.39795652e-03    1.80544774e-10   -3.21873045e-03    6.61668679e-03
60       4.00000000e-01   -5.00000000e-02    2.70000000e+01   -3.39795651e-03    1.73650295e-10   -3.21873045e-03    6.61668679e-03
61       3.90000000e-01   -5.00000000e-02    2.70000000e+01   -3.39795651e-03    1.66932089e-10   -3.21873045e-03    6.61668679e-03
62       3.80000000e-01   -5.00000000e-02    2.70000000e+01   -3.39795651e-03    1.60386249e-10   -3.21873045e-03    6.61668679e-03
63       3.70000000e-01   -5.00000000e-02    2.70000000e+01   -3.39795650e-03    1.54008668e-10   -3.21873044e-03    6.61668679e-03
64       3.60000000e-01   -5.00000000e-02    2.70000000e+01   -3.39795650e-03    1.47795025e-10   -3.21873044e-03    6.61668679e-03
65       3.50000000e-01   -5.00000000e-02    2.70000000e+01   -3.39795650e-03    1.41740763e-10   -3.21873044e-03    6.61668679e-03
66       3.40000000e-01   -5.00000000e-02    2.70000000e+01   -3.39795649e-03    1.35841066e-10   -3.21873043e-03    6.61668679e-03
67       3.30000000e-01   -5.00000000e-02    2.70000000e+01   -3.39795649e-03    1.30090835e-10   -3.21873043e-03    6.61668679e-03
68       3.20000000e-01   -5.00000000e-02    2.70000000e+01   -3.39795649e-03    1.24484660e-10   -3.21873043e-03    6.61668679e-03
69       3.10000000e-01   -5.00000000e-02    2.70000000e+01   -3.39795648e-03    1.19016799e-10   -3.21873043e-03    6.61668679e-03
70       3.00000000e-01   -5.00000000e-02    2.70000000e+01   -3.39795648e-03    1.13681157e-10   -3.21873042e-03    6.61668679e-03
71       2.90000000e-01   -5.00000000e-02    2.70000000e+01   -3.39795648e-03    1.08471278e-10   -3.21873042e-03    6.61668679e-03
72       2.80000000e-01   -5.00000000e-02    2.70000000e+01   -3.39795648e-03    1.03380356e-10   -3.21873042e-03    6.61668679e-03
73       2.70000000e-01   -5.00000000e-02    2.70000000e+01   -3.39795647e-03    9.84012786e-11   -3.21873042e-03    6.61668679e-03
74       2.60000000e-01   -5.00000000e-02    2.70000000e+01   -3.39795647e-03    9.35267160e-11   -3.21873041e-03    6.61668679e-03
75       2.50000000e-01   -5.00000000e-02    2.70000000e+01   -3.39795647e-03    8.87492772e-11   -3.21873041e-03    6.61668679e-03
76       2.40000000e-01   -5.00000000e-02    2.70000000e+01   -3.39795647e-03    8.40617493e-11   -3.21873041e-03    6.61668679e-03
77       2.30000000e-01   -5.00000000e-02    2.70000000e+01   -3.39795646e-03    7.94574315e-11   -3.21873041e-03    6.61668679e-03
78       2.20000000e-01   -5.00000000e-02    2.70000000e+01   -3.39795646e-03    7.49305596e-11   -3.21873040e-03    6.61668679e-03
79       2.10000000e-01   -5.00000000e-02    2.70000000e+01   -3.39795646e-03    7.04767909e-11   -3.21873040e-03    6.61668679e-03
80       2.00000000e-01   -5.00000000e-02    2.70000000e+01   -3.39795646e-03    6.60936898e-11   -3.21873040e-03    6.61668679e-03
81       1.90000000e-01   -5.00000000e-02    2.70000000e+01   -3.39795645e-03    6.17811337e-11   -3.21873040e-03    6.61668679e-03
82       1.80000000e-01   -5.00000000e-02    2.70000000e+01   -3.39795645e-03    5.75415621e-11   -3.21873040e-03    6.61668679e-03
83       1.70000000e-01   -5.00000000e-02    2.70000000e+01   -3.39795645e-03    5.33800203e-11   -3.21873039e-03    6.61668679e-03
84       1.60000000e-01   -5.00000000e-02    2.70000000e+01   -3.39795645e-03    4.93039961e-11   -3.21873039e-03    6.61668679e-03
85       1.50000000e-01   -5.00000000e-02    2.70000000e+01   -3.39795645e-03    4.53230808e-11   -3.21873039e-03    6.61668679e-03
86       1.40000000e-01   -5.00000000e-02    2.70000000e+01   -3.39795645e-03    4.14484914e-11   -3.21873039e-03    6.61668679e-03
87       1.30000000e-01   -5.00000000e-02    2.70000000e+01   -3.39795644e-03    3.76924830e-11   -3.21873038e-03    6.61668679e-03
88       1.20000000e-01   -5.00000000e-02    2.70000000e+01   -3.39795644e-03    3.40676754e-11   -3.21873038e-03    6.61668679e-03
89       1.10000000e-01   -5.00000000e-02    2.70000000e+01   -3.39795644e-03    3.05863418e-11   -3.21873038e-03    6.61668679e-03
90       1.00000000e-01   -5.00000000e-02    2.70000000e+01   -3.39795644e-03    2.72597326e-11   -3.21873038e-03    6.61668679e-03
91       9.00000000e-02   -5.00000000e-02    2.70000000e+01   -3.39795644e-03    2.40975198e-11   -3.21873037e-03    6.61668679e-03
92       8.00000000e-02   -5.00000000e-02    2.70000000e+01   -3.39795644e-03    2.11074246e-11   -3.21873037e-03    6.61668679e-03
93       7.00000000e-02   -5.00000000e-02    2.70000000e+01   -3.39795645e-03    1.82950512e-11   -3.21873036e-03    6.61668679e-03
94       6.00000000e-02   -5.00000000e-02    2.70000000e+01   -3.39795645e-03    1.56639059e-11   -3.21873036e-03    6.61668679e-03
95       5.00000000e-02   -5.00000000e-02    2.70000000e+01   -3.39795646e-03    1.32155555e-11   -3.21873035e-03    6.61668679e-03
96       4.00000000e-02   -5.00000000e-02    2.70000000e+01   -3.39795646e-03    1.09498676e-11   -3.21873034e-03    6.61668679e-03
97       3.00000000e-02   -5.00000000e-02    2.70000000e+01   -3.39795647e-03    8.86528328e-12   -3.21873033e-03    6.61668679e-03
98       2.00000000e-02   -5.00000000e-02    2.70000000e+01   -3.39795649e-03    6.95907976e-12   -3.21873031e-03    6.61668679e-03
99       1.00000000e-02   -5.00000000e-02    2.70000000e+01   -3.39795651e-03    5.22759278e-12   -3.21873029e-03    6.61668679e-03
100      0.00000000e+00   -5.00000000e-02    2.70000000e+01   -3.39795654e-03    3.66620728e-12   -3.21873026e-03    6.61668679e-03
101     -1.00000000e-02   -5.00000000e-02    2.70000000e+01   -3.39795657e-03    2.21610870e-12   -3.21873022e-03    6.61668679e-03
102     -2.00000000e-02   -5.00000000e-02    2.70000000e+01   -3.39795662e-03    8.22511186e-13   -3.21873017e-03    6.61668679e-03
103     -3.00000000e-02   -5.00000000e-02    2.70000000e+01   -3.39795669e-03   -5.13436184e-13   -3.21873010e-03    6.61668679e-03
104     -4.00000000e-02   -5.00000000e-02    2.70000000e+01   -3.39795677e-03   -1.79036716e-12   -3.21873002e-03    6.61668679e-03
105     -5.00000000e-02   -5.00000000e-02    2.70000000e+01   -3.39795689e-03   -3.00747564e-12   -3.21872990e-03    6.61668679e-03
106     -6.00000000e-02   -5.00000000e-02    2.70000000e+01   -3.39795704e-03   -4.21835777e-12   -3.21872975e-03    6.61668679e-03
107     -7.00000000e-02   -5.00000000e-02    2.70000000e+01   -3.39795724e-03   -5.47326291e-12   -3.21872955e-03    6.61668679e-03
108     -8.00000000e-02   -5.00000000e-02    2.70000000e+01   -3.39795750e-03   -6.76746465e-12   -3.21872928e-03    6.61668679e-03
109     -9.00000000e-02   -5.00000000e-02    2.70000000e+01   -3.39795786e-03   -8.09702420e-12   -3.21872892e-03    6.61668679e-03
110     -1.00000000e-01   -5.00000000e-02    2.70000000e+01   -3.39795833e-03   -9.45924433e-12   -3.21872845e-03    6.61668679e-03
111     -1.10000000e-01   -5.00000000e-02    2.70000000e+01   -3.39795895e-03   -1.08528941e-11   -3.21872783e-03    6.61668679e-03
112     -1.20000000e-01   -5.00000000e-02    2.70000000e+01   -3.39795978e-03   -1.22783420e-11   -3.21872700e-03    6.61668679e-03
113     -1.30000000e-01   -5.00000000e-02    2.70000000e+01   -3.39796087e-03   -1.37375630e-11   -3.21872590e-03    6.61668679e-03
114     -1.40000000e-01   -5.00000000e-02    2.70000000e+01   -3.39796233e-03   -1.52340165e-11   -3.21872445e-03    6.61668679e-03
115     -1.50000000e-01   -5.00000000e-02    2.70000000e+01   -3.39796426e-03   -1.67724371e-11   -3.21872251e-03    6.61668679e-03
116     -1.60000000e-01   -5.00000000e-02    2.70000000e+01   -3.39796682e-03   -1.83586050e-11   -3.21871995e-03    6.61668679e-03
117     -1.70000000e-01   -5.00000000e-02    2.70000000e+01   -3.39797022e-03   -1.99991607e-11   -3.21871655e-03    6.61668679e-03
118     -1.80000000e-01   -5.00000000e-02    2.70000000e+01   -3.39797473e-03   -2.17015070e-11   -3.21871204e-03    6.61668679e-03
119     -1.90000000e-01   -5.00000000e-02    2.70000000e+01   -3.39798072e-03   -2.34738222e-11   -3.21870605e-03    6.61668679e-03
120     -2.00000000e-01   -5.00000000e-02    2.70000000e+01   -3.39798867e-03   -2.53251913e-11   -3.21869810e-03    6.61668679e-03
121     -2.10000000e-01   -5.00000000e-02    2.70000000e+01   -3.39799922e-03   -2.72658642e-11   -3.21868755e-03    6.61668679e-03
122     -2.20000000e-01   -5.00000000e-02    2.70000000e+01   -3.39801322e-03   -2.93076516e-11   -3.21867354e-03    6.61668679e-03
123     -2.30000000e-01   -5.00000000e-02    2.70000000e+01   -3.39803181e-03   -3.14644801e-11   -3.21865495e-03    6.61668679e-03
124     -2.40000000e-01   -5.00000000e-02    2.70000000e+01   -3.39805647e-03   -3.37531441e-11   -3.21863028e-03    6.61668679e-03
125     -2.50000000e-01   -5.00000000e-02    2.70000000e+01   -3.39808921e-03   -3.61943053e-11   -3.21859755e-03    6.61668679e-03
126     -2.60000000e-01   -5.00000000e-02    2.70000000e+01   -3.39813265e-03   -3.88138113e-11   -3.21855410e-03    6.61668679e-03
127     -2.70000000e-01   -5.00000000e-02    2.70000000e+01   -3.39819029e-03   -4.16444257e-11   -3.21849646e-03    6.61668679e-03
128     -2.80000000e-01   -5.00000000e-02    2.70000000e+01   -3.39826673e-03   -4.47280845e-11   -3.21842002e-03    6.61668679e-03
129     -2.90000000e-01   -5.00000000e-02    2.70000000e+01   -3.39836808e-03   -4.81188163e-11   -3.21831866e-03    6.61668679e-03
130     -3.00000000e-01   -5.00000000e-02    2.70000000e+01   -3.39850238e-03   -5.18864836e-11   -3.21818436e-03    6.61668679e-03
131     -3.10000000e-01   -5.00000000e-02    2.70000000e+01   -3.39868019e-03   -5.61215031e-11   -3.21800654e-03    6.61668679e-03
132     -3.20000000e-01   -5.00000000e-02    2.70000000e+01   -3.39891538e-03   -6.09406783e-11   -3.21777135e-03    6.61668679e-03
133     -3.30000000e-01   -5.00000000e-02    2.70000000e+01   -3.39922603e-03   -6.64941926e-11   -3.21746069e-03    6.61668679e-03
134     -3.40000000e-01   -5.00000000e-02    2.70000000e+01   -3.39963560e-03   -7.29736328e-11   -3.21705112e-03    6.61668679e-03
135     -3.50000000e-01   -5.00000000e-02    2.70000000e+01   -3.40017427e-03   -8.06205889e-11   -3.21651244e-03    6.61668679e-03
136     -3.60000000e-01   -5.00000000e-02    2.70000000e+01   -3.40088053e-03   -8.97348774e-11   -3.21580617e-03    6.61668679e-03
137     -3.70000000e-01   -5.00000000e-02    2.70000000e+01   -3.40180278e-03   -1.00680736e-10   -3.21488391e-03    6.61668679e-03
138     -3.80000000e-01   -5.00000000e-02    2.70000000e+01   -3.40300095e-03   -1.13888576e-10   -3.21368573e-03    6.61668679e-03
139     -3.90000000e-01   -5.00000000e-02    2.70000000e+01   -3.40454764e-03   -1.29849308e-10   -3.21213902e-03    6.61668679e-03
140     -4.00000000e-01   -5.00000000e-02    2.70000000e+01   -3.40652865e-03   -1.49098390e-10   -3.21015799e-03    6.61668679e-03
141     -4.10000000e-01   -5.00000000e-02    2.70000000e+01   -3.40904213e-03   -1.72188190e-10   -3.20764449e-03    6.61668679e-03
142     -4.20000000e-01   -5.00000000e-02    2.70000000e+01   -3.41219612e-03   -1.99650138e-10   -3.20449047e-03    6.61668679e-03
143     -4.30000000e-01   -5.00000000e-02    2.70000000e+01   -3.41610404e-03   -2.31951988e-10   -3.20058252e-03    6.61668679e-03
144     -4.40000000e-01   -5.00000000e-02    2.70000000e+01   -3.42087832e-03   -2.69458379e-10   -3.19580820e-03    6.61668679e-03
145     -4.50000000e-01   -5.00000000e-02    2.70000000e+01   -3.42662266e-03   -3.12403065e-10   -3.19006381e-03    6.61668679e-03
146     -4.60000000e-01   -5.00000000e-02    2.70000000e+01   -3.43342396e-03   -3.60877844e-10   -3.18326247e-03    6.61668679e-03
147     -4.70000000e-01   -5.00000000e-02    2.70000000e+01   -3.44134510e-03   -4.14838241e-10   -3.17534127e-03    6.61668679e-03
148     -4.80000000e-01   -5.00000000e-02    2.70000000e+01   -3.45041998e-03   -4.74121944e-10   -3.16626634e-03    6.61668679e-03
149     -4.90000000e-01   -5.00000000e-02    2.70000000e+01   -3.46065136e-03   -5.38474770e-10   -3.15603489e-03    6.61668679e-03
