Index      V(G,GA)           V(D,DA)            TEMP           I(VDPROBE)        I(VGPROBE)        I(VSPROBE)        I(VBPROBE)    
0       -1.00000000e+00    5.00000000e-02    2.70000000e+01    1.94176964e-04   -9.92961245e-10    4.72516879e-10   -1.94176444e-04
1       -9.90000000e-01    5.00000000e-02    2.70000000e+01    1.94176953e-04   -9.71137412e-10    4.61791993e-10   -1.94176444e-04
2       -9.80000000e-01    5.00000000e-02    2.70000000e+01    1.94176942e-04   -9.49690610e-10    4.51261724e-10   -1.94176444e-04
3       -9.70000000e-01    5.00000000e-02    2.70000000e+01    1.94176931e-04   -9.28613719e-10    4.40922337e-10   -1.94176444e-04
4       -9.60000000e-01    5.00000000e-02    2.70000000e+01    1.94176921e-04   -9.07898100e-10    4.30769334e-10   -1.94176444e-04
5       -9.50000000e-01    5.00000000e-02    2.70000000e+01    1.94176911e-04   -8.87534240e-10    4.20797776e-10   -1.94176444e-04
6       -9.40000000e-01    5.00000000e-02    2.70000000e+01    1.94176900e-04   -8.67512282e-10    4.11002549e-10   -1.94176444e-04
7       -9.30000000e-01    5.00000000e-02    2.70000000e+01    1.94176890e-04   -8.47822413e-10    4.01378561e-10   -1.94176444e-04
8       -9.20000000e-01    5.00000000e-02    2.70000000e+01    1.94176880e-04   -8.28455162e-10    3.91920884e-10   -1.94176444e-04
9       -9.10000000e-01    5.00000000e-02    2.70000000e+01    1.94176871e-04   -8.09401586e-10    3.82624858e-10   -1.94176444e-04
10      -9.00000000e-01    5.00000000e-02    2.70000000e+01    1.94176861e-04   -7.90653401e-10    3.73486145e-10   -1.94176444e-04
11      -8.90000000e-01    5.00000000e-02    2.70000000e+01    1.94176851e-04   -7.72203039e-10    3.64500765e-10   -1.94176444e-04
12      -8.80000000e-01    5.00000000e-02    2.70000000e+01    1.94176842e-04   -7.54043668e-10    3.55665106e-10   -1.94176444e-04
13      -8.70000000e-01    5.00000000e-02    2.70000000e+01    1.94176833e-04   -7.36169185e-10    3.46975916e-10   -1.94176444e-04
14      -8.60000000e-01    5.00000000e-02    2.70000000e+01    1.94176824e-04   -7.18574176e-10    3.38430291e-10   -1.94176444e-04
15      -8.50000000e-01    5.00000000e-02    2.70000000e+01    1.94176815e-04   -7.01253876e-10    3.30025644e-10   -1.94176444e-04
16      -8.40000000e-01    5.00000000e-02    2.70000000e+01    1.94176806e-04   -6.84204107e-10    3.21759686e-10   -1.94176444e-04
17      -8.30000000e-01    5.00000000e-02    2.70000000e+01    1.94176798e-04   -6.67421224e-10    3.13630391e-10   -1.94176444e-04
18      -8.20000000e-01    5.00000000e-02    2.70000000e+01    1.94176789e-04   -6.50902052e-10    3.05635968e-10   -1.94176444e-04
19      -8.10000000e-01    5.00000000e-02    2.70000000e+01    1.94176781e-04   -6.34643832e-10    2.97774835e-10   -1.94176444e-04
20      -8.00000000e-01    5.00000000e-02    2.70000000e+01    1.94176772e-04   -6.18644160e-10    2.90045586e-10   -1.94176444e-04
21      -7.90000000e-01    5.00000000e-02    2.70000000e+01    1.94176764e-04   -6.02900940e-10    2.82446968e-10   -1.94176444e-04
22      -7.80000000e-01    5.00000000e-02    2.70000000e+01    1.94176756e-04   -5.87412334e-10    2.74977860e-10   -1.94176444e-04
23      -7.70000000e-01    5.00000000e-02    2.70000000e+01    1.94176748e-04   -5.72176718e-10    2.67637245e-10   -1.94176444e-04
24      -7.60000000e-01    5.00000000e-02    2.70000000e+01    1.94176741e-04   -5.57192646e-10    2.60424197e-10   -1.94176444e-04
25      -7.50000000e-01    5.00000000e-02    2.70000000e+01    1.94176733e-04   -5.42458811e-10    2.53337860e-10   -1.94176444e-04
26      -7.40000000e-01    5.00000000e-02    2.70000000e+01    1.94176725e-04   -5.27974013e-10    2.46377432e-10   -1.94176444e-04
27      -7.30000000e-01    5.00000000e-02    2.70000000e+01    1.94176718e-04   -5.13737135e-10    2.39542153e-10   -1.94176444e-04
28      -7.20000000e-01    5.00000000e-02    2.70000000e+01    1.94176711e-04   -4.99747116e-10    2.32831291e-10   -1.94176444e-04
29      -7.10000000e-01    5.00000000e-02    2.70000000e+01    1.94176704e-04   -4.86002928e-10    2.26244131e-10   -1.94176444e-04
30      -7.00000000e-01    5.00000000e-02    2.70000000e+01    1.94176697e-04   -4.72503559e-10    2.19779966e-10   -1.94176444e-04
31      -6.90000000e-01    5.00000000e-02    2.70000000e+01    1.94176690e-04   -4.59247994e-10    2.13438090e-10   -1.94176444e-04
32      -6.80000000e-01    5.00000000e-02    2.70000000e+01    1.94176683e-04   -4.46235202e-10    2.07217785e-10   -1.94176444e-04
33      -6.70000000e-01    5.00000000e-02    2.70000000e+01    1.94176676e-04   -4.33464123e-10    2.01118322e-10   -1.94176444e-04
34      -6.60000000e-01    5.00000000e-02    2.70000000e+01    1.94176670e-04   -4.20933656e-10    1.95138946e-10   -1.94176444e-04
35      -6.50000000e-01    5.00000000e-02    2.70000000e+01    1.94176663e-04   -4.08642649e-10    1.89278878e-10   -1.94176444e-04
36      -6.40000000e-01    5.00000000e-02    2.70000000e+01    1.94176657e-04   -3.96589894e-10    1.83537305e-10   -1.94176444e-04
37      -6.30000000e-01    5.00000000e-02    2.70000000e+01    1.94176651e-04   -3.84774116e-10    1.77913378e-10   -1.94176444e-04
38      -6.20000000e-01    5.00000000e-02    2.70000000e+01    1.94176645e-04   -3.73193967e-10    1.72406204e-10   -1.94176444e-04
39      -6.10000000e-01    5.00000000e-02    2.70000000e+01    1.94176639e-04   -3.61848024e-10    1.67014844e-10   -1.94176444e-04
40      -6.00000000e-01    5.00000000e-02    2.70000000e+01    1.94176633e-04   -3.50734782e-10    1.61738304e-10   -1.94176444e-04
41      -5.90000000e-01    5.00000000e-02    2.70000000e+01    1.94176627e-04   -3.39852652e-10    1.56575533e-10   -1.94176444e-04
42      -5.80000000e-01    5.00000000e-02    2.70000000e+01    1.94176621e-04   -3.29199954e-10    1.51525413e-10   -1.94176444e-04
43      -5.70000000e-01    5.00000000e-02    2.70000000e+01    1.94176616e-04   -3.18774921e-10    1.46586754e-10   -1.94176444e-04
44      -5.60000000e-01    5.00000000e-02    2.70000000e+01    1.94176611e-04   -3.08575689e-10    1.41758278e-10   -1.94176444e-04
45      -5.50000000e-01    5.00000000e-02    2.70000000e+01    1.94176605e-04   -2.98600302e-10    1.37038613e-10   -1.94176444e-04
46      -5.40000000e-01    5.00000000e-02    2.70000000e+01    1.94176600e-04   -2.88846704e-10    1.32426274e-10   -1.94176444e-04
47      -5.30000000e-01    5.00000000e-02    2.70000000e+01    1.94176595e-04   -2.79312744e-10    1.27919644e-10   -1.94176444e-04
48      -5.20000000e-01    5.00000000e-02    2.70000000e+01    1.94176590e-04   -2.69996168e-10    1.23516948e-10   -1.94176444e-04
49      -5.10000000e-01    5.00000000e-02    2.70000000e+01    1.94176585e-04   -2.60894622e-10    1.19216219e-10   -1.94176444e-04
50      -5.00000000e-01    5.00000000e-02    2.70000000e+01    1.94176581e-04   -2.52005649e-10    1.15015262e-10   -1.94176444e-04
51      -4.90000000e-01    5.00000000e-02    2.70000000e+01    1.94176576e-04   -2.43326687e-10    1.10911592e-10   -1.94176444e-04
52      -4.80000000e-01    5.00000000e-02    2.70000000e+01    1.94176572e-04   -2.34855067e-10    1.06902371e-10   -1.94176444e-04
53      -4.70000000e-01    5.00000000e-02    2.70000000e+01    1.94176567e-04   -2.26588010e-10    1.02984316e-10   -1.94176444e-04
54      -4.60000000e-01    5.00000000e-02    2.70000000e+01    1.94176563e-04   -2.18522626e-10    9.91535833e-11   -1.94176444e-04
55      -4.50000000e-01    5.00000000e-02    2.70000000e+01    1.94176559e-04   -2.10655910e-10    9.54056191e-11   -1.94176444e-04
56      -4.40000000e-01    5.00000000e-02    2.70000000e+01    1.94176555e-04   -2.02984734e-10    9.17349671e-11   -1.94176444e-04
57      -4.30000000e-01    5.00000000e-02    2.70000000e+01    1.94176551e-04   -1.95505847e-10    8.81350183e-11   -1.94176444e-04
58      -4.20000000e-01    5.00000000e-02    2.70000000e+01    1.94176547e-04   -1.88215864e-10    8.45976868e-11   -1.94176444e-04
59      -4.10000000e-01    5.00000000e-02    2.70000000e+01    1.94176544e-04   -1.81111262e-10    8.11129929e-11   -1.94176444e-04
60      -4.00000000e-01    5.00000000e-02    2.70000000e+01    1.94176540e-04   -1.74188366e-10    7.76685198e-11   -1.94176444e-04
61      -3.90000000e-01    5.00000000e-02    2.70000000e+01    1.94176537e-04   -1.67443343e-10    7.42487124e-11   -1.94176444e-04
62      -3.80000000e-01    5.00000000e-02    2.70000000e+01    1.94176534e-04   -1.60872183e-10    7.08339660e-11   -1.94176444e-04
63      -3.70000000e-01    5.00000000e-02    2.70000000e+01    1.94176531e-04   -1.54470686e-10    6.73994479e-11   -1.94176444e-04
64      -3.60000000e-01    5.00000000e-02    2.70000000e+01    1.94176528e-04   -1.48234444e-10    6.39135658e-11   -1.94176444e-04
65      -3.50000000e-01    5.00000000e-02    2.70000000e+01    1.94176526e-04   -1.42158819e-10    6.03359829e-11   -1.94176444e-04
66      -3.40000000e-01    5.00000000e-02    2.70000000e+01    1.94176523e-04   -1.36238920e-10    5.66150412e-11   -1.94176444e-04
67      -3.30000000e-01    5.00000000e-02    2.70000000e+01    1.94176522e-04   -1.30469576e-10    5.26844156e-11   -1.94176444e-04
68      -3.20000000e-01    5.00000000e-02    2.70000000e+01    1.94176520e-04   -1.24845313e-10    4.84587700e-11   -1.94176444e-04
69      -3.10000000e-01    5.00000000e-02    2.70000000e+01    1.94176519e-04   -1.19360327e-10    4.38281141e-11   -1.94176444e-04
70      -3.00000000e-01    5.00000000e-02    2.70000000e+01    1.94176519e-04   -1.14008465e-10    3.86504679e-11   -1.94176444e-04
71      -2.90000000e-01    5.00000000e-02    2.70000000e+01    1.94176520e-04   -1.08783218e-10    3.27423359e-11   -1.94176444e-04
72      -2.80000000e-01    5.00000000e-02    2.70000000e+01    1.94176522e-04   -1.03677730e-10    2.58663105e-11   -1.94176444e-04
73      -2.70000000e-01    5.00000000e-02    2.70000000e+01    1.94176525e-04   -9.86848409e-11    1.77149603e-11   -1.94176444e-04
74      -2.60000000e-01    5.00000000e-02    2.70000000e+01    1.94176530e-04   -9.37971773e-11    7.88985713e-12   -1.94176444e-04
75      -2.50000000e-01    5.00000000e-02    2.70000000e+01    1.94176537e-04   -8.90073065e-11   -4.12572018e-12   -1.94176444e-04
76      -2.40000000e-01    5.00000000e-02    2.70000000e+01    1.94176547e-04   -8.43079763e-11   -1.90023523e-11   -1.94176444e-04
77      -2.30000000e-01    5.00000000e-02    2.70000000e+01    1.94176561e-04   -7.96924490e-11   -3.76108515e-11   -1.94176444e-04
78      -2.20000000e-01    5.00000000e-02    2.70000000e+01    1.94176580e-04   -7.51549251e-11   -6.10827819e-11   -1.94176444e-04
79      -2.10000000e-01    5.00000000e-02    2.70000000e+01    1.94176605e-04   -7.06910284e-11   -9.08895206e-11   -1.94176444e-04
80      -2.00000000e-01    5.00000000e-02    2.70000000e+01    1.94176639e-04   -6.62982908e-11   -1.28945616e-10   -1.94176444e-04
81      -1.90000000e-01    5.00000000e-02    2.70000000e+01    1.94176684e-04   -6.19765585e-11   -1.77743970e-10   -1.94176444e-04
82      -1.80000000e-01    5.00000000e-02    2.70000000e+01    1.94176742e-04   -5.77282401e-11   -2.40532653e-10   -1.94176444e-04
83      -1.70000000e-01    5.00000000e-02    2.70000000e+01    1.94176819e-04   -5.35583499e-11   -3.21546103e-10   -1.94176444e-04
84      -1.60000000e-01    5.00000000e-02    2.70000000e+01    1.94176920e-04   -4.94743445e-11   -4.26307316e-10   -1.94176444e-04
85      -1.50000000e-01    5.00000000e-02    2.70000000e+01    1.94177051e-04   -4.54857821e-11   -5.62022730e-10   -1.94176444e-04
86      -1.40000000e-01    5.00000000e-02    2.70000000e+01    1.94177223e-04   -4.16038449e-11   -7.38098192e-10   -1.94176444e-04
87      -1.30000000e-01    5.00000000e-02    2.70000000e+01    1.94177448e-04   -3.78407492e-11   -9.66813299e-10   -1.94176444e-04
88      -1.20000000e-01    5.00000000e-02    2.70000000e+01    1.94177742e-04   -3.42090709e-11   -1.26420297e-09   -1.94176444e-04
89      -1.10000000e-01    5.00000000e-02    2.70000000e+01    1.94178126e-04   -3.07210318e-11   -1.65121039e-09   -1.94176444e-04
90      -1.00000000e-01    5.00000000e-02    2.70000000e+01    1.94178626e-04   -2.73878213e-11   -2.15519543e-09   -1.94176444e-04
91      -9.00000000e-02    5.00000000e-02    2.70000000e+01    1.94179280e-04   -2.42190359e-11   -2.81190856e-09   -1.94176444e-04
92      -8.00000000e-02    5.00000000e-02    2.70000000e+01    1.94180133e-04   -2.12223029e-11   -3.66807481e-09   -1.94176444e-04
93      -7.00000000e-02    5.00000000e-02    2.70000000e+01    1.94181247e-04   -1.84031076e-11   -4.78477680e-09   -1.94176444e-04
94      -6.00000000e-02    5.00000000e-02    2.70000000e+01    1.94182701e-04   -1.57648037e-11   -6.24188487e-09   -1.94176444e-04
95      -5.00000000e-02    5.00000000e-02    2.70000000e+01    1.94184601e-04   -1.33087605e-11   -8.14385928e-09   -1.94176444e-04
96      -4.00000000e-02    5.00000000e-02    2.70000000e+01    1.94187082e-04   -1.10345884e-11   -1.06273504e-08   -1.94176444e-04
97      -3.00000000e-02    5.00000000e-02    2.70000000e+01    1.94190324e-04   -8.94039162e-12   -1.38711550e-08   -1.94176444e-04
98      -2.00000000e-02    5.00000000e-02    2.70000000e+01    1.94194560e-04   -7.02300485e-12   -1.81092596e-08   -1.94176444e-04
99      -1.00000000e-02    5.00000000e-02    2.70000000e+01    1.94200097e-04   -5.27818078e-12   -2.36479279e-08   -1.94176444e-04
100      0.00000000e+00    5.00000000e-02    2.70000000e+01    1.94207336e-04   -3.70053479e-12   -3.08880852e-08   -1.94176444e-04
101      1.00000000e-02    5.00000000e-02    2.70000000e+01    1.94216801e-04   -2.23023516e-12   -4.03546888e-08   -1.94176444e-04
102      2.00000000e-02    5.00000000e-02    2.70000000e+01    1.94229180e-04   -8.11150496e-13   -5.27350559e-08   -1.94176444e-04
103      3.00000000e-02    5.00000000e-02    2.70000000e+01    1.94245372e-04    5.57351000e-13   -6.89290505e-08   -1.94176444e-04
104      4.00000000e-02    5.00000000e-02    2.70000000e+01    1.94266557e-04    1.87626078e-12   -9.01148453e-08   -1.94176444e-04
105      5.00000000e-02    5.00000000e-02    2.70000000e+01    1.94294275e-04    3.14789400e-12   -1.17834779e-07   -1.94176444e-04
106      6.00000000e-02    5.00000000e-02    2.70000000e+01    1.94330547e-04    4.42997772e-12   -1.54107396e-07   -1.94176444e-04
107      7.00000000e-02    5.00000000e-02    2.70000000e+01    1.94378011e-04    5.77822544e-12   -2.01573400e-07   -1.94176444e-04
108      8.00000000e-02    5.00000000e-02    2.70000000e+01    1.94440122e-04    7.19513180e-12   -2.63685318e-07   -1.94176444e-04
109      9.00000000e-02    5.00000000e-02    2.70000000e+01    1.94521388e-04    8.68628861e-12   -3.44953193e-07   -1.94176444e-04
110      1.00000000e-01    5.00000000e-02    2.70000000e+01    1.94627695e-04    1.02615547e-11   -4.51261450e-07   -1.94176444e-04
111      1.10000000e-01    5.00000000e-02    2.70000000e+01    1.94766707e-04    1.19362010e-11   -5.90275225e-07   -1.94176444e-04
112      1.20000000e-01    5.00000000e-02    2.70000000e+01    1.94948387e-04    1.37322131e-11   -7.71957356e-07   -1.94176444e-04
113      1.30000000e-01    5.00000000e-02    2.70000000e+01    1.95185647e-04    1.56797623e-11   -1.00921938e-06   -1.94176444e-04
114      1.40000000e-01    5.00000000e-02    2.70000000e+01    1.95495156e-04    1.78188794e-11   -1.31872982e-06   -1.94176444e-04
115      1.50000000e-01    5.00000000e-02    2.70000000e+01    1.95898322e-04    2.02013865e-11   -1.72189883e-06   -1.94176444e-04
116      1.60000000e-01    5.00000000e-02    2.70000000e+01    1.96422467e-04    2.28931179e-11   -2.24604655e-06   -1.94176444e-04
117      1.70000000e-01    5.00000000e-02    2.70000000e+01    1.97102157e-04    2.59763789e-11   -2.92573919e-06   -1.94176444e-04
118      1.80000000e-01    5.00000000e-02    2.70000000e+01    1.97980651e-04    2.95524422e-11   -3.80423681e-06   -1.94176444e-04
119      1.90000000e-01    5.00000000e-02    2.70000000e+01    1.99111346e-04    3.37436950e-11   -4.93493575e-06   -1.94176444e-04
120      2.00000000e-01    5.00000000e-02    2.70000000e+01    2.00559012e-04    3.86948598e-11   -6.38260702e-06   -1.94176444e-04
121      2.10000000e-01    5.00000000e-02    2.70000000e+01    2.02400538e-04    4.45725763e-11   -8.22413839e-06   -1.94176444e-04
122      2.20000000e-01    5.00000000e-02    2.70000000e+01    2.04724799e-04    5.15626518e-11   -1.05484069e-05   -1.94176444e-04
123      2.30000000e-01    5.00000000e-02    2.70000000e+01    2.07631264e-04    5.98645670e-11   -1.34548801e-05   -1.94176444e-04
124      2.40000000e-01    5.00000000e-02    2.70000000e+01    2.11226990e-04    6.96833714e-11   -1.70506159e-05   -1.94176444e-04
125      2.50000000e-01    5.00000000e-02    2.70000000e+01    2.15621903e-04    8.12198136e-11   -2.14455399e-05   -1.94176444e-04
126      2.60000000e-01    5.00000000e-02    2.70000000e+01    2.20922560e-04    9.46601113e-11   -2.67462112e-05   -1.94176444e-04
127      2.70000000e-01    5.00000000e-02    2.70000000e+01    2.27225007e-04    1.10166897e-10   -3.30486735e-05   -1.94176444e-04
128      2.80000000e-01    5.00000000e-02    2.70000000e+01    2.34607633e-04    1.27872472e-10   -4.04313171e-05   -1.94176444e-04
129      2.90000000e-01    5.00000000e-02    2.70000000e+01    2.43125105e-04    1.47874845e-10   -4.89488090e-05   -1.94176444e-04
130      3.00000000e-01    5.00000000e-02    2.70000000e+01    2.52804318e-04    1.70236467e-10   -5.86280441e-05   -1.94176444e-04
131      3.10000000e-01    5.00000000e-02    2.70000000e+01    2.63642958e-04    1.94985425e-10   -6.94667093e-05   -1.94176444e-04
132      3.20000000e-01    5.00000000e-02    2.70000000e+01    2.75610782e-04    2.22118855e-10   -8.14345599e-05   -1.94176444e-04
133      3.30000000e-01    5.00000000e-02    2.70000000e+01    2.88653195e-04    2.51608380e-10   -9.44770032e-05   -1.94176444e-04
134      3.40000000e-01    5.00000000e-02    2.70000000e+01    3.02696388e-04    2.83407095e-10   -1.08520228e-04   -1.94176444e-04
135      3.50000000e-01    5.00000000e-02    2.70000000e+01    3.17653107e-04    3.17457329e-10   -1.23476980e-04   -1.94176444e-04
136      3.60000000e-01    5.00000000e-02    2.70000000e+01    3.33428275e-04    3.53698186e-10   -1.39252185e-04   -1.94176444e-04
137      3.70000000e-01    5.00000000e-02    2.70000000e+01    3.49923891e-04    3.92071974e-10   -1.55747839e-04   -1.94176444e-04
138      3.80000000e-01    5.00000000e-02    2.70000000e+01    3.67042895e-04    4.32528995e-10   -1.72866884e-04   -1.94176444e-04
139      3.90000000e-01    5.00000000e-02    2.70000000e+01    3.84691983e-04    4.75030527e-10   -1.90516014e-04   -1.94176444e-04
140      4.00000000e-01    5.00000000e-02    2.70000000e+01    4.02783427e-04    5.19550214e-10   -2.08607503e-04   -1.94176444e-04
141      4.10000000e-01    5.00000000e-02    2.70000000e+01    4.21236125e-04    5.66074206e-10   -2.27060247e-04   -1.94176444e-04
142      4.20000000e-01    5.00000000e-02    2.70000000e+01    4.39976040e-04    6.14600478e-10   -2.45800211e-04   -1.94176444e-04
143      4.30000000e-01    5.00000000e-02    2.70000000e+01    4.58936227e-04    6.65137662e-10   -2.64760448e-04   -1.94176444e-04
144      4.40000000e-01    5.00000000e-02    2.70000000e+01    4.78056586e-04    7.17703664e-10   -2.83880860e-04   -1.94176444e-04
145      4.50000000e-01    5.00000000e-02    2.70000000e+01    4.97283453e-04    7.72324257e-10   -3.03107781e-04   -1.94176444e-04
146      4.60000000e-01    5.00000000e-02    2.70000000e+01    5.16569102e-04    8.29031752e-10   -3.22393488e-04   -1.94176444e-04
147      4.70000000e-01    5.00000000e-02    2.70000000e+01    5.35871225e-04    8.87863793e-10   -3.41695669e-04   -1.94176444e-04
148      4.80000000e-01    5.00000000e-02    2.70000000e+01    5.55152402e-04    9.48862317e-10   -3.60976907e-04   -1.94176444e-04
149      4.90000000e-01    5.00000000e-02    2.70000000e+01    5.74379605e-04    1.01207266e-09   -3.80204173e-04   -1.94176444e-04
