Index        V(G,GA)           V(D,DA)          TEMP          I(VDPROBE)       I(VGPROBE)       I(VSPROBE)       I(VBPROBE)
0         -1.00000000e+00   5.00000000e-02   2.70000000e+01   5.00003000e-17   0.00000000e+00  -5.00003000e-17   0.00000000e+00
1         -9.90000000e-01   5.00000000e-02   2.70000000e+01   5.00004000e-17   0.00000000e+00  -5.00004000e-17   0.00000000e+00
2         -9.80000000e-01   5.00000000e-02   2.70000000e+01   5.00006000e-17   0.00000000e+00  -5.00006000e-17   0.00000000e+00
3         -9.70000000e-01   5.00000000e-02   2.70000000e+01   5.00007000e-17   0.00000000e+00  -5.00007000e-17   0.00000000e+00
4         -9.60000000e-01   5.00000000e-02   2.70000000e+01   5.00010000e-17   0.00000000e+00  -5.00010000e-17   0.00000000e+00
5         -9.50000000e-01   5.00000000e-02   2.70000000e+01   5.00013000e-17   0.00000000e+00  -5.00013000e-17   0.00000000e+00
6         -9.40000000e-01   5.00000000e-02   2.70000000e+01   5.00016000e-17   0.00000000e+00  -5.00016000e-17   0.00000000e+00
7         -9.30000000e-01   5.00000000e-02   2.70000000e+01   5.00022000e-17   0.00000000e+00  -5.00022000e-17   0.00000000e+00
8         -9.20000000e-01   5.00000000e-02   2.70000000e+01   5.00028000e-17   0.00000000e+00  -5.00028000e-17   0.00000000e+00
9         -9.10000000e-01   5.00000000e-02   2.70000000e+01   5.00037000e-17   0.00000000e+00  -5.00037000e-17   0.00000000e+00
10        -9.00000000e-01   5.00000000e-02   2.70000000e+01   5.00048000e-17   0.00000000e+00  -5.00048000e-17   0.00000000e+00
11        -8.90000000e-01   5.00000000e-02   2.70000000e+01   5.00063000e-17   0.00000000e+00  -5.00063000e-17   0.00000000e+00
12        -8.80000000e-01   5.00000000e-02   2.70000000e+01   5.00083000e-17   0.00000000e+00  -5.00083000e-17   0.00000000e+00
13        -8.70000000e-01   5.00000000e-02   2.70000000e+01   5.00109000e-17   0.00000000e+00  -5.00109000e-17   0.00000000e+00
14        -8.60000000e-01   5.00000000e-02   2.70000000e+01   5.00142000e-17   0.00000000e+00  -5.00142000e-17   0.00000000e+00
15        -8.50000000e-01   5.00000000e-02   2.70000000e+01   5.00187000e-17   0.00000000e+00  -5.00187000e-17   0.00000000e+00
16        -8.40000000e-01   5.00000000e-02   2.70000000e+01   5.00245000e-17   0.00000000e+00  -5.00245000e-17   0.00000000e+00
17        -8.30000000e-01   5.00000000e-02   2.70000000e+01   5.00321000e-17   0.00000000e+00  -5.00321000e-17   0.00000000e+00
18        -8.20000000e-01   5.00000000e-02   2.70000000e+01   5.00421000e-17   0.00000000e+00  -5.00421000e-17   0.00000000e+00
19        -8.10000000e-01   5.00000000e-02   2.70000000e+01   5.00553000e-17   0.00000000e+00  -5.00553000e-17   0.00000000e+00
20        -8.00000000e-01   5.00000000e-02   2.70000000e+01   5.00725000e-17   0.00000000e+00  -5.00725000e-17   0.00000000e+00
21        -7.90000000e-01   5.00000000e-02   2.70000000e+01   5.00952000e-17   0.00000000e+00  -5.00952000e-17   0.00000000e+00
22        -7.80000000e-01   5.00000000e-02   2.70000000e+01   5.01250000e-17   0.00000000e+00  -5.01250000e-17   0.00000000e+00
23        -7.70000000e-01   5.00000000e-02   2.70000000e+01   5.01642000e-17   0.00000000e+00  -5.01642000e-17   0.00000000e+00
24        -7.60000000e-01   5.00000000e-02   2.70000000e+01   5.02157000e-17   0.00000000e+00  -5.02157000e-17   0.00000000e+00
25        -7.50000000e-01   5.00000000e-02   2.70000000e+01   5.02834000e-17   0.00000000e+00  -5.02834000e-17   0.00000000e+00
26        -7.40000000e-01   5.00000000e-02   2.70000000e+01   5.03724000e-17   0.00000000e+00  -5.03724000e-17   0.00000000e+00
27        -7.30000000e-01   5.00000000e-02   2.70000000e+01   5.04895000e-17   0.00000000e+00  -5.04895000e-17   0.00000000e+00
28        -7.20000000e-01   5.00000000e-02   2.70000000e+01   5.06435000e-17   0.00000000e+00  -5.06435000e-17   0.00000000e+00
29        -7.10000000e-01   5.00000000e-02   2.70000000e+01   5.08462000e-17   0.00000000e+00  -5.08462000e-17   0.00000000e+00
30        -7.00000000e-01   5.00000000e-02   2.70000000e+01   5.11129000e-17   0.00000000e+00  -5.11129000e-17   0.00000000e+00
31        -6.90000000e-01   5.00000000e-02   2.70000000e+01   5.14639000e-17   0.00000000e+00  -5.14639000e-17   0.00000000e+00
32        -6.80000000e-01   5.00000000e-02   2.70000000e+01   5.19260000e-17   0.00000000e+00  -5.19260000e-17   0.00000000e+00
33        -6.70000000e-01   5.00000000e-02   2.70000000e+01   5.25344000e-17   0.00000000e+00  -5.25344000e-17   0.00000000e+00
34        -6.60000000e-01   5.00000000e-02   2.70000000e+01   5.33356000e-17   0.00000000e+00  -5.33356000e-17   0.00000000e+00
35        -6.50000000e-01   5.00000000e-02   2.70000000e+01   5.43908000e-17   0.00000000e+00  -5.43908000e-17   0.00000000e+00
36        -6.40000000e-01   5.00000000e-02   2.70000000e+01   5.57809000e-17   0.00000000e+00  -5.57809000e-17   0.00000000e+00
37        -6.30000000e-01   5.00000000e-02   2.70000000e+01   5.76124000e-17   0.00000000e+00  -5.76124000e-17   0.00000000e+00
38        -6.20000000e-01   5.00000000e-02   2.70000000e+01   6.00259000e-17   0.00000000e+00  -6.00259000e-17   0.00000000e+00
39        -6.10000000e-01   5.00000000e-02   2.70000000e+01   6.32068000e-17   0.00000000e+00  -6.32068000e-17   0.00000000e+00
40        -6.00000000e-01   5.00000000e-02   2.70000000e+01   6.73998000e-17   0.00000000e+00  -6.73998000e-17   0.00000000e+00
41        -5.90000000e-01   5.00000000e-02   2.70000000e+01   7.29279000e-17   0.00000000e+00  -7.29279000e-17   0.00000000e+00
42        -5.80000000e-01   5.00000000e-02   2.70000000e+01   8.02173000e-17   0.00000000e+00  -8.02173000e-17   0.00000000e+00
43        -5.70000000e-01   5.00000000e-02   2.70000000e+01   8.98306000e-17   0.00000000e+00  -8.98306000e-17   0.00000000e+00
44        -5.60000000e-01   5.00000000e-02   2.70000000e+01   1.02510900e-16   0.00000000e+00  -1.02510900e-16   0.00000000e+00
45        -5.50000000e-01   5.00000000e-02   2.70000000e+01   1.19239000e-16   0.00000000e+00  -1.19239000e-16   0.00000000e+00
46        -5.40000000e-01   5.00000000e-02   2.70000000e+01   1.41310500e-16   0.00000000e+00  -1.41310500e-16   0.00000000e+00
47        -5.30000000e-01   5.00000000e-02   2.70000000e+01   1.70436600e-16   0.00000000e+00  -1.70436600e-16   0.00000000e+00
48        -5.20000000e-01   5.00000000e-02   2.70000000e+01   2.08877900e-16   0.00000000e+00  -2.08877900e-16   0.00000000e+00
49        -5.10000000e-01   5.00000000e-02   2.70000000e+01   2.59621000e-16   0.00000000e+00  -2.59621000e-16   0.00000000e+00
50        -5.00000000e-01   5.00000000e-02   2.70000000e+01   3.26612700e-16   0.00000000e+00  -3.26612700e-16   0.00000000e+00
51        -4.90000000e-01   5.00000000e-02   2.70000000e+01   4.15068700e-16   0.00000000e+00  -4.15068700e-16   0.00000000e+00
52        -4.80000000e-01   5.00000000e-02   2.70000000e+01   5.31883000e-16   0.00000000e+00  -5.31883000e-16   0.00000000e+00
53        -4.70000000e-01   5.00000000e-02   2.70000000e+01   6.86169000e-16   0.00000000e+00  -6.86169000e-16   0.00000000e+00
54        -4.60000000e-01   5.00000000e-02   2.70000000e+01   8.89975500e-16   0.00000000e+00  -8.89975500e-16   0.00000000e+00
55        -4.50000000e-01   5.00000000e-02   2.70000000e+01   1.15920000e-15   0.00000000e+00  -1.15920000e-15   0.00000000e+00
56        -4.40000000e-01   5.00000000e-02   2.70000000e+01   1.51500000e-15   0.00000000e+00  -1.51500000e-15   0.00000000e+00
57        -4.30000000e-01   5.00000000e-02   2.70000000e+01   1.98520000e-15   0.00000000e+00  -1.98520000e-15   0.00000000e+00
58        -4.20000000e-01   5.00000000e-02   2.70000000e+01   2.60660000e-15   0.00000000e+00  -2.60660000e-15   0.00000000e+00
59        -4.10000000e-01   5.00000000e-02   2.70000000e+01   3.42800000e-15   0.00000000e+00  -3.42800000e-15   0.00000000e+00
60        -4.00000000e-01   5.00000000e-02   2.70000000e+01   4.51400000e-15   0.00000000e+00  -4.51400000e-15   0.00000000e+00
61        -3.90000000e-01   5.00000000e-02   2.70000000e+01   5.94990000e-15   0.00000000e+00  -5.94990000e-15   0.00000000e+00
62        -3.80000000e-01   5.00000000e-02   2.70000000e+01   7.84880000e-15   0.00000000e+00  -7.84880000e-15   0.00000000e+00
63        -3.70000000e-01   5.00000000e-02   2.70000000e+01   1.03601000e-14   0.00000000e+00  -1.03601000e-14   0.00000000e+00
64        -3.60000000e-01   5.00000000e-02   2.70000000e+01   1.36816000e-14   0.00000000e+00  -1.36816000e-14   0.00000000e+00
65        -3.50000000e-01   5.00000000e-02   2.70000000e+01   1.80764000e-14   0.00000000e+00  -1.80764000e-14   0.00000000e+00
66        -3.40000000e-01   5.00000000e-02   2.70000000e+01   2.38908000e-14   0.00000000e+00  -2.38908000e-14   0.00000000e+00
67        -3.30000000e-01   5.00000000e-02   2.70000000e+01   3.15844000e-14   0.00000000e+00  -3.15844000e-14   0.00000000e+00
68        -3.20000000e-01   5.00000000e-02   2.70000000e+01   4.17657000e-14   0.00000000e+00  -4.17657000e-14   0.00000000e+00
69        -3.10000000e-01   5.00000000e-02   2.70000000e+01   5.52415000e-14   0.00000000e+00  -5.52415000e-14   0.00000000e+00
70        -3.00000000e-01   5.00000000e-02   2.70000000e+01   7.30797000e-14   0.00000000e+00  -7.30797000e-14   0.00000000e+00
71        -2.90000000e-01   5.00000000e-02   2.70000000e+01   9.66962000e-14   0.00000000e+00  -9.66962000e-14   0.00000000e+00
72        -2.80000000e-01   5.00000000e-02   2.70000000e+01   1.27965200e-13   0.00000000e+00  -1.27965200e-13   0.00000000e+00
73        -2.70000000e-01   5.00000000e-02   2.70000000e+01   1.69370300e-13   0.00000000e+00  -1.69370300e-13   0.00000000e+00
74        -2.60000000e-01   5.00000000e-02   2.70000000e+01   2.24207100e-13   0.00000000e+00  -2.24207100e-13   0.00000000e+00
75        -2.50000000e-01   5.00000000e-02   2.70000000e+01   2.96838200e-13   0.00000000e+00  -2.96838200e-13   0.00000000e+00
76        -2.40000000e-01   5.00000000e-02   2.70000000e+01   3.93049800e-13   0.00000000e+00  -3.93049800e-13   0.00000000e+00
77        -2.30000000e-01   5.00000000e-02   2.70000000e+01   5.20511400e-13   0.00000000e+00  -5.20511400e-13   0.00000000e+00
78        -2.20000000e-01   5.00000000e-02   2.70000000e+01   6.89394500e-13   0.00000000e+00  -6.89394500e-13   0.00000000e+00
79        -2.10000000e-01   5.00000000e-02   2.70000000e+01   9.13184700e-13   0.00000000e+00  -9.13184700e-13   0.00000000e+00
80        -2.00000000e-01   5.00000000e-02   2.70000000e+01   1.20980000e-12   0.00000000e+00  -1.20980000e-12   0.00000000e+00
81        -1.90000000e-01   5.00000000e-02   2.70000000e+01   1.60290000e-12   0.00000000e+00  -1.60290000e-12   0.00000000e+00
82        -1.80000000e-01   5.00000000e-02   2.70000000e+01   2.12390000e-12   0.00000000e+00  -2.12390000e-12   0.00000000e+00
83        -1.70000000e-01   5.00000000e-02   2.70000000e+01   2.81470000e-12   0.00000000e+00  -2.81470000e-12   0.00000000e+00
84        -1.60000000e-01   5.00000000e-02   2.70000000e+01   3.73060000e-12   0.00000000e+00  -3.73060000e-12   0.00000000e+00
85        -1.50000000e-01   5.00000000e-02   2.70000000e+01   4.94500000e-12   0.00000000e+00  -4.94500000e-12   0.00000000e+00
86        -1.40000000e-01   5.00000000e-02   2.70000000e+01   6.55540000e-12   0.00000000e+00  -6.55540000e-12   0.00000000e+00
87        -1.30000000e-01   5.00000000e-02   2.70000000e+01   8.69140000e-12   0.00000000e+00  -8.69140000e-12   0.00000000e+00
88        -1.20000000e-01   5.00000000e-02   2.70000000e+01   1.15245000e-11   0.00000000e+00  -1.15245000e-11   0.00000000e+00
89        -1.10000000e-01   5.00000000e-02   2.70000000e+01   1.52827000e-11   0.00000000e+00  -1.52827000e-11   0.00000000e+00
90        -1.00000000e-01   5.00000000e-02   2.70000000e+01   2.02687000e-11   0.00000000e+00  -2.02687000e-11   0.00000000e+00
91        -9.00000000e-02   5.00000000e-02   2.70000000e+01   2.68842000e-11   0.00000000e+00  -2.68842000e-11   0.00000000e+00
92        -8.00000000e-02   5.00000000e-02   2.70000000e+01   3.56626000e-11   0.00000000e+00  -3.56626000e-11   0.00000000e+00
93        -7.00000000e-02   5.00000000e-02   2.70000000e+01   4.73124000e-11   0.00000000e+00  -4.73124000e-11   0.00000000e+00
94        -6.00000000e-02   5.00000000e-02   2.70000000e+01   6.27742000e-11   0.00000000e+00  -6.27742000e-11   0.00000000e+00
95        -5.00000000e-02   5.00000000e-02   2.70000000e+01   8.32975000e-11   0.00000000e+00  -8.32975000e-11   0.00000000e+00
96        -4.00000000e-02   5.00000000e-02   2.70000000e+01   1.10541800e-10   0.00000000e+00  -1.10541800e-10   0.00000000e+00
97        -3.00000000e-02   5.00000000e-02   2.70000000e+01   1.46711600e-10   0.00000000e+00  -1.46711600e-10   0.00000000e+00
98        -2.00000000e-02   5.00000000e-02   2.70000000e+01   1.94735900e-10   0.00000000e+00  -1.94735900e-10   0.00000000e+00
99        -1.00000000e-02   5.00000000e-02   2.70000000e+01   2.58505700e-10   0.00000000e+00  -2.58505700e-10   0.00000000e+00
100        0.00000000e+00   5.00000000e-02   2.70000000e+01   3.43191800e-10   0.00000000e+00  -3.43191800e-10   0.00000000e+00
101        1.00000000e-02   5.00000000e-02   2.70000000e+01   4.55665200e-10   0.00000000e+00  -4.55665200e-10   0.00000000e+00
102        2.00000000e-02   5.00000000e-02   2.70000000e+01   6.05057400e-10   0.00000000e+00  -6.05057400e-10   0.00000000e+00
103        3.00000000e-02   5.00000000e-02   2.70000000e+01   8.03505400e-10   0.00000000e+00  -8.03505400e-10   0.00000000e+00
104        4.00000000e-02   5.00000000e-02   2.70000000e+01   1.06710000e-09   0.00000000e+00  -1.06710000e-09   0.00000000e+00
105        5.00000000e-02   5.00000000e-02   2.70000000e+01   1.41740000e-09   0.00000000e+00  -1.41740000e-09   0.00000000e+00
106        6.00000000e-02   5.00000000e-02   2.70000000e+01   1.88280000e-09   0.00000000e+00  -1.88280000e-09   0.00000000e+00
107        7.00000000e-02   5.00000000e-02   2.70000000e+01   2.50130000e-09   0.00000000e+00  -2.50130000e-09   0.00000000e+00
108        8.00000000e-02   5.00000000e-02   2.70000000e+01   3.32320000e-09   0.00000000e+00  -3.32320000e-09   0.00000000e+00
109        9.00000000e-02   5.00000000e-02   2.70000000e+01   4.41560000e-09   0.00000000e+00  -4.41560000e-09   0.00000000e+00
110        1.00000000e-01   5.00000000e-02   2.70000000e+01   5.86760000e-09   0.00000000e+00  -5.86760000e-09   0.00000000e+00
111        1.10000000e-01   5.00000000e-02   2.70000000e+01   7.79770000e-09   0.00000000e+00  -7.79770000e-09   0.00000000e+00
112        1.20000000e-01   5.00000000e-02   2.70000000e+01   1.03635000e-08   0.00000000e+00  -1.03635000e-08   0.00000000e+00
113        1.30000000e-01   5.00000000e-02   2.70000000e+01   1.37748000e-08   0.00000000e+00  -1.37748000e-08   0.00000000e+00
114        1.40000000e-01   5.00000000e-02   2.70000000e+01   1.83104000e-08   0.00000000e+00  -1.83104000e-08   0.00000000e+00
115        1.50000000e-01   5.00000000e-02   2.70000000e+01   2.43410000e-08   0.00000000e+00  -2.43410000e-08   0.00000000e+00
116        1.60000000e-01   5.00000000e-02   2.70000000e+01   3.23601000e-08   0.00000000e+00  -3.23601000e-08   0.00000000e+00
117        1.70000000e-01   5.00000000e-02   2.70000000e+01   4.30235000e-08   0.00000000e+00  -4.30235000e-08   0.00000000e+00
118        1.80000000e-01   5.00000000e-02   2.70000000e+01   5.72036000e-08   0.00000000e+00  -5.72036000e-08   0.00000000e+00
119        1.90000000e-01   5.00000000e-02   2.70000000e+01   7.60598000e-08   0.00000000e+00  -7.60598000e-08   0.00000000e+00
120        2.00000000e-01   5.00000000e-02   2.70000000e+01   1.01133500e-07   0.00000000e+00  -1.01133500e-07   0.00000000e+00
121        2.10000000e-01   5.00000000e-02   2.70000000e+01   1.34472300e-07   0.00000000e+00  -1.34472300e-07   0.00000000e+00
122        2.20000000e-01   5.00000000e-02   2.70000000e+01   1.78794800e-07   0.00000000e+00  -1.78794800e-07   0.00000000e+00
123        2.30000000e-01   5.00000000e-02   2.70000000e+01   2.37708300e-07   0.00000000e+00  -2.37708300e-07   0.00000000e+00
124        2.40000000e-01   5.00000000e-02   2.70000000e+01   3.15993400e-07   0.00000000e+00  -3.15993400e-07   0.00000000e+00
125        2.50000000e-01   5.00000000e-02   2.70000000e+01   4.19977400e-07   0.00000000e+00  -4.19977400e-07   0.00000000e+00
126        2.60000000e-01   5.00000000e-02   2.70000000e+01   5.58017600e-07   0.00000000e+00  -5.58017600e-07   0.00000000e+00
127        2.70000000e-01   5.00000000e-02   2.70000000e+01   7.41125200e-07   0.00000000e+00  -7.41125200e-07   0.00000000e+00
128        2.80000000e-01   5.00000000e-02   2.70000000e+01   9.83757800e-07   0.00000000e+00  -9.83757800e-07   0.00000000e+00
129        2.90000000e-01   5.00000000e-02   2.70000000e+01   1.30480000e-06   0.00000000e+00  -1.30480000e-06   0.00000000e+00
130        3.00000000e-01   5.00000000e-02   2.70000000e+01   1.72880000e-06   0.00000000e+00  -1.72880000e-06   0.00000000e+00
131        3.10000000e-01   5.00000000e-02   2.70000000e+01   2.28750000e-06   0.00000000e+00  -2.28750000e-06   0.00000000e+00
132        3.20000000e-01   5.00000000e-02   2.70000000e+01   3.02120000e-06   0.00000000e+00  -3.02120000e-06   0.00000000e+00
133        3.30000000e-01   5.00000000e-02   2.70000000e+01   3.98070000e-06   0.00000000e+00  -3.98070000e-06   0.00000000e+00
134        3.40000000e-01   5.00000000e-02   2.70000000e+01   5.22910000e-06   0.00000000e+00  -5.22910000e-06   0.00000000e+00
135        3.50000000e-01   5.00000000e-02   2.70000000e+01   6.84280000e-06   0.00000000e+00  -6.84280000e-06   0.00000000e+00
136        3.60000000e-01   5.00000000e-02   2.70000000e+01   8.91200000e-06   0.00000000e+00  -8.91200000e-06   0.00000000e+00
137        3.70000000e-01   5.00000000e-02   2.70000000e+01   1.15396000e-05   0.00000000e+00  -1.15396000e-05   0.00000000e+00
138        3.80000000e-01   5.00000000e-02   2.70000000e+01   1.48388000e-05   0.00000000e+00  -1.48388000e-05   0.00000000e+00
139        3.90000000e-01   5.00000000e-02   2.70000000e+01   1.89281000e-05   0.00000000e+00  -1.89281000e-05   0.00000000e+00
140        4.00000000e-01   5.00000000e-02   2.70000000e+01   2.39238000e-05   0.00000000e+00  -2.39238000e-05   0.00000000e+00
141        4.10000000e-01   5.00000000e-02   2.70000000e+01   2.99324000e-05   0.00000000e+00  -2.99324000e-05   0.00000000e+00
142        4.20000000e-01   5.00000000e-02   2.70000000e+01   3.70416000e-05   0.00000000e+00  -3.70416000e-05   0.00000000e+00
143        4.30000000e-01   5.00000000e-02   2.70000000e+01   4.53126000e-05   0.00000000e+00  -4.53126000e-05   0.00000000e+00
144        4.40000000e-01   5.00000000e-02   2.70000000e+01   5.47755000e-05   0.00000000e+00  -5.47755000e-05   0.00000000e+00
145        4.50000000e-01   5.00000000e-02   2.70000000e+01   6.54267000e-05   0.00000000e+00  -6.54267000e-05   0.00000000e+00
146        4.60000000e-01   5.00000000e-02   2.70000000e+01   7.72309000e-05   0.00000000e+00  -7.72309000e-05   0.00000000e+00
147        4.70000000e-01   5.00000000e-02   2.70000000e+01   9.01254000e-05   0.00000000e+00  -9.01254000e-05   0.00000000e+00
148        4.80000000e-01   5.00000000e-02   2.70000000e+01   1.04026100e-04   0.00000000e+00  -1.04026100e-04   0.00000000e+00
149        4.90000000e-01   5.00000000e-02   2.70000000e+01   1.18835200e-04   0.00000000e+00  -1.18835200e-04   0.00000000e+00
150        5.00000000e-01   5.00000000e-02   2.70000000e+01   1.34446900e-04   0.00000000e+00  -1.34446900e-04   0.00000000e+00
151        5.10000000e-01   5.00000000e-02   2.70000000e+01   1.50753800e-04   0.00000000e+00  -1.50753800e-04   0.00000000e+00
152        5.20000000e-01   5.00000000e-02   2.70000000e+01   1.67651000e-04   0.00000000e+00  -1.67651000e-04   0.00000000e+00
153        5.30000000e-01   5.00000000e-02   2.70000000e+01   1.85038900e-04   0.00000000e+00  -1.85038900e-04   0.00000000e+00
154        5.40000000e-01   5.00000000e-02   2.70000000e+01   2.02825200e-04   0.00000000e+00  -2.02825200e-04   0.00000000e+00
