Index       TIME              V(IN)          V(AWL1_OUT)       V(LPF1_OUT)       V(LIM1_OUT)       V(AWL2_OUT)       V(LPF2_OUT)       V(LIM2_OUT)   
0        0.00000000e+00    0.00000000e+00    0.00000000e+00    0.00000000e+00    0.00000000e+00    0.00000000e+00    0.00000000e+00    0.00000000e+00
1        1.00000000e-03    1.00050705e-03    9.99507540e-07    9.99507540e-07    9.99507540e-07    5.00003522e-07    5.00003522e-07    5.00003522e-07
2        3.00000000e-03    3.00151714e-03    6.98856468e-06    6.98856468e-06    6.98856468e-06    3.49802264e-06    3.49802264e-06    3.49802264e-06
3        4.73063085e-03    4.73301263e-03    1.51534374e-05    1.51534374e-05    1.51534374e-05    7.58700632e-06    7.58700632e-06    7.58700632e-06
4        6.46126170e-03    6.46449392e-03    2.48082331e-05    2.48082331e-05    2.48082331e-05    1.24230364e-05    1.24230364e-05    1.24230364e-05
5        9.92252341e-03    9.92739319e-03    5.30418089e-05    5.30418089e-05    5.30418089e-05    2.65734449e-05    2.65734449e-05    2.65734449e-05
6        1.33837851e-02    1.33901734e-02    9.31429173e-05    9.31429173e-05    9.31429173e-05    4.66871015e-05    4.66871015e-05    4.66871015e-05
7        2.03063085e-02    2.03152105e-02    2.08761103e-04    2.08761103e-04    2.08761103e-04    1.04756586e-04    1.04756586e-04    1.04756586e-04
8        2.72288319e-02    2.72392732e-02    3.71351694e-04    3.71351694e-04    3.71351694e-04    1.86551695e-04    1.86551695e-04    1.86551695e-04
9        3.41513553e-02    3.41620291e-02    5.80582776e-04    5.80582776e-04    5.80582776e-04    2.91986510e-04    2.91986510e-04    2.91986510e-04
10       4.10738787e-02    4.10831464e-02    8.36122433e-04    8.36122433e-04    8.36122433e-04    4.20974261e-04    4.20974261e-04    4.20974261e-04
11       5.49189256e-02    5.49191367e-02    1.48463499e-03    1.48463499e-03    1.48463499e-03    7.49212962e-04    7.49212962e-04    7.49212962e-04
12       6.87639724e-02    6.87445893e-02    2.31440111e-03    2.31440111e-03    2.31440111e-03    1.17060050e-03    1.17060050e-03    1.17060050e-03
13       8.26090192e-02    8.25568514e-02    3.32276546e-03    3.32276546e-03    3.32276546e-03    1.68441244e-03    1.68441244e-03    1.68441244e-03
14       9.64540660e-02    9.63532727e-02    4.50707274e-03    4.50707274e-03    4.50707274e-03    2.28991103e-03    2.28991103e-03    2.28991103e-03
15       1.10299113e-01    1.10131206e-01    5.86466776e-03    5.86466776e-03    5.86466776e-03    2.98634534e-03    2.98634534e-03    2.98634534e-03
16       1.24144160e-01    1.23888008e-01    7.39289546e-03    7.39289546e-03    7.39289546e-03    3.77295139e-03    3.77295139e-03    3.77295139e-03
17       1.51834253e-01    1.51327663e-01    1.09493205e-02    1.09493205e-02    1.09493205e-02    5.61316272e-03    5.61316272e-03    5.61316272e-03
18       1.79524347e-01    1.78651178e-01    1.51564572e-02    1.51564572e-02    1.51564572e-02    7.80456444e-03    7.80456444e-03    7.80456444e-03
19       2.07214441e-01    2.05837584e-01    1.99930752e-02    1.99930752e-02    1.99930752e-02    1.03405867e-02    1.03405867e-02    1.03405867e-02
20       2.34904534e-01    2.32866016e-01    2.54379524e-02    2.54379524e-02    2.54379524e-02    1.32144622e-02    1.32144622e-02    1.32144622e-02
21       2.62594628e-01    2.59715730e-01    3.14698782e-02    3.14698782e-02    3.14698782e-02    1.64192310e-02    1.64192310e-02    1.64192310e-02
22       2.90284721e-01    2.86366120e-01    3.80676565e-02    3.80676565e-02    3.80676565e-02    1.99477441e-02    1.99477441e-02    1.99477441e-02
23       3.17974815e-01    3.12796732e-01    4.52101097e-02    4.52101097e-02    4.52101097e-02    2.37926689e-02    2.37926689e-02    2.37926689e-02
24       3.45664909e-01    3.38987282e-01    5.28760819e-02    5.28760819e-02    5.28760819e-02    2.79464935e-02    2.79464935e-02    2.79464935e-02
25       3.73355002e-01    3.64917670e-01    6.10444439e-02    6.10444439e-02    6.10444439e-02    3.24015314e-02    3.24015314e-02    3.24015314e-02
26       4.28735190e-01    4.15918569e-01    7.87937401e-02    7.87937401e-02    7.87937401e-02    4.21796655e-02    4.21796655e-02    4.21796655e-02
27       4.84115377e-01    4.65642893e-01    9.83005033e-02    9.83005033e-02    9.83005033e-02    5.30662412e-02    5.30662412e-02    5.30662412e-02
28       5.39495564e-01    5.13938022e-01    1.19397123e-01    1.19397123e-01    1.19397123e-01    6.49940347e-02    6.49940347e-02    6.49940347e-02
29       5.94875751e-01    5.60655726e-01    1.41916914e-01    1.41916914e-01    1.41916914e-01    7.78935502e-02    7.78935502e-02    7.78935502e-02
30       6.50255939e-01    6.05652614e-01    1.65694318e-01    1.65694318e-01    1.65694318e-01    9.16932072e-02    9.16932072e-02    9.16932072e-02
31       7.05636126e-01    6.48790578e-01    1.90565110e-01    1.90565110e-01    1.90565110e-01    1.06319536e-01    1.06319536e-01    1.06319536e-01
32       7.61016313e-01    6.89937213e-01    2.16366630e-01    2.16366630e-01    2.16366630e-01    1.21697380e-01    1.21697380e-01    1.21697380e-01
33       8.16396501e-01    7.28966231e-01    2.42938011e-01    2.42938011e-01    2.42938011e-01    1.37750102e-01    1.37750102e-01    1.37750102e-01
34       8.71776688e-01    7.65757838e-01    2.70120424e-01    2.70120424e-01    2.70120424e-01    1.54399798e-01    1.54399798e-01    1.54399798e-01
35       9.27156875e-01    8.00199111e-01    2.97757330e-01    2.97757330e-01    2.97757330e-01    1.71567513e-01    1.71567513e-01    1.71567513e-01
36       9.82537062e-01    8.32184339e-01    3.25694735e-01    3.25694735e-01    3.25694735e-01    1.89173462e-01    1.89173462e-01    1.89173462e-01
37       1.03791725e+00    8.61615351e-01    3.53781448e-01    3.53781448e-01    3.53781448e-01    2.07137258e-01    2.07137258e-01    2.07137258e-01
38       1.09329744e+00    8.88401814e-01    3.81869348e-01    3.81869348e-01    3.81869348e-01    2.25378131e-01    2.25378131e-01    2.25378131e-01
39       1.14867762e+00    9.12461512e-01    4.09813645e-01    4.09813645e-01    4.09813645e-01    2.43815165e-01    2.43815165e-01    2.43815165e-01
40       1.20405781e+00    9.33720600e-01    4.37473150e-01    4.37473150e-01    4.37473150e-01    2.62367520e-01    2.62367520e-01    2.62367520e-01
41       1.25943800e+00    9.52113827e-01    4.64710532e-01    4.64710532e-01    4.64710532e-01    2.80954665e-01    2.80954665e-01    2.80954665e-01
42       1.31481819e+00    9.67584738e-01    4.91392580e-01    4.91392580e-01    4.91392580e-01    2.99496606e-01    2.99496606e-01    2.99496606e-01
43       1.31959301e+00    9.68780169e-01    4.93661188e-01    4.93661188e-01    4.93661188e-01    3.01090655e-01    3.01090655e-01    3.01090655e-01
44       1.32914265e+00    9.71104675e-01    4.98187889e-01    4.98187889e-01    4.98187889e-01    3.04276697e-01    3.04276697e-01    3.04276697e-01
45       1.34824193e+00    9.75487534e-01    5.02678497e-01    5.07176281e-01    5.00000000e-01    3.10635232e-01    3.10635232e-01    3.10635232e-01
46       1.36543129e+00    9.79127606e-01    5.02632848e-01    5.15188671e-01    5.00000000e-01    3.16340548e-01    3.16340548e-01    3.16340548e-01
47       1.38262065e+00    9.82478086e-01    5.02587976e-01    5.23124077e-01    5.00000000e-01    3.22026952e-01    3.22026952e-01    3.22026952e-01
48       1.39981000e+00    9.85537981e-01    5.02543870e-01    5.30978866e-01    5.00000000e-01    3.27692121e-01    3.27692121e-01    3.27692121e-01
49       1.43418872e+00    9.90782485e-01    5.02457893e-01    5.46430568e-01    5.00000000e-01    3.38948399e-01    3.38948399e-01    3.38948399e-01
50       1.50294614e+00    9.97750453e-01    5.02294511e-01    5.76199204e-01    5.00000000e-01    3.61096676e-01    3.61096676e-01    3.61096676e-01
51       1.57170357e+00    9.99998547e-01    5.02141990e-01    6.04295360e-01    5.00000000e-01    3.82652132e-01    3.82652132e-01    3.82652132e-01
52       1.64046099e+00    9.97516134e-01    5.01999607e-01    6.30516114e-01    5.00000000e-01    4.03475102e-01    4.03475102e-01    4.03475102e-01
53       1.70921842e+00    9.90314957e-01    5.01866689e-01    6.54672073e-01    5.00000000e-01    4.23430661e-01    4.23430661e-01    4.23430661e-01
54       1.77797584e+00    9.78429080e-01    5.01742606e-01    6.76587952e-01    5.00000000e-01    4.42389218e-01    4.42389218e-01    4.42389218e-01
55       1.84673327e+00    9.61914730e-01    5.01626771e-01    6.96103122e-01    5.00000000e-01    4.60227086e-01    4.60227086e-01    4.60227086e-01
56       1.91549069e+00    9.40850028e-01    5.01518636e-01    7.13072095e-01    5.00000000e-01    4.76827030e-01    4.76827030e-01    4.76827030e-01
57       1.98424812e+00    9.15334622e-01    5.01417689e-01    7.27364962e-01    5.00000000e-01    4.92078782e-01    4.92078782e-01    4.92078782e-01
58       1.99284280e+00    9.11838041e-01    5.01405608e-01    7.28936939e-01    5.00000000e-01    4.93874911e-01    4.93874911e-01    4.93874911e-01
59       2.01003215e+00    9.04642872e-01    5.01381653e-01    7.31992787e-01    5.00000000e-01    4.97421011e-01    4.97421011e-01    4.97421011e-01
60       2.04441087e+00    8.89452053e-01    5.01334956e-01    7.37571263e-01    5.00000000e-01    5.00905389e-01    5.04231796e-01    5.00000000e-01
61       2.07878958e+00    8.73209030e-01    5.01289837e-01    7.42430004e-01    5.00000000e-01    5.00874789e-01    5.10658644e-01    5.00000000e-01
62       2.11316829e+00    8.55933020e-01    5.01246244e-01    7.46558096e-01    5.00000000e-01    5.00845223e-01    5.16690330e-01    5.00000000e-01
63       2.14754700e+00    8.37644460e-01    5.01204124e-01    7.49945666e-01    5.00000000e-01    5.00816656e-01    5.22316157e-01    5.00000000e-01
64       2.21630443e+00    7.98117400e-01    5.01124083e-01    7.54461472e-01    5.00000000e-01    5.00762371e-01    5.32305581e-01    5.00000000e-01
65       2.28506186e+00    7.54814834e-01    5.01049363e-01    7.55924169e-01    5.00000000e-01    5.00711695e-01    5.40557658e-01    5.00000000e-01
66       2.35381928e+00    7.07941606e-01    5.00979609e-01    7.54292546e-01    5.00000000e-01    5.00664387e-01    5.47006964e-01    5.00000000e-01
67       2.42257671e+00    6.57719449e-01    5.00914492e-01    7.49542309e-01    5.00000000e-01    5.00620224e-01    5.51597495e-01    5.00000000e-01
68       2.49133413e+00    6.04385941e-01    5.00853704e-01    7.41666044e-01    5.00000000e-01    5.00578996e-01    5.54282902e-01    5.00000000e-01
69       2.56009156e+00    5.48193377e-01    5.00796956e-01    7.30673112e-01    5.00000000e-01    5.00540509e-01    5.55026681e-01    5.00000000e-01
70       2.62884898e+00    4.89407576e-01    5.00391930e-01    7.16589473e-01    5.00000000e-01    5.00334107e-01    5.53802317e-01    5.00000000e-01
71       2.69760641e+00    4.28306625e-01    4.97631019e-01    6.99457436e-01    5.00000000e-01    4.98932277e-01    5.50593382e-01    5.00000000e-01
72       2.76636383e+00    3.65179564e-01    4.90924777e-01    6.79335348e-01    5.00000000e-01    4.95478513e-01    5.45393588e-01    5.00000000e-01
73       2.83512126e+00    3.00325015e-01    4.80410704e-01    6.56297211e-01    5.00000000e-01    4.89978732e-01    5.38206791e-01    5.00000000e-01
74       2.90387868e+00    2.34049774e-01    4.66237282e-01    6.30432227e-01    5.00000000e-01    4.82448886e-01    5.29046945e-01    5.00000000e-01
75       2.97263611e+00    1.66667358e-01    4.48563740e-01    6.01844286e-01    5.00000000e-01    4.72914868e-01    5.17938017e-01    5.00000000e-01
76       3.04139353e+00    9.84965188e-02    4.27559735e-01    5.70651387e-01    5.00000000e-01    4.61412380e-01    5.04913848e-01    5.00000000e-01
77       3.05241891e+00    8.75134242e-02    4.23851483e-01    5.65382700e-01    5.00000000e-01    4.59362493e-01    5.02625466e-01    5.00000000e-01
78       3.07446965e+00    6.55166266e-02    4.16275979e-01    5.54720361e-01    5.00000000e-01    4.55164599e-01    4.97953196e-01    4.97953196e-01
79       3.09652039e+00    4.34879415e-02    4.08385595e-01    5.43810466e-01    5.00000000e-01    4.50771367e-01    4.93090790e-01    4.93090790e-01
80       3.11857114e+00    2.14380903e-02    4.00186619e-01    5.32657837e-01    5.00000000e-01    4.46184647e-01    4.88040041e-01    4.88040041e-01
81       3.14062188e+00   -6.22194904e-04    3.91685438e-01    5.21267422e-01    5.00000000e-01    4.41406388e-01    4.82802841e-01    4.82802841e-01
82       3.18472337e+00   -4.47311201e-02    3.73805715e-01    4.97796237e-01    4.97796237e-01    4.31284608e-01    4.71778193e-01    4.71778193e-01
83       3.18932053e+00   -4.93255265e-02    3.71869411e-01    4.95292536e-01    4.95292536e-01    4.30182419e-01    4.70583139e-01    4.70583139e-01
84       3.19391770e+00   -5.39188893e-02    3.69927014e-01    4.92784043e-01    4.92784043e-01    4.29076222e-01    4.69384184e-01    4.69384184e-01
85       3.19851487e+00   -5.85111115e-02    3.67972460e-01    4.90265990e-01    4.90265990e-01    4.27962020e-01    4.68177437e-01    4.68177437e-01
86       3.20770921e+00   -6.76917453e-02    3.64027160e-01    4.85201427e-01    4.85201427e-01    4.25709696e-01    4.65740660e-01    4.65740660e-01
87       3.22609788e+00   -8.60350521e-02    3.55993631e-01    4.74959965e-01    4.74959965e-01    4.21110016e-01    4.60774606e-01    4.60774606e-01
88       3.26287522e+00   -1.22628104e-01    3.39369784e-01    4.54039855e-01    4.54039855e-01    4.11535871e-01    4.50477728e-01    4.50477728e-01
89       3.29965256e+00   -1.59055143e-01    3.22027781e-01    4.32556741e-01    4.32556741e-01    4.01470923e-01    4.39703215e-01    4.39703215e-01
90       3.33642990e+00   -1.95266855e-01    3.04000443e-01    4.10537841e-01    4.10537841e-01    3.90927590e-01    4.28463246e-01    4.28463246e-01
91       3.37320725e+00   -2.31214215e-01    2.85321181e-01    3.88011166e-01    3.88011166e-01    3.79918958e-01    4.16770671e-01    4.16770671e-01
92       3.40998459e+00   -2.66848560e-01    2.66023964e-01    3.65005478e-01    3.65005478e-01    3.68458766e-01    4.04638999e-01    4.04638999e-01
93       3.44676193e+00   -3.02121646e-01    2.46143283e-01    3.41550251e-01    3.41550251e-01    3.56561384e-01    3.92082372e-01    3.92082372e-01
94       3.48353927e+00   -3.36985723e-01    2.25714117e-01    3.17675628e-01    3.17675628e-01    3.44241797e-01    3.79115552e-01    3.79115552e-01
95       3.52031661e+00   -3.71393591e-01    2.04771897e-01    2.93412378e-01    2.93412378e-01    3.31515580e-01    3.65753895e-01    3.65753895e-01
96       3.55709396e+00   -4.05298669e-01    1.83352467e-01    2.68791850e-01    2.68791850e-01    3.18398879e-01    3.52013333e-01    3.52013333e-01
97       3.59387130e+00   -4.38655057e-01    1.61492047e-01    2.43845935e-01    2.43845935e-01    3.04908389e-01    3.37910350e-01    3.37910350e-01
98       3.66742598e+00   -5.03541935e-01    1.16612596e-01    1.93123847e-01    1.93123847e-01    2.76884245e-01    3.08694397e-01    3.08694397e-01
99       3.74098067e+00   -5.65702971e-01    7.04104018e-02    1.41493523e-01    1.41493523e-01    2.47578087e-01    2.78239470e-01    2.78239470e-01
100      3.81453535e+00   -6.24801665e-01    2.31846288e-02    8.92247228e-02    8.92247228e-02    2.17140727e-01    2.46694828e-01    2.46694828e-01
101      3.88809004e+00   -6.80518097e-01   -2.47634963e-02    3.65913503e-02    3.65913503e-02    1.85729385e-01    2.14216191e-01    2.14216191e-01
102      3.96164472e+00   -7.32550655e-01   -7.31320707e-02   -1.61300742e-02   -1.61300742e-02    1.53506825e-01    1.80964880e-01    1.80964880e-01
103      4.03519941e+00   -7.80617669e-01   -1.21619920e-01   -6.86619580e-02   -6.86619580e-02    1.20640466e-01    1.47106920e-01    1.47106920e-01
104      4.10875409e+00   -8.24458936e-01   -1.69928013e-01   -1.20727181e-01   -1.20727181e-01    8.73014648e-02    1.12812129e-01    1.12812129e-01
105      4.18230878e+00   -8.63837128e-01   -2.17760888e-01   -1.72050633e-01   -1.72050633e-01    5.36637801e-02    7.82531706e-02    7.82531706e-02
106      4.25586346e+00   -8.98539079e-01   -2.64828062e-01   -2.22360744e-01   -2.22360744e-01    1.99032242e-02    4.36046114e-02    4.36046114e-02
107      4.32941814e+00   -9.28376934e-01   -3.10845436e-01   -2.71390983e-01   -2.71390983e-01   -1.38034994e-02    9.04195330e-03    9.04195330e-03
108      4.40297283e+00   -9.53189171e-01   -3.55536674e-01   -3.18881336e-01   -3.18881336e-01   -4.72797598e-02   -2.52593310e-02   -2.52593310e-02
109      4.47652751e+00   -9.72841473e-01   -3.98634549e-01   -3.64579743e-01   -3.64579743e-01   -8.03499629e-02   -5.91247638e-02   -5.91247638e-02
110      4.55008220e+00   -9.87227456e-01   -4.39882255e-01   -4.08243484e-01   -4.08243484e-01   -1.12840510e-01   -9.23818219e-02   -9.23818219e-02
111      4.62363688e+00   -9.96269244e-01   -4.79034670e-01   -4.49640527e-01   -4.49640527e-01   -1.44580744e-01   -1.24860886e-01   -1.24860886e-01
112      4.63283122e+00   -9.97020949e-01   -4.83753820e-01   -4.54627475e-01   -4.54627475e-01   -1.48481621e-01   -1.28852004e-01   -1.28852004e-01
113      4.65121989e+00   -9.98271195e-01   -4.93117523e-01   -4.64521893e-01   -4.64521893e-01   -1.56253396e-01   -1.36803434e-01   -1.36803434e-01
114      4.68799723e+00   -9.99757703e-01   -5.02363172e-01   -4.83824165e-01   -4.83824165e-01   -1.71609463e-01   -1.52513902e-01   -1.52513902e-01
115      4.72109684e+00   -9.99938368e-01   -5.02286225e-01   -5.00626281e-01   -5.00000000e-01   -1.85204154e-01   -1.66422027e-01   -1.66422027e-01
116      4.75419645e+00   -9.99022505e-01   -5.02211784e-01   -5.16869339e-01   -5.00000000e-01   -1.98569669e-01   -1.80095831e-01   -1.80095831e-01
117      4.78388066e+00   -9.97269299e-01   -5.02147089e-01   -5.30946715e-01   -5.00000000e-01   -2.10349643e-01   -1.92147976e-01   -1.92147976e-01
118      4.81356487e+00   -9.94636519e-01   -5.02084287e-01   -5.44548182e-01   -5.00000000e-01   -2.21923757e-01   -2.03990251e-01   -2.03990251e-01
119      4.87293329e+00   -9.86742302e-01   -5.01964113e-01   -5.70271311e-01   -5.00000000e-01   -2.44410211e-01   -2.27001262e-01   -2.27001262e-01
120      4.99167012e+00   -9.60552829e-01   -5.01743970e-01   -6.15482797e-01   -5.00000000e-01   -2.86455790e-01   -2.70050587e-01   -2.70050587e-01
121      5.11040696e+00   -9.20823257e-01   -5.01548501e-01   -6.51932668e-01   -5.00000000e-01   -3.24176806e-01   -3.08717476e-01   -3.08717476e-01
122      5.22914380e+00   -8.68113620e-01   -5.01374941e-01   -6.79116724e-01   -5.00000000e-01   -3.57058064e-01   -3.42490072e-01   -3.42490072e-01
123      5.34788064e+00   -8.03166921e-01   -5.01220834e-01   -6.96660301e-01   -5.00000000e-01   -3.84651640e-01   -3.70923593e-01   -3.70923593e-01
124      5.46661747e+00   -7.26898658e-01   -5.01084000e-01   -7.04323672e-01   -5.00000000e-01   -4.06583245e-01   -3.93646715e-01   -3.93646715e-01
125      5.58535431e+00   -6.40383921e-01   -5.00962502e-01   -7.02005535e-01   -5.00000000e-01   -4.22557558e-01   -4.10366909e-01   -4.10366909e-01
126      5.70409115e+00   -5.44842235e-01   -5.00854622e-01   -6.89744537e-01   -5.00000000e-01   -4.32362435e-01   -4.20874661e-01   -4.20874661e-01
127      5.82282799e+00   -4.41620370e-01   -4.97487162e-01   -6.67718809e-01   -5.00000000e-01   -4.35871947e-01   -4.25046522e-01   -4.25046522e-01
128      5.92969114e+00   -3.43354811e-01   -4.86835701e-01   -6.39798557e-01   -5.00000000e-01   -4.33614170e-01   -4.23352115e-01   -4.23352115e-01
129      6.01818475e+00   -2.58962633e-01   -4.71100698e-01   -6.11100875e-01   -5.00000000e-01   -4.27880293e-01   -4.18062472e-01   -4.18062472e-01
130      6.09782900e+00   -1.81255941e-01   -4.51876234e-01   -5.81153222e-01   -5.00000000e-01   -4.19767935e-01   -4.10333449e-01   -4.10333449e-01
131      6.17747325e+00   -1.02398947e-01   -4.28128323e-01   -5.47503455e-01   -5.00000000e-01   -4.08915831e-01   -3.99849711e-01   -3.99849711e-01
