Index        TIME             V(1)             V(16)            V(17)
0       0.00000000e+00   0.00000000e+00   6.38878415e+00   6.38878415e+00   
1       5.00000000e-10   0.00000000e+00   6.38878426e+00   6.38878426e+00   
2       5.06812000e-10   2.14005139e-04   6.38878428e+00   6.38878428e+00   
3       5.13624001e-10   4.28009297e-04   6.38878434e+00   6.38878434e+00   
4       5.20436001e-10   6.42011495e-04   6.38878444e+00   6.38878444e+00   
5       5.27248001e-10   8.56010753e-04   6.38878460e+00   6.38878459e+00   
6       5.40872002e-10   1.28399653e-03   6.38878522e+00   6.38878520e+00   
7       5.54496003e-10   1.71195878e-03   6.38878621e+00   6.38878615e+00   
8       5.68120003e-10   2.13988967e-03   6.38878759e+00   6.38878746e+00   
9       5.95368005e-10   2.99562601e-03   6.38879219e+00   6.38879157e+00   
10      6.22616006e-10   3.85114284e-03   6.38879878e+00   6.38879716e+00   
11      6.49864007e-10   4.70637747e-03   6.38880749e+00   6.38880414e+00   
12      6.77112009e-10   5.56126723e-03   6.38881846e+00   6.38881237e+00   
13      7.04360010e-10   6.41574948e-03   6.38883178e+00   6.38882171e+00   
14      7.31608011e-10   7.26976161e-03   6.38884758e+00   6.38883201e+00   
15      7.58856012e-10   8.12324103e-03   6.38886598e+00   6.38884309e+00   
16      7.86104014e-10   8.97612520e-03   6.38888710e+00   6.38885477e+00   
17      8.13352015e-10   9.82835164e-03   6.38891111e+00   6.38886686e+00   
18      8.40600016e-10   1.06798579e-02   6.38893814e+00   6.38887918e+00   
19      8.67848018e-10   1.15305815e-02   6.38896836e+00   6.38889150e+00   
20      8.95096019e-10   1.23804603e-02   6.38900196e+00   6.38890362e+00   
21      9.22344020e-10   1.32294318e-02   6.38903914e+00   6.38891530e+00   
22      9.49592022e-10   1.40774339e-02   6.38908009e+00   6.38892632e+00   
23      9.76840023e-10   1.49244045e-02   6.38912504e+00   6.38893643e+00   
24      1.00408802e-09   1.57702815e-02   6.38917422e+00   6.38894535e+00   
25      1.03133603e-09   1.66150028e-02   6.38922790e+00   6.38895283e+00   
26      1.05858403e-09   1.74585067e-02   6.38928633e+00   6.38895858e+00   
27      1.08583203e-09   1.83007313e-02   6.38934979e+00   6.38896229e+00   
28      1.11308003e-09   1.91416148e-02   6.38941857e+00   6.38896366e+00   
29      1.14032803e-09   1.99810957e-02   6.38949299e+00   6.38896236e+00   
30      1.16757603e-09   2.08191125e-02   6.38957336e+00   6.38895805e+00   
31      1.19482403e-09   2.16556037e-02   6.38966001e+00   6.38895039e+00   
32      1.22207203e-09   2.24905081e-02   6.38975329e+00   6.38893900e+00   
33      1.24932004e-09   2.33237644e-02   6.38985356e+00   6.38892352e+00   
34      1.27656804e-09   2.41553116e-02   6.38996119e+00   6.38890354e+00   
35      1.30381604e-09   2.49850888e-02   6.39007656e+00   6.38887867e+00   
36      1.33106404e-09   2.58130352e-02   6.39020006e+00   6.38884848e+00   
37      1.35831204e-09   2.66390901e-02   6.39033211e+00   6.38881255e+00   
38      1.38556004e-09   2.74631929e-02   6.39047312e+00   6.38877043e+00   
39      1.41280804e-09   2.82852834e-02   6.39062351e+00   6.38872166e+00   
40      1.44005605e-09   2.91053012e-02   6.39078374e+00   6.38866578e+00   
41      1.46730405e-09   2.99231862e-02   6.39095424e+00   6.38860231e+00   
42      1.49455205e-09   3.07388786e-02   6.39113548e+00   6.38853076e+00   
43      1.52180005e-09   3.15523185e-02   6.39132792e+00   6.38845061e+00   
44      1.54904805e-09   3.23634464e-02   6.39153204e+00   6.38836136e+00   
45      1.57629605e-09   3.31722028e-02   6.39174834e+00   6.38826248e+00   
46      1.60354405e-09   3.39785284e-02   6.39197730e+00   6.38815342e+00   
47      1.63079205e-09   3.47823642e-02   6.39221943e+00   6.38803364e+00   
48      1.65804006e-09   3.55836513e-02   6.39247525e+00   6.38790258e+00   
49      1.68528806e-09   3.63823309e-02   6.39274528e+00   6.38775966e+00   
50      1.71253606e-09   3.71783445e-02   6.39303004e+00   6.38760432e+00   
51      1.73978406e-09   3.79716338e-02   6.39333008e+00   6.38743595e+00   
52      1.76703206e-09   3.87621406e-02   6.39364594e+00   6.38725395e+00   
53      1.79428006e-09   3.95498072e-02   6.39397816e+00   6.38705772e+00   
54      1.82152806e-09   4.03345756e-02   6.39432731e+00   6.38684665e+00   
55      1.84877607e-09   4.11163884e-02   6.39469395e+00   6.38662009e+00   
56      1.87602407e-09   4.18951884e-02   6.39507866e+00   6.38637741e+00   
57      1.90327207e-09   4.26709184e-02   6.39548201e+00   6.38611798e+00   
58      1.93052007e-09   4.34435216e-02   6.39590458e+00   6.38584114e+00   
59      1.95776807e-09   4.42129414e-02   6.39634696e+00   6.38554622e+00   
60      1.98501607e-09   4.49791215e-02   6.39680975e+00   6.38523257e+00   
61      2.01226407e-09   4.57420056e-02   6.39729355e+00   6.38489950e+00   
62      2.03951207e-09   4.65015379e-02   6.39779896e+00   6.38454634e+00   
63      2.06676008e-09   4.72576627e-02   6.39832659e+00   6.38417239e+00   
64      2.09400808e-09   4.80103246e-02   6.39887706e+00   6.38377697e+00   
65      2.12125608e-09   4.87594685e-02   6.39945098e+00   6.38335936e+00   
66      2.14850408e-09   4.95050394e-02   6.40004898e+00   6.38291887e+00   
67      2.17575208e-09   5.02469828e-02   6.40067168e+00   6.38245478e+00   
68      2.20300008e-09   5.09852442e-02   6.40131973e+00   6.38196638e+00   
69      2.23024808e-09   5.17197696e-02   6.40199374e+00   6.38145293e+00   
70      2.25749608e-09   5.24505051e-02   6.40269437e+00   6.38091372e+00   
71      2.28474409e-09   5.31773973e-02   6.40342224e+00   6.38034801e+00   
72      2.31199209e-09   5.39003927e-02   6.40417802e+00   6.37975506e+00   
73      2.33924009e-09   5.46194385e-02   6.40496234e+00   6.37913414e+00   
74      2.36648809e-09   5.53344820e-02   6.40577586e+00   6.37848450e+00   
75      2.39373609e-09   5.60454708e-02   6.40661923e+00   6.37780539e+00   
76      2.42098409e-09   5.67523527e-02   6.40749311e+00   6.37709607e+00   
77      2.44823209e-09   5.74550760e-02   6.40839815e+00   6.37635577e+00   
78      2.47548010e-09   5.81535891e-02   6.40933503e+00   6.37558374e+00   
79      2.50272810e-09   5.88478410e-02   6.41030439e+00   6.37477923e+00   
80      2.52997610e-09   5.95377807e-02   6.41130691e+00   6.37394146e+00   
81      2.55722410e-09   6.02233576e-02   6.41234325e+00   6.37306968e+00   
82      2.58447210e-09   6.09045216e-02   6.41341408e+00   6.37216313e+00   
83      2.61172010e-09   6.15812226e-02   6.41452007e+00   6.37122103e+00   
84      2.63896810e-09   6.22534112e-02   6.41566188e+00   6.37024262e+00   
85      2.66621610e-09   6.29210381e-02   6.41684021e+00   6.36922713e+00   
86      2.69346411e-09   6.35840543e-02   6.41805570e+00   6.36817379e+00   
87      2.72071211e-09   6.42424113e-02   6.41930905e+00   6.36708182e+00   
88      2.74796011e-09   6.48960608e-02   6.42060092e+00   6.36595047e+00   
89      2.77520811e-09   6.55449550e-02   6.42193199e+00   6.36477895e+00   
90      2.80245611e-09   6.61890462e-02   6.42330293e+00   6.36356651e+00   
91      2.82970411e-09   6.68282873e-02   6.42471443e+00   6.36231236e+00   
92      2.85695211e-09   6.74626314e-02   6.42616714e+00   6.36101574e+00   
93      2.88420012e-09   6.80920321e-02   6.42766176e+00   6.35967588e+00   
94      2.91144812e-09   6.87164432e-02   6.42919895e+00   6.35829201e+00   
95      2.93869612e-09   6.93358190e-02   6.43077939e+00   6.35686336e+00   
96      2.96594412e-09   6.99501141e-02   6.43240376e+00   6.35538918e+00   
97      2.99319212e-09   7.05592834e-02   6.43407273e+00   6.35386870e+00   
98      3.02044012e-09   7.11632825e-02   6.43578696e+00   6.35230115e+00   
99      3.04768812e-09   7.17620669e-02   6.43754714e+00   6.35068578e+00   
100     3.10218413e-09   7.29438167e-02   6.44125674e+00   6.34725779e+00   
101     3.15668013e-09   7.41041866e-02   6.44516080e+00   6.34362650e+00   
102     3.21117613e-09   7.52428363e-02   6.44926466e+00   6.33978596e+00   
103     3.26567213e-09   7.63594323e-02   6.45357359e+00   6.33573031e+00   
104     3.32016814e-09   7.74536472e-02   6.45809283e+00   6.33145372e+00   
105     3.37466414e-09   7.85251603e-02   6.46282759e+00   6.32695044e+00   
106     3.42916014e-09   7.95736576e-02   6.46778301e+00   6.32221479e+00   
107     3.48365614e-09   8.05988316e-02   6.47296420e+00   6.31724118e+00   
108     3.53815215e-09   8.16003821e-02   6.47837622e+00   6.31202409e+00   
109     3.59264815e-09   8.25780152e-02   6.48402404e+00   6.30655809e+00   
110     3.64714415e-09   8.35314447e-02   6.48991262e+00   6.30083785e+00   
111     3.70164015e-09   8.44603909e-02   6.49604680e+00   6.29485812e+00   
112     3.75613616e-09   8.53645816e-02   6.50243139e+00   6.28861379e+00   
113     3.81063216e-09   8.62437518e-02   6.50907110e+00   6.28209981e+00   
114     3.86512816e-09   8.70976438e-02   6.51597059e+00   6.27531127e+00   
115     3.91962416e-09   8.79260074e-02   6.52313441e+00   6.26824337e+00   
116     3.97412017e-09   8.87285996e-02   6.53056704e+00   6.26089142e+00   
117     4.02861617e-09   8.95051854e-02   6.53827286e+00   6.25325087e+00   
118     4.08311217e-09   9.02555370e-02   6.54625618e+00   6.24531727e+00   
119     4.13147211e-09   9.08992546e-02   6.55356197e+00   6.23804310e+00   
120     4.17983205e-09   9.15219913e-02   6.56109211e+00   6.23053223e+00   
121     4.22819199e-09   9.21236034e-02   6.56884941e+00   6.22278178e+00   
122     4.27655193e-09   9.27039521e-02   6.57683660e+00   6.21478899e+00   
123     4.32491187e-09   9.32629034e-02   6.58505637e+00   6.20655117e+00   
124     4.37327181e-09   9.38003282e-02   6.59351133e+00   6.19806573e+00   
125     4.42163175e-09   9.43161026e-02   6.60220400e+00   6.18933016e+00   
126     4.46999169e-09   9.48101074e-02   6.61113686e+00   6.18034205e+00   
127     4.51835163e-09   9.52822287e-02   6.62031229e+00   6.17109909e+00   
128     4.56671157e-09   9.57323575e-02   6.62973261e+00   6.16159905e+00   
129     4.61507152e-09   9.61603899e-02   6.63940004e+00   6.15183981e+00   
130     4.65848047e-09   9.65257010e-02   6.64827830e+00   6.14286927e+00   
131     4.70188942e-09   9.68730608e-02   6.65735875e+00   6.13368704e+00   
132     4.74529838e-09   9.72024048e-02   6.66664286e+00   6.12429174e+00   
133     4.78870733e-09   9.75136716e-02   6.67613200e+00   6.11468209e+00   
134     4.83211629e-09   9.78068035e-02   6.68582751e+00   6.10485688e+00   
135     4.87552524e-09   9.80817459e-02   6.69573069e+00   6.09481495e+00   
136     4.91893420e-09   9.83384477e-02   6.70584275e+00   6.08455522e+00   
137     4.96234315e-09   9.85768610e-02   6.71616487e+00   6.07407668e+00   
138     5.00575211e-09   9.87969417e-02   6.72669815e+00   6.06337838e+00   
139     5.04916106e-09   9.89986487e-02   6.73744365e+00   6.05245945e+00   
140     5.09257002e-09   9.91819446e-02   6.74840234e+00   6.04131908e+00   
141     5.13597897e-09   9.93467953e-02   6.75957516e+00   6.02995653e+00   
142     5.17938793e-09   9.94931700e-02   6.77096297e+00   6.01837114e+00   
143     5.22279688e-09   9.96210417e-02   6.78256656e+00   6.00656231e+00   
144     5.26620584e-09   9.97303864e-02   6.79438668e+00   5.99452953e+00   
145     5.30961479e-09   9.98211839e-02   6.80642399e+00   5.98227233e+00   
146     5.35302375e-09   9.98934172e-02   6.81867909e+00   5.96979033e+00   
147     5.39643270e-09   9.99470731e-02   6.83115254e+00   5.95708323e+00   
148     5.43984166e-09   9.99821414e-02   6.84384478e+00   5.94415080e+00   
149     5.48325061e-09   9.99986156e-02   6.85675624e+00   5.93099286e+00   
150     5.52665957e-09   9.99964927e-02   6.86988725e+00   5.91760934e+00   
151     5.57006852e-09   9.99757731e-02   6.88323807e+00   5.90400022e+00   
152     5.61347748e-09   9.99364606e-02   6.89680891e+00   5.89016554e+00   
153     5.65688643e-09   9.98785626e-02   6.91059989e+00   5.87610546e+00   
154     5.70029539e-09   9.98020897e-02   6.92461108e+00   5.86182016e+00   
155     5.74370434e-09   9.97070563e-02   6.93884247e+00   5.84730994e+00   
156     5.78711330e-09   9.95934800e-02   6.95329397e+00   5.83257515e+00   
157     5.83052225e-09   9.94613819e-02   6.96796543e+00   5.81761621e+00   
158     5.87393121e-09   9.93107867e-02   6.98285662e+00   5.80243364e+00   
159     5.91734016e-09   9.91417222e-02   6.99796727e+00   5.78702800e+00   
160     5.96074912e-09   9.89542199e-02   7.01329699e+00   5.77139996e+00   
161     6.00415807e-09   9.87483148e-02   7.02884535e+00   5.75555025e+00   
162     6.04756703e-09   9.85240451e-02   7.04461183e+00   5.73947966e+00   
163     6.09097598e-09   9.82814525e-02   7.06059585e+00   5.72318908e+00   
164     6.13438494e-09   9.80205821e-02   7.07679676e+00   5.70667945e+00   
165     6.17779389e-09   9.77414825e-02   7.09321383e+00   5.68995181e+00   
166     6.22120285e-09   9.74442055e-02   7.10984624e+00   5.67300726e+00   
167     6.26461180e-09   9.71288064e-02   7.12669313e+00   5.65584697e+00   
168     6.30802075e-09   9.67953439e-02   7.14375354e+00   5.63847220e+00   
169     6.35142971e-09   9.64438801e-02   7.16102645e+00   5.62088427e+00   
170     6.39483866e-09   9.60744802e-02   7.17851076e+00   5.60308458e+00   
171     6.43824762e-09   9.56872130e-02   7.19620530e+00   5.58507461e+00   
172     6.48165657e-09   9.52821504e-02   7.21410883e+00   5.56685590e+00   
173     6.52506553e-09   9.48593679e-02   7.23222004e+00   5.54843006e+00   
174     6.56847448e-09   9.44189441e-02   7.25053752e+00   5.52979880e+00   
175     6.61188344e-09   9.39609607e-02   7.26905983e+00   5.51096388e+00   
176     6.65529239e-09   9.34855032e-02   7.28778541e+00   5.49192714e+00   
177     6.69870135e-09   9.29926597e-02   7.30671267e+00   5.47269049e+00   
178     6.74211030e-09   9.24825221e-02   7.32583991e+00   5.45325591e+00   
179     6.78551926e-09   9.19551851e-02   7.34516540e+00   5.43362545e+00   
180     6.82892821e-09   9.14107469e-02   7.36468729e+00   5.41380124e+00   
181     6.87233717e-09   9.08493087e-02   7.38440370e+00   5.39378548e+00   
182     6.91574612e-09   9.02709749e-02   7.40431266e+00   5.37358042e+00   
183     6.95915508e-09   8.96758531e-02   7.42441212e+00   5.35318841e+00   
184     7.00256403e-09   8.90640539e-02   7.44469998e+00   5.33261183e+00   
185     7.04597299e-09   8.84356912e-02   7.46517406e+00   5.31185318e+00   
186     7.08938194e-09   8.77908817e-02   7.48583209e+00   5.29091498e+00   
187     7.13279090e-09   8.71297454e-02   7.50667178e+00   5.26979984e+00   
188     7.17619985e-09   8.64524053e-02   7.52769072e+00   5.24851043e+00   
189     7.21960881e-09   8.57589873e-02   7.54888647e+00   5.22704950e+00   
190     7.26301776e-09   8.50496204e-02   7.57025649e+00   5.20541984e+00   
191     7.30642672e-09   8.43244364e-02   7.59179819e+00   5.18362433e+00   
192     7.34983567e-09   8.35835704e-02   7.61350893e+00   5.16166589e+00   
193     7.39324463e-09   8.28271600e-02   7.63538598e+00   5.13954753e+00   
194     7.43665358e-09   8.20553459e-02   7.65742654e+00   5.11727229e+00   
195     7.48006254e-09   8.12682717e-02   7.67962776e+00   5.09484330e+00   
196     7.52347149e-09   8.04660837e-02   7.70198674e+00   5.07226374e+00   
197     7.56688045e-09   7.96489311e-02   7.72450049e+00   5.04953684e+00   
198     7.61028940e-09   7.88169659e-02   7.74716597e+00   5.02666591e+00   
199     7.65369836e-09   7.79703428e-02   7.76998007e+00   5.00365430e+00   
200     7.69710731e-09   7.71092193e-02   7.79293964e+00   4.98050542e+00   
201     7.74051627e-09   7.62337555e-02   7.81604145e+00   4.95722273e+00   
202     7.78392522e-09   7.53441142e-02   7.83928223e+00   4.93380978e+00   
203     7.82733418e-09   7.44404609e-02   7.86265863e+00   4.91027013e+00   
204     7.87074313e-09   7.35229637e-02   7.88616725e+00   4.88660741e+00   
205     7.91415208e-09   7.25917930e-02   7.90980466e+00   4.86282531e+00   
206     7.95756104e-09   7.16471223e-02   7.93356734e+00   4.83892756e+00   
207     8.00096999e-09   7.06891270e-02   7.95745173e+00   4.81491794e+00   
208     8.04437895e-09   6.97179854e-02   7.98145423e+00   4.79080029e+00   
209     8.08778790e-09   6.87338781e-02   8.00557116e+00   4.76657849e+00   
210     8.13119686e-09   6.77369881e-02   8.02979882e+00   4.74225646e+00   
211     8.17460581e-09   6.67275007e-02   8.05413345e+00   4.71783818e+00   
212     8.21801477e-09   6.57056039e-02   8.07857122e+00   4.69332767e+00   
213     8.26142372e-09   6.46714875e-02   8.10310828e+00   4.66872897e+00   
214     8.30483268e-09   6.36253439e-02   8.12774074e+00   4.64404619e+00   
215     8.34824163e-09   6.25673676e-02   8.15246463e+00   4.61928347e+00   
216     8.39165059e-09   6.14977555e-02   8.17727597e+00   4.59444499e+00   
217     8.43505954e-09   6.04167064e-02   8.20217073e+00   4.56953498e+00   
218     8.47846850e-09   5.93244214e-02   8.22714482e+00   4.54455767e+00   
219     8.52187745e-09   5.82211036e-02   8.25219414e+00   4.51951736e+00   
220     8.56528641e-09   5.71069582e-02   8.27731452e+00   4.49441837e+00   
221     8.60869536e-09   5.59821924e-02   8.30250179e+00   4.46926506e+00   
222     8.65210432e-09   5.48470153e-02   8.32775171e+00   4.44406181e+00   
223     8.69551327e-09   5.37016382e-02   8.35306003e+00   4.41881304e+00   
224     8.73892223e-09   5.25462740e-02   8.37842245e+00   4.39352318e+00   
225     8.78233118e-09   5.13811376e-02   8.40383464e+00   4.36819672e+00   
226     8.82574014e-09   5.02064456e-02   8.42929226e+00   4.34283814e+00   
227     8.86914909e-09   4.90224165e-02   8.45479091e+00   4.31745197e+00   
228     8.91255805e-09   4.78292705e-02   8.48032619e+00   4.29204274e+00   
229     8.95596700e-09   4.66272296e-02   8.50589365e+00   4.26661502e+00   
230     8.99937596e-09   4.54165172e-02   8.53148885e+00   4.24117339e+00   
231     9.04278491e-09   4.41973585e-02   8.55710728e+00   4.21572245e+00   
232     9.08619387e-09   4.29699803e-02   8.58274445e+00   4.19026681e+00   
233     9.12960282e-09   4.17346108e-02   8.60839583e+00   4.16481111e+00   
234     9.17301178e-09   4.04914798e-02   8.63405686e+00   4.13935998e+00   
235     9.21642073e-09   3.92408184e-02   8.65972299e+00   4.11391810e+00   
236     9.25982969e-09   3.79828592e-02   8.68538963e+00   4.08849011e+00   
237     9.30323864e-09   3.67178362e-02   8.71105219e+00   4.06308070e+00   
238     9.34664760e-09   3.54459847e-02   8.73670606e+00   4.03769455e+00   
239     9.39005655e-09   3.41675411e-02   8.76234662e+00   4.01233635e+00   
240     9.43346551e-09   3.28827433e-02   8.78796924e+00   3.98701079e+00   
241     9.47687446e-09   3.15918302e-02   8.81356928e+00   3.96172256e+00   
242     9.52028341e-09   3.02950418e-02   8.83914208e+00   3.93647637e+00   
243     9.56369237e-09   2.89926193e-02   8.86468301e+00   3.91127690e+00   
244     9.60710132e-09   2.76848049e-02   8.89018739e+00   3.88612886e+00   
245     9.65051028e-09   2.63718419e-02   8.91565056e+00   3.86103694e+00   
246     9.69391923e-09   2.50539745e-02   8.94106786e+00   3.83600581e+00   
247     9.73732819e-09   2.37314476e-02   8.96643462e+00   3.81104017e+00   
248     9.78073714e-09   2.24045073e-02   8.99174618e+00   3.78614469e+00   
249     9.82414610e-09   2.10734004e-02   9.01699787e+00   3.76132402e+00   
250     9.86755505e-09   1.97383744e-02   9.04218503e+00   3.73658282e+00   
251     9.91096401e-09   1.83996775e-02   9.06730300e+00   3.71192574e+00   
252     9.95437296e-09   1.70575588e-02   9.09234714e+00   3.68735739e+00   
253     9.99778192e-09   1.57122679e-02   9.11731279e+00   3.66288240e+00   
254     1.00411909e-08   1.43640548e-02   9.14219533e+00   3.63850535e+00   
255     1.00845998e-08   1.30131705e-02   9.16699012e+00   3.61423083e+00   
256     1.01280088e-08   1.16598660e-02   9.19169255e+00   3.59006340e+00   
257     1.01714177e-08   1.03043931e-02   9.21629801e+00   3.56600759e+00   
