Index     V(DRAIN)           V(GATE)          N(M1:IDS)     {(N(M2:IDS)-N(M1:IDS))/(V(GATE2)-V(GATE))}     N(M1:GM)      {N(M1:GM)-{(N(M2:IDS)-N(M1:IDS))/(V(GATE2)-V(GATE))}}     N(M1:VTH)       N(M1:VDSSAT)   
0       -1.00000000e-01    0.00000000e+00    5.44320704e-08    1.76436128e-06    1.76435923e-06    0.00000000e+00    2.91413623e-01    7.50471194e-02
1       -9.90000000e-02    0.00000000e+00    5.24787410e-08    1.70182400e-06    1.70182433e-06    0.00000000e+00    2.91426937e-01    7.50397715e-02
2       -9.80000000e-02    0.00000000e+00    5.05939049e-08    1.64144198e-06    1.64144386e-06    0.00000000e+00    2.91440224e-01    7.50326735e-02
3       -9.70000000e-02    0.00000000e+00    4.87752195e-08    1.58314323e-06    1.58314613e-06    0.00000000e+00    2.91453482e-01    7.50258169e-02
4       -9.60000000e-02    0.00000000e+00    4.70204191e-08    1.52686597e-06    1.52686168e-06    0.00000000e+00    2.91466712e-01    7.50191941e-02
5       -9.50000000e-02    0.00000000e+00    4.53273127e-08    1.47252530e-06    1.47252326e-06    0.00000000e+00    2.91479912e-01    7.50127971e-02
6       -9.40000000e-02    0.00000000e+00    4.36937818e-08    1.42006658e-06    1.42006573e-06    0.00000000e+00    2.91493082e-01    7.50066186e-02
7       -9.30000000e-02    0.00000000e+00    4.21177780e-08    1.36942949e-06    1.36942599e-06    0.00000000e+00    2.91506222e-01    7.50006513e-02
8       -9.20000000e-02    0.00000000e+00    4.05973207e-08    1.32054016e-06    1.32054296e-06    0.00000000e+00    2.91519330e-01    7.49948883e-02
9       -9.10000000e-02    0.00000000e+00    3.91304950e-08    1.27335580e-06    1.27335752e-06    0.00000000e+00    2.91532405e-01    7.49893228e-02
10      -9.00000000e-02    0.00000000e+00    3.77154500e-08    1.22781121e-06    1.22781242e-06    0.00000000e+00    2.91545447e-01    7.49839481e-02
11      -8.90000000e-02    0.00000000e+00    3.63503960e-08    1.18385297e-06    1.18385223e-06    0.00000000e+00    2.91558455e-01    7.49787581e-02
12      -8.80000000e-02    0.00000000e+00    3.50336033e-08    1.14142453e-06    1.14142333e-06    0.00000000e+00    2.91571428e-01    7.49737464e-02
13      -8.70000000e-02    0.00000000e+00    3.37633999e-08    1.10047060e-06    1.10047378e-06    0.00000000e+00    2.91584365e-01    7.49689071e-02
14      -8.60000000e-02    0.00000000e+00    3.25381696e-08    1.06095181e-06    1.06095337e-06    0.00000000e+00    2.91597265e-01    7.49642346e-02
15      -8.50000000e-02    0.00000000e+00    3.13563504e-08    1.02281354e-06    1.02281346e-06    0.00000000e+00    2.91610127e-01    7.49597231e-02
16      -8.40000000e-02    0.00000000e+00    3.02164327e-08    9.86006612e-07    9.86007021e-07    0.00000000e+00    2.91622950e-01    7.49553673e-02
17      -8.30000000e-02    0.00000000e+00    2.91169575e-08    9.50490844e-07    9.50488534e-07    0.00000000e+00    2.91635734e-01    7.49511620e-02
18      -8.20000000e-02    0.00000000e+00    2.80565150e-08    9.16214217e-07    9.16213963e-07    0.00000000e+00    2.91648477e-01    7.49471020e-02
19      -8.10000000e-02    0.00000000e+00    2.70337426e-08    8.83138796e-07    8.83140707e-07    0.00000000e+00    2.91661177e-01    7.49431826e-02
20      -8.00000000e-02    0.00000000e+00    2.60473236e-08    8.51232083e-07    8.51227556e-07    0.00000000e+00    2.91673834e-01    7.49393989e-02
21      -7.90000000e-02    0.00000000e+00    2.50959859e-08    8.20434214e-07    8.20434646e-07    0.00000000e+00    2.91686447e-01    7.49357465e-02
22      -7.80000000e-02    0.00000000e+00    2.41785001e-08    7.90721784e-07    7.90723419e-07    0.00000000e+00    2.91699015e-01    7.49322207e-02
23      -7.70000000e-02    0.00000000e+00    2.32936784e-08    7.62054354e-07    7.62056582e-07    0.00000000e+00    2.91711535e-01    7.49288174e-02
24      -7.60000000e-02    0.00000000e+00    2.24403730e-08    7.34398554e-07    7.34398065e-07    0.00000000e+00    2.91724008e-01    7.49255324e-02
25      -7.50000000e-02    0.00000000e+00    2.16174752e-08    7.07710986e-07    7.07712986e-07    0.00000000e+00    2.91736431e-01    7.49223617e-02
26      -7.40000000e-02    0.00000000e+00    2.08239136e-08    6.81972383e-07    6.81967609e-07    0.00000000e+00    2.91748803e-01    7.49193014e-02
27      -7.30000000e-02    0.00000000e+00    2.00586529e-08    6.57129481e-07    6.57129312e-07    0.00000000e+00    2.91761122e-01    7.49163478e-02
28      -7.20000000e-02    0.00000000e+00    1.93206931e-08    6.33173602e-07    6.33166550e-07    0.00000000e+00    2.91773388e-01    7.49134971e-02
29      -7.10000000e-02    0.00000000e+00    1.86090681e-08    6.10046806e-07    6.10048815e-07    0.00000000e+00    2.91785599e-01    7.49107460e-02
30      -7.00000000e-02    0.00000000e+00    1.79228443e-08    5.87747488e-07    5.87746612e-07    0.00000000e+00    2.91797753e-01    7.49080909e-02
31      -6.90000000e-02    0.00000000e+00    1.72611199e-08    5.66233383e-07    5.66231417e-07    0.00000000e+00    2.91809848e-01    7.49055287e-02
32      -6.80000000e-02    0.00000000e+00    1.66230236e-08    5.45472615e-07    5.45475652e-07    0.00000000e+00    2.91821883e-01    7.49030562e-02
33      -6.70000000e-02    0.00000000e+00    1.60077135e-08    5.25455468e-07    5.25452651e-07    0.00000000e+00    2.91833856e-01    7.49006702e-02
34      -6.60000000e-02    0.00000000e+00    1.54143764e-08    5.06135119e-07    5.06136629e-07    0.00000000e+00    2.91845765e-01    7.48983678e-02
35      -6.50000000e-02    0.00000000e+00    1.48422265e-08    4.87503797e-07    4.87502655e-07    0.00000000e+00    2.91857609e-01    7.48961462e-02
36      -6.40000000e-02    0.00000000e+00    1.42905047e-08    4.69526835e-07    4.69526623e-07    0.00000000e+00    2.91869385e-01    7.48940025e-02
37      -6.30000000e-02    0.00000000e+00    1.37584773e-08    4.52184898e-07    4.52185224e-07    0.00000000e+00    2.91881092e-01    7.48919341e-02
38      -6.20000000e-02    0.00000000e+00    1.32454357e-08    4.35462099e-07    4.35455920e-07    0.00000000e+00    2.91892727e-01    7.48899384e-02
39      -6.10000000e-02    0.00000000e+00    1.27506950e-08    4.19320877e-07    4.19316917e-07    0.00000000e+00    2.91904288e-01    7.48880129e-02
40      -6.00000000e-02    0.00000000e+00    1.22735936e-08    4.03742292e-07    4.03747141e-07    0.00000000e+00    2.91915774e-01    7.48861552e-02
41      -5.90000000e-02    0.00000000e+00    1.18134921e-08    3.88727514e-07    3.88726214e-07    0.00000000e+00    2.91927181e-01    7.48843629e-02
42      -5.80000000e-02    0.00000000e+00    1.13697724e-08    3.74237740e-07    3.74234430e-07    0.00000000e+00    2.91938507e-01    7.48826338e-02
43      -5.70000000e-02    0.00000000e+00    1.09418375e-08    3.60252698e-07    3.60252731e-07    0.00000000e+00    2.91949751e-01    7.48809656e-02
44      -5.60000000e-02    0.00000000e+00    1.05291104e-08    3.46763857e-07    3.46762687e-07    0.00000000e+00    2.91960909e-01    7.48793564e-02
45      -5.50000000e-02    0.00000000e+00    1.01310332e-08    3.33746178e-07    3.33746476e-07    0.00000000e+00    2.91971979e-01    7.48778040e-02
46      -5.40000000e-02    0.00000000e+00    9.74706698e-09    3.21186356e-07    3.21186858e-07    0.00000000e+00    2.91982959e-01    7.48763064e-02
47      -5.30000000e-02    0.00000000e+00    9.37669071e-09    3.09062934e-07    3.09067161e-07    0.00000000e+00    2.91993845e-01    7.48748619e-02
48      -5.20000000e-02    0.00000000e+00    9.01940082e-09    2.97374334e-07    2.97371261e-07    0.00000000e+00    2.92004635e-01    7.48734684e-02
49      -5.10000000e-02    0.00000000e+00    8.67471058e-09    2.86082911e-07    2.86083561e-07    0.00000000e+00    2.92015325e-01    7.48721243e-02
50      -5.00000000e-02    0.00000000e+00    8.34214953e-09    2.75188941e-07    2.75188979e-07    0.00000000e+00    2.92025913e-01    7.48708278e-02
51      -4.90000000e-02    0.00000000e+00    8.02126293e-09    2.64673124e-07    2.64672924e-07    0.00000000e+00    2.92036396e-01    7.48695773e-02
52      -4.80000000e-02    0.00000000e+00    7.71161124e-09    2.54519559e-07    2.54521287e-07    0.00000000e+00    2.92046770e-01    7.48683712e-02
53      -4.70000000e-02    0.00000000e+00    7.41276964e-09    2.44720632e-07    2.44720422e-07    0.00000000e+00    2.92057033e-01    7.48672079e-02
54      -4.60000000e-02    0.00000000e+00    7.12432752e-09    2.35254192e-07    2.35257132e-07    0.00000000e+00    2.92067180e-01    7.48660860e-02
55      -4.50000000e-02    0.00000000e+00    6.84588801e-09    2.26117717e-07    2.26118654e-07    0.00000000e+00    2.92077208e-01    7.48650039e-02
56      -4.40000000e-02    0.00000000e+00    6.57706753e-09    2.17292578e-07    2.17292645e-07    0.00000000e+00    2.92087114e-01    7.48639603e-02
57      -4.30000000e-02    0.00000000e+00    6.31749535e-09    2.08768380e-07    2.08767169e-07    0.00000000e+00    2.92096894e-01    7.48629538e-02
58      -4.20000000e-02    0.00000000e+00    6.06681306e-09    2.00533224e-07    2.00530679e-07    0.00000000e+00    2.92106544e-01    7.48619833e-02
59      -4.10000000e-02    0.00000000e+00    5.82467414e-09    1.92575337e-07    1.92572007e-07    0.00000000e+00    2.92116060e-01    7.48610473e-02
60      -4.00000000e-02    0.00000000e+00    5.59074340e-09    1.84881464e-07    1.84880343e-07    0.00000000e+00    2.92125438e-01    7.48601446e-02
61      -3.90000000e-02    0.00000000e+00    5.36469646e-09    1.77441654e-07    1.77445217e-07    0.00000000e+00    2.92134675e-01    7.48592742e-02
62      -3.80000000e-02    0.00000000e+00    5.14621909e-09    1.70257173e-07    1.70256484e-07    0.00000000e+00    2.92143765e-01    7.48584349e-02
63      -3.70000000e-02    0.00000000e+00    4.93500658e-09    1.63303850e-07    1.63304300e-07    0.00000000e+00    2.92152705e-01    7.48576255e-02
64      -3.60000000e-02    0.00000000e+00    4.73076295e-09    1.56581430e-07    1.56579095e-07    0.00000000e+00    2.92161490e-01    7.48568450e-02
65      -3.50000000e-02    0.00000000e+00    4.53320016e-09    1.50072208e-07    1.50071552e-07    0.00000000e+00    2.92170116e-01    7.48560925e-02
66      -3.40000000e-02    0.00000000e+00    4.34203726e-09    1.43772710e-07    1.43772573e-07    0.00000000e+00    2.92178578e-01    7.48553669e-02
67      -3.30000000e-02    0.00000000e+00    4.15699942e-09    1.37673063e-07    1.37673257e-07    0.00000000e+00    2.92186871e-01    7.48546672e-02
68      -3.20000000e-02    0.00000000e+00    3.97781712e-09    1.31764861e-07    1.31764863e-07    0.00000000e+00    2.92194992e-01    7.48539926e-02
69      -3.10000000e-02    0.00000000e+00    3.80422525e-09    1.26041125e-07    1.26038789e-07    0.00000000e+00    2.92202934e-01    7.48533422e-02
70      -3.00000000e-02    0.00000000e+00    3.63596246e-09    1.20486871e-07    1.20486546e-07    0.00000000e+00    2.92210693e-01    7.48527151e-02
71      -2.90000000e-02    0.00000000e+00    3.47277058e-09    1.15099440e-07    1.15099742e-07    0.00000000e+00    2.92218264e-01    7.48521105e-02
72      -2.80000000e-02    0.00000000e+00    3.31439445e-09    1.09871225e-07    1.09870074e-07    0.00000000e+00    2.92225643e-01    7.48515276e-02
73      -2.70000000e-02    0.00000000e+00    3.16058191e-09    1.04788175e-07    1.04789334e-07    0.00000000e+00    2.92232823e-01    7.48509655e-02
74      -2.60000000e-02    0.00000000e+00    3.01108425e-09    9.98531093e-08    9.98494162e-08    0.00000000e+00    2.92239801e-01    7.48504237e-02
75      -2.50000000e-02    0.00000000e+00    2.86565693e-09    9.50438001e-08    9.50423476e-08    0.00000000e+00    2.92246570e-01    7.48499013e-02
76      -2.40000000e-02    0.00000000e+00    2.72406061e-09    9.03611281e-08    9.03603194e-08    0.00000000e+00    2.92253126e-01    7.48493977e-02
77      -2.30000000e-02    0.00000000e+00    2.58606234e-09    8.57996242e-08    8.57957281e-08    0.00000000e+00    2.92259464e-01    7.48489122e-02
78      -2.20000000e-02    0.00000000e+00    2.45143682e-09    8.13367691e-08    8.13412182e-08    0.00000000e+00    2.92265578e-01    7.48484441e-02
79      -2.10000000e-02    0.00000000e+00    2.31996766e-09    7.69886414e-08    7.69897230e-08    0.00000000e+00    2.92271464e-01    7.48479928e-02
80      -2.00000000e-02    0.00000000e+00    2.19144839e-09    7.27343041e-08    7.27344997e-08    0.00000000e+00    2.92277116e-01    7.48475578e-02
81      -1.90000000e-02    0.00000000e+00    2.06568321e-09    6.85683678e-08    6.85691543e-08    0.00000000e+00    2.92282530e-01    7.48471384e-02
82      -1.80000000e-02    0.00000000e+00    1.94248737e-09    6.44886572e-08    6.44876546e-08    0.00000000e+00    2.92287700e-01    7.48467341e-02
83      -1.70000000e-02    0.00000000e+00    1.82168713e-09    6.04885543e-08    6.04843301e-08    0.00000000e+00    2.92292622e-01    7.48463443e-02
84      -1.60000000e-02    0.00000000e+00    1.70311935e-09    5.65524206e-08    5.65538580e-08    0.00000000e+00    2.92297291e-01    7.48459685e-02
85      -1.50000000e-02    0.00000000e+00    1.58663074e-09    5.26925073e-08    5.26912386e-08    0.00000000e+00    2.92301703e-01    7.48456062e-02
86      -1.40000000e-02    0.00000000e+00    1.47207673e-09    4.88889911e-08    4.88917594e-08    0.00000000e+00    2.92305853e-01    7.48452570e-02
87      -1.30000000e-02    0.00000000e+00    1.35932026e-09    4.51499238e-08    4.51509536e-08    0.00000000e+00    2.92309737e-01    7.48449202e-02
88      -1.20000000e-02    0.00000000e+00    1.24823029e-09    4.14666458e-08    4.14645529e-08    0.00000000e+00    2.92313351e-01    7.48445956e-02
89      -1.10000000e-02    0.00000000e+00    1.13868041e-09    3.78291439e-08    3.78284393e-08    0.00000000e+00    2.92316690e-01    7.48442826e-02
90      -1.00000000e-02    0.00000000e+00    1.03054733e-09    3.42383091e-08    3.42385971e-08    0.00000000e+00    2.92319752e-01    7.48439808e-02
91      -9.00000000e-03    0.00000000e+00    9.23709532e-10    3.06905636e-08    3.06910680e-08    0.00000000e+00    2.92322534e-01    7.48436899e-02
92      -8.00000000e-03    0.00000000e+00    8.18046046e-10    2.71839725e-08    2.71819095e-08    0.00000000e+00    2.92325031e-01    7.48434094e-02
93      -7.00000000e-03    0.00000000e+00    7.13435343e-10    2.37044179e-08    2.37071595e-08    0.00000000e+00    2.92327241e-01    7.48431389e-02
94      -6.00000000e-03    0.00000000e+00    6.09754446e-10    2.02639485e-08    2.02628063e-08    0.00000000e+00    2.92329162e-01    7.48428780e-02
95      -5.00000000e-03    0.00000000e+00    5.06878242e-10    1.68470394e-08    1.68447663e-08    0.00000000e+00    2.92330791e-01    7.48426265e-02
96      -4.00000000e-03    0.00000000e+00    4.04679012e-10    1.34428134e-08    1.34488679e-08    0.00000000e+00    2.92332126e-01    7.48423840e-02
97      -3.00000000e-03    0.00000000e+00    3.03026194e-10    1.00726541e-08    1.00708447e-08    0.00000000e+00    2.92333167e-01    7.48421501e-02
98      -2.00000000e-03    0.00000000e+00    2.01786390e-10    6.70577835e-09    6.70633485e-09    0.00000000e+00    2.92333911e-01    7.48419245e-02
99      -1.00000000e-03    0.00000000e+00    1.00823645e-10    3.35438959e-09    3.35089133e-09    0.00000000e+00    2.92334357e-01    7.48417069e-02
100      0.00000000e+00    0.00000000e+00    0.00000000e+00    0.00000000e+00    0.00000000e+00    0.00000000e+00    2.92334506e-01    7.48414971e-02
101      1.00000000e-03    0.00000000e+00    1.00823645e-10    3.35438959e-09    3.35089133e-09    0.00000000e+00    2.92334357e-01    7.48417069e-02
102      2.00000000e-03    0.00000000e+00    2.01786390e-10    6.70577835e-09    6.70633485e-09    0.00000000e+00    2.92333911e-01    7.48419245e-02
103      3.00000000e-03    0.00000000e+00    3.03026194e-10    1.00726541e-08    1.00708447e-08    0.00000000e+00    2.92333167e-01    7.48421501e-02
104      4.00000000e-03    0.00000000e+00    4.04679012e-10    1.34428134e-08    1.34488679e-08    0.00000000e+00    2.92332126e-01    7.48423840e-02
105      5.00000000e-03    0.00000000e+00    5.06878242e-10    1.68470394e-08    1.68447663e-08    0.00000000e+00    2.92330791e-01    7.48426265e-02
106      6.00000000e-03    0.00000000e+00    6.09754446e-10    2.02654834e-08    2.02628063e-08    0.00000000e+00    2.92329162e-01    7.48428780e-02
107      7.00000000e-03    0.00000000e+00    7.13435343e-10    2.37059528e-08    2.37071595e-08    0.00000000e+00    2.92327241e-01    7.48431389e-02
108      8.00000000e-03    0.00000000e+00    8.18046046e-10    2.71809025e-08    2.71819095e-08    0.00000000e+00    2.92325031e-01    7.48434094e-02
109      9.00000000e-03    0.00000000e+00    9.23709532e-10    3.06905636e-08    3.06910680e-08    0.00000000e+00    2.92322534e-01    7.48436899e-02
110      1.00000000e-02    0.00000000e+00    1.03054733e-09    3.42383091e-08    3.42385971e-08    0.00000000e+00    2.92319752e-01    7.48439808e-02
111      1.10000000e-02    0.00000000e+00    1.13868041e-09    3.78291439e-08    3.78284393e-08    0.00000000e+00    2.92316690e-01    7.48442826e-02
112      1.20000000e-02    0.00000000e+00    1.24823029e-09    4.14666458e-08    4.14645529e-08    0.00000000e+00    2.92313351e-01    7.48445956e-02
113      1.30000000e-02    0.00000000e+00    1.35932026e-09    4.51499238e-08    4.51509536e-08    0.00000000e+00    2.92309737e-01    7.48449202e-02
114      1.40000000e-02    0.00000000e+00    1.47207673e-09    4.88889911e-08    4.88917594e-08    0.00000000e+00    2.92305853e-01    7.48452570e-02
115      1.50000000e-02    0.00000000e+00    1.58663074e-09    5.26925073e-08    5.26912386e-08    0.00000000e+00    2.92301703e-01    7.48456062e-02
116      1.60000000e-02    0.00000000e+00    1.70311935e-09    5.65524206e-08    5.65538580e-08    0.00000000e+00    2.92297291e-01    7.48459685e-02
117      1.70000000e-02    0.00000000e+00    1.82168713e-09    6.04885543e-08    6.04843301e-08    0.00000000e+00    2.92292622e-01    7.48463443e-02
118      1.80000000e-02    0.00000000e+00    1.94248737e-09    6.44886572e-08    6.44876546e-08    0.00000000e+00    2.92287700e-01    7.48467341e-02
119      1.90000000e-02    0.00000000e+00    2.06568321e-09    6.85683678e-08    6.85691543e-08    0.00000000e+00    2.92282530e-01    7.48471384e-02
120      2.00000000e-02    0.00000000e+00    2.19144839e-09    7.27358445e-08    7.27344997e-08    0.00000000e+00    2.92277116e-01    7.48475578e-02
121      2.10000000e-02    0.00000000e+00    2.31996766e-09    7.69901831e-08    7.69897230e-08    0.00000000e+00    2.92271464e-01    7.48479928e-02
122      2.20000000e-02    0.00000000e+00    2.45143682e-09    8.13398553e-08    8.13412182e-08    0.00000000e+00    2.92265578e-01    7.48484441e-02
123      2.30000000e-02    0.00000000e+00    2.58606234e-09    8.57980795e-08    8.57957281e-08    0.00000000e+00    2.92259464e-01    7.48489122e-02
124      2.40000000e-02    0.00000000e+00    2.72406061e-09    9.03642209e-08    9.03603194e-08    0.00000000e+00    2.92253126e-01    7.48493977e-02
125      2.50000000e-02    0.00000000e+00    2.86565693e-09    9.50422508e-08    9.50423476e-08    0.00000000e+00    2.92246570e-01    7.48499013e-02
126      2.60000000e-02    0.00000000e+00    3.01108425e-09    9.98546601e-08    9.98494162e-08    0.00000000e+00    2.92239801e-01    7.48504237e-02
127      2.70000000e-02    0.00000000e+00    3.16058191e-09    1.04788175e-07    1.04789334e-07    0.00000000e+00    2.92232823e-01    7.48509655e-02
128      2.80000000e-02    0.00000000e+00    3.31439445e-09    1.09871225e-07    1.09870074e-07    0.00000000e+00    2.92225643e-01    7.48515276e-02
129      2.90000000e-02    0.00000000e+00    3.47277058e-09    1.15099440e-07    1.15099742e-07    0.00000000e+00    2.92218264e-01    7.48521105e-02
130      3.00000000e-02    0.00000000e+00    3.63596246e-09    1.20486871e-07    1.20486546e-07    0.00000000e+00    2.92210693e-01    7.48527151e-02
