Index        V(3)             V(5)            V(3,2)           V(1,2)
0       0.00000000e+00   0.00000000e+00   0.00000000e+00   0.00000000e+00   
1       1.00000000e+00   0.00000000e+00   9.99999999e-01   -6.93317505e-10  
2       2.00000000e+00   0.00000000e+00   2.00000000e+00   -1.38663501e-09  
3       3.00000000e+00   0.00000000e+00   3.00000000e+00   -2.07995252e-09  
4       4.00000000e+00   0.00000000e+00   4.00000000e+00   -2.77327002e-09  
5       5.00000000e+00   0.00000000e+00   5.00000000e+00   -3.46658753e-09  
6       6.00000000e+00   0.00000000e+00   6.00000000e+00   -4.15990503e-09  
7       7.00000000e+00   0.00000000e+00   7.00000000e+00   -4.85322254e-09  
8       8.00000000e+00   0.00000000e+00   7.99999999e+00   -5.54654004e-09  
9       9.00000000e+00   0.00000000e+00   8.99999999e+00   -6.23985755e-09  
10      1.00000000e+01   0.00000000e+00   9.99999999e+00   -6.93317505e-09  
11      1.10000000e+01   0.00000000e+00   1.10000000e+01   -7.62649256e-09  
12      1.20000000e+01   0.00000000e+00   1.20000000e+01   -8.31981006e-09  
13      1.30000000e+01   0.00000000e+00   1.30000000e+01   -9.01312757e-09  
14      1.40000000e+01   0.00000000e+00   1.40000000e+01   -9.70644507e-09  
15      1.50000000e+01   0.00000000e+00   1.50000000e+01   -1.03997626e-08  
16      1.60000000e+01   0.00000000e+00   1.60000000e+01   -1.10930801e-08  
17      1.70000000e+01   0.00000000e+00   1.70000000e+01   -1.17863976e-08  
18      1.80000000e+01   0.00000000e+00   1.80000000e+01   -1.24797151e-08  
19      0.00000000e+00   1.00000000e+00   0.00000000e+00   3.18840580e-01   
20      1.00000000e+00   1.00000000e+00   9.99999999e-01   3.18840579e-01   
21      2.00000000e+00   1.00000000e+00   2.00000000e+00   3.18840578e-01   
22      3.00000000e+00   1.00000000e+00   3.00000000e+00   3.18840578e-01   
23      4.00000000e+00   1.00000000e+00   4.00000000e+00   3.18840577e-01   
24      5.00000000e+00   1.00000000e+00   5.00000000e+00   3.18840576e-01   
25      6.00000000e+00   1.00000000e+00   6.00000000e+00   3.18840576e-01   
26      7.00000000e+00   1.00000000e+00   7.00000000e+00   3.18840575e-01   
27      8.00000000e+00   1.00000000e+00   7.99999999e+00   3.18840574e-01   
28      9.00000000e+00   1.00000000e+00   8.99999999e+00   3.18840573e-01   
29      1.00000000e+01   1.00000000e+00   9.99999999e+00   3.18840573e-01   
30      1.10000000e+01   1.00000000e+00   1.10000000e+01   3.18840572e-01   
31      1.20000000e+01   1.00000000e+00   1.20000000e+01   3.18840571e-01   
32      1.30000000e+01   1.00000000e+00   1.30000000e+01   3.18840571e-01   
33      1.40000000e+01   1.00000000e+00   1.40000000e+01   3.18840570e-01   
34      1.50000000e+01   1.00000000e+00   1.50000000e+01   3.18840569e-01   
35      1.60000000e+01   1.00000000e+00   1.60000000e+01   3.18840569e-01   
36      1.70000000e+01   1.00000000e+00   1.70000000e+01   3.18840568e-01   
37      1.80000000e+01   1.00000000e+00   1.80000000e+01   3.18840567e-01   
38      0.00000000e+00   2.00000000e+00   -5.16987883e-26  6.37681159e-01   
39      1.00000000e+00   2.00000000e+00   9.99999999e-01   6.37681159e-01   
40      2.00000000e+00   2.00000000e+00   2.00000000e+00   6.37681158e-01   
41      3.00000000e+00   2.00000000e+00   3.00000000e+00   6.37681157e-01   
42      4.00000000e+00   2.00000000e+00   4.00000000e+00   6.37681157e-01   
43      5.00000000e+00   2.00000000e+00   5.00000000e+00   6.37681156e-01   
44      6.00000000e+00   2.00000000e+00   6.00000000e+00   6.37681155e-01   
45      7.00000000e+00   2.00000000e+00   7.00000000e+00   6.37681155e-01   
46      8.00000000e+00   2.00000000e+00   7.99999999e+00   6.37681154e-01   
47      9.00000000e+00   2.00000000e+00   8.99999999e+00   6.37681153e-01   
48      1.00000000e+01   2.00000000e+00   9.99999999e+00   6.37681152e-01   
49      1.10000000e+01   2.00000000e+00   1.10000000e+01   6.37681152e-01   
50      1.20000000e+01   2.00000000e+00   1.20000000e+01   6.37681151e-01   
51      1.30000000e+01   2.00000000e+00   1.30000000e+01   6.37681150e-01   
52      1.40000000e+01   2.00000000e+00   1.40000000e+01   6.37681150e-01   
53      1.50000000e+01   2.00000000e+00   1.50000000e+01   6.37681149e-01   
54      1.60000000e+01   2.00000000e+00   1.60000000e+01   6.37681148e-01   
55      1.70000000e+01   2.00000000e+00   1.70000000e+01   6.37681148e-01   
56      1.80000000e+01   2.00000000e+00   1.80000000e+01   6.37681147e-01   
57      0.00000000e+00   3.00000000e+00   0.00000000e+00   9.56521739e-01   
58      1.00000000e+00   3.00000000e+00   9.99999999e-01   9.56521738e-01   
59      2.00000000e+00   3.00000000e+00   2.00000000e+00   9.56521738e-01   
60      3.00000000e+00   3.00000000e+00   3.00000000e+00   9.56521737e-01   
61      4.00000000e+00   3.00000000e+00   4.00000000e+00   9.56521736e-01   
62      5.00000000e+00   3.00000000e+00   5.00000000e+00   9.56521736e-01   
63      6.00000000e+00   3.00000000e+00   6.00000000e+00   9.56521735e-01   
64      7.00000000e+00   3.00000000e+00   7.00000000e+00   9.56521734e-01   
65      8.00000000e+00   3.00000000e+00   7.99999999e+00   9.56521734e-01   
66      9.00000000e+00   3.00000000e+00   8.99999999e+00   9.56521733e-01   
67      1.00000000e+01   3.00000000e+00   9.99999999e+00   9.56521732e-01   
68      1.10000000e+01   3.00000000e+00   1.10000000e+01   9.56521732e-01   
69      1.20000000e+01   3.00000000e+00   1.20000000e+01   9.56521731e-01   
70      1.30000000e+01   3.00000000e+00   1.30000000e+01   9.56521730e-01   
71      1.40000000e+01   3.00000000e+00   1.40000000e+01   9.56521729e-01   
72      1.50000000e+01   3.00000000e+00   1.50000000e+01   9.56521729e-01   
73      1.60000000e+01   3.00000000e+00   1.60000000e+01   9.56521728e-01   
74      1.70000000e+01   3.00000000e+00   1.70000000e+01   9.56521727e-01   
75      1.80000000e+01   3.00000000e+00   1.80000000e+01   9.56521727e-01   
76      0.00000000e+00   4.00000000e+00   -1.29246971e-26  1.27536232e+00   
77      1.00000000e+00   4.00000000e+00   9.99999999e-01   1.27536232e+00   
78      2.00000000e+00   4.00000000e+00   2.00000000e+00   1.27536232e+00   
79      3.00000000e+00   4.00000000e+00   3.00000000e+00   1.27536232e+00   
80      4.00000000e+00   4.00000000e+00   4.00000000e+00   1.27536232e+00   
81      5.00000000e+00   4.00000000e+00   5.00000000e+00   1.27536232e+00   
82      6.00000000e+00   4.00000000e+00   6.00000000e+00   1.27536231e+00   
83      7.00000000e+00   4.00000000e+00   7.00000000e+00   1.27536231e+00   
84      8.00000000e+00   4.00000000e+00   7.99999999e+00   1.27536231e+00   
85      9.00000000e+00   4.00000000e+00   8.99999999e+00   1.27536231e+00   
86      1.00000000e+01   4.00000000e+00   9.99999999e+00   1.27536231e+00   
87      1.10000000e+01   4.00000000e+00   1.10000000e+01   1.27536231e+00   
88      1.20000000e+01   4.00000000e+00   1.20000000e+01   1.27536231e+00   
89      1.30000000e+01   4.00000000e+00   1.30000000e+01   1.27536231e+00   
90      1.40000000e+01   4.00000000e+00   1.40000000e+01   1.27536231e+00   
91      1.50000000e+01   4.00000000e+00   1.50000000e+01   1.27536231e+00   
92      1.60000000e+01   4.00000000e+00   1.60000000e+01   1.27536231e+00   
93      1.70000000e+01   4.00000000e+00   1.70000000e+01   1.27536231e+00   
94      1.80000000e+01   4.00000000e+00   1.80000000e+01   1.27536231e+00   
95      0.00000000e+00   5.00000000e+00   0.00000000e+00   1.59420290e+00   
96      1.00000000e+00   5.00000000e+00   9.99999999e-01   1.59420290e+00   
97      2.00000000e+00   5.00000000e+00   2.00000000e+00   1.59420290e+00   
98      3.00000000e+00   5.00000000e+00   3.00000000e+00   1.59420290e+00   
99      4.00000000e+00   5.00000000e+00   4.00000000e+00   1.59420290e+00   
100     5.00000000e+00   5.00000000e+00   5.00000000e+00   1.59420290e+00   
101     6.00000000e+00   5.00000000e+00   6.00000000e+00   1.59420289e+00   
102     7.00000000e+00   5.00000000e+00   7.00000000e+00   1.59420289e+00   
103     8.00000000e+00   5.00000000e+00   7.99999999e+00   1.59420289e+00   
104     9.00000000e+00   5.00000000e+00   8.99999999e+00   1.59420289e+00   
105     1.00000000e+01   5.00000000e+00   9.99999999e+00   1.59420289e+00   
106     1.10000000e+01   5.00000000e+00   1.10000000e+01   1.59420289e+00   
107     1.20000000e+01   5.00000000e+00   1.20000000e+01   1.59420289e+00   
108     1.30000000e+01   5.00000000e+00   1.30000000e+01   1.59420289e+00   
109     1.40000000e+01   5.00000000e+00   1.40000000e+01   1.59420289e+00   
110     1.50000000e+01   5.00000000e+00   1.50000000e+01   1.59420289e+00   
111     1.60000000e+01   5.00000000e+00   1.60000000e+01   1.59420289e+00   
112     1.70000000e+01   5.00000000e+00   1.70000000e+01   1.59420289e+00   
113     1.80000000e+01   5.00000000e+00   1.80000000e+01   1.59420289e+00   
114     0.00000000e+00   6.00000000e+00   0.00000000e+00   1.91304348e+00   
115     1.00000000e+00   6.00000000e+00   9.99999999e-01   1.91304348e+00   
116     2.00000000e+00   6.00000000e+00   2.00000000e+00   1.91304348e+00   
117     3.00000000e+00   6.00000000e+00   3.00000000e+00   1.91304348e+00   
118     4.00000000e+00   6.00000000e+00   4.00000000e+00   1.91304348e+00   
119     5.00000000e+00   6.00000000e+00   5.00000000e+00   1.91304347e+00   
120     6.00000000e+00   6.00000000e+00   6.00000000e+00   1.91304347e+00   
121     7.00000000e+00   6.00000000e+00   7.00000000e+00   1.91304347e+00   
122     8.00000000e+00   6.00000000e+00   7.99999999e+00   1.91304347e+00   
123     9.00000000e+00   6.00000000e+00   8.99999999e+00   1.91304347e+00   
124     1.00000000e+01   6.00000000e+00   9.99999999e+00   1.91304347e+00   
125     1.10000000e+01   6.00000000e+00   1.10000000e+01   1.91304347e+00   
126     1.20000000e+01   6.00000000e+00   1.20000000e+01   1.91304347e+00   
127     1.30000000e+01   6.00000000e+00   1.30000000e+01   1.91304347e+00   
128     1.40000000e+01   6.00000000e+00   1.40000000e+01   1.91304347e+00   
129     1.50000000e+01   6.00000000e+00   1.50000000e+01   1.91304347e+00   
130     1.60000000e+01   6.00000000e+00   1.60000000e+01   1.91304347e+00   
131     1.70000000e+01   6.00000000e+00   1.70000000e+01   1.91304347e+00   
132     1.80000000e+01   6.00000000e+00   1.80000000e+01   1.91304347e+00   
133     0.00000000e+00   7.00000000e+00   8.53638812e-18   2.23188406e+00   
134     1.00000000e+00   7.00000000e+00   9.93642236e-01   2.22552629e+00   
135     2.00000000e+00   7.00000000e+00   1.99364224e+00   2.22552629e+00   
136     3.00000000e+00   7.00000000e+00   2.99364223e+00   2.22552629e+00   
137     4.00000000e+00   7.00000000e+00   3.99364223e+00   2.22552629e+00   
138     5.00000000e+00   7.00000000e+00   4.99364223e+00   2.22552629e+00   
139     6.00000000e+00   7.00000000e+00   5.99364223e+00   2.22552629e+00   
140     7.00000000e+00   7.00000000e+00   6.99364223e+00   2.22552629e+00   
141     8.00000000e+00   7.00000000e+00   7.99364223e+00   2.22552629e+00   
142     9.00000000e+00   7.00000000e+00   8.99364223e+00   2.22552629e+00   
143     1.00000000e+01   7.00000000e+00   9.99364223e+00   2.22552629e+00   
144     1.10000000e+01   7.00000000e+00   1.09936422e+01   2.22552629e+00   
145     1.20000000e+01   7.00000000e+00   1.19936422e+01   2.22552629e+00   
146     1.30000000e+01   7.00000000e+00   1.29936422e+01   2.22552629e+00   
147     1.40000000e+01   7.00000000e+00   1.39936422e+01   2.22552629e+00   
148     1.50000000e+01   7.00000000e+00   1.49936422e+01   2.22552628e+00   
149     1.60000000e+01   7.00000000e+00   1.59936422e+01   2.22552628e+00   
150     1.70000000e+01   7.00000000e+00   1.69936422e+01   2.22552628e+00   
151     1.80000000e+01   7.00000000e+00   1.79936422e+01   2.22552628e+00   
152     0.00000000e+00   8.00000000e+00   7.93236098e-18   2.55072464e+00   
153     1.00000000e+00   8.00000000e+00   9.66552982e-01   2.51727762e+00   
154     2.00000000e+00   8.00000000e+00   1.96655298e+00   2.51727762e+00   
155     3.00000000e+00   8.00000000e+00   2.96655298e+00   2.51727762e+00   
156     4.00000000e+00   8.00000000e+00   3.96655298e+00   2.51727762e+00   
157     5.00000000e+00   8.00000000e+00   4.96655298e+00   2.51727762e+00   
158     6.00000000e+00   8.00000000e+00   5.96655298e+00   2.51727762e+00   
159     7.00000000e+00   8.00000000e+00   6.96655298e+00   2.51727762e+00   
160     8.00000000e+00   8.00000000e+00   7.96655298e+00   2.51727762e+00   
161     9.00000000e+00   8.00000000e+00   8.96655298e+00   2.51727762e+00   
162     1.00000000e+01   8.00000000e+00   9.96655298e+00   2.51727761e+00   
163     1.10000000e+01   8.00000000e+00   1.09665530e+01   2.51727761e+00   
164     1.20000000e+01   8.00000000e+00   1.19665530e+01   2.51727761e+00   
165     1.30000000e+01   8.00000000e+00   1.29665530e+01   2.51727761e+00   
166     1.40000000e+01   8.00000000e+00   1.39665530e+01   2.51727761e+00   
167     1.50000000e+01   8.00000000e+00   1.49665530e+01   2.51727761e+00   
168     1.60000000e+01   8.00000000e+00   1.59665530e+01   2.51727761e+00   
169     1.70000000e+01   8.00000000e+00   1.69665530e+01   2.51727761e+00   
170     1.80000000e+01   8.00000000e+00   1.79665530e+01   2.51727761e+00   
171     0.00000000e+00   9.00000000e+00   7.38936488e-18   2.86956522e+00   
172     1.00000000e+00   9.00000000e+00   9.21731239e-01   2.79129646e+00   
173     2.00000000e+00   9.00000000e+00   1.92173124e+00   2.79129646e+00   
174     3.00000000e+00   9.00000000e+00   2.92173124e+00   2.79129646e+00   
175     4.00000000e+00   9.00000000e+00   3.92173124e+00   2.79129645e+00   
176     5.00000000e+00   9.00000000e+00   4.92173124e+00   2.79129645e+00   
177     6.00000000e+00   9.00000000e+00   5.92173124e+00   2.79129645e+00   
178     7.00000000e+00   9.00000000e+00   6.92173124e+00   2.79129645e+00   
179     8.00000000e+00   9.00000000e+00   7.92173124e+00   2.79129645e+00   
180     9.00000000e+00   9.00000000e+00   8.92173123e+00   2.79129645e+00   
181     1.00000000e+01   9.00000000e+00   9.92173123e+00   2.79129645e+00   
182     1.10000000e+01   9.00000000e+00   1.09217312e+01   2.79129645e+00   
183     1.20000000e+01   9.00000000e+00   1.19217312e+01   2.79129645e+00   
184     1.30000000e+01   9.00000000e+00   1.29217312e+01   2.79129645e+00   
185     1.40000000e+01   9.00000000e+00   1.39217312e+01   2.79129645e+00   
186     1.50000000e+01   9.00000000e+00   1.49217312e+01   2.79129645e+00   
187     1.60000000e+01   9.00000000e+00   1.59217312e+01   2.79129645e+00   
188     1.70000000e+01   9.00000000e+00   1.69217312e+01   2.79129645e+00   
189     1.80000000e+01   9.00000000e+00   1.79217312e+01   2.79129645e+00   
190     0.00000000e+00   1.00000000e+01   6.89867307e-18   3.18840580e+00   
191     1.00000000e+00   1.00000000e+01   8.65577099e-01   3.05398290e+00   
192     2.00000000e+00   1.00000000e+01   1.86206412e+00   3.05046992e+00   
193     3.00000000e+00   1.00000000e+01   2.86206412e+00   3.05046991e+00   
194     4.00000000e+00   1.00000000e+01   3.86206412e+00   3.05046991e+00   
195     5.00000000e+00   1.00000000e+01   4.86206412e+00   3.05046991e+00   
196     6.00000000e+00   1.00000000e+01   5.86206412e+00   3.05046991e+00   
197     7.00000000e+00   1.00000000e+01   6.86206412e+00   3.05046991e+00   
198     8.00000000e+00   1.00000000e+01   7.86206412e+00   3.05046991e+00   
199     9.00000000e+00   1.00000000e+01   8.86206411e+00   3.05046991e+00   
200     1.00000000e+01   1.00000000e+01   9.86206411e+00   3.05046991e+00   
201     1.10000000e+01   1.00000000e+01   1.08620641e+01   3.05046991e+00   
202     1.20000000e+01   1.00000000e+01   1.18620641e+01   3.05046991e+00   
203     1.30000000e+01   1.00000000e+01   1.28620641e+01   3.05046991e+00   
204     1.40000000e+01   1.00000000e+01   1.38620641e+01   3.05046991e+00   
205     1.50000000e+01   1.00000000e+01   1.48620641e+01   3.05046991e+00   
206     1.60000000e+01   1.00000000e+01   1.58620641e+01   3.05046991e+00   
207     1.70000000e+01   1.00000000e+01   1.68620641e+01   3.05046991e+00   
208     1.80000000e+01   1.00000000e+01   1.78620641e+01   3.05046991e+00   
209     0.00000000e+00   1.10000000e+01   6.45352583e-18   3.50724638e+00   
210     1.00000000e+00   1.10000000e+01   8.13963062e-01   3.32120944e+00   
211     2.00000000e+00   1.10000000e+01   1.78973116e+00   3.29697753e+00   
212     3.00000000e+00   1.10000000e+01   2.78973116e+00   3.29697753e+00   
213     4.00000000e+00   1.10000000e+01   3.78973116e+00   3.29697753e+00   
214     5.00000000e+00   1.10000000e+01   4.78973116e+00   3.29697753e+00   
215     6.00000000e+00   1.10000000e+01   5.78973116e+00   3.29697753e+00   
216     7.00000000e+00   1.10000000e+01   6.78973116e+00   3.29697753e+00   
217     8.00000000e+00   1.10000000e+01   7.78973115e+00   3.29697753e+00   
218     9.00000000e+00   1.10000000e+01   8.78973115e+00   3.29697753e+00   
219     1.00000000e+01   1.10000000e+01   9.78973115e+00   3.29697753e+00   
220     1.10000000e+01   1.10000000e+01   1.07897312e+01   3.29697753e+00   
221     1.20000000e+01   1.10000000e+01   1.17897312e+01   3.29697753e+00   
222     1.30000000e+01   1.10000000e+01   1.27897312e+01   3.29697753e+00   
223     1.40000000e+01   1.10000000e+01   1.37897312e+01   3.29697753e+00   
224     1.50000000e+01   1.10000000e+01   1.47897312e+01   3.29697753e+00   
225     1.60000000e+01   1.10000000e+01   1.57897312e+01   3.29697753e+00   
226     1.70000000e+01   1.10000000e+01   1.67897312e+01   3.29697753e+00   
227     1.80000000e+01   1.10000000e+01   1.77897311e+01   3.29697753e+00   
228     0.00000000e+00   1.20000000e+01   6.04812130e-18   3.82608696e+00   
229     1.00000000e+00   1.20000000e+01   7.67759243e-01   3.59384620e+00   
230     2.00000000e+00   1.20000000e+01   1.70642564e+00   3.53251260e+00   
231     3.00000000e+00   1.20000000e+01   2.70642564e+00   3.53251260e+00   
232     4.00000000e+00   1.20000000e+01   3.70642564e+00   3.53251260e+00   
233     5.00000000e+00   1.20000000e+01   4.70642564e+00   3.53251260e+00   
234     6.00000000e+00   1.20000000e+01   5.70642564e+00   3.53251260e+00   
235     7.00000000e+00   1.20000000e+01   6.70642564e+00   3.53251260e+00   
236     8.00000000e+00   1.20000000e+01   7.70642564e+00   3.53251259e+00   
237     9.00000000e+00   1.20000000e+01   8.70642564e+00   3.53251259e+00   
238     1.00000000e+01   1.20000000e+01   9.70642564e+00   3.53251259e+00   
239     1.10000000e+01   1.20000000e+01   1.07064256e+01   3.53251259e+00   
240     1.20000000e+01   1.20000000e+01   1.17064256e+01   3.53251259e+00   
241     1.30000000e+01   1.20000000e+01   1.27064256e+01   3.53251259e+00   
242     1.40000000e+01   1.20000000e+01   1.37064256e+01   3.53251259e+00   
243     1.50000000e+01   1.20000000e+01   1.47064256e+01   3.53251259e+00   
244     1.60000000e+01   1.20000000e+01   1.57064256e+01   3.53251259e+00   
245     1.70000000e+01   1.20000000e+01   1.67064256e+01   3.53251259e+00   
246     1.80000000e+01   1.20000000e+01   1.77064256e+01   3.53251259e+00   
247     0.00000000e+00   1.30000000e+01   5.67754108e-18   4.14492754e+00   
248     1.00000000e+00   1.30000000e+01   7.26211991e-01   3.87113953e+00   
249     2.00000000e+00   1.30000000e+01   1.61531762e+00   3.76024516e+00   
250     3.00000000e+00   1.30000000e+01   2.61349415e+00   3.75842168e+00   
251     4.00000000e+00   1.30000000e+01   3.61349415e+00   3.75842168e+00   
252     5.00000000e+00   1.30000000e+01   4.61349415e+00   3.75842168e+00   
253     6.00000000e+00   1.30000000e+01   5.61349414e+00   3.75842168e+00   
254     7.00000000e+00   1.30000000e+01   6.61349414e+00   3.75842168e+00   
255     8.00000000e+00   1.30000000e+01   7.61349414e+00   3.75842168e+00   
256     9.00000000e+00   1.30000000e+01   8.61349414e+00   3.75842168e+00   
257     1.00000000e+01   1.30000000e+01   9.61349414e+00   3.75842168e+00   
