#H
SOURCE='Xyce' VERSION='7.0'
TITLE='* dc-probe.cir'
SUBTITLE='Xyce data'
TIME='03:15:18 PM' DATE='Jan 25, 2018' TEMPERATURE='2.70000000e+01'
ANALYSIS='DC Sweep' SERIALNO='12345'
ALLVALUES='NO' COMPLEXVALUES='NO' NODES='3'
SWEEPVAR='v1' SWEEPMODE='VAR_STEP'
XBEGIN='0.00000000e+00' XEND='1.00000000e+01'
FORMAT='0 VOLTSorAMPS;EFLOAT : NODEorBRANCH;NODE  '  
DGTLDATA='NO'
#N
'V(1)' 'I(V1)' 'R1:R' 
#C 0.00000000e+00 3
0.00000000e+00:1   0.00000000e+00:2   1.00000000e+01:3   
#C 1.00000000e+00 3
1.00000000e+00:1   -1.00000000e-01:2   1.00000000e+01:3   
#C 2.00000000e+00 3
2.00000000e+00:1   -2.00000000e-01:2   1.00000000e+01:3   
#C 3.00000000e+00 3
3.00000000e+00:1   -3.00000000e-01:2   1.00000000e+01:3   
#C 4.00000000e+00 3
4.00000000e+00:1   -4.00000000e-01:2   1.00000000e+01:3   
#C 5.00000000e+00 3
5.00000000e+00:1   -5.00000000e-01:2   1.00000000e+01:3   
#C 6.00000000e+00 3
6.00000000e+00:1   -6.00000000e-01:2   1.00000000e+01:3   
#C 7.00000000e+00 3
7.00000000e+00:1   -7.00000000e-01:2   1.00000000e+01:3   
#C 8.00000000e+00 3
8.00000000e+00:1   -8.00000000e-01:2   1.00000000e+01:3   
#C 9.00000000e+00 3
9.00000000e+00:1   -9.00000000e-01:2   1.00000000e+01:3   
#C 1.00000000e+01 3
1.00000000e+01:1   -1.00000000e+00:2   1.00000000e+01:3   
#;
