Index         TIME             V(A)             V(B)             V(9)             V(8)
0       0.00000000e+00   0.00000000e+00   0.00000000e+00   1.27663898e-08   6.99999998e+00   
1       5.00000000e-13   2.50000000e-02   0.00000000e+00   7.63059218e-06   7.00000002e+00   
2       5.67741300e-13   2.83870650e-02   0.00000000e+00   8.65359996e-06   7.00000003e+00   
3       6.35482599e-13   3.17741300e-02   0.00000000e+00   9.66473747e-06   7.00000003e+00   
4       7.70965198e-13   3.85482599e-02   0.00000000e+00   1.16402610e-05   7.00000005e+00   
5       1.04193040e-12   5.20965198e-02   0.00000000e+00   1.54109126e-05   7.00000008e+00   
6       1.31289559e-12   6.56447797e-02   0.00000000e+00   1.90079720e-05   7.00000012e+00   
7       1.58386079e-12   7.91930396e-02   0.00000000e+00   2.24375614e-05   7.00000017e+00   
8       2.12579119e-12   1.06289559e-01   0.00000000e+00   2.86714836e-05   7.00000026e+00   
9       2.66772159e-12   1.33386079e-01   0.00000000e+00   3.43248383e-05   7.00000037e+00   
10      3.20965198e-12   1.60482599e-01   0.00000000e+00   3.94379299e-05   7.00000049e+00   
11      3.75158238e-12   1.87579119e-01   0.00000000e+00   4.40485125e-05   7.00000061e+00   
12      4.29351277e-12   2.14675639e-01   0.00000000e+00   4.81919342e-05   7.00000073e+00   
13      4.83544317e-12   2.41772159e-01   0.00000000e+00   5.19012785e-05   7.00000086e+00   
14      5.91930396e-12   2.95965198e-01   0.00000000e+00   5.78130448e-05   7.00000112e+00   
15      7.00316476e-12   3.50158238e-01   0.00000000e+00   6.24265213e-05   7.00000137e+00   
16      8.08702555e-12   4.04351277e-01   0.00000000e+00   6.59207545e-05   7.00000161e+00   
17      9.17088634e-12   4.58544317e-01   0.00000000e+00   6.84528115e-05   7.00000183e+00   
18      1.02547471e-11   5.12737357e-01   0.00000000e+00   7.01603780e-05   7.00000203e+00   
19      1.13386079e-11   5.66930396e-01   0.00000000e+00   7.11640539e-05   7.00000221e+00   
20      1.24224687e-11   6.21123436e-01   0.00000000e+00   7.15693808e-05   7.00000237e+00   
21      1.45901903e-11   7.29509515e-01   0.00000000e+00   7.06359356e-05   7.00000261e+00   
22      1.67579119e-11   8.37895594e-01   0.00000000e+00   6.84720956e-05   7.00000276e+00   
23      1.89256335e-11   9.46281674e-01   0.00000000e+00   6.54649128e-05   7.00000284e+00   
24      2.10933551e-11   1.05466775e+00   0.00000000e+00   6.19099198e-05   7.00000285e+00   
25      2.32610766e-11   1.16305383e+00   0.00000000e+00   5.80309625e-05   7.00000281e+00   
26      2.54287982e-11   1.27143991e+00   0.00000000e+00   5.39958680e-05   7.00000272e+00   
27      2.73753644e-11   1.36876822e+00   0.00000000e+00   5.03397000e-05   7.00000261e+00   
28      2.93219305e-11   1.46609653e+00   0.00000000e+00   4.67193262e-05   7.00000247e+00   
29      3.12684967e-11   1.56342483e+00   0.00000000e+00   4.31861439e-05   7.00000232e+00   
30      3.32150628e-11   1.66075314e+00   0.00000000e+00   3.97803400e-05   7.00000215e+00   
31      3.51616289e-11   1.75808145e+00   0.00000000e+00   3.65812918e-05   7.00000197e+00   
32      3.71081951e-11   1.85540975e+00   0.00000000e+00   3.44288814e-05   7.00000179e+00   
33      3.83494287e-11   1.91747143e+00   0.00000000e+00   3.71635687e-05   7.00000172e+00   
34      3.91238062e-11   1.95619031e+00   0.00000000e+00   4.46831969e-05   7.00000173e+00   
35      3.98981838e-11   1.99490919e+00   0.00000000e+00   5.84599126e-05   7.00000182e+00   
36      4.06725614e-11   2.03362807e+00   0.00000000e+00   7.65008263e-05   7.00000199e+00   
37      4.14469389e-11   2.07234695e+00   0.00000000e+00   9.53552606e-05   7.00000222e+00   
38      4.22213165e-11   2.11106583e+00   0.00000000e+00   1.12824391e-04   7.00000251e+00   
39      4.29956941e-11   2.14978470e+00   0.00000000e+00   1.28051640e-04   7.00000283e+00   
40      4.37700717e-11   2.18850358e+00   0.00000000e+00   1.40839918e-04   7.00000317e+00   
41      4.45444492e-11   2.22722246e+00   0.00000000e+00   1.51241970e-04   7.00000351e+00   
42      4.53188268e-11   2.26594134e+00   0.00000000e+00   1.59393339e-04   7.00000385e+00   
43      4.60932044e-11   2.30466022e+00   0.00000000e+00   1.65451876e-04   7.00000418e+00   
44      4.76419595e-11   2.38209798e+00   0.00000000e+00   1.70336378e-04   7.00000475e+00   
45      4.91907147e-11   2.45953573e+00   0.00000000e+00   1.69244344e-04   7.00000519e+00   
46      5.07394698e-11   2.53697349e+00   0.00000000e+00   1.63128720e-04   7.00000549e+00   
47      5.22882250e-11   2.61441125e+00   0.00000000e+00   1.52871435e-04   7.00000563e+00   
48      5.38369801e-11   2.69184901e+00   0.00000000e+00   1.39301370e-04   7.00000563e+00   
49      5.53857353e-11   2.76928676e+00   0.00000000e+00   1.23196952e-04   7.00000547e+00   
50      5.69344904e-11   2.84672452e+00   0.00000000e+00   1.05245464e-04   7.00000517e+00   
51      5.84832455e-11   2.92416228e+00   0.00000000e+00   8.59119697e-05   7.00000475e+00   
52      6.00320007e-11   3.00160003e+00   0.00000000e+00   6.51866306e-05   7.00000421e+00   
53      6.15807558e-11   3.07903779e+00   0.00000000e+00   4.23308944e-05   7.00000355e+00   
54      6.31295110e-11   3.15647555e+00   0.00000000e+00   1.60119964e-05   7.00000278e+00   
55      6.43829484e-11   3.21914742e+00   0.00000000e+00   -1.10633128e-05  7.00000207e+00   
56      6.49665649e-11   3.24832824e+00   0.00000000e+00   -2.72984102e-05  7.00000172e+00   
57      6.50795828e-11   3.25397914e+00   0.00000000e+00   -3.04645303e-05  7.00000165e+00   
58      6.51926006e-11   3.25963003e+00   0.00000000e+00   -3.36622527e-05  7.00000158e+00   
59      6.54186363e-11   3.27093182e+00   0.00000000e+00   -4.01819306e-05  7.00000144e+00   
60      6.56446721e-11   3.28223360e+00   0.00000000e+00   -4.68176593e-05  7.00000129e+00   
61      6.58707078e-11   3.29353539e+00   0.00000000e+00   -5.35637050e-05  7.00000114e+00   
62      6.63227793e-11   3.31613896e+00   0.00000000e+00   -6.74418538e-05  7.00000082e+00   
63      6.67748507e-11   3.33874254e+00   0.00000000e+00   -8.16276465e-05  7.00000049e+00   
64      6.72269222e-11   3.36134611e+00   0.00000000e+00   -9.60353668e-05  7.00000014e+00   
65      6.81310651e-11   3.40655326e+00   0.00000000e+00   -1.25159309e-04  6.99999959e+00   
66      6.90352081e-11   3.45176040e+00   0.00000000e+00   -1.53674019e-04  6.99999904e+00   
67      6.99393510e-11   3.49696755e+00   0.00000000e+00   -1.80768418e-04  6.99999845e+00   
68      7.08434939e-11   3.54217470e+00   0.00000000e+00   -2.05780140e-04  6.99999784e+00   
69      7.17476368e-11   3.58738184e+00   0.00000000e+00   -2.28280985e-04  6.99999720e+00   
70      7.26517798e-11   3.63258899e+00   0.00000000e+00   -2.48101766e-04  6.99999655e+00   
71      7.44600656e-11   3.72300328e+00   0.00000000e+00   -2.79608065e-04  6.99999523e+00   
72      7.62683515e-11   3.81341757e+00   0.00000000e+00   -3.02618137e-04  6.99999395e+00   
73      7.80766373e-11   3.90383187e+00   0.00000000e+00   -3.17050959e-04  6.99999273e+00   
74      7.98849232e-11   3.99424616e+00   0.00000000e+00   -3.16032859e-04  6.99999166e+00   
75      8.16932090e-11   4.08466045e+00   0.00000000e+00   -3.05463354e-04  6.99999077e+00   
76      8.35014949e-11   4.17507474e+00   0.00000000e+00   -2.99834427e-04  6.99999000e+00   
77      8.53097807e-11   4.26548904e+00   0.00000000e+00   -2.98223923e-04  6.99998932e+00   
78      8.71180666e-11   4.35590333e+00   0.00000000e+00   -2.99901646e-04  6.99998872e+00   
79      8.89263525e-11   4.44631762e+00   0.00000000e+00   -3.04290591e-04  6.99998817e+00   
80      9.07346383e-11   4.53673192e+00   0.00000000e+00   -3.10924043e-04  6.99998766e+00   
81      9.25429242e-11   4.62714621e+00   0.00000000e+00   -3.19403882e-04  6.99998718e+00   
82      9.61594959e-11   4.80797479e+00   0.00000000e+00   -3.40828977e-04  6.99998628e+00   
83      9.70636388e-11   4.85318194e+00   0.00000000e+00   -3.46367981e-04  6.99998606e+00   
84      9.75157103e-11   4.87578551e+00   0.00000000e+00   -3.48327803e-04  6.99998596e+00   
85      9.77662872e-11   4.88831436e+00   0.00000000e+00   -3.46162186e-04  6.99998590e+00   
86      9.79739892e-11   4.89869946e+00   0.00000000e+00   -3.34961197e-04  6.99998588e+00   
87      9.81816911e-11   4.90908455e+00   0.00000000e+00   -2.95344683e-04  6.99998590e+00   
88      9.82854946e-11   4.91427473e+00   0.00000000e+00   -2.53426069e-04  6.99998594e+00   
89      9.83892980e-11   4.91946490e+00   0.00000000e+00   -1.90871062e-04  6.99998603e+00   
90      9.84751938e-11   4.92375969e+00   0.00000000e+00   -1.22134450e-04  6.99998613e+00   
91      9.85497993e-11   4.92748996e+00   0.00000000e+00   -5.04285630e-05  6.99998624e+00   
92      9.86163573e-11   4.93081787e+00   0.00000000e+00   1.58177768e-05   6.99998637e+00   
93      9.86829154e-11   4.93414577e+00   0.00000000e+00   7.28866024e-05   6.99998655e+00   
94      9.87301853e-11   4.93650927e+00   0.00000000e+00   1.16200406e-04   6.99998671e+00   
95      9.87774553e-11   4.93887276e+00   0.00000000e+00   1.61504435e-04   6.99998689e+00   
96      9.88719952e-11   4.94359976e+00   0.00000000e+00   2.56964589e-04   6.99998728e+00   
97      9.89665351e-11   4.94832675e+00   0.00000000e+00   3.57820118e-04   6.99998771e+00   
98      9.90610749e-11   4.95305375e+00   0.00000000e+00   4.63723677e-04   6.99998820e+00   
99      9.91556148e-11   4.95778074e+00   0.00000000e+00   5.83473304e-04   6.99998876e+00   
100     9.92501547e-11   4.96250774e+00   0.00000000e+00   7.05617995e-04   6.99998937e+00   
101     9.94392345e-11   4.97196173e+00   0.00000000e+00   9.53316841e-04   6.99999076e+00   
102     9.98173941e-11   4.99086970e+00   0.00000000e+00   1.45024087e-03   6.99999419e+00   
103     1.00000000e-10   5.00000000e+00   0.00000000e+00   1.69122737e-03   6.99999600e+00   
104     1.00378160e-10   5.00000000e+00   0.00000000e+00   2.44715570e-03   7.00000198e+00   
105     1.00426327e-10   5.00000000e+00   0.00000000e+00   2.54340173e-03   7.00000302e+00   
106     1.00474495e-10   5.00000000e+00   0.00000000e+00   2.63906340e-03   7.00000408e+00   
107     1.00570830e-10   5.00000000e+00   0.00000000e+00   2.82792632e-03   7.00000627e+00   
108     1.00763500e-10   5.00000000e+00   0.00000000e+00   3.19566617e-03   7.00001095e+00   
109     1.00956171e-10   5.00000000e+00   0.00000000e+00   3.55341335e-03   7.00001591e+00   
110     1.01341511e-10   5.00000000e+00   0.00000000e+00   4.22818981e-03   7.00002678e+00   
111     1.01726852e-10   5.00000000e+00   0.00000000e+00   4.86254533e-03   7.00003846e+00   
112     1.02112193e-10   5.00000000e+00   0.00000000e+00   5.45661742e-03   7.00005085e+00   
113     1.02497533e-10   5.00000000e+00   0.00000000e+00   6.01075449e-03   7.00006381e+00   
114     1.02882874e-10   5.00000000e+00   0.00000000e+00   6.52541051e-03   7.00007723e+00   
115     1.03268214e-10   5.00000000e+00   0.00000000e+00   7.00110811e-03   7.00009101e+00   
116     1.04038896e-10   5.00000000e+00   0.00000000e+00   7.80277745e-03   7.00011926e+00   
117     1.04809577e-10   5.00000000e+00   0.00000000e+00   8.46065693e-03   7.00014753e+00   
118     1.05580258e-10   5.00000000e+00   0.00000000e+00   8.98021573e-03   7.00017523e+00   
119     1.06350940e-10   5.00000000e+00   0.00000000e+00   9.36735532e-03   7.00020184e+00   
120     1.07121621e-10   5.00000000e+00   0.00000000e+00   9.62830896e-03   7.00022694e+00   
121     1.07892302e-10   5.00000000e+00   0.00000000e+00   9.76955258e-03   7.00025013e+00   
122     1.08662984e-10   5.00000000e+00   0.00000000e+00   9.79772535e-03   7.00027109e+00   
123     1.09433665e-10   5.00000000e+00   0.00000000e+00   9.71955935e-03   7.00028958e+00   
124     1.10204346e-10   5.00000000e+00   0.00000000e+00   9.54181764e-03   7.00030536e+00   
125     1.10975028e-10   5.00000000e+00   0.00000000e+00   9.27124012e-03   7.00031829e+00   
126     1.11745709e-10   5.00000000e+00   0.00000000e+00   8.91449673e-03   7.00032822e+00   
127     1.13287072e-10   5.00000000e+00   0.00000000e+00   7.91071272e-03   7.00033577e+00   
128     1.14828434e-10   5.00000000e+00   0.00000000e+00   6.66382990e-03   7.00033102e+00   
129     1.16369797e-10   5.00000000e+00   0.00000000e+00   5.21675930e-03   7.00031434e+00   
130     1.17911159e-10   5.00000000e+00   0.00000000e+00   3.60924030e-03   7.00028637e+00   
131     1.18923577e-10   5.00000000e+00   0.00000000e+00   2.49445202e-03   7.00026335e+00   
132     1.19748354e-10   5.00000000e+00   0.00000000e+00   1.55244100e-03   7.00024164e+00   
133     1.20445769e-10   5.00000000e+00   0.00000000e+00   7.35221329e-04   7.00022228e+00   
134     1.21143185e-10   5.00000000e+00   0.00000000e+00   -1.36009402e-04  7.00020109e+00   
135     1.21273296e-10   5.00000000e+00   0.00000000e+00   -3.53020275e-04  7.00019706e+00   
136     1.21369718e-10   5.00000000e+00   0.00000000e+00   -5.13657829e-04  7.00019404e+00   
137     1.21466140e-10   5.00000000e+00   0.00000000e+00   -6.74105917e-04  7.00019098e+00   
138     1.21658985e-10   5.00000000e+00   0.00000000e+00   -9.94200619e-04  7.00018471e+00   
139     1.22044675e-10   5.00000000e+00   0.00000000e+00   -1.63092878e-03  7.00017161e+00   
140     1.22816053e-10   5.00000000e+00   0.00000000e+00   -2.88872617e-03  7.00014329e+00   
141     1.23587432e-10   5.00000000e+00   0.00000000e+00   -4.12963907e-03  7.00011299e+00   
142     1.24358811e-10   5.00000000e+00   0.00000000e+00   -5.35239712e-03  7.00008085e+00   
143     1.25901569e-10   5.00000000e+00   0.00000000e+00   -7.71546603e-03  7.00001045e+00   
144     1.27444327e-10   5.00000000e+00   0.00000000e+00   -9.99022046e-03  6.99995529e+00   
145     1.28987085e-10   5.00000000e+00   0.00000000e+00   -1.20642880e-02  6.99989988e+00   
146     1.30529843e-10   5.00000000e+00   0.00000000e+00   -1.37682483e-02  6.99984269e+00   
147     1.32072600e-10   5.00000000e+00   0.00000000e+00   -1.54314286e-02  6.99978376e+00   
148     1.33615358e-10   5.00000000e+00   0.00000000e+00   -1.70441000e-02  6.99972347e+00   
149     1.36700874e-10   5.00000000e+00   0.00000000e+00   -2.00176506e-02  6.99960067e+00   
150     1.39786389e-10   5.00000000e+00   0.00000000e+00   -2.27273368e-02  6.99947852e+00   
151     1.42871905e-10   5.00000000e+00   0.00000000e+00   -2.51706299e-02  6.99935955e+00   
152     1.45957421e-10   5.00000000e+00   0.00000000e+00   -2.73550992e-02  6.99924587e+00   
153     1.49042936e-10   5.00000000e+00   0.00000000e+00   -2.92947690e-02  6.99913918e+00   
154     1.52128452e-10   5.00000000e+00   0.00000000e+00   -3.10074309e-02  6.99904080e+00   
155     1.58299483e-10   5.00000000e+00   0.00000000e+00   -3.36640501e-02  6.99888277e+00   
156     1.64470514e-10   5.00000000e+00   0.00000000e+00   -3.57194618e-02  6.99876491e+00   
157     1.70641546e-10   5.00000000e+00   0.00000000e+00   -3.72973696e-02  6.99868613e+00   
158     1.76812577e-10   5.00000000e+00   0.00000000e+00   -3.85007078e-02  6.99864379e+00   
159     1.82983608e-10   5.00000000e+00   0.00000000e+00   -3.94127209e-02  6.99863437e+00   
160     1.89154639e-10   5.00000000e+00   0.00000000e+00   -4.00995344e-02  6.99865396e+00   
161     1.95325671e-10   5.00000000e+00   0.00000000e+00   -4.06131006e-02  6.99869860e+00   
162     2.01496702e-10   5.00000000e+00   0.00000000e+00   -4.09939706e-02  6.99876450e+00   
163     2.07667733e-10   5.00000000e+00   0.00000000e+00   -4.12736783e-02  6.99884819e+00   
164     2.13838764e-10   5.00000000e+00   0.00000000e+00   -4.14766953e-02  6.99894653e+00   
165     2.20009796e-10   5.00000000e+00   0.00000000e+00   -4.16219946e-02  6.99905677e+00   
166     2.26180827e-10   5.00000000e+00   0.00000000e+00   -4.17242804e-02  6.99917653e+00   
167     2.32351858e-10   5.00000000e+00   0.00000000e+00   -4.17949504e-02  6.99930378e+00   
168     2.38522889e-10   5.00000000e+00   0.00000000e+00   -4.18428430e-02  6.99943679e+00   
169     2.44693921e-10   5.00000000e+00   0.00000000e+00   -4.18748176e-02  6.99957415e+00   
170     2.57035983e-10   5.00000000e+00   0.00000000e+00   -4.18659391e-02  6.99985855e+00   
171     2.69378046e-10   5.00000000e+00   0.00000000e+00   -4.18737519e-02  7.00018579e+00   
172     2.72561587e-10   5.00000000e+00   0.00000000e+00   -4.19076843e-02  7.00028324e+00   
173     2.74090594e-10   5.00000000e+00   0.00000000e+00   -4.19248642e-02  7.00032895e+00   
174     2.75619600e-10   5.00000000e+00   0.00000000e+00   -4.19393235e-02  7.00037438e+00   
175     2.77148607e-10   5.00000000e+00   0.00000000e+00   -4.19518348e-02  7.00041919e+00   
176     2.78677614e-10   5.00000000e+00   0.00000000e+00   -4.19629520e-02  7.00046316e+00   
177     2.80206620e-10   5.00000000e+00   0.00000000e+00   -4.19729896e-02  7.00050637e+00   
178     2.83264634e-10   5.00000000e+00   0.00000000e+00   -4.19852956e-02  7.00059026e+00   
179     2.86322647e-10   5.00000000e+00   0.00000000e+00   -4.19977497e-02  7.00067197e+00   
180     2.89380661e-10   5.00000000e+00   0.00000000e+00   -4.20107404e-02  7.00075183e+00   
181     2.95496688e-10   5.00000000e+00   0.00000000e+00   -4.20242891e-02  7.00090608e+00   
182     3.01612714e-10   5.00000000e+00   0.00000000e+00   -4.20500600e-02  7.00105588e+00   
183     3.07728741e-10   5.00000000e+00   0.00000000e+00   -4.20856611e-02  7.00120210e+00   
184     3.13844768e-10   5.00000000e+00   0.00000000e+00   -4.21301158e-02  7.00134540e+00   
185     3.19960795e-10   5.00000000e+00   0.00000000e+00   -4.21831424e-02  7.00148630e+00   
186     3.26076822e-10   5.00000000e+00   0.00000000e+00   -4.22447964e-02  7.00162519e+00   
187     3.32192848e-10   5.00000000e+00   0.00000000e+00   -4.23152958e-02  7.00176239e+00   
188     3.38308875e-10   5.00000000e+00   0.00000000e+00   -4.23949370e-02  7.00189816e+00   
189     3.44424902e-10   5.00000000e+00   0.00000000e+00   -4.24840561e-02  7.00203268e+00   
190     3.50540929e-10   5.00000000e+00   0.00000000e+00   -4.25830121e-02  7.00216615e+00   
191     3.56656956e-10   5.00000000e+00   0.00000000e+00   -4.26921819e-02  7.00229871e+00   
192     3.62772982e-10   5.00000000e+00   0.00000000e+00   -4.28119593e-02  7.00243051e+00   
193     3.68889009e-10   5.00000000e+00   0.00000000e+00   -4.29427571e-02  7.00256166e+00   
194     3.75005036e-10   5.00000000e+00   0.00000000e+00   -4.30850101e-02  7.00269229e+00   
195     3.81121063e-10   5.00000000e+00   0.00000000e+00   -4.32391787e-02  7.00282253e+00   
196     3.87237090e-10   5.00000000e+00   0.00000000e+00   -4.34057522e-02  7.00295248e+00   
197     3.93353117e-10   5.00000000e+00   0.00000000e+00   -4.35852532e-02  7.00308226e+00   
198     3.99469143e-10   5.00000000e+00   0.00000000e+00   -4.37782409e-02  7.00321199e+00   
199     4.05585170e-10   5.00000000e+00   0.00000000e+00   -4.39853168e-02  7.00334178e+00   
200     4.11701197e-10   5.00000000e+00   0.00000000e+00   -4.42071307e-02  7.00347175e+00   
201     4.17817224e-10   5.00000000e+00   0.00000000e+00   -4.44443911e-02  7.00360203e+00   
202     4.23933251e-10   5.00000000e+00   0.00000000e+00   -4.46978849e-02  7.00373273e+00   
203     4.30049277e-10   5.00000000e+00   0.00000000e+00   -4.49685191e-02  7.00386398e+00   
204     4.36165304e-10   5.00000000e+00   0.00000000e+00   -4.52574159e-02  7.00399592e+00   
205     4.42281331e-10   5.00000000e+00   0.00000000e+00   -4.55661380e-02  7.00412868e+00   
206     4.48397358e-10   5.00000000e+00   0.00000000e+00   -4.58972284e-02  7.00426242e+00   
207     4.54513385e-10   5.00000000e+00   0.00000000e+00   -4.62555160e-02  7.00439727e+00   
208     4.60629412e-10   5.00000000e+00   0.00000000e+00   -4.66512718e-02  7.00453343e+00   
209     4.66745438e-10   5.00000000e+00   0.00000000e+00   -4.71077571e-02  7.00467112e+00   
210     4.72861465e-10   5.00000000e+00   0.00000000e+00   -4.76786632e-02  7.00481064e+00   
