Index        TIME               V(OUT)               V(IN)               V(1)        
0        0.0000000000e+00    4.8060478621e+00    5.0000000000e+00    5.0000000000e+00
1        7.5000000000e-09    4.8060478621e+00    5.0000000000e+00    5.0000000000e+00
2        2.2500000000e-08    4.8060478621e+00    5.0000000000e+00    5.0000000000e+00
3        5.2500000000e-08    4.8060478621e+00    5.0000000000e+00    5.0000000000e+00
4        1.1250000000e-07    4.8060478621e+00    5.0000000000e+00    5.0000000000e+00
5        2.3250000000e-07    4.8060478621e+00    5.0000000000e+00    5.0000000000e+00
6        3.8250000000e-07    4.8060478621e+00    5.0000000000e+00    5.0000000000e+00
7        5.3250000000e-07    4.8060478621e+00    5.0000000000e+00    5.0000000000e+00
8        6.8250000000e-07    4.8060478621e+00    5.0000000000e+00    5.0000000000e+00
9        8.3250000000e-07    4.8060478621e+00    5.0000000000e+00    5.0000000000e+00
10       9.8250000000e-07    4.8060478621e+00    5.0000000000e+00    5.0000000000e+00
11       1.1325000000e-06    4.8060478621e+00    5.0000000000e+00    5.0000000000e+00
12       1.2825000000e-06    4.8060478621e+00    5.0000000000e+00    5.0000000000e+00
13       1.4325000000e-06    4.8060478621e+00    5.0000000000e+00    5.0000000000e+00
14       1.5000000000e-06    4.8060478621e+00    5.0000000000e+00    5.0000000000e+00
15       1.5000312500e-06    4.8060031878e+00    4.9991061557e+00    4.9687500000e+00
16       1.5000937500e-06    4.8057796610e+00    4.9940032357e+00    4.9062500000e+00
17       1.5001562500e-06    4.8055086621e+00    4.9872930965e+00    4.8437500000e+00
18       1.5002812500e-06    4.8048584412e+00    4.9647796883e+00    4.7187500000e+00
19       1.5004062500e-06    4.8042864507e+00    4.9311674249e+00    4.5937500000e+00
20       1.5006562500e-06    4.8036791222e+00    4.8358877421e+00    4.3437500000e+00
21       1.5009062500e-06    4.8036254840e+00    4.7090137591e+00    4.0937500000e+00
22       1.5011562500e-06    4.8038382617e+00    4.5570433765e+00    3.8437500000e+00
23       1.5014062500e-06    4.8041235399e+00    4.3851040905e+00    3.5937500000e+00
24       1.5016562500e-06    4.8043914669e+00    4.1972594095e+00    3.3437500000e+00
25       1.5021562500e-06    4.8032707689e+00    3.7221765187e+00    2.8437500000e+00
26       1.5025859565e-06    4.8038640908e+00    3.2513169330e+00    2.4140435010e+00
27       1.5030156630e-06    4.8114048133e+00    2.8260930515e+00    1.9843370019e+00
28       1.5033818664e-06    4.8213474992e+00    2.4670680515e+00    1.6181336452e+00
29       1.5037480697e-06    4.8373558804e+00    2.1144533202e+00    1.2519302886e+00
30       1.5037994544e-06    4.8403868370e+00    2.0650831748e+00    1.2005455738e+00
31       1.5038508391e-06    4.8436524943e+00    2.0157747824e+00    1.1491608590e+00
32       1.5039536086e-06    4.8522331226e+00    1.9149538116e+00    1.0463914294e+00
33       1.5040563780e-06    4.8659760905e+00    1.8036723719e+00    9.4362199984e-01
34       1.5041591474e-06    4.8843339980e+00    1.6839317715e+00    8.4085257027e-01
35       1.5042619169e-06    4.9031045848e+00    1.5658061522e+00    7.3808314069e-01
36       1.5043646863e-06    4.9238057237e+00    1.4469956841e+00    6.3531371112e-01
37       1.5044674557e-06    4.9457618540e+00    1.3271588039e+00    5.3254428155e-01
38       1.5045702251e-06    4.9650247445e+00    1.2122617406e+00    4.2977485198e-01
39       1.5046729946e-06    4.9809335339e+00    1.1065669721e+00    3.2700542240e-01
40       1.5047757640e-06    4.9907801286e+00    1.0074765412e+00    2.2423599283e-01
41       1.5048785334e-06    4.9903333575e+00    9.1114884733e-01    1.2146656326e-01
42       1.5049813029e-06    4.9758517927e+00    8.1436582318e-01    1.8697133685e-02
43       1.5050000000e-06    4.9714962204e+00    7.9672124774e-01    4.7961634664e-14
44       1.5050102769e-06    4.9687628078e+00    7.8712064588e-01    0.0000000000e+00
45       1.5050175850e-06    4.9667267302e+00    7.8036081729e-01    0.0000000000e+00
46       1.5050322013e-06    4.9624585815e+00    7.6696065032e-01    0.0000000000e+00
47       1.5050614337e-06    4.9527157950e+00    7.4084866342e-01    0.0000000000e+00
48       1.5051198985e-06    4.9280518585e+00    6.9125397871e-01    0.0000000000e+00
49       1.5052368282e-06    4.8548377090e+00    6.0173307476e-01    0.0000000000e+00
50       1.5053537579e-06    4.7431039649e+00    5.2442970811e-01    0.0000000000e+00
51       1.5054706875e-06    4.5753995934e+00    4.7177141379e-01    0.0000000000e+00
52       1.5055737833e-06    4.3617093750e+00    4.4443117308e-01    0.0000000000e+00
53       1.5055862721e-06    4.3301783085e+00    4.4182625566e-01    0.0000000000e+00
54       1.5056112497e-06    4.2627552213e+00    4.3688524532e-01    0.0000000000e+00
55       1.5056362274e-06    4.1854376127e+00    4.3242611779e-01    0.0000000000e+00
56       1.5056612050e-06    4.0910067043e+00    4.2858533404e-01    0.0000000000e+00
57       1.5056861826e-06    3.9493803225e+00    4.2616766076e-01    0.0000000000e+00
58       1.5057084369e-06    3.7503147074e+00    4.2620326029e-01    0.0000000000e+00
59       1.5057275075e-06    3.5525602346e+00    4.2720266625e-01    0.0000000000e+00
60       1.5057465780e-06    3.3525934987e+00    4.2846042233e-01    0.0000000000e+00
61       1.5057656486e-06    3.1410226377e+00    4.2988210001e-01    0.0000000000e+00
62       1.5057847192e-06    2.9225028906e+00    4.3137169619e-01    0.0000000000e+00
63       1.5058037897e-06    2.6961132743e+00    4.3293591999e-01    0.0000000000e+00
64       1.5058228603e-06    2.4634528620e+00    4.3450495552e-01    0.0000000000e+00
65       1.5058610015e-06    1.9883835287e+00    4.3749443596e-01    0.0000000000e+00
66       1.5058670845e-06    1.9151929669e+00    4.3785837534e-01    0.0000000000e+00
67       1.5058792506e-06    1.7833230427e+00    4.3827243081e-01    0.0000000000e+00
68       1.5058914167e-06    1.6651417745e+00    4.3816003104e-01    0.0000000000e+00
69       1.5059035828e-06    1.5551164578e+00    4.3761195117e-01    0.0000000000e+00
70       1.5059279149e-06    1.3578955294e+00    4.3561449594e-01    0.0000000000e+00
71       1.5059522471e-06    1.1829539901e+00    4.3293013466e-01    0.0000000000e+00
72       1.5059765793e-06    1.0286686867e+00    4.3000062730e-01    0.0000000000e+00
73       1.5060009114e-06    8.9156003112e-01    4.2709645874e-01    0.0000000000e+00
74       1.5060252436e-06    7.7149788799e-01    4.2435121536e-01    0.0000000000e+00
75       1.5060495758e-06    6.6592824952e-01    4.2184917193e-01    0.0000000000e+00
76       1.5060739079e-06    5.7456938615e-01    4.1961459768e-01    0.0000000000e+00
77       1.5060982401e-06    4.9514998548e-01    4.1765601604e-01    0.0000000000e+00
78       1.5061225723e-06    4.2716644894e-01    4.1595154149e-01    0.0000000000e+00
79       1.5061469044e-06    3.6861733604e-01    4.1447627654e-01    0.0000000000e+00
80       1.5061712366e-06    3.1892925911e-01    4.1319088564e-01    0.0000000000e+00
81       1.5062199009e-06    2.4011480381e-01    4.1102224080e-01    0.0000000000e+00
82       1.5062685653e-06    1.8392485216e-01    4.0916372403e-01    0.0000000000e+00
83       1.5063172296e-06    1.4379885100e-01    4.0735594437e-01    0.0000000000e+00
84       1.5063658939e-06    1.1576498028e-01    4.0546221097e-01    0.0000000000e+00
85       1.5064632226e-06    8.1457062353e-02    4.0136103104e-01    0.0000000000e+00
86       1.5066578799e-06    4.9700613026e-02    3.8760541676e-01    0.0000000000e+00
87       1.5068330715e-06    3.3834275871e-02    3.6533424870e-01    0.0000000000e+00
88       1.5069907440e-06    2.4150468501e-02    3.3935230294e-01    0.0000000000e+00
89       1.5071484164e-06    1.7956602919e-02    3.1177673626e-01    0.0000000000e+00
90       1.5074637613e-06    1.1270720167e-02    2.5827336799e-01    0.0000000000e+00
91       1.5077791062e-06    7.4329308116e-03    2.1019538948e-01    0.0000000000e+00
92       1.5080944511e-06    4.9052994532e-03    1.6863167287e-01    0.0000000000e+00
93       1.5084097960e-06    3.1745112117e-03    1.3381961327e-01    0.0000000000e+00
94       1.5090404858e-06    1.4317334341e-03    8.1891276875e-02    0.0000000000e+00
95       1.5096711756e-06    6.0449672964e-04    4.8929405294e-02    0.0000000000e+00
96       1.5103018653e-06    3.6744988876e-04    2.8852974181e-02    0.0000000000e+00
97       1.5115632449e-06    3.7037167359e-05    9.0312305438e-03    0.0000000000e+00
98       1.5128246245e-06    6.7598386568e-05    2.7684208939e-03    0.0000000000e+00
99       1.5153473836e-06   -4.3177600310e-05   -7.8081814520e-05    0.0000000000e+00
100      1.5178701427e-06    4.2361237070e-05    2.2942981038e-07    0.0000000000e+00
101      1.5229156610e-06   -4.2300714328e-05    1.1661653881e-06    0.0000000000e+00
102      1.5279611792e-06    4.2259584487e-05   -1.6279154934e-06    0.0000000000e+00
103      1.5380522157e-06   -4.2236607754e-05    1.7123528196e-06    0.0000000000e+00
104      1.5582342887e-06    4.2230368505e-05   -1.7378293797e-06    0.0000000000e+00
105      1.5985984347e-06   -4.2222431011e-05    1.7476037481e-06    0.0000000000e+00
106      1.6793267266e-06    4.2223367922e-05   -1.7518624439e-06    0.0000000000e+00
107      1.8407833106e-06   -4.2218950480e-05    1.7538468449e-06    0.0000000000e+00
108      2.1417833106e-06    4.2221590389e-05   -1.7548730415e-06    0.0000000000e+00
109      2.4427833106e-06   -4.2217711300e-05    1.7558731818e-06    0.0000000000e+00
110      2.7437833106e-06    4.2220352633e-05   -1.7568477044e-06    0.0000000000e+00
111      3.0050000000e-06   -4.2216380849e-05    1.7579394550e-06    0.0000000000e+00
112      3.0050312500e-06    3.5604240868e-05    1.0566927689e-03    3.1250000000e-02
113      3.0050937500e-06    2.3149804541e-04    6.6855941341e-03    9.3750000000e-02
114      3.0051562500e-06    4.7010069556e-04    1.3983187066e-02    1.5625000000e-01
115      3.0052812500e-06    1.0460012661e-03    3.7876484188e-02    2.8125000000e-01
116      3.0054062500e-06    1.5530355718e-03    7.2988420084e-02    4.0625000000e-01
117      3.0056562500e-06    2.1584328604e-03    1.7124741242e-01    6.5625000000e-01
118      3.0059062500e-06    2.3829919069e-03    3.0078143694e-01    9.0625000000e-01
119      3.0061562500e-06    2.4200536260e-03    4.5492316630e-01    1.1562500000e+00
120      3.0064062500e-06    2.3859273846e-03    6.2855319528e-01    1.4062500000e+00
121      3.0069062500e-06    2.3771524929e-03    1.0210076661e+00    1.9062500000e+00
122      3.0074062500e-06    2.9186855011e-03    1.4791724202e+00    2.4062500000e+00
123      3.0079062500e-06    2.1511084243e-03    1.9708257711e+00    2.9062500000e+00
124      3.0084062500e-06   -2.5415562034e-03    2.4492982379e+00    3.4062500000e+00
125      3.0088562500e-06   -9.3346751584e-03    2.8661711481e+00    3.8562500000e+00
126      3.0092519670e-06   -1.9009175127e-02    3.2146420320e+00    4.2519669601e+00
127      3.0092933422e-06   -2.0482027714e-02    3.2504772754e+00    4.2933421617e+00
128      3.0093347174e-06   -2.2396821747e-02    3.2874695582e+00    4.3347173633e+00
129      3.0094174678e-06   -3.0249747635e-02    3.3801453726e+00    4.4174677665e+00
130      3.0095002182e-06   -4.2635306684e-02    3.4982315869e+00    4.5002181696e+00
131      3.0095829686e-06   -5.5521703787e-02    3.6173839736e+00    4.5829685728e+00
132      3.0096657190e-06   -7.3688346134e-02    3.7418338310e+00    4.6657189760e+00
133      3.0097401943e-06   -9.2587966964e-02    3.8439141001e+00    4.7401943389e+00
134      3.0098146697e-06   -1.0458825572e-01    3.9302512820e+00    4.8146697017e+00
135      3.0098891451e-06   -1.1315003729e-01    4.0063686277e+00    4.8891450646e+00
136      3.0099636204e-06   -1.1866168001e-01    4.0759644732e+00    4.9636204275e+00
137      3.0100000000e-06   -1.1952813371e-01    4.1086835505e+00    5.0000000000e+00
138      3.0100074475e-06   -1.1943141795e-01    4.1153663812e+00    5.0000000000e+00
139      3.0100129358e-06   -1.1932768807e-01    4.1202567277e+00    5.0000000000e+00
140      3.0100239125e-06   -1.1904496480e-01    4.1299777313e+00    5.0000000000e+00
141      3.0100458657e-06   -1.1795714995e-01    4.1490902644e+00    5.0000000000e+00
142      3.0100897721e-06   -1.1342239478e-01    4.1860662412e+00    5.0000000000e+00
143      3.0101775850e-06   -9.3173540945e-02    4.2552768563e+00    5.0000000000e+00
144      3.0102653979e-06   -5.4705263674e-02    4.3185722372e+00    5.0000000000e+00
145      3.0103532108e-06    7.5393851512e-03    4.3764546060e+00    5.0000000000e+00
146      3.0104410237e-06    1.0220910695e-01    4.4293851955e+00    5.0000000000e+00
147      3.0105288366e-06    2.4738469229e-01    4.4725866163e+00    5.0000000000e+00
148      3.0106078682e-06    4.5521056203e-01    4.5006927626e+00    5.0000000000e+00
149      3.0106166052e-06    4.8564733977e-01    4.5032614937e+00    5.0000000000e+00
150      3.0106253421e-06    5.1823258680e-01    4.5057403954e+00    5.0000000000e+00
151      3.0106428161e-06    5.9674877976e-01    4.5103298961e+00    5.0000000000e+00
152      3.0106602900e-06    7.0466544053e-01    4.5142307640e+00    5.0000000000e+00
153      3.0106777639e-06    8.4051569889e-01    4.5175227666e+00    5.0000000000e+00
154      3.0106952379e-06    9.8516290504e-01    4.5206111280e+00    5.0000000000e+00
155      3.0107127118e-06    1.1387531131e+00    4.5234691236e+00    5.0000000000e+00
156      3.0107301858e-06    1.3009099948e+00    4.5261663502e+00    5.0000000000e+00
157      3.0107476597e-06    1.4707430089e+00    4.5287213041e+00    5.0000000000e+00
158      3.0107826076e-06    1.8319203811e+00    4.5335278890e+00    5.0000000000e+00
159      3.0108175555e-06    2.2171839903e+00    4.5380806553e+00    5.0000000000e+00
160      3.0108525033e-06    2.5916169483e+00    4.5433956999e+00    5.0000000000e+00
161      3.0108839564e-06    2.8635789757e+00    4.5500780106e+00    5.0000000000e+00
162      3.0109094812e-06    3.0329924747e+00    4.5565374176e+00    5.0000000000e+00
163      3.0109350060e-06    3.1782760018e+00    4.5633203347e+00    5.0000000000e+00
164      3.0109860556e-06    3.4255388768e+00    4.5770101350e+00    5.0000000000e+00
165      3.0110371052e-06    3.6299721050e+00    4.5903428533e+00    5.0000000000e+00
166      3.0110881547e-06    3.8026818339e+00    4.6029842867e+00    5.0000000000e+00
167      3.0111392043e-06    3.9482197199e+00    4.6148634230e+00    5.0000000000e+00
168      3.0111902539e-06    4.0712162664e+00    4.6259970732e+00    5.0000000000e+00
169      3.0112413035e-06    4.1746124247e+00    4.6364623481e+00    5.0000000000e+00
170      3.0112923531e-06    4.2617210447e+00    4.6463606396e+00    5.0000000000e+00
171      3.0113434026e-06    4.3351139380e+00    4.6558779271e+00    5.0000000000e+00
172      3.0113944522e-06    4.3976598196e+00    4.6652019136e+00    5.0000000000e+00
173      3.0114455018e-06    4.4509360761e+00    4.6743997811e+00    5.0000000000e+00
174      3.0115476010e-06    4.5358971614e+00    4.6925121709e+00    5.0000000000e+00
175      3.0116497001e-06    4.5979709258e+00    4.7102957485e+00    5.0000000000e+00
176      3.0117517993e-06    4.6439940230e+00    4.7277554871e+00    5.0000000000e+00
177      3.0118538985e-06    4.6782118945e+00    4.7447819681e+00    5.0000000000e+00
178      3.0119559976e-06    4.7041713695e+00    4.7613053040e+00    5.0000000000e+00
179      3.0121601959e-06    4.7404312807e+00    4.7927120428e+00    5.0000000000e+00
180      3.0123643943e-06    4.7632636242e+00    4.8216276120e+00    5.0000000000e+00
181      3.0125685926e-06    4.7779986058e+00    4.8476927331e+00    5.0000000000e+00
182      3.0127727909e-06    4.7877182924e+00    4.8707468082e+00    5.0000000000e+00
183      3.0131811875e-06    4.7984119914e+00    4.9082750673e+00    5.0000000000e+00
184      3.0135895842e-06    4.8028303681e+00    4.9357399833e+00    5.0000000000e+00
185      3.0139979808e-06    4.8045579615e+00    4.9553014664e+00    5.0000000000e+00
186      3.0148147741e-06    4.8057860383e+00    4.9791282710e+00    5.0000000000e+00
187      3.0156315674e-06    4.8059078466e+00    4.9903338037e+00    5.0000000000e+00
188      3.0172651540e-06    4.8060570907e+00    4.9985207241e+00    5.0000000000e+00
189      3.0188987406e-06    4.8060194018e+00    4.9997741498e+00    5.0000000000e+00
190      3.0221659137e-06    4.8060741503e+00    5.0000427396e+00    5.0000000000e+00
191      3.0254330869e-06    4.8060220037e+00    4.9999920496e+00    5.0000000000e+00
192      3.0319674331e-06    4.8060736656e+00    5.0000038104e+00    5.0000000000e+00
193      3.0450361257e-06    4.8060220744e+00    4.9999973555e+00    5.0000000000e+00
194      3.0711735109e-06    4.8060736436e+00    5.0000021990e+00    5.0000000000e+00
195      3.1234482813e-06    4.8060220832e+00    4.9999979964e+00    5.0000000000e+00
196      3.2279978221e-06    4.8060736397e+00    5.0000019120e+00    5.0000000000e+00
197      3.4370969036e-06    4.8060220851e+00    4.9999981324e+00    5.0000000000e+00
198      3.7380969036e-06    4.8060736386e+00    5.0000018374e+00    5.0000000000e+00
199      4.0390969036e-06    4.8060220859e+00    4.9999981925e+00    5.0000000000e+00
200      4.3400969036e-06    4.8060736378e+00    5.0000017782e+00    5.0000000000e+00
201      4.5100000000e-06    4.8060220870e+00    4.9999982728e+00    5.0000000000e+00
202      4.5100312500e-06    4.8060029730e+00    4.9991043128e+00    4.9687500000e+00
203      4.5100937500e-06    4.8057796952e+00    4.9940014799e+00    4.9062500000e+00
204      4.5101562500e-06    4.8055086764e+00    4.9872914329e+00    4.8437500000e+00
205      4.5102812500e-06    4.8048584209e+00    4.9647781980e+00    4.7187500000e+00
206      4.5104062500e-06    4.8042864294e+00    4.9311660906e+00    4.5937500000e+00
207      4.5106562500e-06    4.8036790986e+00    4.8358866755e+00    4.3437500000e+00
208      4.5109062500e-06    4.8036254712e+00    4.7090129068e+00    4.0937500000e+00
209      4.5111562500e-06    4.8038382490e+00    4.5570426962e+00    3.8437500000e+00
210      4.5114062500e-06    4.8041235342e+00    4.3851035472e+00    3.5937500000e+00
211      4.5116562500e-06    4.8043914594e+00    4.1972589762e+00    3.3437500000e+00
212      4.5121562500e-06    4.8032707686e+00    3.7221762948e+00    2.8437500000e+00
213      4.5125859566e-06    4.8038640884e+00    3.2513167304e+00    2.4140434121e+00
214      4.5130156632e-06    4.8114048181e+00    2.8260928075e+00    1.9843368242e+00
215      4.5133818666e-06    4.8213475069e+00    2.4670677518e+00    1.6181333809e+00
216      4.5137480701e-06    4.8373559029e+00    2.1144529553e+00    1.2519299375e+00
217      4.5137994548e-06    4.8403868596e+00    2.0650828183e+00    1.2005452295e+00
218      4.5138508395e-06    4.8436525192e+00    2.0157744326e+00    1.1491605215e+00
219      4.5139536089e-06    4.8522331605e+00    1.9149534537e+00    1.0463911055e+00
220      4.5140563783e-06    4.8659761415e+00    1.8036720044e+00    9.4362168949e-01
221      4.5141591477e-06    4.8843340474e+00    1.6839314285e+00    8.4085227347e-01
222      4.5142619171e-06    4.9031046368e+00    1.5658058261e+00    7.3808285745e-01
223      4.5143646866e-06    4.9238057850e+00    1.4469953714e+00    6.3531344144e-01
224      4.5144674560e-06    4.9457619138e+00    1.3271585032e+00    5.3254402542e-01
225      4.5145702254e-06    4.9650247917e+00    1.2122614688e+00    4.2977460940e-01
226      4.5146729948e-06    4.9809335641e+00    1.1065667341e+00    3.2700519338e-01
227      4.5147757642e-06    4.9907801375e+00    1.0074763309e+00    2.2423577736e-01
228      4.5148785336e-06    4.9903333377e+00    9.1114865435e-01    1.2146636134e-01
229      4.5149813031e-06    4.9758517401e+00    8.1436564242e-01    1.8696945327e-02
230      4.5150000000e-06    4.9714962080e+00    7.9672124459e-01    4.7162274086e-13
