Index      TIME           V(OUT)           V(IN)           V(1)
0       0.0000000000e+00   4.8060478621e+00   5.0000000000e+00   5.0000000000e+00   
1       7.5000000000e-09   4.8060478621e+00   5.0000000000e+00   5.0000000000e+00   
2       2.2500000000e-08   4.8060478621e+00   5.0000000000e+00   5.0000000000e+00   
3       5.2500000000e-08   4.8060478621e+00   5.0000000000e+00   5.0000000000e+00   
4       1.1250000000e-07   4.8060478621e+00   5.0000000000e+00   5.0000000000e+00   
5       2.3250000000e-07   4.8060478621e+00   5.0000000000e+00   5.0000000000e+00   
6       3.8250000000e-07   4.8060478621e+00   5.0000000000e+00   5.0000000000e+00   
7       5.3250000000e-07   4.8060478621e+00   5.0000000000e+00   5.0000000000e+00   
8       6.8250000000e-07   4.8060478621e+00   5.0000000000e+00   5.0000000000e+00   
9       8.3250000000e-07   4.8060478621e+00   5.0000000000e+00   5.0000000000e+00   
10      9.8250000000e-07   4.8060478621e+00   5.0000000000e+00   5.0000000000e+00   
11      1.1325000000e-06   4.8060478621e+00   5.0000000000e+00   5.0000000000e+00   
12      1.2825000000e-06   4.8060478621e+00   5.0000000000e+00   5.0000000000e+00   
13      1.4325000000e-06   4.8060478621e+00   5.0000000000e+00   5.0000000000e+00   
14      1.5000000000e-06   4.8060478621e+00   5.0000000000e+00   5.0000000000e+00   
15      1.5000250000e-06   4.8060194051e+00   4.9994224344e+00   4.9750000000e+00   
16      1.5000322481e-06   4.8060084285e+00   4.9992074673e+00   4.9677518795e+00   
17      1.5000394962e-06   4.8059946417e+00   4.9989455128e+00   4.9605037591e+00   
18      1.5000459253e-06   4.8059802353e+00   4.9986764713e+00   4.9540747495e+00   
19      1.5000523543e-06   4.8059637359e+00   4.9983709867e+00   4.9476457400e+00   
20      1.5000587833e-06   4.8059452552e+00   4.9980292961e+00   4.9412167304e+00   
21      1.5000652123e-06   4.8059249176e+00   4.9976516315e+00   4.9347877209e+00   
22      1.5000716413e-06   4.8059028519e+00   4.9972382220e+00   4.9283587113e+00   
23      1.5000780703e-06   4.8058791867e+00   4.9967892945e+00   4.9219297018e+00   
24      1.5000844993e-06   4.8058540479e+00   4.9963050736e+00   4.9155006922e+00   
25      1.5000909283e-06   4.8058275569e+00   4.9957857821e+00   4.9090716827e+00   
26      1.5000973573e-06   4.8057998300e+00   4.9952316407e+00   4.9026426731e+00   
27      1.5001102153e-06   4.8057402782e+00   4.9939856962e+00   4.8897846540e+00   
28      1.5001230734e-06   4.8056773909e+00   4.9926037994e+00   4.8769266349e+00   
29      1.5001359314e-06   4.8056118528e+00   4.9910876325e+00   4.8640686159e+00   
30      1.5001487894e-06   4.8055442770e+00   4.9894388513e+00   4.8512105968e+00   
31      1.5001616474e-06   4.8054752113e+00   4.9876590864e+00   4.8383525777e+00   
32      1.5001745054e-06   4.8054051437e+00   4.9857499434e+00   4.8254945586e+00   
33      1.5001873635e-06   4.8053345081e+00   4.9837130040e+00   4.8126365395e+00   
34      1.5002130795e-06   4.8051937234e+00   4.9791402305e+00   4.7869205013e+00   
35      1.5002387955e-06   4.8050555788e+00   4.9740805025e+00   4.7612044631e+00   
36      1.5002645116e-06   4.8049217317e+00   4.9685454283e+00   4.7354884249e+00   
37      1.5002902276e-06   4.8047934313e+00   4.9625462990e+00   4.7097723867e+00   
38      1.5003159437e-06   4.8046715918e+00   4.9560941019e+00   4.6840563485e+00   
39      1.5003673757e-06   4.8044575286e+00   4.9414608904e+00   4.6326242721e+00   
40      1.5004188078e-06   4.8042742147e+00   4.9251780742e+00   4.5811921957e+00   
41      1.5004702399e-06   4.8041211388e+00   4.9073209563e+00   4.5297601193e+00   
42      1.5005731040e-06   4.8039218862e+00   4.8658570012e+00   4.4268959665e+00   
43      1.5006759682e-06   4.8038100238e+00   4.8191406220e+00   4.3240318138e+00   
44      1.5007788323e-06   4.8037664434e+00   4.7676246192e+00   4.2211676610e+00   
45      1.5008816965e-06   4.8037741667e+00   4.7117216435e+00   4.1183035082e+00   
46      1.5009845606e-06   4.8038188993e+00   4.6518080239e+00   4.0154393554e+00   
47      1.5010874248e-06   4.8038890197e+00   4.5882271570e+00   3.9125752027e+00   
48      1.5012931531e-06   4.8040815351e+00   4.4487095319e+00   3.7068468971e+00   
49      1.5014988814e-06   4.8042810347e+00   4.2987747089e+00   3.5011185916e+00   
50      1.5017046097e-06   4.8044628306e+00   4.1400545165e+00   3.2953902860e+00   
51      1.5019103380e-06   4.8043281122e+00   3.9628812274e+00   3.0896619804e+00   
52      1.5019979967e-06   4.8038691710e+00   3.8758461399e+00   3.0020033446e+00   
53      1.5020737654e-06   4.8032493929e+00   3.7915716976e+00   2.9262346025e+00   
54      1.5021495341e-06   4.8027313193e+00   3.7032744887e+00   2.8504658605e+00   
55      1.5022253029e-06   4.8026455615e+00   3.6182872199e+00   2.7746971185e+00   
56      1.5022841523e-06   4.8028127536e+00   3.5550240636e+00   2.7158476588e+00   
57      1.5023430018e-06   4.8031054120e+00   3.4938575106e+00   2.6569981990e+00   
58      1.5024607007e-06   4.8037947857e+00   3.3751119997e+00   2.5392992796e+00   
59      1.5025783996e-06   4.8046912810e+00   3.2579209767e+00   2.4216003601e+00   
60      1.5026960986e-06   4.8058846475e+00   3.1410176323e+00   2.3039014406e+00   
61      1.5027944135e-06   4.8071591857e+00   3.0435586697e+00   2.2055864814e+00   
62      1.5028927285e-06   4.8087302014e+00   2.9463322338e+00   2.1072715221e+00   
63      1.5029710829e-06   4.8101870680e+00   2.8690152653e+00   2.0289171194e+00   
64      1.5030494373e-06   4.8118453047e+00   2.7918844041e+00   1.9505627167e+00   
65      1.5031133448e-06   4.8133381419e+00   2.7291088409e+00   1.8866552075e+00   
66      1.5031772523e-06   4.8149696901e+00   2.6664750433e+00   1.8227476983e+00   
67      1.5032257548e-06   4.8162939169e+00   2.6190256780e+00   1.7742451523e+00   
68      1.5032526972e-06   4.8170590924e+00   2.5926963683e+00   1.7473027943e+00   
69      1.5032662860e-06   4.8174530717e+00   2.5794241506e+00   1.7337140367e+00   
70      1.5032754890e-06   4.8177236749e+00   2.5704389257e+00   1.7245109885e+00   
71      1.5032846921e-06   4.8179980490e+00   2.5614571971e+00   1.7153079403e+00   
72      1.5032938951e-06   4.8182761723e+00   2.5524789805e+00   1.7061048921e+00   
73      1.5033123012e-06   4.8188465171e+00   2.5345366144e+00   1.6876987956e+00   
74      1.5033307073e-06   4.8194308531e+00   2.5166082925e+00   1.6692926992e+00   
75      1.5033491134e-06   4.8200291723e+00   2.4986941375e+00   1.6508866027e+00   
76      1.5033675195e-06   4.8206415248e+00   2.4807942766e+00   1.6324805062e+00   
77      1.5033859256e-06   4.8212680136e+00   2.4629088348e+00   1.6140744098e+00   
78      1.5034043317e-06   4.8219087934e+00   2.4450379340e+00   1.5956683133e+00   
79      1.5034227378e-06   4.8225640701e+00   2.4271816911e+00   1.5772622169e+00   
80      1.5034335482e-06   4.8229542981e+00   2.4166992456e+00   1.5664517926e+00   
81      1.5034443586e-06   4.8233499257e+00   2.4062219688e+00   1.5556413683e+00   
82      1.5034531171e-06   4.8236740808e+00   2.3977368304e+00   1.5468829338e+00   
83      1.5034618755e-06   4.8240018812e+00   2.3892551148e+00   1.5381244993e+00   
84      1.5034706339e-06   4.8243333524e+00   2.3807768295e+00   1.5293660647e+00   
85      1.5034881508e-06   4.8250101973e+00   2.3638341306e+00   1.5118491956e+00   
86      1.5035056677e-06   4.8257014844e+00   2.3469050733e+00   1.4943323265e+00   
87      1.5035231845e-06   4.8264077554e+00   2.3299897079e+00   1.4768154575e+00   
88      1.5035407014e-06   4.8271295556e+00   2.3130880475e+00   1.4592985884e+00   
89      1.5035582183e-06   4.8278674628e+00   2.2962000675e+00   1.4417817193e+00   
90      1.5035932520e-06   4.8294032727e+00   2.2624793632e+00   1.4067479811e+00   
91      1.5036282858e-06   4.8310078170e+00   2.2288107500e+00   1.3717142430e+00   
92      1.5036633195e-06   4.8326895168e+00   2.1951918044e+00   1.3366805048e+00   
93      1.5036983532e-06   4.8344578346e+00   2.1616178831e+00   1.3016467666e+00   
94      1.5037333870e-06   4.8363242211e+00   2.1280809486e+00   1.2666130285e+00   
95      1.5037684207e-06   4.8383031674e+00   2.0945674350e+00   1.2315792903e+00   
96      1.5038034544e-06   4.8404138578e+00   2.0610543911e+00   1.1965455522e+00   
97      1.5038384882e-06   4.8426831263e+00   2.0275020672e+00   1.1615118140e+00   
98      1.5038735219e-06   4.8451512861e+00   1.9938383921e+00   1.1264780758e+00   
99      1.5039085557e-06   4.8478851176e+00   1.9599223626e+00   1.0914443377e+00   
100     1.5039435894e-06   4.8510124552e+00   1.9254407744e+00   1.0564105995e+00   
101     1.5039786231e-06   4.8548498487e+00   1.8895031527e+00   1.0213768613e+00   
102     1.5040066910e-06   4.8589307501e+00   1.8580321020e+00   9.9330904638e-01   
103     1.5040267644e-06   4.8624013916e+00   1.8341913992e+00   9.7323562309e-01   
104     1.5040468378e-06   4.8659717136e+00   1.8106465964e+00   9.5316219980e-01   
105     1.5040614733e-06   4.8685633585e+00   1.7935360400e+00   9.3852670423e-01   
106     1.5040907443e-06   4.8735934955e+00   1.7595088792e+00   9.0925571310e-01   
107     1.5041200153e-06   4.8785387518e+00   1.7256683381e+00   8.7998472196e-01   
108     1.5041785573e-06   4.8884152669e+00   1.6586769001e+00   8.2144273969e-01   
109     1.5042178131e-06   4.8953118089e+00   1.6139435223e+00   7.8218692361e-01   
110     1.5042570689e-06   4.9024762587e+00   1.5691680220e+00   7.4293110753e-01   
111     1.5042866934e-06   4.9081374003e+00   1.5352493118e+00   7.1330663806e-01   
112     1.5043163178e-06   4.9140558659e+00   1.5012189681e+00   6.8368216860e-01   
113     1.5043459423e-06   4.9202774925e+00   1.4670865890e+00   6.5405769913e-01   
114     1.5043607545e-06   4.9235302678e+00   1.4499652045e+00   6.3924546440e-01   
115     1.5043645999e-06   4.9243896494e+00   1.4455140615e+00   6.3540013244e-01   
116     1.5043670345e-06   4.9249389675e+00   1.4426927218e+00   6.3296549619e-01   
117     1.5043687430e-06   4.9253267981e+00   1.4407119382e+00   6.3125699228e-01   
118     1.5043698724e-06   4.9255840172e+00   1.4394022957e+00   6.3012762328e-01   
119     1.5043710017e-06   4.9258418194e+00   1.4380923492e+00   6.2899825428e-01   
120     1.5043719154e-06   4.9260506528e+00   1.4370325148e+00   6.2808462131e-01   
121     1.5043728290e-06   4.9262596847e+00   1.4359725454e+00   6.2717098834e-01   
122     1.5043746563e-06   4.9266781029e+00   1.4338522275e+00   6.2534372241e-01   
123     1.5043764835e-06   4.9270964798e+00   1.4317317538e+00   6.2351645647e-01   
124     1.5043783108e-06   4.9275145062e+00   1.4296109807e+00   6.2168919054e-01   
125     1.5043819653e-06   4.9283477030e+00   1.4253685952e+00   6.1803465867e-01   
126     1.5043850510e-06   4.9290483427e+00   1.4217857957e+00   6.1494899437e-01   
127     1.5043881367e-06   4.9297456099e+00   1.4182018326e+00   6.1186333007e-01   
128     1.5043943080e-06   4.9311252738e+00   1.4110320906e+00   6.0569200147e-01   
129     1.5043988805e-06   4.9321385172e+00   1.4057171324e+00   6.0111950637e-01   
130     1.5044034530e-06   4.9331425564e+00   1.4003994617e+00   5.9654701128e-01   
131     1.5044125980e-06   4.9351160199e+00   1.3897613365e+00   5.8740202108e-01   
132     1.5044190889e-06   4.9364989405e+00   1.3822036620e+00   5.8091107016e-01   
133     1.5044255799e-06   4.9378645104e+00   1.3746408571e+00   5.7442011925e-01   
134     1.5044320708e-06   4.9392134636e+00   1.3670733624e+00   5.6792916833e-01   
135     1.5044406144e-06   4.9409624549e+00   1.3571080041e+00   5.5938564280e-01   
136     1.5044491579e-06   4.9426865333e+00   1.3471345819e+00   5.5084211727e-01   
137     1.5044577014e-06   4.9443870772e+00   1.3371530501e+00   5.4229859174e-01   
138     1.5044646545e-06   4.9457560268e+00   1.3290220083e+00   5.3534552468e-01   
139     1.5044716075e-06   4.9471105845e+00   1.3208859310e+00   5.2839245762e-01   
140     1.5044747420e-06   4.9477184726e+00   1.3172215338e+00   5.2525800846e-01   
141     1.5044760518e-06   4.9479720143e+00   1.3156950316e+00   5.2394819704e-01   
142     1.5044773616e-06   4.9482250175e+00   1.3141712263e+00   5.2263838563e-01   
143     1.5044785030e-06   4.9484450796e+00   1.3128453315e+00   5.2149696510e-01   
144     1.5044796445e-06   4.9486647245e+00   1.3115211077e+00   5.2035554458e-01   
145     1.5044807859e-06   4.9488839564e+00   1.3101985141e+00   5.1921412406e-01   
146     1.5044830687e-06   4.9493207829e+00   1.3075576764e+00   5.1693128301e-01   
147     1.5044853516e-06   4.9497561059e+00   1.3049236472e+00   5.1464844196e-01   
148     1.5044899172e-06   4.9506211041e+00   1.2996740168e+00   5.1008275987e-01   
149     1.5044990486e-06   4.9523319805e+00   1.2892513686e+00   5.0095139568e-01   
150     1.5045173113e-06   4.9556902050e+00   1.2687017085e+00   4.8268866731e-01   
151     1.5045538368e-06   4.9621876153e+00   1.2286588424e+00   4.4616321057e-01   
152     1.5045903622e-06   4.9683910898e+00   1.1898316478e+00   4.0963775383e-01   
153     1.5046268877e-06   4.9740540611e+00   1.1520617215e+00   3.7311229708e-01   
154     1.5046548998e-06   4.9780021654e+00   1.1237393556e+00   3.4510021165e-01   
155     1.5046829119e-06   4.9814901173e+00   1.0959222232e+00   3.1708812621e-01   
156     1.5047389360e-06   4.9862491613e+00   1.0415821365e+00   2.6106395535e-01   
157     1.5047949602e-06   4.9880498742e+00   9.8872926421e-01   2.0503978448e-01   
158     1.5048509844e-06   4.9862753987e+00   9.3636684855e-01   1.4901561361e-01   
159     1.5049070086e-06   4.9803755167e+00   8.8375629722e-01   9.2991442740e-02   
160     1.5049630327e-06   4.9698085190e+00   8.3093352933e-01   3.6967271872e-02   
161     1.5050000000e-06   4.9605036698e+00   7.9599026259e-01   4.7961634664e-14   
162     1.5050560242e-06   4.9407681555e+00   7.4643997151e-01   0.0000000000e+00   
163     1.5051680725e-06   4.8762834043e+00   6.5899215069e-01   0.0000000000e+00   
164     1.5052592820e-06   4.8020790707e+00   5.9476909811e-01   0.0000000000e+00   
165     1.5053504914e-06   4.7012132800e+00   5.3788194924e-01   0.0000000000e+00   
166     1.5054417009e-06   4.5642024387e+00   4.9598256829e-01   0.0000000000e+00   
167     1.5055329103e-06   4.3792173499e+00   4.6802284978e-01   0.0000000000e+00   
168     1.5056241198e-06   4.0968988222e+00   4.4816663406e-01   0.0000000000e+00   
169     1.5056664932e-06   3.8583153768e+00   4.4277940935e-01   0.0000000000e+00   
170     1.5056894411e-06   3.6491266499e+00   4.4233797909e-01   0.0000000000e+00   
171     1.5057076903e-06   3.4660816409e+00   4.4259148070e-01   0.0000000000e+00   
172     1.5057236789e-06   3.2980159660e+00   4.4309623775e-01   0.0000000000e+00   
173     1.5057396675e-06   3.1236797329e+00   4.4377903959e-01   0.0000000000e+00   
174     1.5057716447e-06   2.7540849377e+00   4.4540488288e-01   0.0000000000e+00   
175     1.5058036219e-06   2.3666984193e+00   4.4720794180e-01   0.0000000000e+00   
176     1.5058355991e-06   1.9708275591e+00   4.4892500527e-01   0.0000000000e+00   
177     1.5058543550e-06   1.7653051382e+00   4.4923014695e-01   0.0000000000e+00   
178     1.5058704490e-06   1.6152165921e+00   4.4869663298e-01   0.0000000000e+00   
179     1.5058865430e-06   1.4801150813e+00   4.4758826148e-01   0.0000000000e+00   
180     1.5059026370e-06   1.3565701811e+00   4.4608516879e-01   0.0000000000e+00   
181     1.5059187310e-06   1.2428185220e+00   4.4433209070e-01   0.0000000000e+00   
182     1.5059348250e-06   1.1377935449e+00   4.4243917545e-01   0.0000000000e+00   
183     1.5059509190e-06   1.0407699532e+00   4.4048776318e-01   0.0000000000e+00   
184     1.5059670130e-06   9.5119874254e-01   4.3853669825e-01   0.0000000000e+00   
185     1.5059831069e-06   8.6862290793e-01   4.3662765103e-01   0.0000000000e+00   
186     1.5059992009e-06   7.9263279173e-01   4.3478923625e-01   0.0000000000e+00   
187     1.5060152949e-06   7.2284258662e-01   4.3304011269e-01   0.0000000000e+00   
188     1.5060313889e-06   6.5887866887e-01   4.3139131316e-01   0.0000000000e+00   
189     1.5060474829e-06   6.0037466960e-01   4.2984801659e-01   0.0000000000e+00   
190     1.5060635769e-06   5.4697034081e-01   4.2841091905e-01   0.0000000000e+00   
191     1.5060796709e-06   4.9831244945e-01   4.2707731272e-01   0.0000000000e+00   
192     1.5060957649e-06   4.5405662131e-01   4.2584194717e-01   0.0000000000e+00   
193     1.5061118588e-06   4.1386947874e-01   4.2469772327e-01   0.0000000000e+00   
194     1.5061279528e-06   3.7743068608e-01   4.2363625456e-01   0.0000000000e+00   
195     1.5061440468e-06   3.4443469143e-01   4.2264832110e-01   0.0000000000e+00   
196     1.5061601408e-06   3.1459206680e-01   4.2172423447e-01   0.0000000000e+00   
197     1.5061762348e-06   2.8763042120e-01   4.2085412853e-01   0.0000000000e+00   
198     1.5061923288e-06   2.6329490507e-01   4.2002818795e-01   0.0000000000e+00   
199     1.5062084228e-06   2.4134834966e-01   4.1923682456e-01   0.0000000000e+00   
200     1.5062245168e-06   2.2157109655e-01   4.1847081005e-01   0.0000000000e+00   
201     1.5062406107e-06   2.0376057595e-01   4.1772137269e-01   0.0000000000e+00   
202     1.5062567047e-06   1.8773069039e-01   4.1698026424e-01   0.0000000000e+00   
203     1.5062727987e-06   1.7331105531e-01   4.1623980284e-01   0.0000000000e+00   
204     1.5062888927e-06   1.6034614151e-01   4.1549289649e-01   0.0000000000e+00   
205     1.5063049867e-06   1.4869435727e-01   4.1473305124e-01   0.0000000000e+00   
206     1.5063210807e-06   1.3824772297e-01   4.1395897232e-01   0.0000000000e+00   
207     1.5063371747e-06   1.2890901057e-01   4.1317670414e-01   0.0000000000e+00   
208     1.5063532687e-06   1.2056960785e-01   4.1239095944e-01   0.0000000000e+00   
209     1.5063693626e-06   1.1311531538e-01   4.1160163387e-01   0.0000000000e+00   
210     1.5063854566e-06   1.0644246044e-01   4.1080610854e-01   0.0000000000e+00   
211     1.5064015506e-06   1.0045873243e-01   4.1000060065e-01   0.0000000000e+00   
212     1.5064176446e-06   9.5082153931e-02   4.0918087810e-01   0.0000000000e+00   
213     1.5064337386e-06   9.0240012429e-02   4.0834264039e-01   0.0000000000e+00   
214     1.5064498326e-06   8.5867893986e-02   4.0748171920e-01   0.0000000000e+00   
215     1.5064820205e-06   7.8547568238e-02   4.0561741996e-01   0.0000000000e+00   
216     1.5065142085e-06   7.2392387601e-02   4.0360424648e-01   0.0000000000e+00   
217     1.5065463965e-06   6.7152799210e-02   4.0143112013e-01   0.0000000000e+00   
218     1.5065785845e-06   6.2627807896e-02   3.9908495957e-01   0.0000000000e+00   
219     1.5066107724e-06   5.8435086473e-02   3.9644501974e-01   0.0000000000e+00   
220     1.5066429604e-06   5.4312902822e-02   3.9336806552e-01   0.0000000000e+00   
221     1.5066751484e-06   5.0332922207e-02   3.8983519904e-01   0.0000000000e+00   
222     1.5067395243e-06   4.3547284458e-02   3.8146395379e-01   0.0000000000e+00   
223     1.5067866310e-06   3.9034864445e-02   3.7469959297e-01   0.0000000000e+00   
224     1.5068337377e-06   3.5078246734e-02   3.6746117733e-01   0.0000000000e+00   
225     1.5068808444e-06   3.1624380790e-02   3.5986629087e-01   0.0000000000e+00   
226     1.5069279511e-06   2.8612347489e-02   3.5200735501e-01   0.0000000000e+00   
227     1.5069750577e-06   2.5982411946e-02   3.4395883450e-01   0.0000000000e+00   
228     1.5070221644e-06   2.3679847980e-02   3.3578165704e-01   0.0000000000e+00   
229     1.5070692711e-06   2.1656447997e-02   3.2752620366e-01   0.0000000000e+00   
230     1.5071163778e-06   1.9870749119e-02   3.1923444350e-01   0.0000000000e+00   
231     1.5071634845e-06   1.8311718401e-02   3.1095653535e-01   0.0000000000e+00   
232     1.5072105911e-06   1.6967335218e-02   3.0274198282e-01   0.0000000000e+00   
233     1.5072576978e-06   1.5793646238e-02   2.9461747166e-01   0.0000000000e+00   
