Index      TIME           V(1)           V(2)
0       0.00000000e+00   0.00000000e+00   -2.48154184e-23  
1       5.00000000e-09   0.00000000e+00   -2.48154184e-23  
2       1.50000000e-08   0.00000000e+00   -2.48154184e-23  
3       3.50000000e-08   0.00000000e+00   -2.48154184e-23  
4       7.50000000e-08   0.00000000e+00   -2.48154184e-23  
5       1.55000000e-07   0.00000000e+00   -2.48154184e-23  
6       2.55000000e-07   0.00000000e+00   -2.48154184e-23  
7       3.55000000e-07   0.00000000e+00   -2.48154184e-23  
8       4.55000000e-07   0.00000000e+00   -2.48154184e-23  
9       5.55000000e-07   0.00000000e+00   -2.48154184e-23  
10      6.55000000e-07   0.00000000e+00   -2.48154184e-23  
11      7.55000000e-07   0.00000000e+00   -2.48154184e-23  
12      8.55000000e-07   0.00000000e+00   -2.48154184e-23  
13      9.55000000e-07   0.00000000e+00   -2.48154184e-23  
14      1.00000000e-06   0.00000000e+00   -2.48154184e-23  
15      1.00005000e-06   2.50000000e-02   2.49992399e-02   
16      1.00015000e-06   7.50000000e-02   7.49960492e-02   
17      1.00035000e-06   1.75000000e-01   1.74982987e-01   
18      1.00075000e-06   3.75000000e-01   3.74930141e-01   
19      1.00155000e-06   7.75000000e-01   7.74717607e-01   
20      1.00315000e-06   1.57500000e+00   1.57386561e+00   
21      1.00635000e-06   3.17500000e+00   3.17045904e+00   
22      1.01000000e-06   5.00000000e+00   4.98937675e+00   
23      1.01320000e-06   5.00000000e+00   4.98408343e+00   
24      1.01960000e-06   5.00000000e+00   4.97359072e+00   
25      1.03240000e-06   5.00000000e+00   4.95290786e+00   
26      1.05800000e-06   5.00000000e+00   4.91274226e+00   
27      1.10920000e-06   5.00000000e+00   4.83714105e+00   
28      1.21160000e-06   5.00000000e+00   4.70459862e+00   
29      1.31400000e-06   5.00000000e+00   4.59228413e+00   
30      1.41640000e-06   5.00000000e+00   4.49422645e+00   
31      1.61640000e-06   5.00000000e+00   4.37028179e+00   
32      1.79283740e-06   5.00000000e+00   4.33979430e+00   
33      1.96927480e-06   5.00000000e+00   4.32924139e+00   
34      2.01000000e-06   5.00000000e+00   4.32761865e+00   
35      2.01005000e-06   4.97500000e+00   4.30261711e+00   
36      2.01015000e-06   4.92500000e+00   4.25261422e+00   
37      2.01035000e-06   4.82500000e+00   4.15260924e+00   
38      2.01075000e-06   4.62500000e+00   3.95260244e+00   
39      2.01155000e-06   4.22500000e+00   3.55260143e+00   
40      2.01315000e-06   3.42500000e+00   2.75264941e+00   
41      2.01635000e-06   1.82500000e+00   1.15294328e+00   
42      2.02000000e-06   4.79616347e-14   -6.71461921e-01  
43      2.02320000e-06   0.00000000e+00   -6.70964962e-01  
44      2.02960000e-06   0.00000000e+00   -6.69972891e-01  
45      2.04240000e-06   0.00000000e+00   -6.68021821e-01  
46      2.06800000e-06   0.00000000e+00   -6.64242051e-01  
47      2.11920000e-06   0.00000000e+00   -6.57105143e-01  
48      2.22160000e-06   0.00000000e+00   -6.44122187e-01  
49      2.42160000e-06   0.00000000e+00   -6.21644072e-01  
50      2.62160000e-06   0.00000000e+00   -5.99356603e-01  
51      2.82160000e-06   0.00000000e+00   -5.77396377e-01  
52      3.00000000e-06   2.11758237e-13   -5.58036977e-01  
53      3.00005000e-06   2.50000000e-02   -5.33031920e-01  
54      3.00015000e-06   7.50000000e-02   -4.83022713e-01  
55      3.00035000e-06   1.75000000e-01   -3.83007923e-01  
56      3.00075000e-06   3.75000000e-01   -1.82992846e-01  
57      3.00155000e-06   7.75000000e-01   2.16979317e-01   
58      3.00315000e-06   1.57500000e+00   1.01669197e+00   
59      3.00635000e-06   3.17500000e+00   2.61519552e+00   
60      3.01000000e-06   5.00000000e+00   4.43731179e+00   
61      3.01320000e-06   5.00000000e+00   4.43482505e+00   
62      3.01960000e-06   5.00000000e+00   4.42996516e+00   
63      3.03240000e-06   5.00000000e+00   4.42064143e+00   
64      3.05800000e-06   5.00000000e+00   4.40380419e+00   
65      3.10920000e-06   5.00000000e+00   4.37773064e+00   
66      3.21160000e-06   5.00000000e+00   4.35062220e+00   
67      3.31400000e-06   5.00000000e+00   4.33544540e+00   
68      3.51400000e-06   5.00000000e+00   4.32674670e+00   
69      3.71400000e-06   5.00000000e+00   4.32298616e+00   
70      3.91400000e-06   5.00000000e+00   4.32152582e+00   
71      4.01000000e-06   5.00000000e+00   4.32111346e+00   
72      4.01005000e-06   4.97500000e+00   4.29611363e+00   
73      4.01015000e-06   4.92500000e+00   4.24611414e+00   
74      4.01035000e-06   4.82500000e+00   4.14611581e+00   
75      4.01075000e-06   4.62500000e+00   3.94612176e+00   
76      4.01155000e-06   4.22500000e+00   3.54614411e+00   
77      4.01315000e-06   3.42500000e+00   2.74623030e+00   
78      4.01635000e-06   1.82500000e+00   1.14656749e+00   
79      4.02000000e-06   -5.77315973e-14  -6.77830767e-01  
80      4.02320000e-06   0.00000000e+00   -6.77328080e-01  
81      4.02960000e-06   0.00000000e+00   -6.76324317e-01  
82      4.04240000e-06   0.00000000e+00   -6.74350778e-01  
83      4.06800000e-06   0.00000000e+00   -6.70529623e-01  
84      4.11920000e-06   0.00000000e+00   -6.63323538e-01  
85      4.22160000e-06   0.00000000e+00   -6.50253007e-01  
86      4.42160000e-06   0.00000000e+00   -6.27748575e-01  
87      4.62160000e-06   0.00000000e+00   -6.05394279e-01  
88      4.82160000e-06   0.00000000e+00   -5.83334181e-01  
89      5.00000000e-06   0.00000000e+00   -5.63856567e-01  
90      5.00005000e-06   2.50000000e-02   -5.38851439e-01  
91      5.00015000e-06   7.50000000e-02   -4.88842072e-01  
92      5.00035000e-06   1.75000000e-01   -3.88826892e-01  
93      5.00075000e-06   3.75000000e-01   -1.88810751e-01  
94      5.00155000e-06   7.75000000e-01   2.11164678e-01   
95      5.00315000e-06   1.57500000e+00   1.01088843e+00   
96      5.00635000e-06   3.17500000e+00   2.60943286e+00   
97      5.01000000e-06   5.00000000e+00   4.43162209e+00   
98      5.01320000e-06   5.00000000e+00   4.42920108e+00   
99      5.01960000e-06   5.00000000e+00   4.42448222e+00   
100     5.03240000e-06   5.00000000e+00   4.41547050e+00   
101     5.05800000e-06   5.00000000e+00   4.39934950e+00   
102     5.10920000e-06   5.00000000e+00   4.37469889e+00   
103     5.21160000e-06   5.00000000e+00   4.34933340e+00   
104     5.31400000e-06   5.00000000e+00   4.33515394e+00   
105     5.51400000e-06   5.00000000e+00   4.32676312e+00   
106     5.71400000e-06   5.00000000e+00   4.32304207e+00   
107     5.91400000e-06   5.00000000e+00   4.32155813e+00   
108     6.00000000e-06   5.00000000e+00   4.32116654e+00   
End of Xyce(TM) Simulation
