Index       TIME              VR(1)            {VR(1)}            VI(1)            {VI(1)}            VM(1)            {VM(1)}            VP(1)            {VP(1)}           VDB(1)           {VDB(1)}           IR(V1)           {IR(V1)}           II(V1)           {II(V1)}           IM(V1)           {IM(V1)}           IP(V1)           {IP(V1)}           IDB(V1)          {IDB(V1)}    
147      0.00000000e+00    4.65316936e-01    4.65316936e-01    0.00000000e+00    0.00000000e+00    4.65316936e-01    4.65316936e-01    0.00000000e+00    0.00000000e+00   -6.64502280e+00   -6.64502280e+00   -4.65316936e-04   -4.65316936e-04    0.00000000e+00    0.00000000e+00    4.65316936e-04    4.65316936e-04    1.80000000e+02    1.80000000e+02   -6.66450228e+01   -6.66450228e+01
148      1.00000000e-10    4.65326924e-01    4.65326924e-01    0.00000000e+00    0.00000000e+00    4.65326924e-01    4.65326924e-01    0.00000000e+00    0.00000000e+00   -6.64483637e+00   -6.64483637e+00   -4.65426798e-04   -4.65426798e-04    0.00000000e+00    0.00000000e+00    4.65426798e-04    4.65426798e-04    1.80000000e+02    1.80000000e+02   -6.66429723e+01   -6.66429723e+01
149      3.00000000e-10    4.65346919e-01    4.65346919e-01    0.00000000e+00    0.00000000e+00    4.65346919e-01    4.65346919e-01    0.00000000e+00    0.00000000e+00   -6.64446314e+00   -6.64446314e+00   -4.65446896e-04   -4.65446896e-04    0.00000000e+00    0.00000000e+00    4.65446896e-04    4.65446896e-04    1.80000000e+02    1.80000000e+02   -6.66425972e+01   -6.66425972e+01
150      7.00000000e-10    4.65386908e-01    4.65386908e-01    0.00000000e+00    0.00000000e+00    4.65386908e-01    4.65386908e-01    0.00000000e+00    0.00000000e+00   -6.64371676e+00   -6.64371676e+00   -4.65486881e-04   -4.65486881e-04    0.00000000e+00    0.00000000e+00    4.65486881e-04    4.65486881e-04    1.80000000e+02    1.80000000e+02   -6.66418511e+01   -6.66418511e+01
151      1.50000000e-09    4.65466880e-01    4.65466880e-01    0.00000000e+00    0.00000000e+00    4.65466880e-01    4.65466880e-01    0.00000000e+00    0.00000000e+00   -6.64222431e+00   -6.64222431e+00   -4.65566845e-04   -4.65566845e-04    0.00000000e+00    0.00000000e+00    4.65566845e-04    4.65566845e-04    1.80000000e+02    1.80000000e+02   -6.66403591e+01   -6.66403591e+01
152      3.10000000e-09    4.65626798e-01    4.65626798e-01    0.00000000e+00    0.00000000e+00    4.65626798e-01    4.65626798e-01    0.00000000e+00    0.00000000e+00   -6.63924066e+00   -6.63924066e+00   -4.65726746e-04   -4.65726746e-04    0.00000000e+00    0.00000000e+00    4.65726746e-04    4.65726746e-04    1.80000000e+02    1.80000000e+02   -6.66373764e+01   -6.66373764e+01
153      6.30000000e-09    4.65946530e-01    4.65946530e-01    0.00000000e+00    0.00000000e+00    4.65946530e-01    4.65946530e-01    0.00000000e+00    0.00000000e+00   -6.63327836e+00   -6.63327836e+00   -4.66046447e-04   -4.66046447e-04    0.00000000e+00    0.00000000e+00    4.66046447e-04    4.66046447e-04    1.80000000e+02    1.80000000e+02   -6.66314160e+01   -6.66314160e+01
154      1.27000000e-08    4.66585587e-01    4.66585587e-01    0.00000000e+00    0.00000000e+00    4.66585587e-01    4.66585587e-01    0.00000000e+00    0.00000000e+00   -6.62137362e+00   -6.62137362e+00   -4.66685439e-04   -4.66685439e-04    0.00000000e+00    0.00000000e+00    4.66685439e-04    4.66685439e-04    1.80000000e+02    1.80000000e+02   -6.66195150e+01   -6.66195150e+01
155      2.55000000e-08    4.67862095e-01    4.67862095e-01    0.00000000e+00    0.00000000e+00    4.67862095e-01    4.67862095e-01    0.00000000e+00    0.00000000e+00   -6.59764278e+00   -6.59764278e+00   -4.67961822e-04   -4.67961822e-04    0.00000000e+00    0.00000000e+00    4.67961822e-04    4.67961822e-04    1.80000000e+02    1.80000000e+02   -6.65957915e+01   -6.65957915e+01
156      5.11000000e-08    4.70408904e-01    4.70408904e-01    0.00000000e+00    0.00000000e+00    4.70408904e-01    4.70408904e-01    0.00000000e+00    0.00000000e+00   -6.55048933e+00   -6.55048933e+00   -4.70508388e-04   -4.70508388e-04    0.00000000e+00    0.00000000e+00    4.70508388e-04    4.70508388e-04    1.80000000e+02    1.80000000e+02   -6.65486526e+01   -6.65486526e+01
157      7.67000000e-08    4.72949718e-01    4.72949718e-01    0.00000000e+00    0.00000000e+00    4.72949718e-01    4.72949718e-01    0.00000000e+00    0.00000000e+00   -6.50370059e+00   -6.50370059e+00   -4.73048968e-04   -4.73048968e-04    0.00000000e+00    0.00000000e+00    4.73048968e-04    4.73048968e-04    1.80000000e+02    1.80000000e+02   -6.65018780e+01   -6.65018780e+01
158      1.02300000e-07    4.75484743e-01    4.75484743e-01    0.00000000e+00    0.00000000e+00    4.75484743e-01    4.75484743e-01    0.00000000e+00    0.00000000e+00   -6.45726827e+00   -6.45726827e+00   -4.75583768e-04   -4.75583768e-04    0.00000000e+00    0.00000000e+00    4.75583768e-04    4.75583768e-04    1.80000000e+02    1.80000000e+02   -6.64554595e+01   -6.64554595e+01
159      1.27900000e-07    4.78014183e-01    4.78014183e-01    0.00000000e+00    0.00000000e+00    4.78014183e-01    4.78014183e-01    0.00000000e+00    0.00000000e+00   -6.41118434e+00   -6.41118434e+00   -4.78112990e-04   -4.78112990e-04    0.00000000e+00    0.00000000e+00    4.78112990e-04    4.78112990e-04    1.80000000e+02    1.80000000e+02   -6.64093891e+01   -6.64093891e+01
160      1.53500000e-07    4.80538236e-01    4.80538236e-01    0.00000000e+00    0.00000000e+00    4.80538236e-01    4.80538236e-01    0.00000000e+00    0.00000000e+00   -6.36544101e+00   -6.36544101e+00   -4.80636832e-04   -4.80636832e-04    0.00000000e+00    0.00000000e+00    4.80636832e-04    4.80636832e-04    1.80000000e+02    1.80000000e+02   -6.63636590e+01   -6.63636590e+01
161      2.04700000e-07    4.85566218e-01    4.85566218e-01    0.00000000e+00    0.00000000e+00    4.85566218e-01    4.85566218e-01    0.00000000e+00    0.00000000e+00   -6.27503071e+00   -6.27503071e+00   -4.85664421e-04   -4.85664421e-04    0.00000000e+00    0.00000000e+00    4.85664421e-04    4.85664421e-04    1.80000000e+02    1.80000000e+02   -6.62732742e+01   -6.62732742e+01
162      2.50780000e-07    4.90076201e-01    4.90076201e-01    0.00000000e+00    0.00000000e+00    4.90076201e-01    4.90076201e-01    0.00000000e+00    0.00000000e+00   -6.19472774e+00   -6.19472774e+00   -4.90174074e-04   -4.90174074e-04    0.00000000e+00    0.00000000e+00    4.90174074e-04    4.90174074e-04    1.80000000e+02    1.80000000e+02   -6.61929933e+01   -6.61929933e+01
163      2.96860000e-07    4.94571975e-01    4.94571975e-01    0.00000000e+00    0.00000000e+00    4.94571975e-01    4.94571975e-01    0.00000000e+00    0.00000000e+00   -6.11540993e+00   -6.11540993e+00   -4.94669540e-04   -4.94669540e-04    0.00000000e+00    0.00000000e+00    4.94669540e-04    4.94669540e-04    1.80000000e+02    1.80000000e+02   -6.61136966e+01   -6.61136966e+01
164      3.42940000e-07    4.99054496e-01    4.99054496e-01    0.00000000e+00    0.00000000e+00    4.99054496e-01    4.99054496e-01    0.00000000e+00    0.00000000e+00   -6.03704054e+00   -6.03704054e+00   -4.99151773e-04   -4.99151773e-04    0.00000000e+00    0.00000000e+00    4.99151773e-04    4.99151773e-04    1.80000000e+02    1.80000000e+02   -6.60353476e+01   -6.60353476e+01
165      3.89020000e-07    5.03524676e-01    5.03524676e-01    0.00000000e+00    0.00000000e+00    5.03524676e-01    5.03524676e-01    0.00000000e+00    0.00000000e+00   -5.95958483e+00   -5.95958483e+00   -5.03621685e-04   -5.03621685e-04    0.00000000e+00    0.00000000e+00    5.03621685e-04    5.03621685e-04    1.80000000e+02    1.80000000e+02   -6.59579116e+01   -6.59579116e+01
166      4.35100000e-07    5.07983379e-01    5.07983379e-01    0.00000000e+00    0.00000000e+00    5.07983379e-01    5.07983379e-01    0.00000000e+00    0.00000000e+00   -5.88300995e+00   -5.88300995e+00   -5.08080139e-04   -5.08080139e-04    0.00000000e+00    0.00000000e+00    5.08080139e-04    5.08080139e-04    1.80000000e+02    1.80000000e+02   -6.58813556e+01   -6.58813556e+01
167      4.81180000e-07    5.12431427e-01    5.12431427e-01    0.00000000e+00    0.00000000e+00    5.12431427e-01    5.12431427e-01    0.00000000e+00    0.00000000e+00   -5.80728486e+00   -5.80728486e+00   -5.12527956e-04   -5.12527956e-04    0.00000000e+00    0.00000000e+00    5.12527956e-04    5.12527956e-04    1.80000000e+02    1.80000000e+02   -6.58056488e+01   -6.58056488e+01
168      5.27260000e-07    5.16869598e-01    5.16869598e-01    0.00000000e+00    0.00000000e+00    5.16869598e-01    5.16869598e-01    0.00000000e+00    0.00000000e+00   -5.73238024e+00   -5.73238024e+00   -5.16965912e-04   -5.16965912e-04    0.00000000e+00    0.00000000e+00    5.16965912e-04    5.16965912e-04    1.80000000e+02    1.80000000e+02   -6.57307618e+01   -6.57307618e+01
169      5.73340000e-07    5.21298627e-01    5.21298627e-01    0.00000000e+00    0.00000000e+00    5.21298627e-01    5.21298627e-01    0.00000000e+00    0.00000000e+00   -5.65826837e+00   -5.65826837e+00   -5.21394743e-04   -5.21394743e-04    0.00000000e+00    0.00000000e+00    5.21394743e-04    5.21394743e-04    1.80000000e+02    1.80000000e+02   -6.56566670e+01   -6.56566670e+01
170      6.19420000e-07    5.25719210e-01    5.25719210e-01    0.00000000e+00    0.00000000e+00    5.25719210e-01    5.25719210e-01    0.00000000e+00    0.00000000e+00   -5.58492307e+00   -5.58492307e+00   -5.25815143e-04   -5.25815143e-04    0.00000000e+00    0.00000000e+00    5.25815143e-04    5.25815143e-04    1.80000000e+02    1.80000000e+02   -6.55833382e+01   -6.55833382e+01
171      6.65500000e-07    5.30132002e-01    5.30132002e-01    0.00000000e+00    0.00000000e+00    5.30132002e-01    5.30132002e-01    0.00000000e+00    0.00000000e+00   -5.51231957e+00   -5.51231957e+00   -5.30227766e-04   -5.30227766e-04    0.00000000e+00    0.00000000e+00    5.30227766e-04    5.30227766e-04    1.80000000e+02    1.80000000e+02   -6.55107507e+01   -6.55107507e+01
172      7.11580000e-07    5.34537620e-01    5.34537620e-01    0.00000000e+00    0.00000000e+00    5.34537620e-01    5.34537620e-01    0.00000000e+00    0.00000000e+00   -5.44043448e+00   -5.44043448e+00   -5.34633229e-04   -5.34633229e-04    0.00000000e+00    0.00000000e+00    5.34633229e-04    5.34633229e-04    1.80000000e+02    1.80000000e+02   -6.54388810e+01   -6.54388810e+01
173      7.57660000e-07    5.38936647e-01    5.38936647e-01    0.00000000e+00    0.00000000e+00    5.38936647e-01    5.38936647e-01    0.00000000e+00    0.00000000e+00   -5.36924567e+00   -5.36924567e+00   -5.39032112e-04   -5.39032112e-04    0.00000000e+00    0.00000000e+00    5.39032112e-04    5.39032112e-04    1.80000000e+02    1.80000000e+02   -6.53677072e+01   -6.53677072e+01
174      8.03740000e-07    5.43329629e-01    5.43329629e-01    0.00000000e+00    0.00000000e+00    5.43329629e-01    5.43329629e-01    0.00000000e+00    0.00000000e+00   -5.29873222e+00   -5.29873222e+00   -5.43424963e-04   -5.43424963e-04    0.00000000e+00    0.00000000e+00    5.43424963e-04    5.43424963e-04    1.80000000e+02    1.80000000e+02   -6.52972083e+01   -6.52972083e+01
175      8.49820000e-07    5.47717079e-01    5.47717079e-01    0.00000000e+00    0.00000000e+00    5.47717079e-01    5.47717079e-01    0.00000000e+00    0.00000000e+00   -5.22887433e+00   -5.22887433e+00   -5.47812293e-04   -5.47812293e-04    0.00000000e+00    0.00000000e+00    5.47812293e-04    5.47812293e-04    1.80000000e+02    1.80000000e+02   -6.52273645e+01   -6.52273645e+01
176      9.41980000e-07    5.56472019e-01    5.56472019e-01    0.00000000e+00    0.00000000e+00    5.56472019e-01    5.56472019e-01    0.00000000e+00    0.00000000e+00   -5.09113336e+00   -5.09113336e+00   -5.56567017e-04   -5.56567017e-04    0.00000000e+00    0.00000000e+00    5.56567017e-04    5.56567017e-04    1.80000000e+02    1.80000000e+02   -6.50896507e+01   -6.50896507e+01
177      1.02492400e-06    5.64338985e-01    5.64338985e-01    0.00000000e+00    0.00000000e+00    5.64338985e-01    5.64338985e-01    0.00000000e+00    0.00000000e+00   -4.96919894e+00   -4.96919894e+00   -5.64433832e-04   -5.64433832e-04    0.00000000e+00    0.00000000e+00    5.64433832e-04    5.64433832e-04    1.80000000e+02    1.80000000e+02   -6.49677393e+01   -6.49677393e+01
178      1.10786800e-06    5.72195337e-01    5.72195337e-01    0.00000000e+00    0.00000000e+00    5.72195337e-01    5.72195337e-01    0.00000000e+00    0.00000000e+00   -4.84911372e+00   -4.84911372e+00   -5.72290055e-04   -5.72290055e-04    0.00000000e+00    0.00000000e+00    5.72290055e-04    5.72290055e-04    1.80000000e+02    1.80000000e+02   -6.48476760e+01   -6.48476760e+01
179      1.19081200e-06    5.80042950e-01    5.80042950e-01    0.00000000e+00    0.00000000e+00    5.80042950e-01    5.80042950e-01    0.00000000e+00    0.00000000e+00   -4.73079694e+00   -4.73079694e+00   -5.80137564e-04   -5.80137564e-04    0.00000000e+00    0.00000000e+00    5.80137564e-04    5.80137564e-04    1.80000000e+02    1.80000000e+02   -6.47293803e+01   -6.47293803e+01
180      1.27375600e-06    5.87883486e-01    5.87883486e-01    0.00000000e+00    0.00000000e+00    5.87883486e-01    5.87883486e-01    0.00000000e+00    0.00000000e+00   -4.61417478e+00   -4.61417478e+00   -5.87978014e-04   -5.87978014e-04    0.00000000e+00    0.00000000e+00    5.87978014e-04    5.87978014e-04    1.80000000e+02    1.80000000e+02   -6.46127783e+01   -6.46127783e+01
181      1.35670000e-06    5.95718409e-01    5.95718409e-01    0.00000000e+00    0.00000000e+00    5.95718409e-01    5.95718409e-01    0.00000000e+00    0.00000000e+00   -4.49917958e+00   -4.49917958e+00   -5.95812870e-04   -5.95812870e-04    0.00000000e+00    0.00000000e+00    5.95812870e-04    5.95812870e-04    1.80000000e+02    1.80000000e+02   -6.44978024e+01   -6.44978024e+01
182      1.52258800e-06    6.11369317e-01    6.11369317e-01    0.00000000e+00    0.00000000e+00    6.11369317e-01    6.11369317e-01    0.00000000e+00    0.00000000e+00   -4.27392722e+00   -4.27392722e+00   -6.11463663e-04   -6.11463663e-04    0.00000000e+00    0.00000000e+00    6.11463663e-04    6.11463663e-04    1.80000000e+02    1.80000000e+02   -6.42725869e+01   -6.42725869e+01
183      1.67188720e-06    6.25450802e-01    6.25450802e-01    0.00000000e+00    0.00000000e+00    6.25450802e-01    6.25450802e-01    0.00000000e+00    0.00000000e+00   -4.07613693e+00   -4.07613693e+00   -6.25545119e-04   -6.25545119e-04    0.00000000e+00    0.00000000e+00    6.25545119e-04    6.25545119e-04    1.80000000e+02    1.80000000e+02   -6.40748272e+01   -6.40748272e+01
184      1.97048560e-06    6.53602677e-01    6.53602677e-01    0.00000000e+00    0.00000000e+00    6.53602677e-01    6.53602677e-01    0.00000000e+00    0.00000000e+00   -3.69372355e+00   -3.69372355e+00   -6.53696958e-04   -6.53696958e-04    0.00000000e+00    0.00000000e+00    6.53696958e-04    6.53696958e-04    1.80000000e+02    1.80000000e+02   -6.36924707e+01   -6.36924707e+01
185      2.26908400e-06    6.81781034e-01    6.81781034e-01    0.00000000e+00    0.00000000e+00    6.81781034e-01    6.81781034e-01    0.00000000e+00    0.00000000e+00   -3.32710168e+00   -3.32710168e+00   -6.81875403e-04   -6.81875403e-04    0.00000000e+00    0.00000000e+00    6.81875403e-04    6.81875403e-04    1.80000000e+02    1.80000000e+02   -6.33258995e+01   -6.33258995e+01
186      2.53782256e-06    7.07174468e-01    7.07174468e-01    0.00000000e+00    0.00000000e+00    7.07174468e-01    7.07174468e-01    0.00000000e+00    0.00000000e+00   -3.00946855e+00   -3.00946855e+00   -7.07268960e-04   -7.07268960e-04    0.00000000e+00    0.00000000e+00    7.07268960e-04    7.07268960e-04    1.80000000e+02    1.80000000e+02   -6.30083080e+01   -6.30083080e+01
187      2.77968726e-06    7.30058652e-01    7.30058652e-01    0.00000000e+00    0.00000000e+00    7.30058652e-01    7.30058652e-01    0.00000000e+00    0.00000000e+00   -2.73284495e+00   -2.73284495e+00   -7.30153268e-04   -7.30153268e-04    0.00000000e+00    0.00000000e+00    7.30153268e-04    7.30153268e-04    1.80000000e+02    1.80000000e+02   -6.27317193e+01   -6.27317193e+01
188      2.99736550e-06    7.50680179e-01    7.50680179e-01    0.00000000e+00    0.00000000e+00    7.50680179e-01    7.50680179e-01    0.00000000e+00    0.00000000e+00   -2.49090103e+00   -2.49090103e+00   -7.50774913e-04   -7.50774913e-04    0.00000000e+00    0.00000000e+00    7.50774913e-04    7.50774913e-04    1.80000000e+02    1.80000000e+02   -6.24898050e+01   -6.24898050e+01
189      3.21504373e-06    7.71326361e-01    7.71326361e-01    0.00000000e+00    0.00000000e+00    7.71326361e-01    7.71326361e-01    0.00000000e+00    0.00000000e+00   -2.25523651e+00   -2.25523651e+00   -7.71421209e-04   -7.71421209e-04    0.00000000e+00    0.00000000e+00    7.71421209e-04    7.71421209e-04    1.80000000e+02    1.80000000e+02   -6.22541685e+01   -6.22541685e+01
190      3.43272196e-06    7.91997532e-01    7.91997532e-01    0.00000000e+00    0.00000000e+00    7.91997532e-01    7.91997532e-01    0.00000000e+00    0.00000000e+00   -2.02552343e+00   -2.02552343e+00   -7.92092494e-04   -7.92092494e-04    0.00000000e+00    0.00000000e+00    7.92092494e-04    7.92092494e-04    1.80000000e+02    1.80000000e+02   -6.20244820e+01   -6.20244820e+01
191      3.65040020e-06    8.12693634e-01    8.12693634e-01    0.00000000e+00    0.00000000e+00    8.12693634e-01    8.12693634e-01    0.00000000e+00    0.00000000e+00   -1.80146284e+00   -1.80146284e+00   -8.12788711e-04   -8.12788711e-04    0.00000000e+00    0.00000000e+00    8.12788711e-04    8.12788711e-04    1.80000000e+02    1.80000000e+02   -6.18004467e+01   -6.18004467e+01
192      3.86807843e-06    8.33414341e-01    8.33414341e-01    0.00000000e+00    0.00000000e+00    8.33414341e-01    8.33414341e-01    0.00000000e+00    0.00000000e+00   -1.58278061e+00   -1.58278061e+00   -8.33509531e-04   -8.33509531e-04    0.00000000e+00    0.00000000e+00    8.33509531e-04    8.33509531e-04    1.80000000e+02    1.80000000e+02   -6.15817886e+01   -6.15817886e+01
193      4.08575667e-06    8.54159144e-01    8.54159144e-01    0.00000000e+00    0.00000000e+00    8.54159144e-01    8.54159144e-01    0.00000000e+00    0.00000000e+00   -1.36922411e+00   -1.36922411e+00   -8.54254444e-04   -8.54254444e-04    0.00000000e+00    0.00000000e+00    8.54254444e-04    8.54254444e-04    1.80000000e+02    1.80000000e+02   -6.13682551e+01   -6.13682551e+01
194      4.30343490e-06    8.74927414e-01    8.74927414e-01    0.00000000e+00    0.00000000e+00    8.74927414e-01    8.74927414e-01    0.00000000e+00    0.00000000e+00   -1.16055951e+00   -1.16055951e+00   -8.75022822e-04   -8.75022822e-04    0.00000000e+00    0.00000000e+00    8.75022822e-04    8.75022822e-04    1.80000000e+02    1.80000000e+02   -6.11596124e+01   -6.11596124e+01
195      4.52111313e-06    8.95718449e-01    8.95718449e-01    0.00000000e+00    0.00000000e+00    8.95718449e-01    8.95718449e-01    0.00000000e+00    0.00000000e+00   -9.56569610e-01   -9.56569610e-01   -8.95813962e-04   -8.95813962e-04    0.00000000e+00    0.00000000e+00    8.95813962e-04    8.95813962e-04    1.80000000e+02    1.80000000e+02   -6.09556435e+01   -6.09556435e+01
196      4.73879137e-06    9.16531506e-01    9.16531506e-01    0.00000000e+00    0.00000000e+00    9.16531506e-01    9.16531506e-01    0.00000000e+00    0.00000000e+00   -7.57052028e-01   -7.57052028e-01   -9.16627120e-04   -9.16627120e-04    0.00000000e+00    0.00000000e+00    9.16627120e-04    9.16627120e-04    1.80000000e+02    1.80000000e+02   -6.07561460e+01   -6.07561460e+01
197      4.95646960e-06    9.37365824e-01    9.37365824e-01    0.00000000e+00    0.00000000e+00    9.37365824e-01    9.37365824e-01    0.00000000e+00    0.00000000e+00   -5.61817696e-01   -5.61817696e-01   -9.37461535e-04   -9.37461535e-04    0.00000000e+00    0.00000000e+00    9.37461535e-04    9.37461535e-04    1.80000000e+02    1.80000000e+02   -6.05609309e+01   -6.05609309e+01
