Index       TIME              V(1)              V(2)          {1000*I(V2)}   
0        0.00000000e+00    5.00000000e+00    4.99950005e-04    0.00000000e+00
1        1.00000000e-10    5.00000000e+00    4.99950005e-04    0.00000000e+00
2        3.00000000e-10    5.00000000e+00    4.99950005e-04    0.00000000e+00
3        7.00000000e-10    5.00000000e+00    4.99950005e-04    0.00000000e+00
4        1.50000000e-09    5.00000000e+00    4.99950005e-04    0.00000000e+00
5        3.10000000e-09    5.00000000e+00    4.99950005e-04    0.00000000e+00
6        6.30000000e-09    5.00000000e+00    4.99950005e-04    0.00000000e+00
7        1.27000000e-08    5.00000000e+00    4.99950005e-04    0.00000000e+00
8        2.55000000e-08    5.00000000e+00    4.99950005e-04    0.00000000e+00
9        5.11000000e-08    5.00000000e+00    4.99950005e-04    0.00000000e+00
10       1.02300000e-07    5.00000000e+00    4.99950005e-04    0.00000000e+00
11       2.04700000e-07    5.00000000e+00    4.99950005e-04    0.00000000e+00
12       4.09500000e-07    5.00000000e+00    4.99950005e-04    0.00000000e+00
13       8.19100000e-07    5.00000000e+00    4.99950005e-04    0.00000000e+00
14       1.63830000e-06    5.00000000e+00    4.99950005e-04    0.00000000e+00
15       3.27670000e-06    5.00000000e+00    4.99950005e-04    0.00000000e+00
16       6.55350000e-06    5.00000000e+00    4.99950005e-04    0.00000000e+00
17       1.31071000e-05    5.00000000e+00    4.99950005e-04    0.00000000e+00
18       2.62143000e-05    5.00000000e+00    4.99950005e-04    0.00000000e+00
19       5.24287000e-05    5.00000000e+00    4.99950005e-04    0.00000000e+00
20       1.04857500e-04    5.00000000e+00    4.99950005e-04    0.00000000e+00
21       2.09715100e-04    5.00000000e+00    4.99950005e-04    0.00000000e+00
22       4.19430300e-04    5.00000000e+00    4.99950005e-04    0.00000000e+00
23       8.38860700e-04    5.00000000e+00    4.99950005e-04    0.00000000e+00
24       1.67772150e-03    5.00000000e+00    4.99950005e-04    0.00000000e+00
25       3.35544310e-03    5.00000000e+00    4.99950005e-04    0.00000000e+00
26       6.71088630e-03    5.00000000e+00    4.99950005e-04    0.00000000e+00
27       1.34217727e-02    5.00000000e+00    4.99950005e-04    0.00000000e+00
28       2.68435455e-02    5.00000000e+00    4.99950005e-04    0.00000000e+00
29       5.36870911e-02    5.00000000e+00    4.99950005e-04    0.00000000e+00
30       1.00000000e-01    5.00000000e+00    4.99950005e-04    0.00000000e+00
31       1.02450109e-01    5.00000000e+00    5.25027825e-04    2.45010858e-01
32       1.04540771e-01    5.00000000e+00    5.90063464e-04    4.54077084e-01
33       1.08722095e-01    5.00000000e+00    9.05391424e-04    8.72209537e-01
34       1.17084744e-01    5.00000000e+00    4.26298664e-03    1.70847444e+00
35       1.21266069e-01    5.00000000e+00    1.24495046e-02    2.12660689e+00
36       1.25447393e-01    5.00000000e+00    4.27559498e-02    2.54473935e+00
37       1.26116074e-01    5.00000000e+00    5.27524276e-02    2.61160744e+00
38       1.26784755e-01    5.00000000e+00    6.52831963e-02    2.67847554e+00
39       1.28122117e-01    5.00000000e+00    1.00792222e-01    2.81221174e+00
40       1.29459479e-01    5.00000000e+00    1.56969400e-01    2.94594794e+00
41       1.30796841e-01    5.00000000e+00    2.45735522e-01    3.07968413e+00
42       1.32134203e-01    5.00000000e+00    3.84777628e-01    3.21342033e+00
43       1.33337829e-01    5.00000000e+00    5.72749301e-01    3.33378291e+00
44       1.34421092e-01    5.00000000e+00    8.10422893e-01    3.44210923e+00
45       1.35396029e-01    5.00000000e+00    1.09154684e+00    3.53960291e+00
46       1.36273472e-01    5.00000000e+00    1.40341706e+00    3.62734723e+00
47       1.37150916e-01    5.00000000e+00    1.76817573e+00    3.71509155e+00
48       1.38028359e-01    5.00000000e+00    2.17455414e+00    3.80283587e+00
49       1.38905802e-01    5.00000000e+00    2.60302846e+00    3.89058019e+00
50       1.39912484e-01    5.00000000e+00    3.08988479e+00    3.99124838e+00
51       1.40919166e-01    5.00000000e+00    3.53707329e+00    4.09191656e+00
52       1.41825179e-01    5.00000000e+00    3.88405701e+00    4.18251793e+00
53       1.42640592e-01    5.00000000e+00    4.14388030e+00    4.26405917e+00
54       1.43456004e-01    5.00000000e+00    4.35419499e+00    4.34560040e+00
55       1.44271416e-01    5.00000000e+00    4.51946977e+00    4.42714163e+00
56       1.45086829e-01    5.00000000e+00    4.64630256e+00    4.50868287e+00
57       1.45902241e-01    5.00000000e+00    4.74183821e+00    4.59022410e+00
58       1.46717653e-01    5.00000000e+00    4.81277276e+00    4.67176533e+00
59       1.47533066e-01    5.00000000e+00    4.86486778e+00    4.75330656e+00
60       1.48348478e-01    5.00000000e+00    4.90281234e+00    4.83484780e+00
61       1.49163890e-01    5.00000000e+00    4.93028001e+00    4.91638903e+00
62       1.50794715e-01    5.00000000e+00    4.96428750e+00    5.07947149e+00
63       1.54056364e-01    5.00000000e+00    4.99067571e+00    5.40563643e+00
64       1.60579663e-01    5.00000000e+00    4.99933474e+00    6.05796629e+00
65       1.66209429e-01    5.00000000e+00    4.99992353e+00    6.62094286e+00
66       1.71839194e-01    5.00000000e+00    4.99998958e+00    7.18391944e+00
67       1.83098726e-01    5.00000000e+00    4.99999959e+00    8.30987259e+00
68       2.00000000e-01    5.00000000e+00    4.99999995e+00    1.00000000e+01
69       2.02251906e-01    5.00000000e+00    4.99999995e+00    1.00000000e+01
70       2.06755719e-01    5.00000000e+00    4.99999995e+00    1.00000000e+01
71       2.15763344e-01    5.00000000e+00    4.99999995e+00    1.00000000e+01
72       2.33778595e-01    5.00000000e+00    4.99999995e+00    1.00000000e+01
73       2.69809095e-01    5.00000000e+00    4.99999995e+00    1.00000000e+01
74       3.00000000e-01    5.00000000e+00    4.99999995e+00    1.00000000e+01
75       3.07206100e-01    5.00000000e+00    4.99999995e+00    9.92793900e+00
76       3.14412200e-01    5.00000000e+00    4.99999995e+00    9.85587800e+00
77       3.28824401e-01    5.00000000e+00    4.99999995e+00    9.71175599e+00
78       3.57648801e-01    5.00000000e+00    4.99999993e+00    9.42351199e+00
79       4.00000000e-01    5.00000000e+00    4.99999989e+00    9.00000000e+00
80       4.05764880e-01    5.00000000e+00    4.99999989e+00    9.00000000e+00
81       4.17294640e-01    5.00000000e+00    4.99999989e+00    9.00000000e+00
82       4.40354161e-01    5.00000000e+00    4.99999989e+00    9.00000000e+00
83       4.86473202e-01    5.00000000e+00    4.99999989e+00    9.00000000e+00
84       5.00000000e-01    5.00000000e+00    4.99999989e+00    9.00000000e+00
85       5.09223808e-01    5.00000000e+00    4.99999991e+00    9.09223808e+00
86       5.18447616e-01    5.00000000e+00    4.99999992e+00    9.18447616e+00
87       5.36895233e-01    5.00000000e+00    4.99999993e+00    9.36895233e+00
88       5.73790466e-01    5.00000000e+00    4.99999995e+00    9.73790466e+00
89       6.00000000e-01    5.00000000e+00    4.99999995e+00    1.00000000e+01
90       6.07379047e-01    5.00000000e+00    4.99999995e+00    1.00000000e+01
91       6.22137140e-01    5.00000000e+00    4.99999995e+00    1.00000000e+01
92       6.51653326e-01    5.00000000e+00    4.99999995e+00    1.00000000e+01
93       7.00000000e-01    5.00000000e+00    4.99999995e+00    1.00000000e+01
94       7.02569194e-01    5.00000000e+00    4.99999995e+00    9.74308056e+00
95       7.04745490e-01    5.00000000e+00    4.99999994e+00    9.52545097e+00
96       7.09098082e-01    5.00000000e+00    4.99999990e+00    9.09019179e+00
97       7.17803266e-01    5.00000000e+00    4.99999949e+00    8.21967342e+00
98       7.35213633e-01    5.00000000e+00    4.99986968e+00    6.47863669e+00
99       7.43918817e-01    5.00000000e+00    4.99593181e+00    5.60811833e+00
100      7.48274389e-01    5.00000000e+00    4.97565758e+00    5.17256111e+00
101      7.49794516e-01    5.00000000e+00    4.95449985e+00    5.02054844e+00
102      7.51314642e-01    5.00000000e+00    4.91525250e+00    4.86853577e+00
103      7.52834769e-01    5.00000000e+00    4.84337545e+00    4.71652310e+00
104      7.54354896e-01    5.00000000e+00    4.71466821e+00    4.56451044e+00
105      7.55723010e-01    5.00000000e+00    4.52045915e+00    4.42769903e+00
106      7.56901761e-01    5.00000000e+00    4.26779846e+00    4.30982389e+00
107      7.57919834e-01    5.00000000e+00    3.97075083e+00    4.20801657e+00
108      7.58836100e-01    5.00000000e+00    3.63657067e+00    4.11638998e+00
109      7.59752366e-01    5.00000000e+00    3.24473076e+00    4.02476339e+00
110      7.60668632e-01    5.00000000e+00    2.81149409e+00    3.93313680e+00
111      7.61584898e-01    5.00000000e+00    2.36208221e+00    3.84151021e+00
112      7.62501164e-01    5.00000000e+00    1.92525349e+00    3.74988362e+00
113      7.63417430e-01    5.00000000e+00    1.52626869e+00    3.65825703e+00
114      7.64333696e-01    5.00000000e+00    1.18164981e+00    3.56663043e+00
115      7.65158335e-01    5.00000000e+00    9.23400231e-01    3.48416650e+00
116      7.65982974e-01    5.00000000e+00    7.13167663e-01    3.40170257e+00
117      7.66807614e-01    5.00000000e+00    5.46158017e-01    3.31923864e+00
118      7.67632253e-01    5.00000000e+00    4.15920114e-01    3.23677471e+00
119      7.68456892e-01    5.00000000e+00    3.15719566e-01    3.15431078e+00
120      7.69281532e-01    5.00000000e+00    2.39349829e-01    3.07184684e+00
121      7.70106171e-01    5.00000000e+00    1.81499379e-01    2.98938291e+00
122      7.70930810e-01    5.00000000e+00    1.37834588e-01    2.90691898e+00
123      7.71755450e-01    5.00000000e+00    1.04930617e-01    2.82445505e+00
124      7.73404728e-01    5.00000000e+00    6.14391896e-02    2.65952719e+00
125      7.76703285e-01    5.00000000e+00    2.22551143e-02    2.32967146e+00
126      7.80001843e-01    5.00000000e+00    8.83059652e-03    1.99981573e+00
127      7.86598957e-01    5.00000000e+00    1.93891243e-03    1.34010428e+00
128      7.92536360e-01    5.00000000e+00    7.75292367e-04    7.46363971e-01
129      8.00000000e-01    5.00000000e+00    4.99950005e-04   -1.79619570e-16
130      8.01187481e-01    5.00000000e+00    4.99950005e-04    0.00000000e+00
131      8.03562442e-01    5.00000000e+00    4.99950005e-04    0.00000000e+00
132      8.08312364e-01    5.00000000e+00    4.99950005e-04    0.00000000e+00
133      8.17812209e-01    5.00000000e+00    4.99950005e-04    0.00000000e+00
134      8.36811899e-01    5.00000000e+00    4.99950005e-04    0.00000000e+00
135      8.74811279e-01    5.00000000e+00    4.99950005e-04    0.00000000e+00
136      9.00000000e-01    5.00000000e+00    4.99950005e-04    0.00000000e+00
137      9.07599876e-01    5.00000000e+00    5.00547194e-04    3.79993797e-02
138      9.15199752e-01    5.00000000e+00    5.02336953e-04    7.59987594e-02
139      9.30399504e-01    5.00000000e+00    5.09516949e-04    1.51997519e-01
140      9.60799008e-01    5.00000000e+00    5.38911725e-04    3.03995038e-01
141      1.00000000e+00    5.00000000e+00    6.10825199e-04    5.00000000e-01
142      1.00607990e+00    5.00000000e+00    6.10825199e-04    5.00000000e-01
143      1.01823970e+00    5.00000000e+00    6.10825199e-04    5.00000000e-01
144      1.04255931e+00    5.00000000e+00    6.10825199e-04    5.00000000e-01
145      1.09119851e+00    5.00000000e+00    6.10825199e-04    5.00000000e-01
146      1.10000000e+00    5.00000000e+00    6.10825199e-04    5.00000000e-01
147      1.10880149e+00    5.00000000e+00    5.90877774e-04    4.55992557e-01
148      1.11760298e+00    5.00000000e+00    5.73251747e-04    4.11985113e-01
149      1.13520595e+00    5.00000000e+00    5.44366091e-04    3.23970227e-01
150      1.17041191e+00    5.00000000e+00    5.09011011e-04    1.47940453e-01
151      1.20000000e+00    5.00000000e+00    4.99950005e-04   -3.70358511e-17
152      1.20704119e+00    5.00000000e+00    4.99950005e-04    0.00000000e+00
153      1.22112357e+00    5.00000000e+00    4.99950005e-04    0.00000000e+00
154      1.24928834e+00    5.00000000e+00    4.99950005e-04    0.00000000e+00
155      1.30000000e+00    5.00000000e+00    4.99950005e-04    0.00000000e+00
End of Xyce(TM) Simulation
