Index      TIME           mosfet:gainscale           mosfet:nltermscale           V(VOUT)           V(OUT20)           V(IN)           V(1)
0       0.00000000e+00   0.00000000e+00   0.00000000e+00   1.53716634e+00   1.55758419e+00   2.00000000e+00   2.00000000e+00   
1       0.00000000e+00   1.86317119e-01   0.00000000e+00   1.52367603e+00   1.54637525e+00   2.00000000e+00   2.00000000e+00   
2       0.00000000e+00   3.45011888e-01   0.00000000e+00   1.50049830e+00   1.52611485e+00   2.00000000e+00   2.00000000e+00   
3       0.00000000e+00   4.81677512e-01   0.00000000e+00   1.46748272e+00   1.49681209e+00   2.00000000e+00   2.00000000e+00   
4       0.00000000e+00   5.99684310e-01   0.00000000e+00   1.42538495e+00   1.45935284e+00   2.00000000e+00   2.00000000e+00   
5       0.00000000e+00   6.98978703e-01   0.00000000e+00   1.37762143e+00   1.41706674e+00   2.00000000e+00   2.00000000e+00   
6       0.00000000e+00   7.39560697e-01   0.00000000e+00   1.35463038e+00   1.39642914e+00   2.00000000e+00   2.00000000e+00   
7       0.00000000e+00   7.69111425e-01   0.00000000e+00   1.34127393e+00   1.37410380e+00   2.00000000e+00   2.00000000e+00   
8       0.00000000e+00   7.79047958e-01   0.00000000e+00   1.34456357e+00   1.35704829e+00   2.00000000e+00   2.00000000e+00   
9       0.00000000e+00   7.86209735e-01   0.00000000e+00   1.35553455e+00   1.33485142e+00   2.00000000e+00   2.00000000e+00   
10      0.00000000e+00   7.91324241e-01   0.00000000e+00   1.37097588e+00   1.31008462e+00   2.00000000e+00   2.00000000e+00   
11      0.00000000e+00   7.95019306e-01   0.00000000e+00   1.38818877e+00   1.28480067e+00   2.00000000e+00   2.00000000e+00   
12      0.00000000e+00   8.00287315e-01   0.00000000e+00   1.42502342e+00   1.23251689e+00   2.00000000e+00   2.00000000e+00   
13      0.00000000e+00   8.07144695e-01   0.00000000e+00   1.49959299e+00   1.12372012e+00   2.00000000e+00   2.00000000e+00   
14      0.00000000e+00   8.15763558e-01   0.00000000e+00   1.62335427e+00   9.18465702e-01   2.00000000e+00   2.00000000e+00   
15      0.00000000e+00   8.29836046e-01   0.00000000e+00   1.74613625e+00   6.52669451e-01   2.00000000e+00   2.00000000e+00   
16      0.00000000e+00   8.60281082e-01   0.00000000e+00   1.85391791e+00   3.65191882e-01   2.00000000e+00   2.00000000e+00   
17      0.00000000e+00   9.00381195e-01   0.00000000e+00   1.92952526e+00   1.44042099e-01   2.00000000e+00   2.00000000e+00   
18      0.00000000e+00   9.85914761e-01   0.00000000e+00   1.97079550e+00   3.69020597e-03   2.00000000e+00   2.00000000e+00   
19      0.00000000e+00   1.00434651e+00   0.00000000e+00   1.97106102e+00   1.27683394e-03   2.00000000e+00   2.00000000e+00   
20      0.00000000e+00   1.00000000e+00   0.00000000e+00   1.97103569e+00   1.65156644e-03   2.00000000e+00   2.00000000e+00   
21      0.00000000e+00   1.00000000e+00   0.00000000e+00   1.97103567e+00   1.65169885e-03   2.00000000e+00   2.00000000e+00   
22      0.00000000e+00   1.00000000e+00   2.24971628e-01   1.98025411e+00   4.71073066e-03   2.00000000e+00   2.00000000e+00   
23      0.00000000e+00   1.00000000e+00   3.46318757e-01   1.98226854e+00   9.29592869e-03   2.00000000e+00   2.00000000e+00   
24      0.00000000e+00   1.00000000e+00   4.08992969e-01   1.98242862e+00   1.40377131e-02   2.00000000e+00   2.00000000e+00   
25      0.00000000e+00   1.00000000e+00   4.52334082e-01   1.98186106e+00   1.97315270e-02   2.00000000e+00   2.00000000e+00   
26      0.00000000e+00   1.00000000e+00   4.85274184e-01   1.98070184e+00   2.67507844e-02   2.00000000e+00   2.00000000e+00   
27      0.00000000e+00   1.00000000e+00   5.11558941e-01   1.97905328e+00   3.49303620e-02   2.00000000e+00   2.00000000e+00   
28      0.00000000e+00   1.00000000e+00   5.33398153e-01   1.97704708e+00   4.38794929e-02   2.00000000e+00   2.00000000e+00   
29      0.00000000e+00   1.00000000e+00   5.52195872e-01   1.97479173e+00   5.32723457e-02   2.00000000e+00   2.00000000e+00   
30      0.00000000e+00   1.00000000e+00   5.68845977e-01   1.97235701e+00   6.29015396e-02   2.00000000e+00   2.00000000e+00   
31      0.00000000e+00   1.00000000e+00   5.83923373e-01   1.96977936e+00   7.26478984e-02   2.00000000e+00   2.00000000e+00   
32      0.00000000e+00   1.00000000e+00   5.97811718e-01   1.96707503e+00   8.24413816e-02   2.00000000e+00   2.00000000e+00   
33      0.00000000e+00   1.00000000e+00   6.10775846e-01   1.96424735e+00   9.22399750e-02   2.00000000e+00   2.00000000e+00   
34      0.00000000e+00   1.00000000e+00   6.23003641e-01   1.96129151e+00   1.02019752e-01   2.00000000e+00   2.00000000e+00   
35      0.00000000e+00   1.00000000e+00   6.34635668e-01   1.95819996e+00   1.11763121e-01   2.00000000e+00   2.00000000e+00   
36      0.00000000e+00   1.00000000e+00   6.45778450e-01   1.95496325e+00   1.21458777e-01   2.00000000e+00   2.00000000e+00   
37      0.00000000e+00   1.00000000e+00   6.56515225e-01   1.95157193e+00   1.31098801e-01   2.00000000e+00   2.00000000e+00   
38      0.00000000e+00   1.00000000e+00   6.66912473e-01   1.94801747e+00   1.40677572e-01   2.00000000e+00   2.00000000e+00   
39      0.00000000e+00   1.00000000e+00   6.77024842e-01   1.94429289e+00   1.50190407e-01   2.00000000e+00   2.00000000e+00   
40      0.00000000e+00   1.00000000e+00   6.86895752e-01   1.94039271e+00   1.59636407e-01   2.00000000e+00   2.00000000e+00   
41      0.00000000e+00   1.00000000e+00   6.96563266e-01   1.93631364e+00   1.69012885e-01   2.00000000e+00   2.00000000e+00   
42      0.00000000e+00   1.00000000e+00   7.06058940e-01   1.93205416e+00   1.78319086e-01   2.00000000e+00   2.00000000e+00   
43      0.00000000e+00   1.00000000e+00   7.15409642e-01   1.92761447e+00   1.87554994e-01   2.00000000e+00   2.00000000e+00   
44      0.00000000e+00   1.00000000e+00   7.24638390e-01   1.92299638e+00   1.96721225e-01   2.00000000e+00   2.00000000e+00   
45      0.00000000e+00   1.00000000e+00   7.33764995e-01   1.91820310e+00   2.05818927e-01   2.00000000e+00   2.00000000e+00   
46      0.00000000e+00   1.00000000e+00   7.42806568e-01   1.91323905e+00   2.14849691e-01   2.00000000e+00   2.00000000e+00   
47      0.00000000e+00   1.00000000e+00   7.51777926e-01   1.90810960e+00   2.23815469e-01   2.00000000e+00   2.00000000e+00   
48      0.00000000e+00   1.00000000e+00   7.60691919e-01   1.90282095e+00   2.32718497e-01   2.00000000e+00   2.00000000e+00   
49      0.00000000e+00   1.00000000e+00   7.69559700e-01   1.89737995e+00   2.41561217e-01   2.00000000e+00   2.00000000e+00   
50      0.00000000e+00   1.00000000e+00   7.78390949e-01   1.89179389e+00   2.50346215e-01   2.00000000e+00   2.00000000e+00   
51      0.00000000e+00   1.00000000e+00   7.87194057e-01   1.88607045e+00   2.59076151e-01   2.00000000e+00   2.00000000e+00   
52      0.00000000e+00   1.00000000e+00   7.95976290e-01   1.88021749e+00   2.67753709e-01   2.00000000e+00   2.00000000e+00   
53      0.00000000e+00   1.00000000e+00   8.04743922e-01   1.87424301e+00   2.76381547e-01   2.00000000e+00   2.00000000e+00   
54      0.00000000e+00   1.00000000e+00   8.13502351e-01   1.86815506e+00   2.84962254e-01   2.00000000e+00   2.00000000e+00   
55      0.00000000e+00   1.00000000e+00   8.22256196e-01   1.86196165e+00   2.93498315e-01   2.00000000e+00   2.00000000e+00   
56      0.00000000e+00   1.00000000e+00   8.31009385e-01   1.85567072e+00   3.01992081e-01   2.00000000e+00   2.00000000e+00   
57      0.00000000e+00   1.00000000e+00   8.39765226e-01   1.84929009e+00   3.10445749e-01   2.00000000e+00   2.00000000e+00   
58      0.00000000e+00   1.00000000e+00   8.48526468e-01   1.84282743e+00   3.18861342e-01   2.00000000e+00   2.00000000e+00   
59      0.00000000e+00   1.00000000e+00   8.57295357e-01   1.83629024e+00   3.27240702e-01   2.00000000e+00   2.00000000e+00   
60      0.00000000e+00   1.00000000e+00   8.66073685e-01   1.82968581e+00   3.35585484e-01   2.00000000e+00   2.00000000e+00   
61      0.00000000e+00   1.00000000e+00   8.74862828e-01   1.82302126e+00   3.43897153e-01   2.00000000e+00   2.00000000e+00   
62      0.00000000e+00   1.00000000e+00   8.83663789e-01   1.81630347e+00   3.52176993e-01   2.00000000e+00   2.00000000e+00   
63      0.00000000e+00   1.00000000e+00   8.92477223e-01   1.80953915e+00   3.60426115e-01   2.00000000e+00   2.00000000e+00   
64      0.00000000e+00   1.00000000e+00   9.01303474e-01   1.80273475e+00   3.68645467e-01   2.00000000e+00   2.00000000e+00   
65      0.00000000e+00   1.00000000e+00   9.10142600e-01   1.79589655e+00   3.76835854e-01   2.00000000e+00   2.00000000e+00   
66      0.00000000e+00   1.00000000e+00   9.18994401e-01   1.78903062e+00   3.84997960e-01   2.00000000e+00   2.00000000e+00   
67      0.00000000e+00   1.00000000e+00   9.27858470e-01   1.78214277e+00   3.93132401e-01   2.00000000e+00   2.00000000e+00   
68      0.00000000e+00   1.00000000e+00   9.36734197e-01   1.77523864e+00   4.01239742e-01   2.00000000e+00   2.00000000e+00   
69      0.00000000e+00   1.00000000e+00   9.45620831e-01   1.76832360e+00   4.09320580e-01   2.00000000e+00   2.00000000e+00   
70      0.00000000e+00   1.00000000e+00   9.54517695e-01   1.76140249e+00   4.17375785e-01   2.00000000e+00   2.00000000e+00   
71      0.00000000e+00   1.00000000e+00   9.63423794e-01   1.75448034e+00   4.25406276e-01   2.00000000e+00   2.00000000e+00   
72      0.00000000e+00   1.00000000e+00   9.72338065e-01   1.74756206e+00   4.33413426e-01   2.00000000e+00   2.00000000e+00   
73      0.00000000e+00   1.00000000e+00   9.81259551e-01   1.74065238e+00   4.41399605e-01   2.00000000e+00   2.00000000e+00   
74      0.00000000e+00   1.00000000e+00   9.90187634e-01   1.73375594e+00   4.49369143e-01   2.00000000e+00   2.00000000e+00   
75      0.00000000e+00   1.00000000e+00   9.99122472e-01   1.72687730e+00   4.57330164e-01   2.00000000e+00   2.00000000e+00   
76      0.00000000e+00   1.00000000e+00   1.00009157e+00   1.72613317e+00   4.58193878e-01   2.00000000e+00   2.00000000e+00   
77      0.00000000e+00   1.00000000e+00   1.00000000e+00   1.72620106e+00   4.58109045e-01   2.00000000e+00   2.00000000e+00   
End of Xyce(TM) Homotopy Simulation
