#H
SOURCE='Xyce' VERSION='7.0'
TITLE='* bug_646.cir'
SUBTITLE='Xyce data' 
TIME='02:20:25 PM' DATE='Jun 14, 2017' TEMPERATURE='2.70000000e+01'
ANALYSIS='Transient Analysis' SERIALNO='12345'
ALLVALUES='NO' COMPLEXVALUES='NO' NODES='1'
SWEEPVAR='Time' SWEEPMODE='VAR_STEP'
XBEGIN='0.00000000e+00' XEND='1.00000000e+00'
FORMAT='0 VOLTSorAMPS;EFLOAT : NODEorBRANCH;NODE  '  
DGTLDATA='NO'
#N
'V(1)' 
#C 0.00000000e+00 1
0.00000000e+00:1   
#C 2.00000000e-01 1
2.00000000e+00:1   
#C 4.00000000e-01 1
4.00000000e+00:1   
#C 6.00000000e-01 1
6.00000000e+00:1   
#C 8.00000000e-01 1
8.00000000e+00:1   
#C 1.00000000e+00 1
1.00000000e+01:1   
#;
