#H
SOURCE='Xyce' VERSION='7.0'
TITLE='* bug_646_ac.cir'
SUBTITLE='Xyce data' 
TIME='01:38:10 PM' DATE='Jun 13, 2017' TEMPERATURE='2.70000000e+01'
ANALYSIS='AC Sweep' SERIALNO='12345'
ALLVALUES='NO' COMPLEXVALUES='YES' NODES='5'
SWEEPVAR='FREQ' SWEEPMODE='VAR_STEP'
XBEGIN='1.00000000e+02' XEND='1.00000000e+06'
FORMAT='0 VOLTSorAMPS;EFLOAT : NODEorBRANCH;NODE  '  
DGTLDATA='NO'
#N
'V(1)' 'V(2)' 'V(3)' 'V(4)' 'V(5)' 
#C 1.00000000e+02 5
1.00000000e+00/0.00000000e+00:1   7.89560559e-06/2.51324932e-03:2   5.92170420e-06/1.88493699e-03:3   3.94780280e-06/1.25662466e-03:4
1.97390140e-06/6.28312330e-04:5   
#C 1.77827941e+02 5
1.00000000e+00/0.00000000e+00:1   2.49675644e-05/4.46916414e-03:2   1.87256733e-05/3.35187310e-03:3   1.24837822e-05/2.23458207e-03:4
6.24189109e-06/1.11729103e-03:5   
#C 3.16227766e+02 5
1.00000000e+00/0.00000000e+00:1   7.89490433e-05/7.94688629e-03:2   5.92117824e-05/5.96016471e-03:3   3.94745216e-05/3.97344314e-03:4
1.97372608e-05/1.98672157e-03:5   
#C 5.62341325e+02 5
1.00000000e+00/0.00000000e+00:1   2.49605533e-04/1.41287694e-02:2   1.87204150e-04/1.05965770e-02:3   1.24802767e-04/7.06438468e-03:4
6.24013833e-05/3.53219234e-03:5   
#C 1.00000000e+03 5
1.00000000e+00/0.00000000e+00:1   7.88789848e-04/2.51079607e-02:2   5.91592386e-04/1.88309705e-02:3   3.94394924e-04/1.25539803e-02:4
1.97197462e-04/6.27699017e-03:5   
#C 1.77827941e+03 5
1.00000000e+00/0.00000000e+00:1   2.48906588e-03/4.45539814e-02:2   1.86679941e-03/3.34154860e-02:3   1.24453294e-03/2.22769907e-02:4
6.22266470e-04/1.11384953e-02:5   
#C 3.16227766e+03 5
1.00000000e+00/0.00000000e+00:1   7.81851784e-03/7.86999686e-02:2   5.86388838e-03/5.90249764e-02:3   3.90925892e-03/3.93499843e-02:4
1.95462946e-03/1.96749921e-02:5   
#C 5.62341325e+03 5
1.00000000e+00/0.00000000e+00:1   2.42126562e-02/1.37054268e-01:2   1.81594922e-02/1.02790701e-01:3   1.21063281e-02/6.85271338e-02:4
6.05316405e-03/3.42635669e-02:5   
#C 1.00000000e+04 5
1.00000000e+00/0.00000000e+00:1   7.18641299e-02/2.28750630e-01:2   5.38980974e-02/1.71562973e-01:3   3.59320649e-02/1.14375315e-01:4
1.79660325e-02/5.71876575e-02:5   
#C 1.77827941e+04 5
1.00000000e+00/0.00000000e+00:1   1.90292370e-01/3.40621065e-01:2   1.42719278e-01/2.55465799e-01:3   9.51461850e-02/1.70310533e-01:4
4.75730925e-02/8.51552663e-02:5   
#C 3.16227766e+04 5
1.00000000e+00/0.00000000e+00:1   3.97374973e-01/3.99991386e-01:2   2.98031230e-01/2.99993540e-01:3   1.98687487e-01/1.99995693e-01:4
9.93437434e-02/9.99978466e-02:5   
#C 5.62341325e+04 5
1.00000000e+00/0.00000000e+00:1   6.05874384e-01/3.42951509e-01:2   4.54405788e-01/2.57213632e-01:3   3.02937192e-01/1.71475755e-01:4
1.51468596e-01/8.57378774e-02:5   
#C 1.00000000e+05 5
1.00000000e+00/0.00000000e+00:1   7.26400265e-01/2.31220386e-01:2   5.44800199e-01/1.73415289e-01:3   3.63200133e-01/1.15610193e-01:4
1.81600066e-01/5.78050964e-02:5   
#C 1.77827941e+05 5
1.00000000e+00/0.00000000e+00:1   7.75163324e-01/1.38753307e-01:2   5.81372493e-01/1.04064980e-01:3   3.87581662e-01/6.93766537e-02:4
1.93790831e-01/3.46883268e-02:5   
#C 3.16227766e+05 5
1.00000000e+00/0.00000000e+00:1   7.91975609e-01/7.97190169e-02:2   5.93981707e-01/5.97892626e-02:3   3.95987805e-01/3.98595084e-02:4
1.97993902e-01/1.99297542e-02:5   
#C 5.62341325e+05 5
1.00000000e+00/0.00000000e+00:1   7.97444941e-01/4.51388858e-02:2   5.98083706e-01/3.38541643e-02:3   3.98722470e-01/2.25694429e-02:4
1.99361235e-01/1.12847214e-02:5   
#C 1.00000000e+06 5
1.00000000e+00/0.00000000e+00:1   7.99190251e-01/2.54390158e-02:2   5.99392688e-01/1.90792618e-02:3   3.99595125e-01/1.27195079e-02:4
1.99797563e-01/6.35975395e-03:5   
#;
