#H
SOURCE='Xyce' VERSION='7.0'
TITLE='* bug_646_homotopy.cir'
SUBTITLE='Xyce data'
TIME='12:31:00 PM' DATE='Aug 22, 2017' TEMPERATURE='2.70000000e+01'
ANALYSIS='Transient Analysis' SERIALNO='12345'
ALLVALUES='NO' COMPLEXVALUES='NO' NODES='3'
SWEEPVAR='mosfet:gainscale' SWEEPMODE='VAR_STEP'
XBEGIN='0.0'  XEND='1.0'
FORMAT='0 VOLTSorAMPS;EFLOAT : NODEorBRANCH;NODE  '  
DGTLDATA='NO'
#N
'mosfet:nltermscale' 'TIME' 'V(VOUT)' 
#C 0.00000000e+00 3
0.00000000e+00:1   0.00000000e+00:2   1.53716634e+00:3   
#C 2.00000000e-01 3
0.00000000e+00:1   0.00000000e+00:2   1.52217677e+00:3   
#C 4.00000000e-01 3
0.00000000e+00:1   0.00000000e+00:2   1.48894260e+00:3   
#C 6.00000000e-01 3
0.00000000e+00:1   0.00000000e+00:2   1.42525157e+00:3   
#C 7.00000000e-01 3
0.00000000e+00:1   0.00000000e+00:2   1.37706447e+00:3   
#C 7.63000000e-01 3
0.00000000e+00:1   0.00000000e+00:2   1.34257047e+00:3   
#C 7.72922500e-01 3
0.00000000e+00:1   0.00000000e+00:2   1.34154377e+00:3   
#C 7.79173675e-01 3
0.00000000e+00:1   0.00000000e+00:2   1.34471434e+00:3   
#C 7.87050156e-01 3
0.00000000e+00:1   0.00000000e+00:2   1.35737824e+00:3   
#C 7.92012338e-01 3
0.00000000e+00:1   0.00000000e+00:2   1.37358353e+00:3   
#C 7.95138513e-01 3
0.00000000e+00:1   0.00000000e+00:2   1.38863391e+00:3   
#C 7.97108004e-01 3
0.00000000e+00:1   0.00000000e+00:2   1.40042332e+00:3   
#C 7.99589561e-01 3
0.00000000e+00:1   0.00000000e+00:2   1.41869273e+00:3   
#C 8.01152943e-01 3
0.00000000e+00:1   0.00000000e+00:2   1.43212390e+00:3   
#C 8.03122803e-01 3
0.00000000e+00:1   0.00000000e+00:2   1.45141831e+00:3   
#C 8.04363816e-01 3
0.00000000e+00:1   0.00000000e+00:2   1.46484650e+00:3   
#C 8.05927491e-01 3
0.00000000e+00:1   0.00000000e+00:2   1.48333280e+00:3   
#C 8.06912606e-01 3
0.00000000e+00:1   0.00000000e+00:2   1.49585347e+00:3   
#C 8.08153852e-01 3
0.00000000e+00:1   0.00000000e+00:2   1.51228848e+00:3   
#C 8.09717821e-01 3
0.00000000e+00:1   0.00000000e+00:2   1.53418658e+00:3   
#C 8.10703122e-01 3
0.00000000e+00:1   0.00000000e+00:2   1.54840604e+00:3   
#C 8.11944601e-01 3
0.00000000e+00:1   0.00000000e+00:2   1.56668757e+00:3   
#C 8.13508864e-01 3
0.00000000e+00:1   0.00000000e+00:2   1.59001689e+00:3   
#C 8.14494350e-01 3
0.00000000e+00:1   0.00000000e+00:2   1.60460564e+00:3   
#C 8.15736062e-01 3
0.00000000e+00:1   0.00000000e+00:2   1.62237722e+00:3   
#C 8.17300620e-01 3
0.00000000e+00:1   0.00000000e+00:2   1.64321104e+00:3   
#C 8.19271962e-01 3
0.00000000e+00:1   0.00000000e+00:2   1.66628409e+00:3   
#C 8.21755853e-01 3
0.00000000e+00:1   0.00000000e+00:2   1.69061379e+00:3   
#C 8.24885556e-01 3
0.00000000e+00:1   0.00000000e+00:2   1.71550530e+00:3   
#C 8.28828982e-01 3
0.00000000e+00:1   0.00000000e+00:2   1.74063631e+00:3   
#C 8.33797699e-01 3
0.00000000e+00:1   0.00000000e+00:2   1.76613755e+00:3   
#C 8.40058282e-01 3
0.00000000e+00:1   0.00000000e+00:2   1.79230225e+00:3   
#C 8.47946616e-01 3
0.00000000e+00:1   0.00000000e+00:2   1.81948098e+00:3   
#C 8.57885918e-01 3
0.00000000e+00:1   0.00000000e+00:2   1.84788653e+00:3   
#C 8.70409438e-01 3
0.00000000e+00:1   0.00000000e+00:2   1.87753624e+00:3   
#C 8.86189073e-01 3
0.00000000e+00:1   0.00000000e+00:2   1.90785090e+00:3   
#C 9.06071413e-01 3
0.00000000e+00:1   0.00000000e+00:2   1.93679862e+00:3   
#C 9.31123162e-01 3
0.00000000e+00:1   0.00000000e+00:2   1.95920523e+00:3   
#C 9.62688365e-01 3
0.00000000e+00:1   0.00000000e+00:2   1.96920830e+00:3   
#C 1.00000000e+00 3
0.00000000e+00:1   0.00000000e+00:2   1.97102983e+00:3   
#C 1.00000000e+00 3
0.00000000e+00:1   0.00000000e+00:2   1.97103550e+00:3   
#C 1.00000000e+00 3
1.00000000e-01:1   0.00000000e+00:2   1.97623112e+00:3   
#C 1.00000000e+00 3
2.26000000e-01:1   0.00000000e+00:2   1.98027954e+00:3   
#C 1.00000000e+00 3
3.05380000e-01:1   0.00000000e+00:2   1.98179923e+00:3   
#C 1.00000000e+00 3
3.55389400e-01:1   0.00000000e+00:2   1.98233882e+00:3   
#C 1.00000000e+00 3
4.18401244e-01:1   0.00000000e+00:2   1.98236888e+00:3   
#C 1.00000000e+00 3
4.97796167e-01:1   0.00000000e+00:2   1.98001065e+00:3   
#C 1.00000000e+00 3
5.47814969e-01:1   0.00000000e+00:2   1.97536271e+00:3   
#C 1.00000000e+00 3
6.10838659e-01:1   0.00000000e+00:2   1.96423223e+00:3   
#C 1.00000000e+00 3
6.90248509e-01:1   0.00000000e+00:2   1.93900588e+00:3   
#C 1.00000000e+00 3
7.40276714e-01:1   0.00000000e+00:2   1.91464757e+00:3   
#C 1.00000000e+00 3
8.03312253e-01:1   0.00000000e+00:2   1.87522518e+00:3   
#C 1.00000000e+00 3
8.43024642e-01:1   0.00000000e+00:2   1.84689386e+00:3   
#C 1.00000000e+00 3
8.93062253e-01:1   0.00000000e+00:2   1.80908835e+00:3   
#C 1.00000000e+00 3
9.24585948e-01:1   0.00000000e+00:2   1.78468648e+00:3   
#C 1.00000000e+00 3
9.64305803e-01:1   0.00000000e+00:2   1.75379517e+00:3   
#C 1.00000000e+00 3
1.00000000e+00:1   0.00000000e+00:2   1.72620312e+00:3   
#;
