#H
SOURCE='Xyce' VERSION='7.0'
TITLE='* bug_646.cir'
SUBTITLE='Xyce data' 
TIME='02:20:25 PM' DATE='Jun 14, 2017' TEMPERATURE='2.70000000e+01'
ANALYSIS='Transient Analysis' SERIALNO='12345'
ALLVALUES='NO' COMPLEXVALUES='NO' NODES='9'
SWEEPVAR='Time' SWEEPMODE='VAR_STEP'
XBEGIN='0.00000000e+00' XEND='1.00000000e+00'
FORMAT='0 VOLTSorAMPS;EFLOAT : NODEorBRANCH;NODE  '  
DGTLDATA='NO'
#N
'V(1)' 'V(2)' 'V(3)' 'V(4)' 'V(5)' 'V(6)' 'V(7)' 'V(8)' 'V(9)' 
#C 0.00000000e+00 9
0.00000000e+00:1   0.00000000e+00:2   0.00000000e+00:3   0.00000000e+00:4
0.00000000e+00:5   0.00000000e+00:6   0.00000000e+00:7   0.00000000e+00:8
0.00000000e+00:9   
#C 2.00000000e-01 9
2.00000000e+00:1   1.80000000e+00:2   1.60000000e+00:3   1.40000000e+00:4
1.20000000e+00:5   1.00000000e+00:6   8.00000000e-01:7   6.00000000e-01:8
4.00000000e-01:9   
#C 4.00000000e-01 9
4.00000000e+00:1   3.60000000e+00:2   3.20000000e+00:3   2.80000000e+00:4
2.40000000e+00:5   2.00000000e+00:6   1.60000000e+00:7   1.20000000e+00:8
8.00000000e-01:9   
#C 6.00000000e-01 9
6.00000000e+00:1   5.40000000e+00:2   4.80000000e+00:3   4.20000000e+00:4
3.60000000e+00:5   3.00000000e+00:6   2.40000000e+00:7   1.80000000e+00:8
1.20000000e+00:9   
#C 8.00000000e-01 9
8.00000000e+00:1   7.20000000e+00:2   6.40000000e+00:3   5.60000000e+00:4
4.80000000e+00:5   4.00000000e+00:6   3.20000000e+00:7   2.40000000e+00:8
1.60000000e+00:9   
#C 1.00000000e+00 9
1.00000000e+01:1   9.00000000e+00:2   8.00000000e+00:3   7.00000000e+00:4
6.00000000e+00:5   5.00000000e+00:6   4.00000000e+00:7   3.00000000e+00:8
2.00000000e+00:9   
#;
