#H
SOURCE='Xyce' VERSION='7.0'
TITLE='* bug_646_ac.cir'
SUBTITLE='Xyce data'
TIME='01:38:10 PM' DATE='Jun 13, 2017' TEMPERATURE='2.70000000e+01'
ANALYSIS='AC Sweep' SERIALNO='12345'
ALLVALUES='NO' COMPLEXVALUES='YES' NODES='3'
SWEEPVAR='FREQ' SWEEPMODE='VAR_STEP'
XBEGIN='1.00000000e+02' XEND='1.00000000e+06'
FORMAT='0 VOLTSorAMPS;EFLOAT : NODEorBRANCH;NODE  '  
DGTLDATA='NO'
#N
'V(1)' 'V(2)' 'V(3)' 
#C 1.00000000e+02 3
1.00000000e+00/0.00000000e+00:1   7.89560559e-06/2.51324932e-03:2   5.92170420e-06/1.88493699e-03:3   
#C 1.77827941e+02 3
1.00000000e+00/0.00000000e+00:1   2.49675644e-05/4.46916414e-03:2   1.87256733e-05/3.35187310e-03:3   
#C 3.16227766e+02 3
1.00000000e+00/0.00000000e+00:1   7.89490433e-05/7.94688629e-03:2   5.92117824e-05/5.96016471e-03:3   
#C 5.62341325e+02 3
1.00000000e+00/0.00000000e+00:1   2.49605533e-04/1.41287694e-02:2   1.87204150e-04/1.05965770e-02:3   
#C 1.00000000e+03 3
1.00000000e+00/0.00000000e+00:1   7.88789848e-04/2.51079607e-02:2   5.91592386e-04/1.88309705e-02:3   
#C 1.77827941e+03 3
1.00000000e+00/0.00000000e+00:1   2.48906588e-03/4.45539814e-02:2   1.86679941e-03/3.34154860e-02:3   
#C 3.16227766e+03 3
1.00000000e+00/0.00000000e+00:1   7.81851784e-03/7.86999686e-02:2   5.86388838e-03/5.90249764e-02:3   
#C 5.62341325e+03 3
1.00000000e+00/0.00000000e+00:1   2.42126562e-02/1.37054268e-01:2   1.81594922e-02/1.02790701e-01:3   
#C 1.00000000e+04 3
1.00000000e+00/0.00000000e+00:1   7.18641299e-02/2.28750630e-01:2   5.38980974e-02/1.71562973e-01:3   
#C 1.77827941e+04 3
1.00000000e+00/0.00000000e+00:1   1.90292370e-01/3.40621065e-01:2   1.42719278e-01/2.55465799e-01:3   
#C 3.16227766e+04 3
1.00000000e+00/0.00000000e+00:1   3.97374973e-01/3.99991386e-01:2   2.98031230e-01/2.99993540e-01:3   
#C 5.62341325e+04 3
1.00000000e+00/0.00000000e+00:1   6.05874384e-01/3.42951509e-01:2   4.54405788e-01/2.57213632e-01:3   
#C 1.00000000e+05 3
1.00000000e+00/0.00000000e+00:1   7.26400265e-01/2.31220386e-01:2   5.44800199e-01/1.73415289e-01:3   
#C 1.77827941e+05 3
1.00000000e+00/0.00000000e+00:1   7.75163324e-01/1.38753307e-01:2   5.81372493e-01/1.04064980e-01:3   
#C 3.16227766e+05 3
1.00000000e+00/0.00000000e+00:1   7.91975609e-01/7.97190169e-02:2   5.93981707e-01/5.97892626e-02:3   
#C 5.62341325e+05 3
1.00000000e+00/0.00000000e+00:1   7.97444941e-01/4.51388858e-02:2   5.98083706e-01/3.38541643e-02:3   
#C 1.00000000e+06 3
1.00000000e+00/0.00000000e+00:1   7.99190251e-01/2.54390158e-02:2   5.99392688e-01/1.90792618e-02:3   
#;
